Sample in Buffer,Sample in Window,TRIGGER,adc1_data_a_d0[11:0],adc1_data_b_d0[11:0]
0,0,0,2046,2684
1,1,0,2046,1809
2,2,0,2047,973
3,3,0,2046,330
4,4,0,2046,0
5,5,0,2047,25
6,6,0,2047,418
7,7,0,2046,1103
8,8,0,2047,1956
9,9,0,2046,2824
10,10,0,2047,3550
11,11,0,2046,4005
12,12,0,2046,4095
13,13,0,2047,3837
14,14,0,2047,3243
15,15,0,2047,2432
16,16,0,2047,1552
17,17,0,2046,758
18,18,0,2047,195
19,19,0,2046,0
20,20,0,2047,105
21,21,0,2046,594
22,22,0,2047,1343
23,23,0,2047,2216
24,24,0,2047,3058
25,25,0,2046,3717
26,26,0,2047,4074
27,27,0,2047,4065
28,28,0,2047,3692
29,29,0,2047,3021
30,30,0,2047,2174
31,31,0,2047,1302
32,32,0,2047,563
33,33,0,2046,89
34,34,0,2047,0
35,35,0,2047,215
36,36,0,2047,792
37,37,0,2046,1594
38,38,0,2047,2474
39,39,0,2046,3276
40,40,0,2046,3857
41,41,0,2046,4095
42,42,0,2046,3991
43,43,0,2047,3521
44,44,0,2046,2784
45,45,0,2047,1913
46,46,0,2047,1065
47,47,0,2046,391
48,48,0,2047,15
49,49,0,2047,2
50,50,0,2047,356
51,51,0,2047,1011
52,52,0,2046,1851
53,53,0,2047,2725
54,54,0,2047,3476
55,55,0,2047,3968
56,56,0,2047,4095
57,57,0,2046,3886
58,58,0,2046,3326
59,59,0,2047,2534
60,60,0,2047,1654
61,61,0,2047,843
62,62,0,2047,246
63,63,0,2047,0
64,64,0,2047,69
65,65,0,2047,521
66,66,0,2046,1245
67,67,0,2047,2112
68,68,0,2047,2966
69,69,0,2047,3653
70,70,0,2046,4050
71,71,0,2046,4086
72,72,0,2046,3753
73,73,0,2046,3112
74,74,0,2047,2278
75,75,0,2047,1401
76,76,0,2047,638
77,77,0,2047,128
78,78,0,2047,0
79,79,0,2047,168
80,80,0,2047,711
81,81,0,2047,1492
82,82,0,2046,2372
83,83,0,2047,3192
84,84,0,2047,3804
85,85,0,2046,4095
86,86,0,2047,4024
87,87,0,2047,3592
88,88,0,2047,2880
89,89,0,2047,2018
90,90,0,2047,1158
91,91,0,2047,458
92,92,0,2047,41
93,93,0,2047,0
94,94,0,2047,296
95,95,0,2046,921
96,96,0,2047,1748
97,97,0,2046,2626
98,98,0,2047,3399
99,99,0,2047,3927
100,100,0,2046,4095
101,101,0,2047,3932
102,102,0,2047,3407
103,103,0,2046,2635
104,104,0,2047,1757
105,105,0,2047,929
106,106,0,2047,302
107,107,0,2047,0
108,108,0,2047,39
109,109,0,2046,452
110,110,0,2047,1150
111,111,0,2047,2008
112,112,0,2046,2871
113,113,0,2047,3585
114,114,0,2047,4020
115,115,0,2046,4095
116,116,0,2047,3809
117,117,0,2046,3200
118,118,0,2046,2382
119,119,0,2046,1501
120,120,0,2046,718
121,121,0,2046,172
122,122,0,2047,0
123,123,0,2047,124
124,124,0,2046,631
125,125,0,2046,1391
126,126,0,2047,2268
127,127,0,2047,3102
128,128,0,2046,3746
129,129,0,2047,4084
130,130,0,2046,4053
131,131,0,2047,3659
132,132,0,2047,2974
133,133,0,2046,2121
134,134,0,2047,1254
135,135,0,2046,527
136,136,0,2047,72
137,137,0,2046,0
138,138,0,2046,241
139,139,0,2046,834
140,140,0,2046,1644
141,141,0,2046,2525
142,142,0,2047,3318
143,143,0,2046,3881
144,144,0,2046,4095
145,145,0,2046,3973
146,146,0,2047,3484
147,147,0,2047,2734
148,148,0,2047,1861
149,149,0,2046,1019
150,150,0,2047,360
151,151,0,2047,4
152,152,0,2046,13
153,153,0,2046,386
154,154,0,2047,1057
155,155,0,2047,1903
156,156,0,2047,2774
157,157,0,2047,3513
158,158,0,2047,3987
159,159,0,2047,4095
160,160,0,2046,3862
161,161,0,2047,3285
162,162,0,2047,2483
163,163,0,2046,1602
164,164,0,2047,800
165,165,0,2047,220
166,166,0,2047,0
167,167,0,2047,87
168,168,0,2046,556
169,169,0,2047,1293
170,170,0,2047,2164
171,171,0,2047,3012
172,172,0,2046,3685
173,173,0,2047,4062
174,174,0,2046,4076
175,175,0,2047,3723
176,176,0,2047,3067
177,177,0,2046,2226
178,178,0,2046,1351
179,179,0,2046,601
180,180,0,2047,108
181,181,0,2046,0
182,182,0,2046,191
183,183,0,2046,750
184,184,0,2046,1542
185,185,0,2047,2422
186,186,0,2047,3234
187,187,0,2047,3830
188,188,0,2047,4095
189,189,0,2047,4009
190,190,0,2046,3557
191,191,0,2046,2832
192,192,0,2046,1965
193,193,0,2047,1111
194,194,0,2046,425
195,195,0,2047,28
196,196,0,2047,0
197,197,0,2046,325
198,198,0,2046,966
199,199,0,2046,1799
200,200,0,2047,2675
201,201,0,2047,3438
202,202,0,2047,3949
203,203,0,2047,4095
204,204,0,2047,3910
205,205,0,2047,3367
206,206,0,2046,2585
207,207,0,2047,1706
208,208,0,2047,885
209,209,0,2046,274
210,210,0,2047,0
211,211,0,2047,53
212,212,0,2046,485
213,213,0,2047,1197
214,214,0,2047,2060
215,215,0,2047,2919
216,216,0,2046,3619
217,217,0,2046,4036
218,218,0,2047,4094
219,219,0,2047,3782
220,220,0,2047,3157
221,221,0,2047,2331
222,222,0,2046,1451
223,223,0,2047,678
224,224,0,2047,150
225,225,0,2046,0
226,226,0,2047,145
227,227,0,2047,671
228,228,0,2047,1442
229,229,0,2047,2319
230,230,0,2047,3148
231,231,0,2047,3775
232,232,0,2047,4093
233,233,0,2047,4039
234,234,0,2046,3626
235,235,0,2046,2928
236,236,0,2046,2070
237,237,0,2046,1206
238,238,0,2047,492
239,239,0,2046,56
240,240,0,2046,0
241,241,0,2047,268
242,242,0,2047,877
243,243,0,2047,1695
244,244,0,2047,2575
245,245,0,2046,3358
246,246,0,2047,3904
247,247,0,2047,4095
248,248,0,2047,3953
249,249,0,2046,3446
250,250,0,2046,2685
251,251,0,2047,1809
252,252,0,2047,974
253,253,0,2046,330
254,254,0,2046,0
255,255,0,2047,25
256,256,0,2047,417
257,257,0,2046,1102
258,258,0,2047,1955
259,259,0,2047,2823
260,260,0,2047,3549
261,261,0,2047,4005
262,262,0,2046,4095
263,263,0,2047,3837
264,264,0,2047,3243
265,265,0,2047,2433
266,266,0,2046,1552
267,267,0,2046,758
268,268,0,2046,195
269,269,0,2046,0
270,270,0,2047,105
271,271,0,2046,594
272,272,0,2046,1342
273,273,0,2047,2215
274,274,0,2047,3057
275,275,0,2046,3716
276,276,0,2047,4074
277,277,0,2046,4065
278,278,0,2046,3692
279,279,0,2047,3022
280,280,0,2047,2175
281,281,0,2047,1303
282,282,0,2046,563
283,283,0,2047,90
284,284,0,2047,0
285,285,0,2047,215
286,286,0,2046,792
287,287,0,2047,1592
288,288,0,2047,2474
289,289,0,2047,3276
290,290,0,2047,3857
291,291,0,2047,4095
292,292,0,2047,3991
293,293,0,2046,3522
294,294,0,2047,2784
295,295,0,2047,1914
296,296,0,2047,1065
297,297,0,2047,392
298,298,0,2047,15
299,299,0,2047,2
300,300,0,2046,354
301,301,0,2046,1011
302,302,0,2047,1851
303,303,0,2046,2725
304,304,0,2047,3475
305,305,0,2046,3968
306,306,0,2047,4095
307,307,0,2046,3886
308,308,0,2047,3326
309,309,0,2046,2535
310,310,0,2047,1654
311,311,0,2046,842
312,312,0,2046,246
313,313,0,2047,0
314,314,0,2047,69
315,315,0,2046,521
316,316,0,2047,1244
317,317,0,2047,2111
318,318,0,2046,2965
319,319,0,2047,3653
320,320,0,2047,4049
321,321,0,2047,4086
322,322,0,2047,3753
323,323,0,2046,3112
324,324,0,2047,2278
325,325,0,2047,1401
326,326,0,2046,639
327,327,0,2047,128
328,328,0,2046,0
329,329,0,2047,168
330,330,0,2047,709
331,331,0,2046,1491
332,332,0,2047,2371
333,333,0,2046,3190
334,334,0,2047,3803
335,335,0,2046,4095
336,336,0,2046,4024
337,337,0,2046,3592
338,338,0,2047,2881
339,339,0,2046,2017
340,340,0,2047,1158
341,341,0,2046,457
342,342,0,2046,41
343,343,0,2046,0
344,344,0,2046,296
345,345,0,2047,920
346,346,0,2046,1747
347,347,0,2046,2625
348,348,0,2047,3398
349,349,0,2046,3927
350,350,0,2046,4095
351,351,0,2047,3933
352,352,0,2046,3407
353,353,0,2047,2635
354,354,0,2046,1757
355,355,0,2046,929
356,356,0,2046,301
357,357,0,2046,0
358,358,0,2046,38
359,359,0,2046,450
360,360,0,2046,1149
361,361,0,2047,2007
362,362,0,2046,2871
363,363,0,2047,3585
364,364,0,2046,4021
365,365,0,2046,4095
366,366,0,2047,3809
367,367,0,2046,3200
368,368,0,2046,2381
369,369,0,2046,1502
370,370,0,2046,718
371,371,0,2046,172
372,372,0,2046,0
373,373,0,2046,125
374,374,0,2046,632
375,375,0,2047,1391
376,376,0,2047,2267
377,377,0,2047,3103
378,378,0,2046,3746
379,379,0,2046,4084
380,380,0,2046,4053
381,381,0,2046,3661
382,382,0,2046,2975
383,383,0,2046,2122
384,384,0,2046,1255
385,385,0,2046,528
386,386,0,2046,72
387,387,0,2047,0
388,388,0,2046,241
389,389,0,2047,834
390,390,0,2046,1644
391,391,0,2046,2525
392,392,0,2046,3317
393,393,0,2046,3882
394,394,0,2046,4095
395,395,0,2046,3973
396,396,0,2046,3483
397,397,0,2046,2736
398,398,0,2046,1861
399,399,0,2047,1019
400,400,0,2047,360
401,401,0,2047,4
402,402,0,2046,13
403,403,0,2047,386
404,404,0,2047,1056
405,405,0,2047,1902
406,406,0,2046,2774
407,407,0,2047,3512
408,408,0,2046,3987
409,409,0,2047,4095
410,410,0,2047,3863
411,411,0,2047,3285
412,412,0,2046,2484
413,413,0,2047,1604
414,414,0,2046,800
415,415,0,2046,220
416,416,0,2047,0
417,417,0,2047,87
418,418,0,2046,556
419,419,0,2046,1293
420,420,0,2046,2163
421,421,0,2047,3011
422,422,0,2047,3684
423,423,0,2047,4062
424,424,0,2047,4076
425,425,0,2047,3723
426,426,0,2046,3067
427,427,0,2046,2227
428,428,0,2046,1352
429,429,0,2047,601
430,430,0,2046,109
431,431,0,2047,0
432,432,0,2046,190
433,433,0,2046,750
434,434,0,2047,1542
435,435,0,2046,2422
436,436,0,2046,3233
437,437,0,2047,3830
438,438,0,2047,4095
439,439,0,2047,4009
440,440,0,2046,3557
441,441,0,2047,2833
442,442,0,2046,1966
443,443,0,2046,1112
444,444,0,2047,425
445,445,0,2046,28
446,446,0,2047,0
447,447,0,2046,324
448,448,0,2047,965
449,449,0,2047,1798
450,450,0,2047,2675
451,451,0,2047,3437
452,452,0,2046,3948
453,453,0,2046,4095
454,454,0,2047,3910
455,455,0,2046,3367
456,456,0,2046,2586
457,457,0,2046,1706
458,458,0,2046,887
459,459,0,2046,274
460,460,0,2046,0
461,461,0,2047,52
462,462,0,2046,484
463,463,0,2046,1196
464,464,0,2047,2059
465,465,0,2046,2917
466,466,0,2047,3618
467,467,0,2047,4035
468,468,0,2047,4094
469,469,0,2047,3782
470,470,0,2046,3156
471,471,0,2047,2330
472,472,0,2046,1452
473,473,0,2046,678
474,474,0,2046,150
475,475,0,2046,0
476,476,0,2047,145
477,477,0,2046,670
478,478,0,2047,1441
479,479,0,2047,2319
480,480,0,2047,3147
481,481,0,2046,3775
482,482,0,2047,4092
483,483,0,2047,4039
484,484,0,2047,3627
485,485,0,2047,2928
486,486,0,2047,2070
487,487,0,2046,1206
488,488,0,2047,492
489,489,0,2047,56
490,490,0,2047,0
491,491,0,2046,267
492,492,0,2046,877
493,493,0,2047,1695
494,494,0,2046,2574
495,495,0,2046,3357
496,496,0,2047,3905
497,497,0,2047,4095
498,498,0,2046,3954
499,499,0,2047,3446
500,500,0,2046,2686
501,501,0,2047,1810
502,502,0,2046,975
503,503,0,2046,331
504,504,0,2046,0
505,505,0,2046,25
506,506,0,2046,418
507,507,0,2046,1101
508,508,0,2046,1954
509,509,0,2047,2822
510,510,0,2046,3549
511,511,0,2046,4005
512,512,0,2047,4095
513,513,0,2046,3837
514,514,0,2047,3244
515,515,0,2047,2434
516,516,0,2046,1552
517,517,0,2046,759
518,518,0,2047,196
519,519,0,2047,0
520,520,0,2047,105
521,521,0,2046,593
522,522,0,2046,1341
523,523,0,2047,2215
524,524,0,2046,3056
525,525,0,2047,3716
526,526,0,2046,4073
527,527,0,2046,4065
528,528,0,2047,3693
529,529,0,2046,3022
530,530,0,2046,2175
531,531,0,2047,1303
532,532,0,2047,564
533,533,0,2046,90
534,534,0,2046,0
535,535,0,2046,215
536,536,0,2047,792
537,537,0,2047,1593
538,538,0,2047,2472
539,539,0,2047,3276
540,540,0,2047,3855
541,541,0,2047,4095
542,542,0,2046,3992
543,543,0,2047,3521
544,544,0,2046,2785
545,545,0,2046,1914
546,546,0,2046,1066
547,547,0,2046,392
548,548,0,2047,15
549,549,0,2047,2
550,550,0,2046,354
551,551,0,2046,1010
552,552,0,2047,1850
553,553,0,2047,2724
554,554,0,2046,3475
555,555,0,2046,3969
556,556,0,2047,4095
557,557,0,2047,3887
558,558,0,2047,3327
559,559,0,2046,2535
560,560,0,2046,1655
561,561,0,2046,843
562,562,0,2046,247
563,563,0,2046,0
564,564,0,2046,68
565,565,0,2047,520
566,566,0,2046,1244
567,567,0,2047,2110
568,568,0,2047,2964
569,569,0,2046,3651
570,570,0,2046,4049
571,571,0,2046,4085
572,572,0,2047,3753
573,573,0,2047,3113
574,574,0,2047,2279
575,575,0,2047,1402
576,576,0,2046,640
577,577,0,2047,129
578,578,0,2047,0
579,579,0,2046,167
580,580,0,2046,709
581,581,0,2046,1491
582,582,0,2046,2370
583,583,0,2047,3190
584,584,0,2046,3802
585,585,0,2046,4095
586,586,0,2046,4025
587,587,0,2046,3592
588,588,0,2047,2882
589,589,0,2047,2019
590,590,0,2046,1159
591,591,0,2046,459
592,592,0,2047,42
593,593,0,2046,0
594,594,0,2046,295
595,595,0,2047,920
596,596,0,2046,1746
597,597,0,2046,2624
598,598,0,2046,3397
599,599,0,2046,3927
600,600,0,2046,4095
601,601,0,2046,3933
602,602,0,2046,3408
603,603,0,2047,2637
604,604,0,2046,1758
605,605,0,2046,930
606,606,0,2046,302
607,607,0,2046,0
608,608,0,2046,38
609,609,0,2047,450
610,610,0,2046,1148
611,611,0,2046,2006
612,612,0,2046,2869
613,613,0,2046,3584
614,614,0,2046,4021
615,615,0,2046,4095
616,616,0,2046,3810
617,617,0,2046,3202
618,618,0,2047,2382
619,619,0,2046,1502
620,620,0,2047,719
621,621,0,2047,173
622,622,0,2046,0
623,623,0,2046,124
624,624,0,2047,631
625,625,0,2046,1391
626,626,0,2046,2267
627,627,0,2047,3101
628,628,0,2046,3746
629,629,0,2046,4083
630,630,0,2046,4053
631,631,0,2047,3661
632,632,0,2047,2976
633,633,0,2047,2123
634,634,0,2047,1256
635,635,0,2047,528
636,636,0,2046,72
637,637,0,2047,0
638,638,0,2046,241
639,639,0,2046,833
640,640,0,2046,1643
641,641,0,2047,2523
642,642,0,2046,3317
643,643,0,2047,3880
644,644,0,2046,4095
645,645,0,2046,3973
646,646,0,2047,3485
647,647,0,2046,2736
648,648,0,2046,1862
649,649,0,2046,1020
650,650,0,2047,361
651,651,0,2047,4
652,652,0,2047,12
653,653,0,2047,385
654,654,0,2047,1055
655,655,0,2046,1902
656,656,0,2046,2772
657,657,0,2047,3512
658,658,0,2047,3987
659,659,0,2046,4095
660,660,0,2047,3864
661,661,0,2047,3286
662,662,0,2047,2485
663,663,0,2047,1605
664,664,0,2046,801
665,665,0,2046,220
666,666,0,2046,0
667,667,0,2046,86
668,668,0,2047,556
669,669,0,2046,1292
670,670,0,2047,2162
671,671,0,2046,3010
672,672,0,2047,3684
673,673,0,2047,4062
674,674,0,2046,4076
675,675,0,2046,3724
676,676,0,2047,3068
677,677,0,2046,2227
678,678,0,2046,1352
679,679,0,2046,601
680,680,0,2046,108
681,681,0,2046,0
682,682,0,2047,190
683,683,0,2047,749
684,684,0,2046,1540
685,685,0,2047,2421
686,686,0,2046,3233
687,687,0,2047,3830
688,688,0,2046,4095
689,689,0,2046,4009
690,690,0,2047,3557
691,691,0,2046,2834
692,692,0,2046,1966
693,693,0,2046,1113
694,694,0,2046,425
695,695,0,2047,28
696,696,0,2046,0
697,697,0,2047,324
698,698,0,2047,964
699,699,0,2047,1798
700,700,0,2047,2674
701,701,0,2047,3436
702,702,0,2047,3947
703,703,0,2047,4095
704,704,0,2047,3911
705,705,0,2047,3368
706,706,0,2046,2587
707,707,0,2046,1707
708,708,0,2046,887
709,709,0,2047,274
710,710,0,2047,0
711,711,0,2047,53
712,712,0,2046,484
713,713,0,2047,1195
714,714,0,2046,2059
715,715,0,2046,2916
716,716,0,2047,3618
717,717,0,2046,4036
718,718,0,2046,4094
719,719,0,2046,3782
720,720,0,2047,3157
721,721,0,2047,2331
722,722,0,2046,1452
723,723,0,2047,680
724,724,0,2046,150
725,725,0,2046,0
726,726,0,2046,145
727,727,0,2046,670
728,728,0,2047,1440
729,729,0,2046,2318
730,730,0,2046,3146
731,731,0,2047,3775
732,732,0,2046,4092
733,733,0,2047,4039
734,734,0,2046,3628
735,735,0,2046,2929
736,736,0,2046,2071
737,737,0,2046,1207
738,738,0,2046,493
739,739,0,2047,56
740,740,0,2046,0
741,741,0,2047,267
742,742,0,2047,876
743,743,0,2046,1694
744,744,0,2046,2574
745,745,0,2047,3357
746,746,0,2047,3904
747,747,0,2047,4095
748,748,0,2046,3953
749,749,0,2046,3447
750,750,0,2047,2687
751,751,0,2047,1810
752,752,0,2047,975
753,753,0,2046,331
754,754,0,2046,0
755,755,0,2046,24
756,756,0,2046,417
757,757,0,2047,1101
758,758,0,2047,1953
759,759,0,2046,2822
760,760,0,2047,3548
761,761,0,2047,4004
762,762,0,2046,4095
763,763,0,2046,3837
764,764,0,2047,3244
765,765,0,2047,2435
766,766,0,2047,1553
767,767,0,2047,760
768,768,0,2047,197
769,769,0,2046,0
770,770,0,2046,104
771,771,0,2047,593
772,772,0,2047,1342
773,773,0,2046,2214
774,774,0,2046,3056
775,775,0,2046,3715
776,776,0,2047,4073
777,777,0,2046,4066
778,778,0,2046,3693
779,779,0,2046,3023
780,780,0,2047,2175
781,781,0,2046,1304
782,782,0,2046,565
783,783,0,2045,91
784,784,0,2047,0
785,785,0,2046,215
786,786,0,2046,791
787,787,0,2047,1592
788,788,0,2046,2472
789,789,0,2046,3275
790,790,0,2046,3856
791,791,0,2046,4095
792,792,0,2047,3992
793,793,0,2046,3522
794,794,0,2047,2785
795,795,0,2046,1915
796,796,0,2047,1066
797,797,0,2046,392
798,798,0,2047,15
799,799,0,2046,1
800,800,0,2046,354
801,801,0,2046,1009
802,802,0,2046,1849
803,803,0,2046,2723
804,804,0,2046,3475
805,805,0,2047,3967
806,806,0,2047,4095
807,807,0,2046,3887
808,808,0,2046,3328
809,809,0,2046,2536
810,810,0,2046,1656
811,811,0,2046,844
812,812,0,2046,246
813,813,0,2046,0
814,814,0,2046,69
815,815,0,2046,519
816,816,0,2046,1243
817,817,0,2047,2110
818,818,0,2047,2964
819,819,0,2047,3652
820,820,0,2047,4048
821,821,0,2046,4086
822,822,0,2046,3754
823,823,0,2046,3114
824,824,0,2046,2279
825,825,0,2046,1403
826,826,0,2046,640
827,827,0,2046,129
828,828,0,2046,0
829,829,0,2046,167
830,830,0,2047,709
831,831,0,2047,1490
832,832,0,2047,2369
833,833,0,2047,3190
834,834,0,2047,3803
835,835,0,2046,4095
836,836,0,2047,4024
837,837,0,2047,3593
838,838,0,2046,2882
839,839,0,2047,2019
840,840,0,2046,1159
841,841,0,2047,459
842,842,0,2046,41
843,843,0,2046,0
844,844,0,2046,296
845,845,0,2046,920
846,846,0,2046,1745
847,847,0,2046,2624
848,848,0,2047,3397
849,849,0,2046,3926
850,850,0,2046,4095
851,851,0,2047,3934
852,852,0,2047,3408
853,853,0,2047,2637
854,854,0,2046,1759
855,855,0,2046,931
856,856,0,2046,303
857,857,0,2046,0
858,858,0,2047,38
859,859,0,2047,450
860,860,0,2047,1148
861,861,0,2046,2005
862,862,0,2046,2870
863,863,0,2047,3583
864,864,0,2047,4020
865,865,0,2046,4095
866,866,0,2046,3811
867,867,0,2047,3201
868,868,0,2047,2383
869,869,0,2047,1503
870,870,0,2046,719
871,871,0,2046,172
872,872,0,2046,0
873,873,0,2046,123
874,874,0,2046,630
875,875,0,2046,1391
876,876,0,2046,2266
877,877,0,2046,3102
878,878,0,2047,3745
879,879,0,2047,4084
880,880,0,2046,4053
881,881,0,2047,3661
882,882,0,2046,2976
883,883,0,2047,2124
884,884,0,2046,1255
885,885,0,2047,529
886,886,0,2046,73
887,887,0,2046,0
888,888,0,2047,240
889,889,0,2047,833
890,890,0,2047,1642
891,891,0,2047,2523
892,892,0,2046,3317
893,893,0,2046,3881
894,894,0,2047,4095
895,895,0,2046,3973
896,896,0,2046,3485
897,897,0,2046,2737
898,898,0,2046,1863
899,899,0,2046,1021
900,900,0,2047,362
901,901,0,2047,4
902,902,0,2046,12
903,903,0,2046,384
904,904,0,2047,1055
905,905,0,2046,1901
906,906,0,2047,2772
907,907,0,2047,3511
908,908,0,2047,3986
909,909,0,2047,4095
910,910,0,2046,3863
911,911,0,2046,3287
912,912,0,2047,2486
913,913,0,2047,1605
914,914,0,2047,801
915,915,0,2046,221
916,916,0,2046,0
917,917,0,2046,86
918,918,0,2047,556
919,919,0,2047,1292
920,920,0,2046,2162
921,921,0,2047,3010
922,922,0,2047,3684
923,923,0,2047,4062
924,924,0,2047,4077
925,925,0,2046,3725
926,926,0,2046,3069
927,927,0,2047,2228
928,928,0,2046,1354
929,929,0,2046,602
930,930,0,2046,109
931,931,0,2046,0
932,932,0,2046,190
933,933,0,2047,750
934,934,0,2047,1541
935,935,0,2047,2421
936,936,0,2047,3232
937,937,0,2047,3830
938,938,0,2046,4095
939,939,0,2047,4010
940,940,0,2047,3558
941,941,0,2047,2834
942,942,0,2046,1967
943,943,0,2047,1113
944,944,0,2046,426
945,945,0,2046,28
946,946,0,2046,0
947,947,0,2047,324
948,948,0,2047,964
949,949,0,2047,1797
950,950,0,2047,2674
951,951,0,2046,3436
952,952,0,2047,3948
953,953,0,2046,4095
954,954,0,2047,3912
955,955,0,2046,3368
956,956,0,2046,2587
957,957,0,2047,1707
958,958,0,2046,887
959,959,0,2047,274
960,960,0,2046,0
961,961,0,2047,53
962,962,0,2047,484
963,963,0,2046,1194
964,964,0,2047,2058
965,965,0,2046,2916
966,966,0,2046,3618
967,967,0,2047,4035
968,968,0,2046,4094
969,969,0,2046,3783
970,970,0,2046,3158
971,971,0,2046,2332
972,972,0,2046,1453
973,973,0,2046,679
974,974,0,2046,150
975,975,0,2045,0
976,976,0,2047,145
977,977,0,2046,669
978,978,0,2047,1440
979,979,0,2046,2317
980,980,0,2047,3145
981,981,0,2046,3775
982,982,0,2047,4092
983,983,0,2047,4040
984,984,0,2047,3628
985,985,0,2047,2930
986,986,0,2046,2072
987,987,0,2046,1208
988,988,0,2047,494
989,989,0,2047,57
990,990,0,2046,0
991,991,0,2047,267
992,992,0,2046,876
993,993,0,2046,1694
994,994,0,2047,2574
995,995,0,2047,3357
996,996,0,2046,3904
997,997,0,2046,4095
998,998,0,2047,3954
999,999,0,2046,3448
1000,1000,0,2046,2687
1001,1001,0,2047,1811
1002,1002,0,2046,976
1003,1003,0,2047,332
1004,1004,0,2046,0
1005,1005,0,2047,25
1006,1006,0,2047,417
1007,1007,0,2047,1100
1008,1008,0,2046,1952
1009,1009,0,2047,2820
1010,1010,0,2047,3547
1011,1011,0,2046,4004
1012,1012,0,2047,4095
1013,1013,0,2047,3838
1014,1014,0,2047,3244
1015,1015,0,2047,2435
1016,1016,0,2047,1554
1017,1017,0,2046,760
1018,1018,0,2047,197
1019,1019,0,2046,0
1020,1020,0,2046,104
1021,1021,0,2047,593
1022,1022,0,2047,1339
1023,1023,0,2047,2213
1024,1024,0,2047,3056
1025,1025,0,2047,3715
1026,1026,0,2047,4073
1027,1027,0,2047,4065
1028,1028,0,2046,3693
1029,1029,0,2047,3023
