Sample in Buffer,Sample in Window,TRIGGER,adc1_data_a_d0[11:0],adc1_data_b_d0[11:0]
0,0,0,2047,1026
1,1,0,2047,1499
2,2,0,2046,3568
3,3,0,2047,1110
4,4,0,2047,1399
5,5,0,2047,3579
6,6,0,2046,1199
7,7,0,2046,1301
8,8,0,2046,3584
9,9,0,2046,1293
10,10,0,2047,1208
11,11,0,2047,3581
12,12,0,2047,1390
13,13,0,2047,1118
14,14,0,2047,3569
15,15,0,2046,1491
16,16,0,2047,1034
17,17,0,2046,3550
18,18,0,2046,1593
19,19,0,2047,953
20,20,0,2047,3524
21,21,0,2047,1698
22,22,0,2047,878
23,23,0,2047,3491
24,24,0,2047,1805
25,25,0,2047,810
26,26,0,2046,3450
27,27,0,2047,1914
28,28,0,2046,747
29,29,0,2047,3402
30,30,0,2047,2021
31,31,0,2046,690
32,32,0,2047,3347
33,33,0,2047,2131
34,34,0,2047,640
35,35,0,2046,3287
36,36,0,2046,2239
37,37,0,2046,597
38,38,0,2047,3220
39,39,0,2046,2346
40,40,0,2046,562
41,41,0,2047,3147
42,42,0,2047,2452
43,43,0,2046,533
44,44,0,2047,3069
45,45,0,2046,2556
46,46,0,2046,513
47,47,0,2047,2985
48,48,0,2046,2658
49,49,0,2046,499
50,50,0,2046,2896
51,51,0,2047,2755
52,52,0,2046,493
53,53,0,2046,2804
54,54,0,2047,2849
55,55,0,2047,496
56,56,0,2046,2708
57,57,0,2047,2939
58,58,0,2047,504
59,59,0,2046,2608
60,60,0,2047,3026
61,61,0,2047,522
62,62,0,2046,2505
63,63,0,2047,3107
64,64,0,2046,547
65,65,0,2046,2401
66,66,0,2047,3183
67,67,0,2046,578
68,68,0,2047,2294
69,69,0,2046,3253
70,70,0,2046,618
71,71,0,2047,2187
72,72,0,2047,3318
73,73,0,2046,665
74,74,0,2046,2078
75,75,0,2047,3375
76,76,0,2046,717
77,77,0,2046,1971
78,78,0,2047,3426
79,79,0,2046,777
80,80,0,2047,1861
81,81,0,2046,3471
82,82,0,2047,842
83,83,0,2046,1753
84,84,0,2046,3508
85,85,0,2047,915
86,86,0,2046,1648
87,87,0,2046,3538
88,88,0,2047,992
89,89,0,2046,1543
90,90,0,2047,3561
91,91,0,2046,1074
92,92,0,2046,1441
93,93,0,2046,3576
94,94,0,2047,1161
95,95,0,2046,1343
96,96,0,2046,3582
97,97,0,2047,1253
98,98,0,2047,1248
99,99,0,2046,3583
100,100,0,2046,1348
101,101,0,2047,1156
102,102,0,2046,3575
103,103,0,2047,1448
104,104,0,2046,1069
105,105,0,2046,3559
106,106,0,2046,1549
107,107,0,2047,987
108,108,0,2046,3536
109,109,0,2046,1654
110,110,0,2046,910
111,111,0,2047,3506
112,112,0,2047,1760
113,113,0,2046,838
114,114,0,2046,3469
115,115,0,2046,1867
116,116,0,2047,773
117,117,0,2046,3423
118,118,0,2047,1976
119,119,0,2047,713
120,120,0,2047,3372
121,121,0,2046,2084
122,122,0,2047,661
123,123,0,2047,3313
124,124,0,2046,2193
125,125,0,2047,615
126,126,0,2047,3249
127,127,0,2047,2301
128,128,0,2046,576
129,129,0,2047,3179
130,130,0,2047,2407
131,131,0,2046,544
132,132,0,2046,3103
133,133,0,2046,2512
134,134,0,2046,520
135,135,0,2047,3021
136,136,0,2046,2614
137,137,0,2047,504
138,138,0,2047,2934
139,139,0,2046,2714
140,140,0,2047,495
141,141,0,2046,2844
142,142,0,2046,2809
143,143,0,2046,493
144,144,0,2046,2749
145,145,0,2046,2902
146,146,0,2047,500
147,147,0,2046,2651
148,148,0,2046,2990
149,149,0,2047,513
150,150,0,2046,2550
151,151,0,2047,3073
152,152,0,2046,534
153,153,0,2047,2446
154,154,0,2047,3152
155,155,0,2046,564
156,156,0,2046,2340
157,157,0,2046,3224
158,158,0,2047,600
159,159,0,2046,2232
160,160,0,2047,3291
161,161,0,2046,643
162,162,0,2047,2124
163,163,0,2047,3352
164,164,0,2047,694
165,165,0,2046,2016
166,166,0,2046,3406
167,167,0,2046,751
168,168,0,2047,1907
169,169,0,2046,3453
170,170,0,2047,813
171,171,0,2046,1799
172,172,0,2047,3493
173,173,0,2046,883
174,174,0,2046,1692
175,175,0,2046,3526
176,176,0,2046,958
177,177,0,2046,1587
178,178,0,2046,3552
179,179,0,2046,1039
180,180,0,2046,1484
181,181,0,2046,3570
182,182,0,2047,1124
183,183,0,2046,1384
184,184,0,2047,3581
185,185,0,2046,1213
186,186,0,2047,1287
187,187,0,2047,3584
188,188,0,2047,1308
189,189,0,2046,1194
190,190,0,2046,3580
191,191,0,2046,1405
192,192,0,2046,1104
193,193,0,2046,3567
194,194,0,2046,1506
195,195,0,2046,1020
196,196,0,2046,3547
197,197,0,2047,1609
198,198,0,2046,941
199,199,0,2046,3521
200,200,0,2046,1715
201,201,0,2046,868
202,202,0,2046,3485
203,203,0,2046,1822
204,204,0,2047,800
205,205,0,2046,3443
206,206,0,2047,1930
207,207,0,2046,738
208,208,0,2046,3395
209,209,0,2047,2038
210,210,0,2047,682
211,211,0,2047,3340
212,212,0,2046,2148
213,213,0,2046,634
214,214,0,2046,3277
215,215,0,2047,2255
216,216,0,2046,592
217,217,0,2046,3208
218,218,0,2047,2363
219,219,0,2047,557
220,220,0,2046,3135
221,221,0,2047,2469
222,222,0,2046,529
223,223,0,2047,3056
224,224,0,2047,2572
225,225,0,2046,510
226,226,0,2046,2971
227,227,0,2047,2672
228,228,0,2046,498
229,229,0,2047,2882
230,230,0,2046,2771
231,231,0,2046,494
232,232,0,2047,2789
233,233,0,2046,2864
234,234,0,2046,496
235,235,0,2047,2692
236,236,0,2046,2953
237,237,0,2046,507
238,238,0,2046,2593
239,239,0,2046,3039
240,240,0,2046,526
241,241,0,2046,2490
242,242,0,2046,3120
243,243,0,2047,551
244,244,0,2046,2385
245,245,0,2047,3195
246,246,0,2046,583
247,247,0,2047,2278
248,248,0,2047,3264
249,249,0,2046,624
250,250,0,2047,2170
251,251,0,2047,3327
252,252,0,2046,672
253,253,0,2046,2061
254,254,0,2046,3383
255,255,0,2047,726
256,256,0,2046,1953
257,257,0,2047,3434
258,258,0,2046,786
259,259,0,2046,1845
260,260,0,2046,3476
261,261,0,2046,854
262,262,0,2046,1736
263,263,0,2046,3514
264,264,0,2046,926
265,265,0,2046,1631
266,266,0,2047,3542
267,267,0,2047,1004
268,268,0,2047,1526
269,269,0,2046,3564
270,270,0,2047,1087
271,271,0,2046,1425
272,272,0,2047,3577
273,273,0,2047,1175
274,274,0,2047,1328
275,275,0,2046,3583
276,276,0,2047,1268
277,277,0,2046,1233
278,278,0,2047,3582
279,279,0,2046,1364
280,280,0,2047,1142
281,281,0,2046,3573
282,282,0,2047,1463
283,283,0,2046,1055
284,284,0,2046,3556
285,285,0,2046,1565
286,286,0,2047,974
287,287,0,2046,3532
288,288,0,2047,1670
289,289,0,2046,899
290,290,0,2046,3501
291,291,0,2047,1776
292,292,0,2047,827
293,293,0,2046,3461
294,294,0,2046,1885
295,295,0,2047,763
296,296,0,2046,3416
297,297,0,2047,1992
298,298,0,2046,705
299,299,0,2047,3363
300,300,0,2046,2102
301,301,0,2046,653
302,302,0,2046,3304
303,303,0,2047,2210
304,304,0,2047,609
305,305,0,2047,3239
306,306,0,2047,2317
307,307,0,2047,571
308,308,0,2046,3167
309,309,0,2046,2423
310,310,0,2046,541
311,311,0,2046,3090
312,312,0,2046,2529
313,313,0,2047,517
314,314,0,2046,3008
315,315,0,2047,2630
316,316,0,2046,502
317,317,0,2046,2920
318,318,0,2046,2729
319,319,0,2047,494
320,320,0,2046,2829
321,321,0,2046,2826
322,322,0,2046,494
323,323,0,2047,2733
324,324,0,2047,2917
325,325,0,2047,502
326,326,0,2046,2635
327,327,0,2047,3003
328,328,0,2046,517
329,329,0,2046,2534
330,330,0,2047,3086
331,331,0,2046,539
332,332,0,2046,2428
333,333,0,2046,3164
334,334,0,2046,569
335,335,0,2046,2322
336,336,0,2046,3235
337,337,0,2046,607
338,338,0,2046,2215
339,339,0,2047,3301
340,340,0,2047,651
341,341,0,2046,2108
342,342,0,2046,3361
343,343,0,2047,703
344,344,0,2046,1999
345,345,0,2046,3414
346,346,0,2047,760
347,347,0,2046,1890
348,348,0,2046,3460
349,349,0,2046,824
350,350,0,2046,1781
351,351,0,2047,3499
352,352,0,2046,895
353,353,0,2047,1676
354,354,0,2047,3531
355,355,0,2046,970
356,356,0,2046,1571
357,357,0,2047,3555
358,358,0,2047,1052
359,359,0,2046,1468
360,360,0,2046,3572
361,361,0,2047,1138
362,362,0,2046,1368
363,363,0,2047,3582
364,364,0,2046,1229
365,365,0,2047,1272
366,366,0,2046,3584
367,367,0,2047,1323
368,368,0,2046,1179
369,369,0,2046,3578
370,370,0,2046,1421
371,371,0,2046,1091
372,372,0,2047,3564
373,373,0,2047,1523
374,374,0,2046,1008
375,375,0,2047,3543
376,376,0,2048,1626
377,377,0,2047,929
378,378,0,2047,3514
379,379,0,2047,1732
380,380,0,2046,856
381,381,0,2047,3478
382,382,0,2046,1839
383,383,0,2046,789
384,384,0,2046,3436
385,385,0,2047,1947
386,386,0,2046,728
387,387,0,2047,3387
388,388,0,2046,2056
389,389,0,2046,674
390,390,0,2047,3330
391,391,0,2046,2164
392,392,0,2046,626
393,393,0,2046,3267
394,394,0,2047,2273
395,395,0,2047,586
396,396,0,2046,3197
397,397,0,2046,2379
398,398,0,2047,552
399,399,0,2046,3124
400,400,0,2047,2485
401,401,0,2046,526
402,402,0,2046,3043
403,403,0,2046,2588
404,404,0,2046,507
405,405,0,2046,2959
406,406,0,2047,2688
407,407,0,2047,496
408,408,0,2046,2868
409,409,0,2047,2785
410,410,0,2046,493
411,411,0,2046,2774
412,412,0,2047,2878
413,413,0,2047,497
414,414,0,2046,2677
415,415,0,2047,2968
416,416,0,2047,509
417,417,0,2046,2577
418,418,0,2046,3052
419,419,0,2046,528
420,420,0,2046,2473
421,421,0,2046,3132
422,422,0,2046,555
423,423,0,2047,2368
424,424,0,2046,3205
425,425,0,2047,590
426,426,0,2046,2261
427,427,0,2047,3274
428,428,0,2046,631
429,429,0,2046,2153
430,430,0,2047,3336
431,431,0,2047,680
432,432,0,2047,2045
433,433,0,2046,3392
434,434,0,2047,735
435,435,0,2046,1935
436,436,0,2046,3442
437,437,0,2047,797
438,438,0,2047,1827
439,439,0,2047,3483
440,440,0,2046,864
441,441,0,2046,1720
442,442,0,2046,3519
443,443,0,2047,939
444,444,0,2046,1615
445,445,0,2047,3545
446,446,0,2046,1017
447,447,0,2046,1511
448,448,0,2047,3566
449,449,0,2047,1101
450,450,0,2046,1410
451,451,0,2047,3579
452,452,0,2047,1190
453,453,0,2047,1313
454,454,0,2046,3584
455,455,0,2047,1283
456,456,0,2046,1217
457,457,0,2046,3581
458,458,0,2046,1379
459,459,0,2046,1128
460,460,0,2046,3571
461,461,0,2046,1479
462,462,0,2047,1042
463,463,0,2046,3553
464,464,0,2046,1582
465,465,0,2046,962
466,466,0,2046,3528
467,467,0,2046,1686
468,468,0,2047,886
469,469,0,2046,3495
470,470,0,2046,1793
471,471,0,2047,817
472,472,0,2047,3455
473,473,0,2047,1902
474,474,0,2046,753
475,475,0,2046,3408
476,476,0,2046,2010
477,477,0,2046,696
478,478,0,2046,3354
479,479,0,2046,2119
480,480,0,2047,646
481,481,0,2046,3294
482,482,0,2046,2227
483,483,0,2046,602
484,484,0,2047,3227
485,485,0,2047,2334
486,486,0,2047,565
487,487,0,2046,3155
488,488,0,2047,2441
489,489,0,2047,537
490,490,0,2046,3077
491,491,0,2046,2545
492,492,0,2046,514
493,493,0,2046,2994
494,494,0,2046,2647
495,495,0,2046,500
496,496,0,2046,2906
497,497,0,2046,2744
498,498,0,2046,493
499,499,0,2046,2814
500,500,0,2047,2840
501,501,0,2046,494
502,502,0,2047,2719
503,503,0,2047,2931
504,504,0,2046,503
505,505,0,2047,2619
506,506,0,2046,3017
507,507,0,2047,520
508,508,0,2047,2517
509,509,0,2046,3099
510,510,0,2047,544
511,511,0,2046,2412
512,512,0,2047,3176
513,513,0,2046,575
514,514,0,2047,2305
515,515,0,2046,3246
516,516,0,2047,613
517,517,0,2047,2198
518,518,0,2046,3311
519,519,0,2046,659
520,520,0,2046,2090
521,521,0,2047,3370
522,522,0,2047,711
523,523,0,2047,1980
524,524,0,2046,3422
525,525,0,2047,770
526,526,0,2047,1872
527,527,0,2047,3466
528,528,0,2046,835
529,529,0,2046,1765
530,530,0,2047,3504
531,531,0,2047,906
532,532,0,2046,1659
533,533,0,2047,3536
534,534,0,2046,983
535,535,0,2047,1554
536,536,0,2046,3558
537,537,0,2047,1064
538,538,0,2047,1452
539,539,0,2047,3574
540,540,0,2046,1152
541,541,0,2047,1353
542,542,0,2046,3582
543,543,0,2047,1244
544,544,0,2046,1258
545,545,0,2047,3583
546,546,0,2046,1339
547,547,0,2046,1164
548,548,0,2047,3576
549,549,0,2046,1437
550,550,0,2047,1078
551,551,0,2047,3561
552,552,0,2047,1539
553,553,0,2046,995
554,554,0,2046,3540
555,555,0,2046,1642
556,556,0,2046,917
557,557,0,2046,3509
558,558,0,2046,1749
559,559,0,2047,846
560,560,0,2047,3473
561,561,0,2047,1856
562,562,0,2047,779
563,563,0,2047,3428
564,564,0,2046,1965
565,565,0,2046,719
566,566,0,2046,3377
567,567,0,2046,2072
568,568,0,2047,666
569,569,0,2047,3321
570,570,0,2046,2182
571,571,0,2046,620
572,572,0,2047,3256
573,573,0,2046,2290
574,574,0,2046,580
575,575,0,2047,3186
576,576,0,2046,2396
577,577,0,2046,548
578,578,0,2047,3111
579,579,0,2046,2501
580,580,0,2046,523
581,581,0,2046,3030
582,582,0,2047,2604
583,583,0,2046,505
584,584,0,2047,2943
585,585,0,2047,2704
586,586,0,2046,495
587,587,0,2046,2854
588,588,0,2046,2800
589,589,0,2047,493
590,590,0,2046,2759
591,591,0,2047,2893
592,592,0,2046,498
593,593,0,2047,2661
594,594,0,2046,2981
595,595,0,2046,512
596,596,0,2046,2560
597,597,0,2046,3065
598,598,0,2047,533
599,599,0,2047,2457
600,600,0,2046,3144
601,601,0,2046,560
602,602,0,2047,2351
603,603,0,2047,3217
604,604,0,2047,596
605,605,0,2047,2244
606,606,0,2046,3284
607,607,0,2046,639
608,608,0,2046,2136
609,609,0,2046,3345
610,610,0,2046,688
611,611,0,2046,2028
612,612,0,2046,3401
613,613,0,2046,744
614,614,0,2046,1918
615,615,0,2047,3448
616,616,0,2047,807
617,617,0,2046,1810
618,618,0,2047,3489
619,619,0,2047,875
620,620,0,2047,1704
621,621,0,2047,3523
622,622,0,2046,950
623,623,0,2046,1598
624,624,0,2046,3549
625,625,0,2047,1029
626,626,0,2047,1495
627,627,0,2047,3569
628,628,0,2046,1114
629,629,0,2046,1395
630,630,0,2047,3580
631,631,0,2046,1204
632,632,0,2047,1297
633,633,0,2046,3584
634,634,0,2047,1298
635,635,0,2046,1204
636,636,0,2046,3581
637,637,0,2047,1395
638,638,0,2047,1115
639,639,0,2047,3568
640,640,0,2046,1495
641,641,0,2046,1030
642,642,0,2046,3550
643,643,0,2047,1599
644,644,0,2046,949
645,645,0,2047,3523
646,646,0,2047,1704
647,647,0,2047,875
648,648,0,2046,3489
649,649,0,2047,1811
650,650,0,2046,806
651,651,0,2047,3448
652,652,0,2047,1919
653,653,0,2046,744
654,654,0,2046,3400
655,655,0,2046,2027
656,656,0,2046,688
657,657,0,2047,3345
658,658,0,2046,2136
659,659,0,2046,638
660,660,0,2046,3285
661,661,0,2046,2243
662,662,0,2047,596
663,663,0,2047,3216
664,664,0,2047,2352
665,665,0,2047,560
666,666,0,2047,3143
667,667,0,2047,2456
668,668,0,2047,533
669,669,0,2047,3065
670,670,0,2047,2561
671,671,0,2047,511
672,672,0,2046,2981
673,673,0,2047,2662
674,674,0,2046,498
675,675,0,2046,2892
676,676,0,2046,2760
677,677,0,2047,493
678,678,0,2047,2799
679,679,0,2046,2854
680,680,0,2046,496
681,681,0,2046,2703
682,682,0,2046,2945
683,683,0,2047,505
684,684,0,2046,2603
685,685,0,2047,3030
686,686,0,2046,523
687,687,0,2047,2500
688,688,0,2046,3111
689,689,0,2046,548
690,690,0,2046,2396
691,691,0,2046,3186
692,692,0,2046,580
693,693,0,2047,2289
694,694,0,2047,3257
695,695,0,2046,619
696,696,0,2046,2182
697,697,0,2046,3321
698,698,0,2046,668
699,699,0,2046,2073
700,700,0,2047,3379
701,701,0,2046,720
702,702,0,2047,1964
703,703,0,2046,3429
704,704,0,2047,780
705,705,0,2047,1856
706,706,0,2047,3473
707,707,0,2047,845
708,708,0,2046,1748
709,709,0,2047,3510
710,710,0,2046,918
711,711,0,2047,1643
712,712,0,2047,3540
713,713,0,2046,996
714,714,0,2046,1538
715,715,0,2047,3562
716,716,0,2047,1078
717,717,0,2046,1436
718,718,0,2047,3576
719,719,0,2046,1167
720,720,0,2047,1337
721,721,0,2047,3584
722,722,0,2047,1259
723,723,0,2046,1242
724,724,0,2047,3582
725,725,0,2047,1354
726,726,0,2046,1151
727,727,0,2046,3575
728,728,0,2046,1453
729,729,0,2047,1064
730,730,0,2047,3559
731,731,0,2047,1555
732,732,0,2046,982
733,733,0,2047,3535
734,734,0,2047,1659
735,735,0,2047,906
736,736,0,2046,3505
737,737,0,2046,1766
738,738,0,2046,834
739,739,0,2046,3466
740,740,0,2046,1873
741,741,0,2046,769
742,742,0,2046,3421
743,743,0,2046,1981
744,744,0,2046,710
745,745,0,2047,3370
746,746,0,2046,2090
747,747,0,2047,658
748,748,0,2046,3311
749,749,0,2046,2199
750,750,0,2046,613
751,751,0,2047,3246
752,752,0,2047,2307
753,753,0,2046,574
754,754,0,2046,3174
755,755,0,2046,2413
756,756,0,2046,543
757,757,0,2046,3099
758,758,0,2046,2518
759,759,0,2046,519
760,760,0,2047,3017
761,761,0,2046,2620
762,762,0,2046,503
763,763,0,2047,2930
764,764,0,2047,2719
765,765,0,2046,494
766,766,0,2046,2839
767,767,0,2046,2815
768,768,0,2046,494
769,769,0,2047,2744
770,770,0,2046,2907
771,771,0,2047,500
772,772,0,2047,2645
773,773,0,2046,2995
774,774,0,2047,515
775,775,0,2046,2545
776,776,0,2046,3078
777,777,0,2047,537
778,778,0,2046,2440
779,779,0,2046,3156
780,780,0,2047,566
781,781,0,2046,2334
782,782,0,2046,3228
783,783,0,2047,602
784,784,0,2047,2227
785,785,0,2047,3295
786,786,0,2047,646
787,787,0,2046,2119
788,788,0,2046,3355
789,789,0,2046,697
790,790,0,2046,2010
791,791,0,2046,3408
792,792,0,2046,754
793,793,0,2047,1900
794,794,0,2046,3456
795,795,0,2047,818
796,796,0,2047,1793
797,797,0,2046,3495
798,798,0,2047,887
799,799,0,2046,1687
800,800,0,2046,3528
801,801,0,2046,962
802,802,0,2046,1581
803,803,0,2046,3554
804,804,0,2046,1043
805,805,0,2046,1478
806,806,0,2046,3571
807,807,0,2047,1128
808,808,0,2046,1378
809,809,0,2047,3581
810,810,0,2046,1219
811,811,0,2046,1282
812,812,0,2047,3584
813,813,0,2046,1313
814,814,0,2046,1189
815,815,0,2046,3579
816,816,0,2047,1411
817,817,0,2046,1100
818,818,0,2047,3566
819,819,0,2046,1512
820,820,0,2046,1017
821,821,0,2046,3546
822,822,0,2046,1616
823,823,0,2047,937
824,824,0,2047,3518
825,825,0,2047,1720
826,826,0,2047,864
827,827,0,2047,3483
828,828,0,2047,1828
829,829,0,2046,796
830,830,0,2046,3441
831,831,0,2047,1936
832,832,0,2047,734
833,833,0,2046,3391
834,834,0,2047,2045
835,835,0,2046,679
836,836,0,2046,3336
837,837,0,2046,2153
838,838,0,2047,630
839,839,0,2046,3274
840,840,0,2047,2262
841,841,0,2046,589
842,842,0,2046,3205
843,843,0,2047,2370
844,844,0,2047,555
845,845,0,2046,3131
846,846,0,2046,2474
847,847,0,2047,529
848,848,0,2047,3051
849,849,0,2046,2578
850,850,0,2046,509
851,851,0,2046,2967
852,852,0,2047,2678
853,853,0,2047,497
854,854,0,2047,2877
855,855,0,2046,2775
856,856,0,2047,493
857,857,0,2046,2784
858,858,0,2047,2869
859,859,0,2047,496
860,860,0,2047,2687
861,861,0,2047,2959
862,862,0,2047,508
863,863,0,2047,2586
864,864,0,2046,3043
865,865,0,2046,527
866,866,0,2046,2484
867,867,0,2047,3124
868,868,0,2047,553
869,869,0,2047,2379
870,870,0,2047,3198
871,871,0,2046,586
872,872,0,2047,2270
873,873,0,2047,3267
874,874,0,2047,627
875,875,0,2046,2164
876,876,0,2047,3330
877,877,0,2046,674
878,878,0,2047,2054
879,879,0,2047,3387
880,880,0,2047,729
881,881,0,2046,1946
882,882,0,2047,3437
883,883,0,2046,790
884,884,0,2046,1838
885,885,0,2046,3479
886,886,0,2047,857
887,887,0,2047,1730
888,888,0,2047,3515
889,889,0,2047,930
890,890,0,2046,1624
891,891,0,2047,3544
892,892,0,2046,1009
893,893,0,2047,1521
894,894,0,2046,3565
895,895,0,2047,1093
896,896,0,2046,1419
897,897,0,2047,3578
898,898,0,2046,1181
899,899,0,2046,1322
900,900,0,2047,3584
901,901,0,2046,1274
902,902,0,2046,1226
903,903,0,2046,3582
904,904,0,2047,1369
905,905,0,2046,1136
906,906,0,2046,3573
907,907,0,2046,1470
908,908,0,2047,1050
909,909,0,2047,3555
910,910,0,2046,1572
911,911,0,2046,969
912,912,0,2047,3531
913,913,0,2047,1677
914,914,0,2047,893
915,915,0,2046,3498
916,916,0,2047,1783
917,917,0,2047,824
918,918,0,2047,3460
919,919,0,2047,1892
920,920,0,2046,760
921,921,0,2047,3413
922,922,0,2047,2000
923,923,0,2046,701
924,924,0,2046,3360
925,925,0,2047,2108
926,926,0,2047,650
927,927,0,2046,3300
928,928,0,2046,2217
929,929,0,2046,606
930,930,0,2047,3234
931,931,0,2047,2325
932,932,0,2046,568
933,933,0,2047,3163
934,934,0,2047,2430
935,935,0,2046,538
936,936,0,2046,3085
937,937,0,2047,2535
938,938,0,2047,516
939,939,0,2046,3002
940,940,0,2047,2636
941,941,0,2046,501
942,942,0,2046,2916
943,943,0,2046,2735
944,944,0,2046,494
945,945,0,2046,2824
946,946,0,2047,2831
947,947,0,2047,494
948,948,0,2046,2729
949,949,0,2047,2922
950,950,0,2047,502
951,951,0,2047,2629
952,952,0,2046,3009
953,953,0,2047,518
954,954,0,2046,2527
955,955,0,2047,3091
956,956,0,2047,540
957,957,0,2047,2422
958,958,0,2047,3167
959,959,0,2046,571
960,960,0,2046,2316
961,961,0,2046,3240
962,962,0,2047,609
963,963,0,2046,2208
964,964,0,2046,3306
965,965,0,2047,653
966,966,0,2047,2101
967,967,0,2047,3365
968,968,0,2047,706
969,969,0,2046,1991
970,970,0,2046,3417
971,971,0,2047,764
972,972,0,2046,1883
973,973,0,2046,3462
974,974,0,2047,829
975,975,0,2046,1775
976,976,0,2046,3501
977,977,0,2046,899
978,978,0,2047,1669
979,979,0,2046,3533
980,980,0,2046,976
981,981,0,2047,1564
982,982,0,2046,3556
983,983,0,2047,1057
984,984,0,2046,1462
985,985,0,2046,3573
986,986,0,2046,1143
987,987,0,2046,1363
988,988,0,2047,3582
989,989,0,2046,1235
990,990,0,2046,1267
991,991,0,2047,3584
992,992,0,2046,1329
993,993,0,2046,1173
994,994,0,2046,3577
995,995,0,2046,1427
996,996,0,2046,1086
997,997,0,2047,3564
998,998,0,2047,1529
999,999,0,2046,1002
1000,1000,0,2047,3541
1001,1001,0,2047,1632
1002,1002,0,2046,925
1003,1003,0,2047,3513
1004,1004,0,2046,1739
1005,1005,0,2046,852
1006,1006,0,2047,3477
1007,1007,0,2046,1846
1008,1008,0,2046,786
1009,1009,0,2047,3433
1010,1010,0,2047,1954
1011,1011,0,2047,725
1012,1012,0,2046,3383
1013,1013,0,2047,2063
1014,1014,0,2046,671
1015,1015,0,2046,3326
1016,1016,0,2046,2171
1017,1017,0,2047,623
