Sample in Buffer,Sample in Window,TRIGGER,adc1_data_a_d0[11:0],adc1_data_b_d0[11:0]
0,0,0,2046,2690
1,1,0,2046,2160
2,2,0,2046,1631
3,3,0,2047,1137
4,4,0,2046,685
5,5,0,2046,320
6,6,0,2046,71
7,7,0,2047,0
8,8,0,2047,0
9,9,0,2046,69
10,10,0,2046,324
11,11,0,2047,691
12,12,0,2046,1146
13,13,0,2047,1648
14,14,0,2046,2172
15,15,0,2047,2693
16,16,0,2046,3177
17,17,0,2047,3588
18,18,0,2046,3897
19,19,0,2046,4092
20,20,0,2046,4095
21,21,0,2046,4089
22,22,0,2047,3896
23,23,0,2047,3582
24,24,0,2046,3170
25,25,0,2047,2689
26,26,0,2046,2159
27,27,0,2046,1631
28,28,0,2046,1139
29,29,0,2046,688
30,30,0,2047,324
31,31,0,2047,74
32,32,0,2046,0
33,33,0,2046,0
34,34,0,2046,69
35,35,0,2047,323
36,36,0,2047,690
37,37,0,2047,1145
38,38,0,2047,1648
39,39,0,2047,2172
40,40,0,2046,2694
41,41,0,2046,3179
42,42,0,2046,3587
43,43,0,2046,3897
44,44,0,2046,4092
45,45,0,2047,4095
46,46,0,2047,4090
47,47,0,2047,3898
48,48,0,2046,3584
49,49,0,2046,3174
50,50,0,2046,2691
51,51,0,2046,2160
52,52,0,2046,1633
53,53,0,2046,1139
54,54,0,2046,688
55,55,0,2047,323
56,56,0,2047,73
57,57,0,2047,0
58,58,0,2046,0
59,59,0,2047,67
60,60,0,2047,320
61,61,0,2047,688
62,62,0,2046,1141
63,63,0,2046,1643
64,64,0,2046,2169
65,65,0,2047,2692
66,66,0,2047,3175
67,67,0,2047,3587
68,68,0,2047,3897
69,69,0,2046,4092
70,70,0,2046,4095
71,71,0,2047,4089
72,72,0,2046,3897
73,73,0,2046,3584
74,74,0,2047,3173
75,75,0,2047,2692
76,76,0,2046,2160
77,77,0,2047,1631
78,78,0,2046,1138
79,79,0,2047,686
80,80,0,2046,321
81,81,0,2046,72
82,82,0,2047,0
83,83,0,2047,0
84,84,0,2047,70
85,85,0,2046,323
86,86,0,2046,690
87,87,0,2047,1144
88,88,0,2047,1647
89,89,0,2046,2170
90,90,0,2047,2692
91,91,0,2047,3176
92,92,0,2046,3585
93,93,0,2046,3895
94,94,0,2046,4091
95,95,0,2046,4095
96,96,0,2046,4089
97,97,0,2047,3897
98,98,0,2047,3582
99,99,0,2046,3171
100,100,0,2046,2688
101,101,0,2046,2158
102,102,0,2046,1630
103,103,0,2046,1138
104,104,0,2046,687
105,105,0,2047,322
106,106,0,2047,73
107,107,0,2046,0
108,108,0,2047,0
109,109,0,2047,69
110,110,0,2047,323
111,111,0,2047,691
112,112,0,2046,1144
113,113,0,2046,1647
114,114,0,2047,2172
115,115,0,2047,2696
116,116,0,2046,3181
117,117,0,2047,3587
118,118,0,2047,3897
119,119,0,2047,4092
120,120,0,2046,4095
121,121,0,2046,4089
122,122,0,2047,3896
123,123,0,2047,3582
124,124,0,2046,3172
125,125,0,2047,2689
126,126,0,2047,2157
127,127,0,2046,1629
128,128,0,2047,1135
129,129,0,2047,685
130,130,0,2046,322
131,131,0,2047,73
132,132,0,2047,0
133,133,0,2046,0
134,134,0,2046,68
135,135,0,2047,321
136,136,0,2047,687
137,137,0,2046,1140
138,138,0,2046,1643
139,139,0,2047,2169
140,140,0,2046,2691
141,141,0,2047,3176
142,142,0,2047,3586
143,143,0,2047,3895
144,144,0,2046,4091
145,145,0,2047,4095
146,146,0,2046,4090
147,147,0,2046,3899
148,148,0,2047,3586
149,149,0,2047,3176
150,150,0,2047,2694
151,151,0,2047,2165
152,152,0,2046,1636
153,153,0,2046,1142
154,154,0,2046,691
155,155,0,2047,324
156,156,0,2046,73
157,157,0,2047,0
158,158,0,2046,0
159,159,0,2047,68
160,160,0,2046,320
161,161,0,2046,686
162,162,0,2046,1140
163,163,0,2046,1642
164,164,0,2047,2167
165,165,0,2046,2688
166,166,0,2047,3172
167,167,0,2046,3583
168,168,0,2046,3893
169,169,0,2047,4090
170,170,0,2046,4095
171,171,0,2047,4090
172,172,0,2047,3897
173,173,0,2046,3585
174,174,0,2047,3175
175,175,0,2046,2692
176,176,0,2047,2159
177,177,0,2047,1629
178,178,0,2047,1138
179,179,0,2047,688
180,180,0,2046,321
181,181,0,2047,73
182,182,0,2046,0
183,183,0,2047,0
184,184,0,2046,69
185,185,0,2046,322
186,186,0,2046,688
187,187,0,2047,1142
188,188,0,2047,1645
189,189,0,2046,2171
190,190,0,2047,2694
191,191,0,2046,3177
192,192,0,2047,3585
193,193,0,2047,3896
194,194,0,2046,4091
195,195,0,2047,4095
196,196,0,2047,4089
197,197,0,2047,3898
198,198,0,2046,3585
199,199,0,2046,3175
200,200,0,2046,2693
201,201,0,2046,2161
202,202,0,2047,1633
203,203,0,2046,1140
204,204,0,2046,689
205,205,0,2046,324
206,206,0,2046,73
207,207,0,2047,0
208,208,0,2046,0
209,209,0,2047,69
210,210,0,2047,323
211,211,0,2046,689
212,212,0,2046,1142
213,213,0,2046,1645
214,214,0,2047,2170
215,215,0,2046,2691
216,216,0,2046,3177
217,217,0,2046,3587
218,218,0,2046,3896
219,219,0,2047,4091
220,220,0,2047,4095
221,221,0,2046,4089
222,222,0,2046,3896
223,223,0,2047,3583
224,224,0,2047,3172
225,225,0,2046,2690
226,226,0,2047,2159
227,227,0,2046,1632
228,228,0,2046,1138
229,229,0,2047,688
230,230,0,2047,322
231,231,0,2046,74
232,232,0,2046,0
233,233,0,2046,0
234,234,0,2046,68
235,235,0,2047,321
236,236,0,2046,689
237,237,0,2046,1143
238,238,0,2047,1646
239,239,0,2046,2171
240,240,0,2046,2693
241,241,0,2046,3177
242,242,0,2046,3585
243,243,0,2046,3894
244,244,0,2047,4090
245,245,0,2047,4095
246,246,0,2046,4089
247,247,0,2047,3897
248,248,0,2047,3584
249,249,0,2046,3172
250,250,0,2047,2689
251,251,0,2047,2158
252,252,0,2046,1629
253,253,0,2046,1137
254,254,0,2046,686
255,255,0,2046,322
256,256,0,2046,73
257,257,0,2046,0
258,258,0,2046,0
259,259,0,2046,68
260,260,0,2046,321
261,261,0,2046,688
262,262,0,2046,1143
263,263,0,2046,1645
264,264,0,2047,2169
265,265,0,2046,2690
266,266,0,2046,3175
267,267,0,2046,3584
268,268,0,2047,3896
269,269,0,2046,4090
270,270,0,2047,4095
271,271,0,2047,4090
272,272,0,2046,3899
273,273,0,2047,3586
274,274,0,2046,3177
275,275,0,2046,2694
276,276,0,2047,2163
277,277,0,2047,1634
278,278,0,2046,1140
279,279,0,2047,689
280,280,0,2046,323
281,281,0,2047,73
282,282,0,2046,0
283,283,0,2047,0
284,284,0,2047,68
285,285,0,2047,321
286,286,0,2047,689
287,287,0,2046,1142
288,288,0,2046,1644
289,289,0,2046,2169
290,290,0,2047,2690
291,291,0,2046,3176
292,292,0,2047,3585
293,293,0,2046,3895
294,294,0,2047,4092
295,295,0,2046,4095
296,296,0,2046,4089
297,297,0,2046,3897
298,298,0,2047,3584
299,299,0,2046,3173
300,300,0,2047,2691
301,301,0,2047,2159
302,302,0,2047,1631
303,303,0,2047,1139
304,304,0,2046,688
305,305,0,2046,324
306,306,0,2047,74
307,307,0,2046,0
308,308,0,2047,0
309,309,0,2046,67
310,310,0,2046,321
311,311,0,2047,688
312,312,0,2047,1141
313,313,0,2047,1645
314,314,0,2046,2169
315,315,0,2046,2691
316,316,0,2047,3177
317,317,0,2047,3585
318,318,0,2046,3895
319,319,0,2047,4091
320,320,0,2046,4095
321,321,0,2046,4089
322,322,0,2046,3896
323,323,0,2046,3583
324,324,0,2047,3172
325,325,0,2047,2689
326,326,0,2047,2159
327,327,0,2046,1632
328,328,0,2046,1139
329,329,0,2046,687
330,330,0,2046,323
331,331,0,2046,73
332,332,0,2046,0
333,333,0,2047,0
334,334,0,2047,68
335,335,0,2046,321
336,336,0,2046,688
337,337,0,2046,1141
338,338,0,2047,1644
339,339,0,2047,2169
340,340,0,2047,2691
341,341,0,2046,3177
342,342,0,2046,3587
343,343,0,2047,3896
344,344,0,2047,4091
345,345,0,2047,4095
346,346,0,2047,4089
347,347,0,2046,3897
348,348,0,2046,3583
349,349,0,2047,3173
350,350,0,2047,2693
351,351,0,2046,2162
352,352,0,2047,1634
353,353,0,2047,1140
354,354,0,2046,689
355,355,0,2047,323
356,356,0,2046,73
357,357,0,2047,0
358,358,0,2046,0
359,359,0,2047,68
360,360,0,2046,322
361,361,0,2047,687
362,362,0,2046,1140
363,363,0,2046,1643
364,364,0,2046,2166
365,365,0,2046,2688
366,366,0,2047,3173
367,367,0,2047,3584
368,368,0,2046,3893
369,369,0,2047,4091
370,370,0,2047,4095
371,371,0,2046,4089
372,372,0,2046,3898
373,373,0,2047,3585
374,374,0,2046,3174
375,375,0,2047,2692
376,376,0,2047,2161
377,377,0,2047,1633
378,378,0,2046,1138
379,379,0,2046,688
380,380,0,2046,324
381,381,0,2047,74
382,382,0,2047,0
383,383,0,2047,0
384,384,0,2047,68
385,385,0,2046,321
386,386,0,2047,687
387,387,0,2046,1141
388,388,0,2046,1643
389,389,0,2047,2167
390,390,0,2047,2690
391,391,0,2047,3176
392,392,0,2046,3584
393,393,0,2046,3894
394,394,0,2046,4090
395,395,0,2047,4095
396,396,0,2046,4090
397,397,0,2047,3898
398,398,0,2047,3585
399,399,0,2046,3174
400,400,0,2047,2691
401,401,0,2047,2158
402,402,0,2046,1630
403,403,0,2046,1137
404,404,0,2046,686
405,405,0,2047,322
406,406,0,2046,73
407,407,0,2047,0
408,408,0,2047,0
409,409,0,2046,69
410,410,0,2046,321
411,411,0,2046,687
412,412,0,2046,1140
413,413,0,2046,1642
414,414,0,2047,2166
415,415,0,2046,2689
416,416,0,2046,3174
417,417,0,2047,3584
418,418,0,2046,3894
419,419,0,2046,4090
420,420,0,2046,4095
421,421,0,2046,4089
422,422,0,2047,3897
423,423,0,2047,3585
424,424,0,2046,3174
425,425,0,2047,2693
426,426,0,2047,2164
427,427,0,2046,1635
428,428,0,2046,1141
429,429,0,2046,689
430,430,0,2047,322
431,431,0,2046,73
432,432,0,2046,0
433,433,0,2046,0
434,434,0,2047,69
435,435,0,2047,322
436,436,0,2047,689
437,437,0,2046,1144
438,438,0,2047,1645
439,439,0,2046,2170
440,440,0,2047,2691
441,441,0,2046,3175
442,442,0,2047,3585
443,443,0,2046,3894
444,444,0,2046,4091
445,445,0,2046,4095
446,446,0,2046,4089
447,447,0,2047,3898
448,448,0,2046,3584
449,449,0,2046,3174
450,450,0,2047,2690
451,451,0,2046,2160
452,452,0,2046,1633
453,453,0,2046,1138
454,454,0,2046,687
455,455,0,2046,324
456,456,0,2047,73
457,457,0,2046,0
458,458,0,2046,0
459,459,0,2047,68
460,460,0,2047,321
461,461,0,2045,687
462,462,0,2046,1142
463,463,0,2047,1646
464,464,0,2046,2171
465,465,0,2047,2693
466,466,0,2046,3177
467,467,0,2046,3585
468,468,0,2046,3895
469,469,0,2046,4091
470,470,0,2047,4095
471,471,0,2047,4090
472,472,0,2047,3900
473,473,0,2047,3587
474,474,0,2046,3177
475,475,0,2046,2694
476,476,0,2047,2164
477,477,0,2047,1634
478,478,0,2047,1141
479,479,0,2046,690
480,480,0,2046,324
481,481,0,2047,73
482,482,0,2046,0
483,483,0,2046,0
484,484,0,2047,68
485,485,0,2047,319
486,486,0,2047,687
487,487,0,2046,1140
488,488,0,2046,1642
489,489,0,2046,2167
490,490,0,2047,2689
491,491,0,2046,3172
492,492,0,2047,3584
493,493,0,2047,3894
494,494,0,2046,4091
495,495,0,2046,4095
496,496,0,2046,4089
497,497,0,2047,3899
498,498,0,2047,3586
499,499,0,2047,3177
500,500,0,2046,2695
501,501,0,2046,2164
502,502,0,2047,1636
503,503,0,2046,1143
504,504,0,2046,692
505,505,0,2047,325
506,506,0,2046,74
507,507,0,2046,0
508,508,0,2047,0
509,509,0,2047,67
510,510,0,2047,320
511,511,0,2046,687
512,512,0,2046,1142
513,513,0,2047,1642
514,514,0,2046,2167
515,515,0,2047,2688
516,516,0,2046,3173
517,517,0,2047,3581
518,518,0,2047,3892
519,519,0,2046,4089
520,520,0,2047,4095
521,521,0,2046,4090
522,522,0,2046,3899
523,523,0,2046,3587
524,524,0,2047,3175
525,525,0,2047,2692
526,526,0,2047,2162
527,527,0,2047,1634
528,528,0,2047,1140
529,529,0,2046,689
530,530,0,2046,325
531,531,0,2047,74
532,532,0,2046,0
533,533,0,2046,0
534,534,0,2047,66
535,535,0,2047,320
536,536,0,2047,686
537,537,0,2046,1139
538,538,0,2047,1643
539,539,0,2047,2168
540,540,0,2046,2689
541,541,0,2047,3173
542,542,0,2046,3583
543,543,0,2046,3895
544,544,0,2047,4091
545,545,0,2046,4095
546,546,0,2046,4090
547,547,0,2047,3900
548,548,0,2047,3587
549,549,0,2047,3178
550,550,0,2046,2696
551,551,0,2047,2166
552,552,0,2046,1637
553,553,0,2047,1143
554,554,0,2047,690
555,555,0,2047,323
556,556,0,2047,73
557,557,0,2047,0
558,558,0,2047,0
559,559,0,2047,67
560,560,0,2046,319
561,561,0,2046,686
562,562,0,2047,1140
563,563,0,2047,1641
564,564,0,2046,2166
565,565,0,2047,2687
566,566,0,2047,3173
567,567,0,2047,3583
568,568,0,2047,3895
569,569,0,2046,4091
570,570,0,2047,4095
571,571,0,2047,4089
572,572,0,2047,3898
573,573,0,2047,3585
574,574,0,2047,3175
575,575,0,2047,2694
576,576,0,2046,2163
577,577,0,2047,1634
578,578,0,2047,1143
579,579,0,2047,692
580,580,0,2046,325
581,581,0,2047,74
582,582,0,2046,0
583,583,0,2047,0
584,584,0,2047,68
585,585,0,2047,322
586,586,0,2047,689
587,587,0,2047,1142
588,588,0,2046,1644
589,589,0,2046,2170
590,590,0,2046,2692
591,591,0,2047,3175
592,592,0,2046,3585
593,593,0,2046,3895
594,594,0,2047,4090
595,595,0,2046,4095
596,596,0,2047,4089
597,597,0,2047,3897
598,598,0,2047,3584
599,599,0,2047,3173
600,600,0,2047,2691
601,601,0,2047,2160
602,602,0,2046,1631
603,603,0,2047,1137
604,604,0,2046,687
605,605,0,2047,323
606,606,0,2046,73
607,607,0,2047,0
608,608,0,2047,0
609,609,0,2047,67
610,610,0,2047,320
611,611,0,2047,685
612,612,0,2046,1139
613,613,0,2047,1642
614,614,0,2047,2168
615,615,0,2047,2689
616,616,0,2046,3174
617,617,0,2047,3584
618,618,0,2047,3895
619,619,0,2046,4090
620,620,0,2047,4095
621,621,0,2046,4090
622,622,0,2047,3899
623,623,0,2046,3585
624,624,0,2047,3176
625,625,0,2046,2694
626,626,0,2046,2164
627,627,0,2046,1635
628,628,0,2046,1141
629,629,0,2046,689
630,630,0,2047,324
631,631,0,2047,74
632,632,0,2047,0
633,633,0,2047,0
634,634,0,2046,68
635,635,0,2046,321
636,636,0,2046,687
637,637,0,2047,1140
638,638,0,2047,1642
639,639,0,2047,2168
640,640,0,2047,2688
641,641,0,2046,3173
642,642,0,2046,3583
643,643,0,2046,3895
644,644,0,2046,4091
645,645,0,2046,4095
646,646,0,2046,4089
647,647,0,2046,3897
648,648,0,2047,3584
649,649,0,2047,3173
650,650,0,2046,2690
651,651,0,2046,2160
652,652,0,2046,1633
653,653,0,2046,1139
654,654,0,2046,689
655,655,0,2046,325
656,656,0,2047,75
657,657,0,2046,0
658,658,0,2046,0
659,659,0,2046,67
660,660,0,2047,320
661,661,0,2046,686
662,662,0,2046,1139
663,663,0,2047,1642
664,664,0,2047,2167
665,665,0,2047,2689
666,666,0,2047,3173
667,667,0,2046,3583
668,668,0,2047,3894
669,669,0,2047,4090
670,670,0,2046,4095
671,671,0,2047,4090
672,672,0,2047,3900
673,673,0,2046,3588
674,674,0,2046,3176
675,675,0,2047,2694
676,676,0,2047,2163
677,677,0,2046,1633
678,678,0,2046,1140
679,679,0,2046,689
680,680,0,2047,325
681,681,0,2047,75
682,682,0,2046,0
683,683,0,2046,0
684,684,0,2047,67
685,685,0,2047,320
686,686,0,2047,684
687,687,0,2047,1137
688,688,0,2047,1639
689,689,0,2046,2165
690,690,0,2047,2688
691,691,0,2046,3173
692,692,0,2046,3584
693,693,0,2047,3895
694,694,0,2046,4090
695,695,0,2047,4095
696,696,0,2047,4090
697,697,0,2046,3898
698,698,0,2046,3585
699,699,0,2047,3175
700,700,0,2046,2693
701,701,0,2046,2163
702,702,0,2046,1635
703,703,0,2046,1141
704,704,0,2046,690
705,705,0,2046,324
706,706,0,2046,74
707,707,0,2047,0
708,708,0,2047,0
709,709,0,2047,66
710,710,0,2046,320
711,711,0,2046,687
712,712,0,2046,1141
713,713,0,2046,1642
714,714,0,2047,2168
715,715,0,2046,2689
716,716,0,2046,3173
717,717,0,2046,3583
718,718,0,2047,3894
719,719,0,2047,4091
720,720,0,2046,4095
721,721,0,2046,4089
722,722,0,2047,3897
723,723,0,2046,3585
724,724,0,2046,3175
725,725,0,2047,2692
726,726,0,2046,2161
727,727,0,2046,1634
728,728,0,2046,1140
729,729,0,2047,690
730,730,0,2046,325
731,731,0,2046,75
732,732,0,2046,0
733,733,0,2047,0
734,734,0,2047,66
735,735,0,2046,321
736,736,0,2047,688
737,737,0,2046,1142
738,738,0,2046,1645
739,739,0,2047,2169
740,740,0,2046,2690
741,741,0,2047,3175
742,742,0,2047,3585
743,743,0,2046,3894
744,744,0,2047,4091
745,745,0,2047,4095
746,746,0,2046,4090
747,747,0,2046,3900
748,748,0,2047,3587
749,749,0,2047,3175
750,750,0,2046,2693
751,751,0,2046,2163
752,752,0,2046,1634
753,753,0,2047,1141
754,754,0,2047,690
755,755,0,2047,325
756,756,0,2047,73
757,757,0,2047,0
758,758,0,2046,0
759,759,0,2046,67
760,760,0,2046,320
761,761,0,2046,685
762,762,0,2047,1137
763,763,0,2046,1640
764,764,0,2047,2165
765,765,0,2047,2686
766,766,0,2047,3171
767,767,0,2047,3581
768,768,0,2046,3892
769,769,0,2047,4091
770,770,0,2046,4095
771,771,0,2047,4090
772,772,0,2047,3899
773,773,0,2046,3587
774,774,0,2047,3177
775,775,0,2047,2695
776,776,0,2046,2165
777,777,0,2046,1637
778,778,0,2046,1145
779,779,0,2046,692
780,780,0,2047,325
781,781,0,2046,74
782,782,0,2047,0
783,783,0,2047,0
784,784,0,2046,67
785,785,0,2046,320
786,786,0,2046,686
787,787,0,2047,1140
788,788,0,2046,1642
789,789,0,2046,2165
790,790,0,2047,2688
791,791,0,2046,3173
792,792,0,2046,3583
793,793,0,2046,3893
794,794,0,2047,4090
795,795,0,2046,4095
796,796,0,2046,4091
797,797,0,2047,3900
798,798,0,2046,3587
799,799,0,2047,3177
800,800,0,2047,2694
801,801,0,2047,2163
802,802,0,2046,1636
803,803,0,2047,1142
804,804,0,2047,691
805,805,0,2046,325
806,806,0,2047,75
807,807,0,2047,0
808,808,0,2046,0
809,809,0,2047,67
810,810,0,2047,319
811,811,0,2047,686
812,812,0,2047,1139
813,813,0,2047,1643
814,814,0,2047,2166
815,815,0,2047,2688
816,816,0,2047,3175
817,817,0,2046,3585
818,818,0,2047,3894
819,819,0,2047,4091
820,820,0,2047,4095
821,821,0,2047,4089
822,822,0,2046,3898
823,823,0,2046,3587
824,824,0,2047,3176
825,825,0,2047,2694
826,826,0,2046,2164
827,827,0,2046,1635
828,828,0,2047,1141
829,829,0,2046,688
830,830,0,2047,322
831,831,0,2047,72
832,832,0,2047,0
833,833,0,2047,0
834,834,0,2046,68
835,835,0,2046,321
836,836,0,2047,687
837,837,0,2046,1141
838,838,0,2046,1643
839,839,0,2046,2167
840,840,0,2047,2688
841,841,0,2047,3173
842,842,0,2046,3584
843,843,0,2047,3894
844,844,0,2046,4091
845,845,0,2047,4095
846,846,0,2046,4089
847,847,0,2046,3898
848,848,0,2047,3585
849,849,0,2046,3175
850,850,0,2047,2693
851,851,0,2046,2162
852,852,0,2047,1634
853,853,0,2046,1142
854,854,0,2047,691
855,855,0,2047,324
856,856,0,2046,74
857,857,0,2046,0
858,858,0,2046,0
859,859,0,2046,68
860,860,0,2046,322
861,861,0,2047,689
862,862,0,2046,1143
863,863,0,2047,1645
864,864,0,2046,2170
865,865,0,2046,2692
866,866,0,2047,3176
867,867,0,2047,3585
868,868,0,2046,3894
869,869,0,2046,4090
870,870,0,2047,4095
871,871,0,2047,4090
872,872,0,2047,3900
873,873,0,2047,3586
874,874,0,2046,3176
875,875,0,2047,2695
876,876,0,2047,2165
877,877,0,2047,1635
878,878,0,2047,1141
879,879,0,2046,690
880,880,0,2047,326
881,881,0,2046,74
882,882,0,2047,0
883,883,0,2046,0
884,884,0,2046,66
885,885,0,2047,319
886,886,0,2046,683
887,887,0,2047,1137
888,888,0,2046,1639
889,889,0,2046,2165
890,890,0,2047,2688
891,891,0,2047,3174
892,892,0,2046,3585
893,893,0,2047,3894
894,894,0,2046,4090
895,895,0,2047,4095
896,896,0,2046,4090
897,897,0,2047,3898
898,898,0,2046,3587
899,899,0,2047,3177
900,900,0,2046,2697
901,901,0,2047,2167
902,902,0,2046,1638
903,903,0,2047,1144
904,904,0,2047,693
905,905,0,2047,326
906,906,0,2046,74
907,907,0,2047,0
908,908,0,2047,0
909,909,0,2046,67
910,910,0,2047,319
911,911,0,2046,685
912,912,0,2046,1139
913,913,0,2046,1640
914,914,0,2047,2165
915,915,0,2047,2685
916,916,0,2047,3172
917,917,0,2046,3583
918,918,0,2046,3893
919,919,0,2047,4091
920,920,0,2047,4095
921,921,0,2046,4090
922,922,0,2047,3899
923,923,0,2047,3585
924,924,0,2046,3174
925,925,0,2047,2693
926,926,0,2046,2162
927,927,0,2046,1635
928,928,0,2046,1141
929,929,0,2046,690
930,930,0,2047,324
931,931,0,2047,75
932,932,0,2046,0
933,933,0,2047,0
934,934,0,2047,67
935,935,0,2046,321
936,936,0,2046,688
937,937,0,2047,1142
938,938,0,2046,1644
939,939,0,2047,2167
940,940,0,2047,2689
941,941,0,2047,3174
942,942,0,2046,3583
943,943,0,2046,3894
944,944,0,2047,4090
945,945,0,2047,4095
946,946,0,2046,4090
947,947,0,2046,3900
948,948,0,2046,3588
949,949,0,2047,3177
950,950,0,2046,2693
951,951,0,2046,2163
952,952,0,2046,1636
953,953,0,2047,1143
954,954,0,2046,689
955,955,0,2046,323
956,956,0,2047,73
957,957,0,2046,0
958,958,0,2047,0
959,959,0,2047,67
960,960,0,2047,319
961,961,0,2046,686
962,962,0,2046,1140
963,963,0,2046,1641
964,964,0,2046,2166
965,965,0,2046,2688
966,966,0,2046,3174
967,967,0,2047,3585
968,968,0,2047,3895
969,969,0,2047,4090
970,970,0,2046,4095
971,971,0,2046,4090
972,972,0,2046,3898
973,973,0,2046,3585
974,974,0,2047,3175
975,975,0,2046,2693
976,976,0,2047,2163
977,977,0,2046,1635
978,978,0,2046,1141
979,979,0,2047,689
980,980,0,2047,323
981,981,0,2046,74
982,982,0,2047,0
983,983,0,2047,0
984,984,0,2046,67
985,985,0,2047,319
986,986,0,2047,685
987,987,0,2047,1137
988,988,0,2047,1639
989,989,0,2046,2165
990,990,0,2047,2685
991,991,0,2046,3170
992,992,0,2047,3580
993,993,0,2047,3891
994,994,0,2046,4090
995,995,0,2047,4095
996,996,0,2047,4090
997,997,0,2046,3899
998,998,0,2046,3586
999,999,0,2046,3175
1000,1000,0,2046,2695
1001,1001,0,2047,2165
1002,1002,0,2046,1637
1003,1003,0,2047,1143
1004,1004,0,2046,692
1005,1005,0,2047,326
1006,1006,0,2046,75
1007,1007,0,2046,0
1008,1008,0,2047,0
1009,1009,0,2047,66
1010,1010,0,2046,319
1011,1011,0,2046,685
1012,1012,0,2046,1139
1013,1013,0,2046,1641
1014,1014,0,2046,2166
1015,1015,0,2046,2690
1016,1016,0,2047,3174
1017,1017,0,2047,3583
1018,1018,0,2046,3894
1019,1019,0,2047,4091
1020,1020,0,2047,4095
1021,1021,0,2046,4090
1022,1022,0,2046,3899
1023,1023,0,2046,3586
1024,1024,0,2046,3176
1025,1025,0,2047,2694
1026,1026,0,2046,2164
1027,1027,0,2047,1634
1028,1028,0,2046,1140
1029,1029,0,2047,689
1030,1030,0,2046,324
1031,1031,0,2046,75
