Sample in Buffer,Sample in Window,TRIGGER,adc1_data_a_d0[11:0],adc1_data_b_d0[11:0]
0,0,0,2047,229
1,1,0,2046,1522
2,2,0,2047,3218
3,3,0,2046,3995
4,4,0,2047,3244
5,5,0,2046,1555
6,6,0,2047,243
7,7,0,2047,332
8,8,0,2047,1752
9,9,0,2047,3396
10,10,0,2047,3982
11,11,0,2046,3051
12,12,0,2047,1330
13,13,0,2046,163
14,14,0,2046,459
15,15,0,2047,1987
16,16,0,2046,3557
17,17,0,2046,3941
18,18,0,2047,2842
19,19,0,2046,1116
20,20,0,2047,111
21,21,0,2046,609
22,22,0,2047,2223
23,23,0,2046,3694
24,24,0,2046,3873
25,25,0,2046,2621
26,26,0,2046,915
27,27,0,2047,86
28,28,0,2047,779
29,29,0,2046,2456
30,30,0,2046,3806
31,31,0,2047,3779
32,32,0,2047,2392
33,33,0,2046,731
34,34,0,2046,90
35,35,0,2046,969
36,36,0,2046,2682
37,37,0,2047,3894
38,38,0,2047,3658
39,39,0,2046,2159
40,40,0,2046,566
41,41,0,2046,122
42,42,0,2046,1174
43,43,0,2047,2900
44,44,0,2046,3955
45,45,0,2047,3514
46,46,0,2046,1923
47,47,0,2046,422
48,48,0,2046,182
49,49,0,2046,1390
50,50,0,2047,3105
51,51,0,2046,3988
52,52,0,2047,3350
53,53,0,2047,1689
54,54,0,2046,301
55,55,0,2047,269
56,56,0,2046,1617
57,57,0,2046,3295
58,58,0,2047,3992
59,59,0,2047,3165
60,60,0,2046,1460
61,61,0,2047,206
62,62,0,2046,381
63,63,0,2046,1850
64,64,0,2047,3465
65,65,0,2047,3967
66,66,0,2046,2964
67,67,0,2047,1239
68,68,0,2046,138
69,69,0,2046,518
70,70,0,2047,2084
71,71,0,2046,3616
72,72,0,2047,3916
73,73,0,2047,2751
74,74,0,2047,1031
75,75,0,2046,97
76,76,0,2047,677
77,77,0,2047,2321
78,78,0,2047,3743
79,79,0,2047,3837
80,80,0,2047,2527
81,81,0,2046,837
82,82,0,2046,84
83,83,0,2047,856
84,84,0,2046,2551
85,85,0,2046,3845
86,86,0,2047,3731
87,87,0,2047,2296
88,88,0,2046,660
89,89,0,2047,100
90,90,0,2046,1051
91,91,0,2046,2773
92,92,0,2047,3923
93,93,0,2046,3601
94,94,0,2047,2060
95,95,0,2047,503
96,96,0,2046,143
97,97,0,2047,1263
98,98,0,2047,2987
99,99,0,2047,3972
100,100,0,2047,3448
101,101,0,2046,1825
102,102,0,2046,369
103,103,0,2047,215
104,104,0,2047,1484
105,105,0,2047,3185
106,106,0,2046,3992
107,107,0,2046,3275
108,108,0,2046,1593
109,109,0,2046,259
110,110,0,2047,313
111,111,0,2047,1713
112,112,0,2046,3368
113,113,0,2047,3985
114,114,0,2047,3084
115,115,0,2046,1367
116,116,0,2047,174
117,117,0,2047,436
118,118,0,2046,1948
119,119,0,2046,3531
120,120,0,2046,3950
121,121,0,2046,2877
122,122,0,2046,1151
123,123,0,2046,117
124,124,0,2047,582
125,125,0,2046,2182
126,126,0,2046,3673
127,127,0,2046,3887
128,128,0,2046,2659
129,129,0,2047,947
130,130,0,2046,88
131,131,0,2046,750
132,132,0,2047,2417
133,133,0,2047,3789
134,134,0,2047,3796
135,135,0,2046,2432
136,136,0,2046,761
137,137,0,2046,86
138,138,0,2046,936
139,139,0,2046,2645
140,140,0,2047,3882
141,141,0,2047,3680
142,142,0,2046,2198
143,143,0,2047,593
144,144,0,2046,115
145,145,0,2047,1138
146,146,0,2047,2864
147,147,0,2047,3947
148,148,0,2047,3540
149,149,0,2047,1963
150,150,0,2047,445
151,151,0,2047,170
152,152,0,2047,1353
153,153,0,2047,3072
154,154,0,2046,3984
155,155,0,2047,3378
156,156,0,2047,1728
157,157,0,2047,320
158,158,0,2047,252
159,159,0,2047,1579
160,160,0,2046,3264
161,161,0,2047,3993
162,162,0,2047,3198
163,163,0,2046,1498
164,164,0,2047,221
165,165,0,2046,361
166,166,0,2047,1810
167,167,0,2047,3438
168,168,0,2046,3973
169,169,0,2046,2999
170,170,0,2046,1275
171,171,0,2046,147
172,172,0,2047,494
173,173,0,2046,2046
174,174,0,2046,3592
175,175,0,2047,3926
176,176,0,2046,2788
177,177,0,2047,1065
178,178,0,2046,102
179,179,0,2046,649
180,180,0,2046,2281
181,181,0,2046,3724
182,182,0,2046,3852
183,183,0,2047,2566
184,184,0,2047,868
185,185,0,2046,85
186,186,0,2047,825
187,187,0,2047,2512
188,188,0,2047,3831
189,189,0,2046,3751
190,190,0,2046,2335
191,191,0,2046,689
192,192,0,2046,94
193,193,0,2047,1018
194,194,0,2046,2736
195,195,0,2046,3912
196,196,0,2046,3624
197,197,0,2046,2100
198,198,0,2047,529
199,199,0,2047,134
200,200,0,2047,1227
201,201,0,2046,2952
202,202,0,2047,3966
203,203,0,2046,3475
204,204,0,2046,1864
205,205,0,2047,389
206,206,0,2046,201
207,207,0,2047,1446
208,208,0,2047,3153
209,209,0,2046,3991
210,210,0,2046,3306
211,211,0,2047,1631
212,212,0,2046,275
213,213,0,2046,294
214,214,0,2047,1675
215,215,0,2046,3338
216,216,0,2047,3989
217,217,0,2046,3117
218,218,0,2046,1405
219,219,0,2046,187
220,220,0,2046,413
221,221,0,2047,1908
222,222,0,2046,3505
223,223,0,2047,3958
224,224,0,2046,2913
225,225,0,2046,1187
226,226,0,2047,125
227,227,0,2046,556
228,228,0,2046,2144
229,229,0,2046,3649
230,230,0,2046,3899
231,231,0,2046,2696
232,232,0,2047,981
233,233,0,2046,90
234,234,0,2047,720
235,235,0,2046,2378
236,236,0,2046,3772
237,237,0,2047,3813
238,238,0,2046,2470
239,239,0,2046,791
240,240,0,2047,85
241,241,0,2047,903
242,242,0,2047,2606
243,243,0,2046,3868
244,244,0,2047,3702
245,245,0,2047,2237
246,246,0,2047,620
247,247,0,2046,108
248,248,0,2046,1103
249,249,0,2047,2828
250,250,0,2046,3937
251,251,0,2046,3565
252,252,0,2046,2002
253,253,0,2047,467
254,254,0,2047,159
255,255,0,2046,1315
256,256,0,2046,3037
257,257,0,2047,3980
258,258,0,2046,3407
259,259,0,2047,1767
260,260,0,2046,339
261,261,0,2046,236
262,262,0,2046,1539
263,263,0,2047,3232
264,264,0,2047,3994
265,265,0,2046,3230
266,266,0,2046,1537
267,267,0,2047,235
268,268,0,2046,341
269,269,0,2047,1770
270,270,0,2046,3410
271,271,0,2046,3978
272,272,0,2046,3034
273,273,0,2046,1313
274,274,0,2047,157
275,275,0,2047,470
276,276,0,2046,2006
277,277,0,2046,3567
278,278,0,2046,3936
279,279,0,2046,2825
280,280,0,2046,1100
281,281,0,2046,107
282,282,0,2046,622
283,283,0,2046,2241
284,284,0,2047,3702
285,285,0,2046,3867
286,286,0,2047,2603
287,287,0,2047,900
288,288,0,2047,85
289,289,0,2046,794
290,290,0,2047,2474
291,291,0,2046,3814
292,292,0,2047,3769
293,293,0,2046,2374
294,294,0,2047,717
295,295,0,2047,91
296,296,0,2047,984
297,297,0,2046,2700
298,298,0,2047,3900
299,299,0,2046,3647
300,300,0,2046,2140
301,301,0,2047,553
302,302,0,2046,126
303,303,0,2046,1190
304,304,0,2046,2916
305,305,0,2047,3958
306,306,0,2047,3502
307,307,0,2046,1905
308,308,0,2047,411
309,309,0,2046,187
310,310,0,2046,1408
311,311,0,2047,3120
312,312,0,2047,3989
313,313,0,2047,3335
314,314,0,2046,1671
315,315,0,2046,293
316,316,0,2046,276
317,317,0,2047,1635
318,318,0,2046,3308
319,319,0,2047,3991
320,320,0,2046,3151
321,321,0,2046,1442
322,322,0,2047,200
323,323,0,2046,392
324,324,0,2047,1868
325,325,0,2046,3478
326,326,0,2047,3965
327,327,0,2046,2948
328,328,0,2046,1222
329,329,0,2046,133
330,330,0,2046,530
331,331,0,2046,2104
332,332,0,2047,3626
333,333,0,2047,3910
334,334,0,2046,2734
335,335,0,2046,1015
336,336,0,2047,94
337,337,0,2046,690
338,338,0,2047,2339
339,339,0,2047,3752
340,340,0,2047,3829
341,341,0,2046,2509
342,342,0,2046,823
343,343,0,2046,84
344,344,0,2046,871
345,345,0,2046,2568
346,346,0,2046,3854
347,347,0,2046,3722
348,348,0,2046,2277
349,349,0,2046,647
350,350,0,2046,102
351,351,0,2046,1068
352,352,0,2046,2791
353,353,0,2046,3927
354,354,0,2047,3590
355,355,0,2047,2042
356,356,0,2046,492
357,357,0,2046,148
358,358,0,2047,1279
359,359,0,2047,3003
360,360,0,2046,3975
361,361,0,2046,3435
362,362,0,2046,1807
363,363,0,2046,359
364,364,0,2046,221
365,365,0,2046,1502
366,366,0,2047,3200
367,367,0,2047,3993
368,368,0,2046,3261
369,369,0,2047,1575
370,370,0,2047,251
371,371,0,2047,321
372,372,0,2047,1731
373,373,0,2046,3381
374,374,0,2046,3983
375,375,0,2047,3068
376,376,0,2046,1350
377,377,0,2047,169
378,378,0,2046,446
379,379,0,2046,1966
380,380,0,2047,3542
381,381,0,2047,3946
382,382,0,2047,2861
383,383,0,2047,1134
384,384,0,2046,114
385,385,0,2046,594
386,386,0,2046,2201
387,387,0,2047,3682
388,388,0,2046,3880
389,389,0,2047,2642
390,390,0,2046,933
391,391,0,2047,87
392,392,0,2047,763
393,393,0,2046,2435
394,394,0,2047,3797
395,395,0,2046,3788
396,396,0,2046,2414
397,397,0,2047,747
398,398,0,2047,89
399,399,0,2046,951
400,400,0,2046,2662
401,401,0,2046,3887
402,402,0,2046,3669
403,403,0,2047,2180
404,404,0,2047,580
405,405,0,2047,118
406,406,0,2047,1154
407,407,0,2047,2880
408,408,0,2046,3950
409,409,0,2047,3528
410,410,0,2046,1944
411,411,0,2047,435
412,412,0,2046,175
413,413,0,2046,1370
414,414,0,2046,3086
415,415,0,2046,3986
416,416,0,2046,3365
417,417,0,2047,1710
418,418,0,2046,312
419,419,0,2046,260
420,420,0,2047,1596
421,421,0,2047,3278
422,422,0,2046,3993
423,423,0,2046,3183
424,424,0,2046,1480
425,425,0,2046,213
426,426,0,2046,370
427,427,0,2046,1829
428,428,0,2047,3450
429,429,0,2046,3972
430,430,0,2047,2984
431,431,0,2047,1259
432,432,0,2046,143
433,433,0,2046,505
434,434,0,2046,2063
435,435,0,2046,3603
436,436,0,2046,3921
437,437,0,2047,2771
438,438,0,2046,1050
439,439,0,2047,99
440,440,0,2046,662
441,441,0,2046,2299
442,442,0,2046,3733
443,443,0,2047,3845
444,444,0,2047,2549
445,445,0,2047,853
446,446,0,2046,84
447,447,0,2046,839
448,448,0,2046,2530
449,449,0,2046,3838
450,450,0,2047,3742
451,451,0,2047,2317
452,452,0,2046,676
453,453,0,2047,97
454,454,0,2046,1033
455,455,0,2046,2754
456,456,0,2046,3916
457,457,0,2046,3613
458,458,0,2046,2082
459,459,0,2047,517
460,460,0,2047,138
461,461,0,2046,1243
462,462,0,2046,2968
463,463,0,2047,3969
464,464,0,2046,3463
465,465,0,2047,1847
466,466,0,2046,380
467,467,0,2046,208
468,468,0,2047,1463
469,469,0,2046,3168
470,470,0,2046,3992
471,471,0,2046,3292
472,472,0,2046,1614
473,473,0,2046,267
474,474,0,2046,303
475,475,0,2047,1692
476,476,0,2046,3352
477,477,0,2047,3987
478,478,0,2046,3102
479,479,0,2046,1387
480,480,0,2046,181
481,481,0,2047,423
482,482,0,2047,1926
483,483,0,2047,3517
484,484,0,2047,3954
485,485,0,2047,2897
486,486,0,2046,1171
487,487,0,2047,121
488,488,0,2047,569
489,489,0,2046,2161
490,490,0,2046,3660
491,491,0,2047,3892
492,492,0,2046,2679
493,493,0,2046,966
494,494,0,2047,89
495,495,0,2046,733
496,496,0,2046,2396
497,497,0,2047,3780
498,498,0,2046,3806
499,499,0,2047,2453
500,500,0,2046,777
501,501,0,2047,86
502,502,0,2047,918
503,503,0,2046,2624
504,504,0,2047,3874
505,505,0,2047,3692
506,506,0,2046,2219
507,507,0,2046,607
508,508,0,2047,111
509,509,0,2046,1119
510,510,0,2046,2845
511,511,0,2046,3941
512,512,0,2047,3554
513,513,0,2047,1984
514,514,0,2046,457
515,515,0,2046,164
516,516,0,2047,1333
517,517,0,2047,3053
518,518,0,2046,3982
519,519,0,2047,3394
520,520,0,2046,1749
521,521,0,2046,330
522,522,0,2046,244
523,523,0,2046,1557
524,524,0,2047,3247
525,525,0,2047,3994
526,526,0,2047,3215
527,527,0,2046,1519
528,528,0,2046,228
529,529,0,2047,350
530,530,0,2047,1789
531,531,0,2047,3422
532,532,0,2047,3977
533,533,0,2046,3018
534,534,0,2046,1296
535,535,0,2046,153
536,536,0,2046,481
537,537,0,2046,2025
538,538,0,2047,3579
539,539,0,2046,3932
540,540,0,2047,2807
541,541,0,2046,1084
542,542,0,2047,105
543,543,0,2046,634
544,544,0,2047,2259
545,545,0,2046,3712
546,546,0,2047,3860
547,547,0,2047,2586
548,548,0,2046,885
549,549,0,2046,84
550,550,0,2047,808
551,551,0,2046,2491
552,552,0,2047,3822
553,553,0,2047,3761
554,554,0,2046,2357
555,555,0,2047,704
556,556,0,2047,93
557,557,0,2046,1000
558,558,0,2046,2717
559,559,0,2047,3905
560,560,0,2046,3636
561,561,0,2046,2121
562,562,0,2047,542
563,563,0,2046,130
564,564,0,2046,1207
565,565,0,2046,2933
566,566,0,2047,3962
567,567,0,2046,3490
568,568,0,2046,1886
569,569,0,2047,401
570,570,0,2046,194
571,571,0,2046,1425
572,572,0,2047,3135
573,573,0,2046,3991
574,574,0,2047,3321
575,575,0,2047,1653
576,576,0,2046,285
577,577,0,2046,285
578,578,0,2046,1653
579,579,0,2047,3322
580,580,0,2047,3990
581,581,0,2047,3135
582,582,0,2046,1425
583,583,0,2046,194
584,584,0,2047,402
585,585,0,2046,1886
586,586,0,2046,3490
587,587,0,2046,3961
588,588,0,2046,2932
589,589,0,2047,1206
590,590,0,2047,129
591,591,0,2047,542
592,592,0,2046,2122
593,593,0,2046,3637
594,594,0,2046,3905
595,595,0,2047,2716
596,596,0,2046,999
597,597,0,2047,93
598,598,0,2047,704
599,599,0,2047,2357
600,600,0,2047,3761
601,601,0,2047,3822
602,602,0,2046,2491
603,603,0,2046,808
604,604,0,2046,84
605,605,0,2046,886
606,606,0,2047,2587
607,607,0,2046,3859
608,608,0,2047,3713
609,609,0,2047,2259
610,610,0,2046,634
611,611,0,2046,104
612,612,0,2047,1084
613,613,0,2047,2808
614,614,0,2046,3932
615,615,0,2047,3578
616,616,0,2046,2024
617,617,0,2046,480
618,618,0,2046,153
619,619,0,2046,1296
620,620,0,2047,3019
621,621,0,2047,3977
622,622,0,2046,3422
623,623,0,2046,1789
624,624,0,2046,350
625,625,0,2046,228
626,626,0,2047,1519
627,627,0,2047,3215
628,628,0,2047,3994
629,629,0,2047,3246
630,630,0,2046,1557
631,631,0,2046,243
632,632,0,2046,330
633,633,0,2047,1750
634,634,0,2047,3394
635,635,0,2046,3982
636,636,0,2046,3052
637,637,0,2047,1333
638,638,0,2046,164
639,639,0,2046,457
640,640,0,2047,1984
641,641,0,2046,3553
642,642,0,2046,3941
643,643,0,2046,2843
644,644,0,2047,1118
645,645,0,2046,111
646,646,0,2046,607
647,647,0,2046,2220
648,648,0,2046,3692
649,649,0,2046,3874
650,650,0,2046,2624
651,651,0,2047,918
652,652,0,2046,85
653,653,0,2047,777
654,654,0,2047,2453
655,655,0,2047,3805
656,656,0,2047,3780
657,657,0,2046,2395
658,658,0,2046,733
659,659,0,2046,90
660,660,0,2045,967
661,661,0,2047,2680
662,662,0,2047,3893
663,663,0,2046,3659
664,664,0,2047,2161
665,665,0,2046,568
666,666,0,2046,121
667,667,0,2046,1171
668,668,0,2047,2897
669,669,0,2046,3954
670,670,0,2047,3516
671,671,0,2047,1926
672,672,0,2046,423
673,673,0,2046,180
674,674,0,2046,1388
675,675,0,2046,3102
676,676,0,2047,3987
677,677,0,2046,3351
678,678,0,2046,1691
679,679,0,2046,303
680,680,0,2047,267
681,681,0,2046,1614
682,682,0,2047,3292
683,683,0,2047,3992
684,684,0,2047,3168
685,685,0,2046,1463
686,686,0,2046,208
687,687,0,2045,380
688,688,0,2047,1846
689,689,0,2046,3463
690,690,0,2047,3968
691,691,0,2046,2968
692,692,0,2047,1242
693,693,0,2046,138
694,694,0,2047,516
695,695,0,2046,2082
696,696,0,2046,3613
697,697,0,2047,3917
698,698,0,2046,2754
699,699,0,2047,1033
700,700,0,2046,97
701,701,0,2046,676
702,702,0,2047,2318
703,703,0,2046,3742
704,704,0,2047,3838
705,705,0,2046,2530
706,706,0,2046,839
707,707,0,2046,84
708,708,0,2046,854
709,709,0,2047,2549
710,710,0,2047,3846
711,711,0,2047,3732
712,712,0,2046,2299
713,713,0,2047,662
714,714,0,2047,100
715,715,0,2047,1049
716,716,0,2047,2771
717,717,0,2046,3922
718,718,0,2046,3603
719,719,0,2047,2063
720,720,0,2046,505
721,721,0,2046,143
722,722,0,2046,1260
723,723,0,2046,2984
724,724,0,2047,3971
725,725,0,2047,3450
726,726,0,2046,1829
727,727,0,2046,370
728,728,0,2047,214
729,729,0,2047,1481
730,730,0,2046,3184
731,731,0,2047,3992
732,732,0,2047,3277
733,733,0,2047,1595
734,734,0,2047,259
735,735,0,2046,311
736,736,0,2047,1711
737,737,0,2046,3366
738,738,0,2046,3986
739,739,0,2046,3086
740,740,0,2047,1370
741,741,0,2047,176
742,742,0,2047,434
743,743,0,2047,1944
744,744,0,2047,3528
745,745,0,2047,3950
746,746,0,2046,2880
747,747,0,2046,1153
748,748,0,2047,117
749,749,0,2047,580
750,750,0,2047,2180
751,751,0,2046,3670
752,752,0,2046,3887
753,753,0,2047,2662
754,754,0,2047,949
755,755,0,2046,87
756,756,0,2046,747
757,757,0,2047,2414
758,758,0,2046,3788
759,759,0,2046,3797
760,760,0,2046,2434
761,761,0,2047,763
762,762,0,2047,87
763,763,0,2046,933
764,764,0,2046,2642
765,765,0,2046,3880
766,766,0,2047,3681
767,767,0,2047,2202
768,768,0,2046,595
769,769,0,2046,114
770,770,0,2046,1135
771,771,0,2046,2862
772,772,0,2046,3946
773,773,0,2046,3542
774,774,0,2046,1966
775,775,0,2046,447
776,776,0,2046,169
777,777,0,2047,1351
778,778,0,2047,3069
779,779,0,2046,3984
780,780,0,2046,3381
781,781,0,2047,1731
782,782,0,2046,321
783,783,0,2046,251
784,784,0,2047,1576
785,785,0,2046,3261
786,786,0,2046,3994
787,787,0,2046,3200
788,788,0,2046,1501
789,789,0,2046,222
790,790,0,2046,360
791,791,0,2046,1808
792,792,0,2047,3436
793,793,0,2047,3974
794,794,0,2046,3002
795,795,0,2046,1279
796,796,0,2046,148
797,797,0,2046,492
798,798,0,2046,2042
799,799,0,2046,3590
800,800,0,2046,3927
801,801,0,2047,2791
802,802,0,2046,1068
803,803,0,2046,101
804,804,0,2046,647
805,805,0,2047,2278
806,806,0,2046,3722
807,807,0,2047,3853
808,808,0,2047,2569
809,809,0,2046,871
810,810,0,2047,84
811,811,0,2046,823
812,812,0,2046,2509
813,813,0,2047,3829
814,814,0,2046,3752
815,815,0,2047,2338
816,816,0,2046,690
817,817,0,2047,95
818,818,0,2046,1015
819,819,0,2047,2735
820,820,0,2046,3911
821,821,0,2046,3626
822,822,0,2047,2104
823,823,0,2046,531
824,824,0,2046,134
825,825,0,2046,1224
826,826,0,2047,2949
827,827,0,2047,3965
828,828,0,2047,3477
829,829,0,2046,1867
830,830,0,2047,392
831,831,0,2046,200
832,832,0,2046,1444
833,833,0,2046,3151
834,834,0,2046,3991
835,835,0,2047,3309
836,836,0,2047,1635
837,837,0,2047,277
838,838,0,2046,293
839,839,0,2047,1671
840,840,0,2047,3336
841,841,0,2047,3989
842,842,0,2046,3120
843,843,0,2046,1408
844,844,0,2047,188
845,845,0,2046,412
846,846,0,2046,1904
847,847,0,2047,3503
848,848,0,2046,3958
849,849,0,2046,2916
850,850,0,2046,1189
851,851,0,2047,126
852,852,0,2047,554
853,853,0,2047,2141
854,854,0,2047,3648
855,855,0,2046,3900
856,856,0,2046,2699
857,857,0,2046,984
858,858,0,2047,91
859,859,0,2046,718
860,860,0,2047,2375
861,861,0,2047,3769
862,862,0,2047,3814
863,863,0,2046,2474
864,864,0,2047,794
865,865,0,2046,85
866,866,0,2046,901
867,867,0,2047,2604
868,868,0,2046,3867
869,869,0,2046,3703
870,870,0,2047,2241
871,871,0,2047,622
872,872,0,2046,108
873,873,0,2047,1099
874,874,0,2046,2825
875,875,0,2047,3937
876,876,0,2046,3567
877,877,0,2046,2006
878,878,0,2047,470
879,879,0,2047,158
880,880,0,2047,1313
881,881,0,2046,3034
882,882,0,2046,3979
883,883,0,2046,3409
884,884,0,2047,1771
885,885,0,2046,341
886,886,0,2046,235
887,887,0,2046,1536
888,888,0,2047,3229
889,889,0,2047,3994
890,890,0,2047,3232
891,891,0,2046,1539
892,892,0,2046,236
893,893,0,2046,339
894,894,0,2046,1767
895,895,0,2046,3408
896,896,0,2046,3979
897,897,0,2046,3037
898,898,0,2047,1316
899,899,0,2046,158
900,900,0,2047,467
901,901,0,2047,2002
902,902,0,2046,3566
903,903,0,2047,3937
904,904,0,2046,2827
905,905,0,2046,1102
906,906,0,2046,107
907,907,0,2046,620
908,908,0,2047,2238
909,909,0,2047,3702
910,910,0,2046,3868
911,911,0,2046,2607
912,912,0,2047,903
913,913,0,2046,85
914,914,0,2047,791
915,915,0,2046,2470
916,916,0,2046,3813
917,917,0,2047,3772
918,918,0,2047,2377
919,919,0,2047,720
920,920,0,2047,91
921,921,0,2046,981
922,922,0,2047,2697
923,923,0,2046,3899
924,924,0,2046,3649
925,925,0,2046,2143
926,926,0,2047,556
927,927,0,2046,124
928,928,0,2046,1187
929,929,0,2046,2913
930,930,0,2047,3957
931,931,0,2047,3505
932,932,0,2047,1908
933,933,0,2046,413
934,934,0,2046,187
935,935,0,2046,1405
936,936,0,2046,3117
937,937,0,2046,3989
938,938,0,2047,3338
939,939,0,2047,1674
940,940,0,2046,295
941,941,0,2046,276
942,942,0,2047,1633
943,943,0,2047,3306
944,944,0,2047,3991
945,945,0,2046,3153
946,946,0,2047,1446
947,947,0,2047,201
948,948,0,2047,390
949,949,0,2046,1865
950,950,0,2047,3475
951,951,0,2047,3967
952,952,0,2047,2951
953,953,0,2046,1226
954,954,0,2047,134
955,955,0,2047,528
956,956,0,2046,2100
957,957,0,2047,3625
958,958,0,2047,3911
959,959,0,2047,2736
960,960,0,2046,1018
961,961,0,2047,95
962,962,0,2047,688
963,963,0,2047,2335
964,964,0,2047,3750
965,965,0,2046,3831
966,966,0,2046,2513
967,967,0,2046,825
968,968,0,2046,84
969,969,0,2046,868
970,970,0,2046,2565
971,971,0,2047,3852
972,972,0,2047,3723
973,973,0,2047,2280
974,974,0,2046,649
975,975,0,2046,102
976,976,0,2046,1064
977,977,0,2047,2788
978,978,0,2047,3926
979,979,0,2047,3592
980,980,0,2047,2046
981,981,0,2046,494
982,982,0,2047,147
983,983,0,2046,1276
984,984,0,2046,3000
985,985,0,2047,3975
986,986,0,2047,3438
987,987,0,2046,1810
988,988,0,2047,361
989,989,0,2046,221
990,990,0,2046,1498
991,991,0,2047,3198
992,992,0,2046,3993
993,993,0,2047,3263
994,994,0,2046,1579
995,995,0,2047,252
996,996,0,2046,320
997,997,0,2046,1729
998,998,0,2047,3379
999,999,0,2046,3984
1000,1000,0,2046,3071
1001,1001,0,2046,1353
1002,1002,0,2047,170
1003,1003,0,2046,445
1004,1004,0,2047,1963
1005,1005,0,2046,3540
1006,1006,0,2046,3947
1007,1007,0,2046,2864
1008,1008,0,2046,1138
1009,1009,0,2046,114
1010,1010,0,2047,592
1011,1011,0,2046,2198
1012,1012,0,2046,3680
1013,1013,0,2047,3881
1014,1014,0,2047,2645
1015,1015,0,2046,935
1016,1016,0,2046,87
1017,1017,0,2046,761
1018,1018,0,2046,2432
1019,1019,0,2047,3796
1020,1020,0,2046,3790
1021,1021,0,2046,2417
