Sample in Buffer,Sample in Window,TRIGGER,adc1_data_a_d0[11:0],adc1_data_b_d0[11:0]
0,0,0,2046,3780
1,1,0,2047,3315
2,2,0,2046,2716
3,3,0,2046,2046
4,4,0,2047,1374
5,5,0,2046,773
6,6,0,2046,306
7,7,0,2047,21
8,8,0,2046,0
9,9,0,2046,101
10,10,0,2046,456
11,11,0,2046,979
12,12,0,2047,1613
13,13,0,2047,2293
14,14,0,2047,2945
15,15,0,2046,3502
16,16,0,2046,3905
17,17,0,2047,4095
18,18,0,2047,4095
19,19,0,2046,3862
20,20,0,2047,3437
21,21,0,2047,2863
22,22,0,2047,2203
23,23,0,2047,1526
24,24,0,2046,902
25,25,0,2046,398
26,26,0,2046,69
27,27,0,2046,0
28,28,0,2047,47
29,29,0,2046,357
30,30,0,2045,845
31,31,0,2047,1459
32,32,0,2047,2135
33,33,0,2046,2801
34,34,0,2047,3386
35,35,0,2047,3828
36,36,0,2046,4081
37,37,0,2047,4095
38,38,0,2047,3934
39,39,0,2047,3550
40,40,0,2046,3006
41,41,0,2047,2360
42,42,0,2047,1680
43,43,0,2046,1038
44,44,0,2047,501
45,45,0,2046,128
46,46,0,2047,0
47,47,0,2047,4
48,48,0,2047,267
49,49,0,2047,720
50,50,0,2046,1310
51,51,0,2046,1977
52,52,0,2046,2652
53,53,0,2046,3261
54,54,0,2046,3741
55,55,0,2046,4042
56,56,0,2047,4095
57,57,0,2047,3996
58,58,0,2046,3655
59,59,0,2046,3143
60,60,0,2046,2514
61,61,0,2046,1836
62,62,0,2047,1178
63,63,0,2047,612
64,64,0,2047,197
65,65,0,2046,0
66,66,0,2047,0
67,67,0,2046,190
68,68,0,2046,601
69,69,0,2046,1165
70,70,0,2046,1820
71,71,0,2046,2499
72,72,0,2046,3130
73,73,0,2047,3646
74,74,0,2046,3990
75,75,0,2047,4095
76,76,0,2046,4046
77,77,0,2047,3750
78,78,0,2046,3273
79,79,0,2046,2667
80,80,0,2046,1993
81,81,0,2047,1324
82,82,0,2047,731
83,83,0,2046,277
84,84,0,2046,8
85,85,0,2046,0
86,86,0,2046,121
87,87,0,2047,490
88,88,0,2047,1024
89,89,0,2046,1664
90,90,0,2047,2344
91,91,0,2047,2992
92,92,0,2047,3540
93,93,0,2047,3928
94,94,0,2046,4095
95,95,0,2046,4084
96,96,0,2046,3836
97,97,0,2047,3398
98,98,0,2046,2815
99,99,0,2047,2151
100,100,0,2047,1475
101,101,0,2047,859
102,102,0,2047,367
103,103,0,2047,52
104,104,0,2046,0
105,105,0,2047,63
106,106,0,2046,388
107,107,0,2047,889
108,108,0,2047,1511
109,109,0,2047,2188
110,110,0,2047,2850
111,111,0,2046,3425
112,112,0,2047,3855
113,113,0,2046,4092
114,114,0,2046,4095
115,115,0,2046,3912
116,116,0,2047,3513
117,117,0,2046,2959
118,118,0,2046,2307
119,119,0,2047,1628
120,120,0,2046,992
121,121,0,2047,466
122,122,0,2047,106
123,123,0,2046,0
124,124,0,2047,17
125,125,0,2046,297
126,126,0,2046,760
127,127,0,2047,1360
128,128,0,2046,2030
129,129,0,2047,2702
130,130,0,2046,3303
131,131,0,2046,3771
132,132,0,2046,4056
133,133,0,2046,4095
134,134,0,2047,3977
135,135,0,2047,3621
136,136,0,2046,3098
137,137,0,2046,2463
138,138,0,2047,1784
139,139,0,2046,1131
140,140,0,2047,574
141,141,0,2046,172
142,142,0,2046,0
143,143,0,2047,0
144,144,0,2046,214
145,145,0,2047,640
146,146,0,2047,1213
147,147,0,2046,1873
148,148,0,2046,2551
149,149,0,2047,3174
150,150,0,2046,3678
151,151,0,2047,4009
152,152,0,2047,4095
153,153,0,2046,4030
154,154,0,2046,3720
155,155,0,2046,3232
156,156,0,2046,2616
157,157,0,2047,1941
158,158,0,2046,1276
159,159,0,2046,691
160,160,0,2046,250
161,161,0,2047,0
162,162,0,2047,0
163,163,0,2047,142
164,164,0,2047,526
165,165,0,2046,1070
166,166,0,2046,1715
167,167,0,2047,2396
168,168,0,2047,3038
169,169,0,2046,3576
170,170,0,2046,3950
171,171,0,2046,4095
172,172,0,2047,4073
173,173,0,2047,3809
174,174,0,2046,3357
175,175,0,2046,2766
176,176,0,2046,2098
177,177,0,2046,1424
178,178,0,2046,815
179,179,0,2046,336
180,180,0,2047,37
181,181,0,2046,0
182,182,0,2047,81
183,183,0,2046,421
184,184,0,2046,932
185,185,0,2046,1561
186,186,0,2047,2240
187,187,0,2047,2897
188,188,0,2046,3465
189,189,0,2046,3881
190,190,0,2046,4095
191,191,0,2046,4095
192,192,0,2046,3888
193,193,0,2046,3476
194,194,0,2047,2913
195,195,0,2046,2256
196,196,0,2047,1576
197,197,0,2046,947
198,198,0,2046,432
199,199,0,2047,87
200,200,0,2046,0
201,201,0,2047,31
202,202,0,2046,326
203,203,0,2047,802
204,204,0,2046,1409
205,205,0,2046,2082
206,206,0,2047,2751
207,207,0,2046,3345
208,208,0,2046,3800
209,209,0,2047,4070
210,210,0,2046,4095
211,211,0,2046,3957
212,212,0,2047,3586
213,213,0,2046,3052
214,214,0,2046,2412
215,215,0,2046,1731
216,216,0,2046,1084
217,217,0,2046,537
218,218,0,2047,149
219,219,0,2046,0
220,220,0,2047,0
221,221,0,2046,240
222,222,0,2046,679
223,223,0,2047,1260
224,224,0,2047,1925
225,225,0,2047,2602
226,226,0,2047,3218
227,227,0,2046,3709
228,228,0,2047,4025
229,229,0,2047,4095
230,230,0,2046,4014
231,231,0,2046,3688
232,232,0,2047,3187
233,233,0,2047,2565
234,234,0,2046,1888
235,235,0,2046,1227
236,236,0,2047,651
237,237,0,2047,222
238,238,0,2046,0
239,239,0,2047,0
240,240,0,2046,165
241,241,0,2046,563
242,242,0,2046,1116
243,243,0,2046,1767
244,244,0,2046,2448
245,245,0,2047,3084
246,246,0,2047,3610
247,247,0,2047,3970
248,248,0,2046,4095
249,249,0,2047,4060
250,250,0,2047,3781
251,251,0,2046,3316
252,252,0,2046,2717
253,253,0,2046,2046
254,254,0,2046,1375
255,255,0,2046,773
256,256,0,2046,305
257,257,0,2046,21
258,258,0,2046,0
259,259,0,2046,100
260,260,0,2046,455
261,261,0,2046,977
262,262,0,2046,1613
263,263,0,2046,2292
264,264,0,2046,2945
265,265,0,2046,3502
266,266,0,2046,3905
267,267,0,2046,4095
268,268,0,2046,4094
269,269,0,2046,3863
270,270,0,2046,3438
271,271,0,2046,2864
272,272,0,2047,2203
273,273,0,2046,1527
274,274,0,2046,903
275,275,0,2047,399
276,276,0,2047,70
277,277,0,2047,0
278,278,0,2046,47
279,279,0,2047,357
280,280,0,2046,845
281,281,0,2047,1460
282,282,0,2047,2135
283,283,0,2046,2800
284,284,0,2047,3386
285,285,0,2047,3828
286,286,0,2046,4081
287,287,0,2046,4095
288,288,0,2047,3935
289,289,0,2047,3550
290,290,0,2046,3007
291,291,0,2047,2360
292,292,0,2046,1680
293,293,0,2047,1038
294,294,0,2047,502
295,295,0,2046,128
296,296,0,2046,0
297,297,0,2046,4
298,298,0,2046,267
299,299,0,2047,719
300,300,0,2046,1310
301,301,0,2046,1977
302,302,0,2046,2651
303,303,0,2047,3260
304,304,0,2046,3742
305,305,0,2047,4042
306,306,0,2046,4095
307,307,0,2046,3996
308,308,0,2047,3655
309,309,0,2047,3143
310,310,0,2046,2514
311,311,0,2046,1837
312,312,0,2046,1180
313,313,0,2046,613
314,314,0,2046,196
315,315,0,2046,0
316,316,0,2046,0
317,317,0,2047,189
318,318,0,2045,600
319,319,0,2047,1163
320,320,0,2047,1820
321,321,0,2047,2499
322,322,0,2046,3129
323,323,0,2046,3645
324,324,0,2046,3990
325,325,0,2046,4095
326,326,0,2046,4046
327,327,0,2046,3751
328,328,0,2047,3274
329,329,0,2046,2667
330,330,0,2046,1994
331,331,0,2046,1325
332,332,0,2046,731
333,333,0,2047,277
334,334,0,2047,8
335,335,0,2046,0
336,336,0,2046,120
337,337,0,2046,491
338,338,0,2047,1023
339,339,0,2046,1663
340,340,0,2047,2343
341,341,0,2046,2991
342,342,0,2047,3540
343,343,0,2046,3927
344,344,0,2046,4095
345,345,0,2047,4085
346,346,0,2047,3837
347,347,0,2047,3398
348,348,0,2047,2815
349,349,0,2046,2151
350,350,0,2046,1475
351,351,0,2047,859
352,352,0,2047,367
353,353,0,2046,53
354,354,0,2046,0
355,355,0,2046,63
356,356,0,2047,389
357,357,0,2046,888
358,358,0,2046,1510
359,359,0,2046,2187
360,360,0,2046,2849
361,361,0,2046,3424
362,362,0,2047,3855
363,363,0,2046,4092
364,364,0,2046,4095
365,365,0,2047,3912
366,366,0,2046,3513
367,367,0,2046,2959
368,368,0,2047,2308
369,369,0,2046,1628
370,370,0,2046,992
371,371,0,2046,466
372,372,0,2046,107
373,373,0,2046,0
374,374,0,2046,17
375,375,0,2046,296
376,376,0,2047,760
377,377,0,2047,1358
378,378,0,2046,2030
379,379,0,2046,2701
380,380,0,2046,3303
381,381,0,2047,3771
382,382,0,2047,4056
383,383,0,2047,4095
384,384,0,2046,3977
385,385,0,2046,3622
386,386,0,2047,3098
387,387,0,2046,2464
388,388,0,2046,1784
389,389,0,2047,1132
390,390,0,2046,575
391,391,0,2047,173
392,392,0,2046,0
393,393,0,2046,0
394,394,0,2046,214
395,395,0,2046,638
396,396,0,2047,1212
397,397,0,2047,1872
398,398,0,2046,2550
399,399,0,2046,3174
400,400,0,2046,3677
401,401,0,2046,4008
402,402,0,2046,4095
403,403,0,2047,4030
404,404,0,2046,3720
405,405,0,2045,3231
406,406,0,2046,2617
407,407,0,2046,1940
408,408,0,2046,1276
409,409,0,2046,691
410,410,0,2046,249
411,411,0,2046,0
412,412,0,2047,0
413,413,0,2047,142
414,414,0,2046,526
415,415,0,2046,1069
416,416,0,2047,1715
417,417,0,2047,2396
418,418,0,2047,3038
419,419,0,2047,3576
420,420,0,2046,3950
421,421,0,2046,4095
422,422,0,2046,4073
423,423,0,2046,3809
424,424,0,2046,3358
425,425,0,2046,2767
426,426,0,2047,2099
427,427,0,2047,1424
428,428,0,2046,816
429,429,0,2047,336
430,430,0,2046,36
431,431,0,2046,0
432,432,0,2046,81
433,433,0,2047,421
434,434,0,2046,932
435,435,0,2047,1561
436,436,0,2047,2240
437,437,0,2046,2897
438,438,0,2047,3464
439,439,0,2046,3880
440,440,0,2047,4095
441,441,0,2046,4095
442,442,0,2047,3888
443,443,0,2046,3476
444,444,0,2047,2913
445,445,0,2047,2256
446,446,0,2046,1577
447,447,0,2047,947
448,448,0,2046,432
449,449,0,2046,87
450,450,0,2047,0
451,451,0,2046,31
452,452,0,2047,326
453,453,0,2046,802
454,454,0,2047,1408
455,455,0,2046,2082
456,456,0,2046,2751
457,457,0,2046,3344
458,458,0,2046,3800
459,459,0,2046,4069
460,460,0,2046,4095
461,461,0,2046,3957
462,462,0,2047,3586
463,463,0,2046,3053
464,464,0,2046,2412
465,465,0,2046,1732
466,466,0,2047,1085
467,467,0,2047,537
468,468,0,2046,149
469,469,0,2046,0
470,470,0,2047,0
471,471,0,2047,240
472,472,0,2046,678
473,473,0,2046,1260
474,474,0,2046,1924
475,475,0,2046,2601
476,476,0,2046,3217
477,477,0,2046,3709
478,478,0,2046,4024
479,479,0,2047,4095
480,480,0,2046,4014
481,481,0,2047,3688
482,482,0,2047,3188
483,483,0,2047,2566
484,484,0,2046,1889
485,485,0,2046,1227
486,486,0,2046,652
487,487,0,2046,223
488,488,0,2046,0
489,489,0,2046,0
490,490,0,2046,164
491,491,0,2046,562
492,492,0,2046,1116
493,493,0,2046,1766
494,494,0,2047,2446
495,495,0,2047,3084
496,496,0,2047,3611
497,497,0,2046,3970
498,498,0,2046,4095
499,499,0,2046,4060
500,500,0,2046,3781
501,501,0,2046,3317
502,502,0,2047,2717
503,503,0,2047,2046
504,504,0,2047,1375
505,505,0,2046,774
506,506,0,2046,306
507,507,0,2047,22
508,508,0,2046,0
509,509,0,2046,100
510,510,0,2046,455
511,511,0,2047,977
512,512,0,2047,1612
513,513,0,2047,2291
514,514,0,2046,2944
515,515,0,2046,3502
516,516,0,2046,3905
517,517,0,2047,4095
518,518,0,2046,4095
519,519,0,2046,3864
520,520,0,2046,3438
521,521,0,2046,2864
522,522,0,2046,2204
523,523,0,2046,1526
524,524,0,2047,903
525,525,0,2046,400
526,526,0,2046,69
527,527,0,2047,0
528,528,0,2046,47
529,529,0,2047,357
530,530,0,2047,844
531,531,0,2046,1459
532,532,0,2046,2134
533,533,0,2046,2800
534,534,0,2047,3385
535,535,0,2047,3828
536,536,0,2046,4082
537,537,0,2046,4095
538,538,0,2046,3936
539,539,0,2046,3551
540,540,0,2046,3007
541,541,0,2047,2361
542,542,0,2046,1680
543,543,0,2047,1038
544,544,0,2046,502
545,545,0,2046,127
546,546,0,2046,0
547,547,0,2047,5
548,548,0,2047,267
549,549,0,2046,719
550,550,0,2046,1309
551,551,0,2047,1977
552,552,0,2046,2651
553,553,0,2046,3261
554,554,0,2046,3741
555,555,0,2047,4041
556,556,0,2046,4095
557,557,0,2046,3996
558,558,0,2046,3656
559,559,0,2046,3144
560,560,0,2046,2516
561,561,0,2046,1837
562,562,0,2046,1179
563,563,0,2046,613
564,564,0,2047,197
565,565,0,2046,0
566,566,0,2047,0
567,567,0,2046,189
568,568,0,2046,600
569,569,0,2047,1163
570,570,0,2047,1819
571,571,0,2047,2498
572,572,0,2046,3129
573,573,0,2047,3644
574,574,0,2047,3990
575,575,0,2046,4095
576,576,0,2046,4046
577,577,0,2047,3751
578,578,0,2046,3274
579,579,0,2047,2667
580,580,0,2046,1994
581,581,0,2046,1326
582,582,0,2046,732
583,583,0,2047,277
584,584,0,2046,9
585,585,0,2045,0
586,586,0,2047,120
587,587,0,2046,490
588,588,0,2046,1023
589,589,0,2046,1663
590,590,0,2046,2344
591,591,0,2046,2992
592,592,0,2047,3539
593,593,0,2046,3928
594,594,0,2047,4095
595,595,0,2047,4085
596,596,0,2046,3837
597,597,0,2047,3398
598,598,0,2046,2816
599,599,0,2047,2152
600,600,0,2046,1475
601,601,0,2046,859
602,602,0,2046,368
603,603,0,2046,52
604,604,0,2047,0
605,605,0,2047,63
606,606,0,2046,388
607,607,0,2046,888
608,608,0,2046,1509
609,609,0,2047,2187
610,610,0,2047,2849
611,611,0,2047,3425
612,612,0,2046,3855
613,613,0,2046,4091
614,614,0,2047,4095
615,615,0,2046,3912
616,616,0,2047,3514
617,617,0,2046,2960
618,618,0,2047,2308
619,619,0,2047,1629
620,620,0,2046,993
621,621,0,2046,467
622,622,0,2046,107
623,623,0,2046,0
624,624,0,2047,17
625,625,0,2046,296
626,626,0,2047,759
627,627,0,2047,1358
628,628,0,2047,2029
629,629,0,2046,2701
630,630,0,2047,3303
631,631,0,2046,3770
632,632,0,2047,4056
633,633,0,2046,4095
634,634,0,2046,3977
635,635,0,2046,3621
636,636,0,2047,3099
637,637,0,2046,2465
638,638,0,2047,1785
639,639,0,2047,1132
640,640,0,2046,576
641,641,0,2046,173
642,642,0,2047,0
643,643,0,2046,0
644,644,0,2046,214
645,645,0,2046,639
646,646,0,2047,1211
647,647,0,2046,1871
648,648,0,2046,2549
649,649,0,2046,3173
650,650,0,2046,3677
651,651,0,2047,4008
652,652,0,2047,4095
653,653,0,2046,4030
654,654,0,2046,3720
655,655,0,2047,3232
656,656,0,2046,2618
657,657,0,2047,1941
658,658,0,2046,1277
659,659,0,2046,692
660,660,0,2046,250
661,661,0,2047,0
662,662,0,2046,0
663,663,0,2047,142
664,664,0,2047,526
665,665,0,2047,1069
666,666,0,2046,1715
667,667,0,2046,2395
668,668,0,2046,3038
669,669,0,2047,3575
670,670,0,2047,3949
671,671,0,2047,4095
672,672,0,2046,4073
673,673,0,2047,3809
674,674,0,2046,3358
675,675,0,2047,2767
676,676,0,2046,2099
677,677,0,2046,1425
678,678,0,2047,816
679,679,0,2046,337
680,680,0,2046,36
681,681,0,2046,0
682,682,0,2046,81
683,683,0,2046,420
684,684,0,2047,932
685,685,0,2047,1561
686,686,0,2046,2239
687,687,0,2046,2897
688,688,0,2046,3464
689,689,0,2047,3880
690,690,0,2046,4095
691,691,0,2047,4095
692,692,0,2046,3888
693,693,0,2046,3477
694,694,0,2047,2913
695,695,0,2046,2257
696,696,0,2046,1578
697,697,0,2047,947
698,698,0,2046,433
699,699,0,2047,88
700,700,0,2047,0
701,701,0,2046,31
702,702,0,2047,325
703,703,0,2047,801
704,704,0,2046,1408
705,705,0,2046,2081
706,706,0,2046,2750
707,707,0,2046,3344
708,708,0,2046,3799
709,709,0,2047,4070
710,710,0,2046,4095
711,711,0,2046,3957
712,712,0,2046,3587
713,713,0,2046,3053
714,714,0,2046,2413
715,715,0,2046,1732
716,716,0,2046,1084
717,717,0,2047,537
718,718,0,2046,150
719,719,0,2046,0
720,720,0,2046,0
721,721,0,2046,240
722,722,0,2046,678
723,723,0,2047,1260
724,724,0,2047,1924
725,725,0,2046,2600
726,726,0,2047,3217
727,727,0,2046,3709
728,728,0,2046,4026
729,729,0,2046,4095
730,730,0,2046,4014
731,731,0,2046,3689
732,732,0,2047,3189
733,733,0,2046,2567
734,734,0,2047,1889
735,735,0,2046,1228
736,736,0,2047,652
737,737,0,2047,224
738,738,0,2046,0
739,739,0,2046,0
740,740,0,2046,165
741,741,0,2047,562
742,742,0,2046,1116
743,743,0,2046,1766
744,744,0,2047,2447
745,745,0,2046,3084
746,746,0,2046,3610
747,747,0,2046,3970
748,748,0,2046,4095
749,749,0,2046,4060
750,750,0,2046,3781
751,751,0,2046,3317
752,752,0,2047,2718
753,753,0,2046,2047
754,754,0,2046,1375
755,755,0,2046,774
756,756,0,2046,306
757,757,0,2046,22
758,758,0,2046,0
759,759,0,2047,101
760,760,0,2046,455
761,761,0,2047,977
762,762,0,2047,1611
763,763,0,2046,2292
764,764,0,2047,2944
765,765,0,2047,3502
766,766,0,2047,3905
767,767,0,2047,4095
768,768,0,2047,4095
769,769,0,2046,3863
770,770,0,2047,3437
771,771,0,2047,2865
772,772,0,2046,2204
773,773,0,2047,1527
774,774,0,2047,903
775,775,0,2047,400
776,776,0,2046,70
777,777,0,2046,0
778,778,0,2046,46
779,779,0,2046,357
780,780,0,2046,844
781,781,0,2046,1458
782,782,0,2046,2134
783,783,0,2046,2799
784,784,0,2046,3385
785,785,0,2047,3827
786,786,0,2046,4081
787,787,0,2046,4095
788,788,0,2047,3935
789,789,0,2046,3551
790,790,0,2046,3007
791,791,0,2047,2361
792,792,0,2046,1681
793,793,0,2046,1039
794,794,0,2046,502
795,795,0,2047,129
796,796,0,2046,0
797,797,0,2047,4
798,798,0,2047,267
799,799,0,2046,718
800,800,0,2046,1309
801,801,0,2047,1976
802,802,0,2046,2650
803,803,0,2046,3260
804,804,0,2047,3740
805,805,0,2046,4041
806,806,0,2046,4095
807,807,0,2046,3996
808,808,0,2046,3656
809,809,0,2046,3144
810,810,0,2047,2515
811,811,0,2046,1837
812,812,0,2046,1179
813,813,0,2046,613
814,814,0,2046,197
815,815,0,2047,0
816,816,0,2047,0
817,817,0,2047,189
818,818,0,2047,600
819,819,0,2046,1163
820,820,0,2046,1818
821,821,0,2046,2499
822,822,0,2046,3129
823,823,0,2046,3645
824,824,0,2047,3990
825,825,0,2046,4095
826,826,0,2046,4046
827,827,0,2046,3752
828,828,0,2047,3275
829,829,0,2047,2667
830,830,0,2046,1994
831,831,0,2046,1326
832,832,0,2046,732
833,833,0,2047,278
834,834,0,2046,8
835,835,0,2046,0
836,836,0,2047,120
837,837,0,2047,490
838,838,0,2046,1022
839,839,0,2046,1663
840,840,0,2047,2343
841,841,0,2047,2991
842,842,0,2047,3539
843,843,0,2046,3929
844,844,0,2046,4095
845,845,0,2046,4085
846,846,0,2046,3837
847,847,0,2047,3399
848,848,0,2046,2816
849,849,0,2047,2152
850,850,0,2047,1476
851,851,0,2046,859
852,852,0,2047,368
853,853,0,2046,52
854,854,0,2046,0
855,855,0,2046,62
856,856,0,2046,388
857,857,0,2047,888
858,858,0,2046,1509
859,859,0,2046,2186
860,860,0,2046,2848
861,861,0,2047,3424
862,862,0,2047,3854
863,863,0,2046,4092
864,864,0,2047,4095
865,865,0,2047,3913
866,866,0,2046,3514
867,867,0,2046,2960
868,868,0,2046,2309
869,869,0,2047,1629
870,870,0,2047,993
871,871,0,2046,467
872,872,0,2047,107
873,873,0,2046,0
874,874,0,2046,17
875,875,0,2046,296
876,876,0,2046,758
877,877,0,2047,1358
878,878,0,2047,2028
879,879,0,2046,2700
880,880,0,2046,3302
881,881,0,2046,3770
882,882,0,2046,4055
883,883,0,2047,4095
884,884,0,2046,3977
885,885,0,2046,3622
886,886,0,2046,3099
887,887,0,2046,2465
888,888,0,2046,1785
889,889,0,2047,1132
890,890,0,2046,575
891,891,0,2047,173
892,892,0,2046,0
893,893,0,2046,0
894,894,0,2046,214
895,895,0,2046,638
896,896,0,2046,1211
897,897,0,2046,1871
898,898,0,2047,2549
899,899,0,2045,3174
900,900,0,2046,3678
901,901,0,2046,4008
902,902,0,2047,4095
903,903,0,2046,4030
904,904,0,2046,3721
905,905,0,2047,3233
906,906,0,2046,2617
907,907,0,2046,1941
908,908,0,2046,1277
909,909,0,2047,692
910,910,0,2047,250
911,911,0,2046,0
912,912,0,2046,0
913,913,0,2046,142
914,914,0,2046,525
915,915,0,2047,1069
916,916,0,2047,1714
917,917,0,2046,2395
918,918,0,2047,3037
919,919,0,2047,3575
920,920,0,2046,3950
921,921,0,2046,4095
922,922,0,2046,4073
923,923,0,2047,3809
924,924,0,2046,3358
925,925,0,2046,2768
926,926,0,2046,2100
927,927,0,2047,1426
928,928,0,2046,817
929,929,0,2047,337
930,930,0,2047,36
931,931,0,2046,0
932,932,0,2047,81
933,933,0,2046,421
934,934,0,2046,932
935,935,0,2047,1560
936,936,0,2046,2238
937,937,0,2046,2897
938,938,0,2046,3464
939,939,0,2046,3880
940,940,0,2046,4095
941,941,0,2047,4095
942,942,0,2047,3889
943,943,0,2046,3476
944,944,0,2047,2913
945,945,0,2046,2256
946,946,0,2046,1578
947,947,0,2046,947
948,948,0,2046,433
949,949,0,2046,88
950,950,0,2046,0
951,951,0,2046,31
952,952,0,2047,326
953,953,0,2046,801
954,954,0,2047,1408
955,955,0,2046,2082
956,956,0,2047,2750
957,957,0,2047,3344
958,958,0,2047,3800
959,959,0,2046,4069
960,960,0,2046,4095
961,961,0,2046,3957
962,962,0,2046,3587
963,963,0,2047,3054
964,964,0,2046,2414
965,965,0,2046,1733
966,966,0,2046,1086
967,967,0,2047,538
968,968,0,2047,150
969,969,0,2046,0
970,970,0,2046,0
971,971,0,2046,240
972,972,0,2047,678
973,973,0,2046,1259
974,974,0,2047,1923
975,975,0,2046,2600
976,976,0,2046,3217
977,977,0,2047,3710
978,978,0,2047,4025
979,979,0,2046,4095
980,980,0,2046,4014
981,981,0,2046,3689
982,982,0,2047,3189
983,983,0,2046,2567
984,984,0,2046,1890
985,985,0,2046,1228
986,986,0,2046,653
987,987,0,2047,223
988,988,0,2047,0
989,989,0,2046,0
990,990,0,2046,165
991,991,0,2046,562
992,992,0,2046,1116
993,993,0,2046,1767
994,994,0,2046,2446
995,995,0,2047,3084
996,996,0,2046,3609
997,997,0,2046,3970
998,998,0,2047,4095
999,999,0,2046,4060
1000,1000,0,2047,3781
1001,1001,0,2046,3317
1002,1002,0,2046,2718
1003,1003,0,2046,2047
1004,1004,0,2046,1376
1005,1005,0,2046,774
1006,1006,0,2046,307
1007,1007,0,2046,22
1008,1008,0,2046,0
1009,1009,0,2046,99
1010,1010,0,2047,455
1011,1011,0,2046,977
1012,1012,0,2047,1611
1013,1013,0,2047,2290
1014,1014,0,2046,2944
1015,1015,0,2046,3501
1016,1016,0,2046,3905
1017,1017,0,2047,4095
1018,1018,0,2046,4095
1019,1019,0,2046,3863
1020,1020,0,2046,3439
1021,1021,0,2046,2865
1022,1022,0,2046,2204
1023,1023,0,2046,1528
1024,1024,0,2046,903
1025,1025,0,2046,400
1026,1026,0,2046,70
1027,1027,0,2046,0
1028,1028,0,2047,46
1029,1029,0,2047,356
1030,1030,0,2046,844
