Sample in Buffer,Sample in Window,TRIGGER,adc1_data_a_d0[11:0],adc1_data_b_d0[11:0]
0,0,0,2047,3883
1,1,0,2046,3375
2,2,0,2047,1511
3,3,0,2046,182
4,4,0,2046,738
5,5,0,2046,2613
6,6,0,2046,3906
7,7,0,2047,3304
8,8,0,2046,1419
9,9,0,2046,163
10,10,0,2046,809
11,11,0,2046,2704
12,12,0,2047,3924
13,13,0,2046,3231
14,14,0,2047,1329
15,15,0,2046,148
16,16,0,2047,884
17,17,0,2047,2793
18,18,0,2047,3937
19,19,0,2047,3154
20,20,0,2047,1241
21,21,0,2047,137
22,22,0,2046,963
23,23,0,2046,2879
24,24,0,2046,3944
25,25,0,2046,3075
26,26,0,2046,1155
27,27,0,2046,131
28,28,0,2047,1043
29,29,0,2046,2964
30,30,0,2047,3948
31,31,0,2046,2993
32,32,0,2047,1071
33,33,0,2047,131
34,34,0,2046,1126
35,35,0,2046,3047
36,36,0,2046,3946
37,37,0,2047,2909
38,38,0,2046,989
39,39,0,2046,134
40,40,0,2046,1212
41,41,0,2046,3127
42,42,0,2047,3940
43,43,0,2047,2822
44,44,0,2047,911
45,45,0,2047,143
46,46,0,2046,1298
47,47,0,2046,3204
48,48,0,2046,3928
49,49,0,2046,2733
50,50,0,2046,835
51,51,0,2046,157
52,52,0,2047,1388
53,53,0,2047,3279
54,54,0,2047,3913
55,55,0,2047,2644
56,56,0,2046,762
57,57,0,2046,175
58,58,0,2047,1479
59,59,0,2047,3351
60,60,0,2046,3891
61,61,0,2046,2552
62,62,0,2046,693
63,63,0,2046,198
64,64,0,2047,1572
65,65,0,2046,3418
66,66,0,2046,3866
67,67,0,2046,2460
68,68,0,2047,626
69,69,0,2046,226
70,70,0,2047,1665
71,71,0,2046,3483
72,72,0,2047,3836
73,73,0,2046,2366
74,74,0,2046,564
75,75,0,2046,258
76,76,0,2047,1759
77,77,0,2047,3544
78,78,0,2047,3802
79,79,0,2046,2271
80,80,0,2046,505
81,81,0,2046,295
82,82,0,2047,1854
83,83,0,2047,3600
84,84,0,2046,3762
85,85,0,2046,2175
86,86,0,2047,449
87,87,0,2046,336
88,88,0,2046,1949
89,89,0,2047,3655
90,90,0,2046,3719
91,91,0,2047,2080
92,92,0,2047,399
93,93,0,2046,382
94,94,0,2046,2046
95,95,0,2046,3702
96,96,0,2046,3672
97,97,0,2047,1984
98,98,0,2046,352
99,99,0,2047,431
100,100,0,2046,2141
101,101,0,2047,3748
102,102,0,2047,3621
103,103,0,2047,1888
104,104,0,2046,309
105,105,0,2047,485
106,106,0,2046,2237
107,107,0,2047,3788
108,108,0,2047,3565
109,109,0,2046,1793
110,110,0,2046,270
111,111,0,2047,542
112,112,0,2047,2332
113,113,0,2047,3824
114,114,0,2046,3505
115,115,0,2046,1698
116,116,0,2046,237
117,117,0,2046,604
118,118,0,2046,2425
119,119,0,2047,3856
120,120,0,2046,3442
121,121,0,2047,1603
122,122,0,2046,207
123,123,0,2047,669
124,124,0,2047,2520
125,125,0,2047,3883
126,126,0,2046,3375
127,127,0,2046,1511
128,128,0,2046,183
129,129,0,2047,737
130,130,0,2047,2612
131,131,0,2046,3905
132,132,0,2046,3305
133,133,0,2046,1420
134,134,0,2046,162
135,135,0,2046,809
136,136,0,2047,2702
137,137,0,2046,3923
138,138,0,2046,3231
139,139,0,2047,1329
140,140,0,2046,148
141,141,0,2046,884
142,142,0,2047,2792
143,143,0,2046,3936
144,144,0,2047,3155
145,145,0,2046,1242
146,146,0,2046,137
147,147,0,2046,962
148,148,0,2047,2879
149,149,0,2047,3944
150,150,0,2047,3076
151,151,0,2046,1156
152,152,0,2046,132
153,153,0,2047,1042
154,154,0,2046,2964
155,155,0,2046,3947
156,156,0,2046,2994
157,157,0,2046,1072
158,158,0,2046,130
159,159,0,2046,1125
160,160,0,2046,3046
161,161,0,2047,3946
162,162,0,2046,2910
163,163,0,2046,990
164,164,0,2046,134
165,165,0,2046,1210
166,166,0,2047,3126
167,167,0,2046,3940
168,168,0,2047,2823
169,169,0,2046,911
170,170,0,2046,143
171,171,0,2047,1298
172,172,0,2046,3204
173,173,0,2046,3928
174,174,0,2046,2735
175,175,0,2046,836
176,176,0,2046,157
177,177,0,2047,1387
178,178,0,2047,3278
179,179,0,2046,3912
180,180,0,2046,2645
181,181,0,2046,763
182,182,0,2046,175
183,183,0,2046,1478
184,184,0,2047,3349
185,185,0,2047,3892
186,186,0,2047,2553
187,187,0,2046,694
188,188,0,2046,198
189,189,0,2047,1570
190,190,0,2047,3418
191,191,0,2047,3866
192,192,0,2046,2460
193,193,0,2047,627
194,194,0,2046,226
195,195,0,2046,1664
196,196,0,2047,3482
197,197,0,2047,3837
198,198,0,2046,2366
199,199,0,2047,564
200,200,0,2047,257
201,201,0,2047,1757
202,202,0,2046,3543
203,203,0,2047,3802
204,204,0,2047,2272
205,205,0,2047,505
206,206,0,2046,295
207,207,0,2047,1853
208,208,0,2046,3600
209,209,0,2046,3764
210,210,0,2046,2176
211,211,0,2047,450
212,212,0,2046,336
213,213,0,2046,1949
214,214,0,2047,3654
215,215,0,2046,3720
216,216,0,2046,2080
217,217,0,2047,399
218,218,0,2046,381
219,219,0,2046,2045
220,220,0,2047,3702
221,221,0,2046,3672
222,222,0,2046,1984
223,223,0,2046,352
224,224,0,2046,430
225,225,0,2047,2140
226,226,0,2047,3747
227,227,0,2046,3621
228,228,0,2046,1889
229,229,0,2046,309
230,230,0,2047,484
231,231,0,2047,2235
232,232,0,2047,3788
233,233,0,2047,3565
234,234,0,2046,1793
235,235,0,2047,271
236,236,0,2047,542
237,237,0,2047,2330
238,238,0,2046,3824
239,239,0,2046,3505
240,240,0,2047,1699
241,241,0,2045,237
242,242,0,2046,603
243,243,0,2046,2425
244,244,0,2047,3856
245,245,0,2047,3442
246,246,0,2046,1605
247,247,0,2046,207
248,248,0,2046,668
249,249,0,2046,2519
250,250,0,2046,3882
251,251,0,2047,3375
252,252,0,2046,1512
253,253,0,2047,183
254,254,0,2046,737
255,255,0,2046,2611
256,256,0,2046,3905
257,257,0,2047,3305
258,258,0,2046,1421
259,259,0,2046,162
260,260,0,2046,808
261,261,0,2047,2701
262,262,0,2046,3923
263,263,0,2046,3232
264,264,0,2047,1330
265,265,0,2047,148
266,266,0,2046,883
267,267,0,2046,2790
268,268,0,2046,3936
269,269,0,2047,3155
270,270,0,2047,1243
271,271,0,2046,137
272,272,0,2046,961
273,273,0,2045,2878
274,274,0,2046,3944
275,275,0,2047,3076
276,276,0,2046,1157
277,277,0,2046,131
278,278,0,2046,1041
279,279,0,2047,2963
280,280,0,2046,3947
281,281,0,2047,2995
282,282,0,2047,1072
283,283,0,2046,130
284,284,0,2046,1124
285,285,0,2047,3046
286,286,0,2046,3946
287,287,0,2046,2912
288,288,0,2047,991
289,289,0,2046,135
290,290,0,2046,1209
291,291,0,2047,3126
292,292,0,2046,3940
293,293,0,2046,2824
294,294,0,2047,913
295,295,0,2046,142
296,296,0,2046,1297
297,297,0,2046,3203
298,298,0,2046,3928
299,299,0,2046,2735
300,300,0,2047,836
301,301,0,2046,156
302,302,0,2047,1386
303,303,0,2047,3277
304,304,0,2046,3913
305,305,0,2046,2646
306,306,0,2046,763
307,307,0,2046,175
308,308,0,2047,1476
309,309,0,2046,3349
310,310,0,2046,3892
311,311,0,2047,2553
312,312,0,2047,693
313,313,0,2046,198
314,314,0,2046,1570
315,315,0,2047,3416
316,316,0,2047,3867
317,317,0,2047,2461
318,318,0,2046,628
319,319,0,2046,226
320,320,0,2046,1663
321,321,0,2046,3481
322,322,0,2046,3837
323,323,0,2047,2368
324,324,0,2047,565
325,325,0,2046,257
326,326,0,2046,1757
327,327,0,2046,3542
328,328,0,2046,3803
329,329,0,2046,2272
330,330,0,2047,506
331,331,0,2047,295
332,332,0,2046,1852
333,333,0,2047,3600
334,334,0,2046,3763
335,335,0,2046,2177
336,336,0,2047,451
337,337,0,2046,335
338,338,0,2046,1948
339,339,0,2046,3653
340,340,0,2047,3720
341,341,0,2046,2081
342,342,0,2046,400
343,343,0,2046,380
344,344,0,2046,2044
345,345,0,2046,3703
346,346,0,2047,3673
347,347,0,2047,1985
348,348,0,2047,352
349,349,0,2047,430
350,350,0,2046,2140
351,351,0,2046,3747
352,352,0,2047,3621
353,353,0,2047,1889
354,354,0,2046,309
355,355,0,2046,483
356,356,0,2047,2235
357,357,0,2047,3788
358,358,0,2046,3565
359,359,0,2046,1794
360,360,0,2047,271
361,361,0,2046,542
362,362,0,2046,2330
363,363,0,2047,3823
364,364,0,2047,3506
365,365,0,2046,1699
366,366,0,2046,237
367,367,0,2046,602
368,368,0,2046,2425
369,369,0,2047,3856
370,370,0,2046,3442
371,371,0,2047,1605
372,372,0,2047,208
373,373,0,2046,668
374,374,0,2047,2518
375,375,0,2046,3883
376,376,0,2046,3376
377,377,0,2046,1513
378,378,0,2046,183
379,379,0,2046,736
380,380,0,2046,2610
381,381,0,2047,3905
382,382,0,2046,3306
383,383,0,2047,1421
384,384,0,2047,163
385,385,0,2046,807
386,386,0,2047,2701
387,387,0,2047,3923
388,388,0,2046,3233
389,389,0,2046,1331
390,390,0,2046,148
391,391,0,2047,883
392,392,0,2046,2790
393,393,0,2046,3936
394,394,0,2047,3156
395,395,0,2046,1244
396,396,0,2046,137
397,397,0,2046,961
398,398,0,2046,2878
399,399,0,2047,3944
400,400,0,2047,3077
401,401,0,2047,1157
402,402,0,2046,132
403,403,0,2047,1041
404,404,0,2046,2962
405,405,0,2047,3947
406,406,0,2046,2995
407,407,0,2046,1074
408,408,0,2046,130
409,409,0,2047,1123
410,410,0,2046,3044
411,411,0,2047,3946
412,412,0,2046,2911
413,413,0,2046,992
414,414,0,2046,134
415,415,0,2047,1208
416,416,0,2046,3124
417,417,0,2047,3940
418,418,0,2046,2825
419,419,0,2046,913
420,420,0,2046,143
421,421,0,2047,1296
422,422,0,2046,3203
423,423,0,2047,3928
424,424,0,2046,2737
425,425,0,2046,838
426,426,0,2046,156
427,427,0,2047,1385
428,428,0,2046,3277
429,429,0,2047,3912
430,430,0,2046,2647
431,431,0,2047,764
432,432,0,2047,175
433,433,0,2046,1477
434,434,0,2046,3348
435,435,0,2046,3892
436,436,0,2046,2555
437,437,0,2046,694
438,438,0,2047,198
439,439,0,2047,1569
440,440,0,2046,3417
441,441,0,2046,3867
442,442,0,2047,2463
443,443,0,2046,628
444,444,0,2046,225
445,445,0,2046,1662
446,446,0,2047,3481
447,447,0,2046,3837
448,448,0,2046,2368
449,449,0,2046,565
450,450,0,2046,257
451,451,0,2046,1757
452,452,0,2047,3543
453,453,0,2047,3802
454,454,0,2046,2273
455,455,0,2046,506
456,456,0,2046,294
457,457,0,2046,1851
458,458,0,2046,3599
459,459,0,2047,3764
460,460,0,2047,2178
461,461,0,2046,451
462,462,0,2047,335
463,463,0,2046,1948
464,464,0,2046,3652
465,465,0,2047,3721
466,466,0,2046,2081
467,467,0,2046,399
468,468,0,2046,380
469,469,0,2046,2044
470,470,0,2047,3702
471,471,0,2046,3673
472,472,0,2046,1986
473,473,0,2046,353
474,474,0,2046,430
475,475,0,2047,2139
476,476,0,2046,3746
477,477,0,2046,3622
478,478,0,2046,1890
479,479,0,2046,310
480,480,0,2047,483
481,481,0,2046,2235
482,482,0,2047,3788
483,483,0,2046,3566
484,484,0,2047,1795
485,485,0,2047,271
486,486,0,2046,541
487,487,0,2047,2329
488,488,0,2046,3823
489,489,0,2047,3506
490,490,0,2046,1699
491,491,0,2046,237
492,492,0,2046,602
493,493,0,2046,2424
494,494,0,2046,3856
495,495,0,2046,3444
496,496,0,2046,1606
497,497,0,2047,209
498,498,0,2045,667
499,499,0,2046,2518
500,500,0,2046,3883
501,501,0,2046,3376
502,502,0,2046,1513
503,503,0,2046,183
504,504,0,2046,735
505,505,0,2046,2609
506,506,0,2047,3904
507,507,0,2046,3307
508,508,0,2046,1422
509,509,0,2047,163
510,510,0,2046,807
511,511,0,2046,2700
512,512,0,2046,3924
513,513,0,2046,3233
514,514,0,2047,1332
515,515,0,2046,148
516,516,0,2047,882
517,517,0,2046,2790
518,518,0,2047,3935
519,519,0,2046,3157
520,520,0,2046,1244
521,521,0,2046,137
522,522,0,2047,960
523,523,0,2046,2877
524,524,0,2046,3944
525,525,0,2046,3078
526,526,0,2046,1158
527,527,0,2046,131
528,528,0,2046,1040
529,529,0,2047,2962
530,530,0,2046,3948
531,531,0,2047,2995
532,532,0,2047,1073
533,533,0,2047,130
534,534,0,2046,1123
535,535,0,2046,3045
536,536,0,2047,3946
537,537,0,2046,2912
538,538,0,2047,992
539,539,0,2046,134
540,540,0,2046,1209
541,541,0,2046,3125
542,542,0,2046,3939
543,543,0,2046,2825
544,544,0,2047,913
545,545,0,2047,143
546,546,0,2046,1295
547,547,0,2046,3202
548,548,0,2046,3928
549,549,0,2046,2737
550,550,0,2046,837
551,551,0,2046,156
552,552,0,2046,1385
553,553,0,2046,3276
554,554,0,2046,3913
555,555,0,2046,2647
556,556,0,2046,765
557,557,0,2046,174
558,558,0,2047,1477
559,559,0,2046,3348
560,560,0,2046,3892
561,561,0,2047,2555
562,562,0,2047,695
563,563,0,2046,197
564,564,0,2046,1568
565,565,0,2047,3416
566,566,0,2046,3867
567,567,0,2046,2462
568,568,0,2045,628
569,569,0,2046,225
570,570,0,2046,1662
571,571,0,2046,3481
572,572,0,2047,3837
573,573,0,2046,2368
574,574,0,2046,566
575,575,0,2046,257
576,576,0,2046,1756
577,577,0,2047,3542
578,578,0,2047,3803
579,579,0,2046,2274
580,580,0,2046,506
581,581,0,2046,294
582,582,0,2046,1851
583,583,0,2047,3599
584,584,0,2046,3763
585,585,0,2047,2179
586,586,0,2046,452
587,587,0,2046,334
588,588,0,2046,1947
589,589,0,2046,3653
590,590,0,2047,3721
591,591,0,2046,2082
592,592,0,2046,400
593,593,0,2046,380
594,594,0,2046,2044
595,595,0,2046,3702
596,596,0,2046,3673
597,597,0,2046,1986
598,598,0,2047,353
599,599,0,2046,429
600,600,0,2046,2138
601,601,0,2047,3746
602,602,0,2047,3622
603,603,0,2046,1891
604,604,0,2046,309
605,605,0,2046,484
606,606,0,2046,2234
607,607,0,2046,3787
608,608,0,2046,3567
609,609,0,2046,1796
610,610,0,2047,271
611,611,0,2047,541
612,612,0,2047,2329
613,613,0,2046,3823
614,614,0,2046,3507
615,615,0,2046,1701
616,616,0,2047,237
617,617,0,2046,601
618,618,0,2046,2423
619,619,0,2046,3856
620,620,0,2047,3443
621,621,0,2046,1606
622,622,0,2047,208
623,623,0,2046,667
624,624,0,2046,2517
625,625,0,2046,3882
626,626,0,2046,3377
627,627,0,2046,1513
628,628,0,2046,183
629,629,0,2047,736
630,630,0,2046,2609
631,631,0,2046,3904
632,632,0,2046,3306
633,633,0,2046,1422
634,634,0,2046,163
635,635,0,2047,807
636,636,0,2046,2699
637,637,0,2046,3922
638,638,0,2046,3233
639,639,0,2046,1332
640,640,0,2046,147
641,641,0,2046,881
642,642,0,2046,2789
643,643,0,2046,3936
644,644,0,2047,3157
645,645,0,2046,1244
646,646,0,2046,137
647,647,0,2046,959
648,648,0,2046,2876
649,649,0,2046,3944
650,650,0,2046,3077
651,651,0,2046,1158
652,652,0,2046,131
653,653,0,2046,1040
654,654,0,2046,2961
655,655,0,2046,3947
656,656,0,2046,2996
657,657,0,2046,1074
658,658,0,2046,131
659,659,0,2046,1123
660,660,0,2047,3044
661,661,0,2046,3946
662,662,0,2046,2912
663,663,0,2046,993
664,664,0,2046,134
665,665,0,2046,1208
666,666,0,2046,3124
667,667,0,2046,3939
668,668,0,2046,2826
669,669,0,2047,913
670,670,0,2046,143
671,671,0,2047,1296
672,672,0,2047,3202
673,673,0,2046,3928
674,674,0,2046,2737
675,675,0,2047,837
676,676,0,2046,156
677,677,0,2046,1384
678,678,0,2046,3276
679,679,0,2047,3913
680,680,0,2047,2647
681,681,0,2047,764
682,682,0,2047,175
683,683,0,2046,1475
684,684,0,2046,3348
685,685,0,2046,3893
686,686,0,2046,2555
687,687,0,2047,695
688,688,0,2046,197
689,689,0,2047,1568
690,690,0,2046,3416
691,691,0,2047,3867
692,692,0,2047,2463
693,693,0,2047,629
694,694,0,2046,225
695,695,0,2046,1661
696,696,0,2047,3480
697,697,0,2046,3837
698,698,0,2046,2369
699,699,0,2047,565
700,700,0,2046,257
701,701,0,2047,1756
702,702,0,2046,3541
703,703,0,2047,3803
704,704,0,2047,2274
705,705,0,2046,506
706,706,0,2046,293
707,707,0,2047,1851
708,708,0,2046,3598
709,709,0,2046,3764
710,710,0,2047,2178
711,711,0,2047,452
712,712,0,2046,335
713,713,0,2047,1946
714,714,0,2046,3652
715,715,0,2047,3720
716,716,0,2046,2082
717,717,0,2047,400
718,718,0,2046,380
719,719,0,2047,2042
720,720,0,2047,3701
721,721,0,2046,3674
722,722,0,2046,1987
723,723,0,2046,353
724,724,0,2047,430
725,725,0,2047,2139
726,726,0,2046,3746
727,727,0,2047,3622
728,728,0,2047,1890
729,729,0,2047,310
730,730,0,2047,483
731,731,0,2046,2234
732,732,0,2047,3787
733,733,0,2047,3567
734,734,0,2047,1796
735,735,0,2046,272
736,736,0,2046,540
737,737,0,2047,2329
738,738,0,2046,3822
739,739,0,2047,3507
740,740,0,2046,1700
741,741,0,2046,237
742,742,0,2046,602
743,743,0,2047,2424
744,744,0,2047,3856
745,745,0,2046,3444
746,746,0,2047,1607
747,747,0,2047,209
748,748,0,2046,666
749,749,0,2047,2516
750,750,0,2046,3882
751,751,0,2046,3377
752,752,0,2046,1514
753,753,0,2047,183
754,754,0,2047,734
755,755,0,2046,2609
756,756,0,2047,3904
757,757,0,2047,3307
758,758,0,2047,1423
759,759,0,2046,164
760,760,0,2046,807
761,761,0,2046,2699
762,762,0,2046,3923
763,763,0,2046,3233
764,764,0,2047,1333
765,765,0,2047,148
766,766,0,2047,881
767,767,0,2046,2789
768,768,0,2047,3936
769,769,0,2046,3157
770,770,0,2047,1245
771,771,0,2047,137
772,772,0,2047,959
773,773,0,2046,2876
774,774,0,2047,3943
775,775,0,2046,3079
776,776,0,2047,1159
777,777,0,2047,131
778,778,0,2046,1040
779,779,0,2046,2961
780,780,0,2047,3948
781,781,0,2046,2997
782,782,0,2046,1074
783,783,0,2047,130
784,784,0,2047,1122
785,785,0,2046,3044
786,786,0,2046,3946
787,787,0,2047,2912
788,788,0,2046,993
789,789,0,2046,134
790,790,0,2046,1208
791,791,0,2046,3125
792,792,0,2047,3940
793,793,0,2046,2826
794,794,0,2047,914
795,795,0,2046,143
796,796,0,2046,1295
797,797,0,2046,3201
798,798,0,2046,3929
799,799,0,2047,2737
800,800,0,2047,838
801,801,0,2047,156
802,802,0,2047,1384
803,803,0,2046,3276
804,804,0,2047,3913
805,805,0,2046,2648
806,806,0,2046,765
807,807,0,2046,175
808,808,0,2046,1475
809,809,0,2046,3348
810,810,0,2046,3892
811,811,0,2046,2556
812,812,0,2047,695
813,813,0,2046,197
814,814,0,2047,1567
815,815,0,2047,3415
816,816,0,2047,3867
817,817,0,2047,2463
818,818,0,2046,629
819,819,0,2046,225
820,820,0,2046,1660
821,821,0,2046,3480
822,822,0,2046,3838
823,823,0,2047,2370
824,824,0,2046,566
825,825,0,2046,257
826,826,0,2046,1754
827,827,0,2047,3540
828,828,0,2047,3803
829,829,0,2046,2275
830,830,0,2047,507
831,831,0,2046,293
832,832,0,2046,1850
833,833,0,2046,3598
834,834,0,2046,3764
835,835,0,2046,2178
836,836,0,2046,452
837,837,0,2046,334
838,838,0,2046,1946
839,839,0,2046,3652
840,840,0,2047,3721
841,841,0,2046,2083
842,842,0,2047,400
843,843,0,2046,380
844,844,0,2047,2042
845,845,0,2046,3701
846,846,0,2046,3674
847,847,0,2046,1987
848,848,0,2047,353
849,849,0,2046,429
850,850,0,2046,2137
851,851,0,2046,3745
852,852,0,2046,3622
853,853,0,2046,1891
854,854,0,2046,310
855,855,0,2046,482
856,856,0,2047,2233
857,857,0,2047,3787
858,858,0,2045,3567
859,859,0,2046,1796
860,860,0,2046,272
861,861,0,2046,540
862,862,0,2047,2328
863,863,0,2047,3823
864,864,0,2046,3508
865,865,0,2046,1702
866,866,0,2047,238
867,867,0,2046,601
868,868,0,2047,2422
869,869,0,2046,3854
870,870,0,2047,3444
871,871,0,2047,1607
872,872,0,2046,208
873,873,0,2046,666
874,874,0,2047,2516
875,875,0,2046,3882
876,876,0,2046,3377
877,877,0,2046,1514
878,878,0,2046,184
879,879,0,2046,735
880,880,0,2046,2609
881,881,0,2046,3905
882,882,0,2046,3307
883,883,0,2046,1423
884,884,0,2046,163
885,885,0,2046,806
886,886,0,2046,2699
887,887,0,2046,3922
888,888,0,2046,3234
889,889,0,2046,1333
890,890,0,2046,148
891,891,0,2047,880
892,892,0,2046,2788
893,893,0,2047,3935
894,894,0,2046,3158
895,895,0,2046,1245
896,896,0,2047,137
897,897,0,2046,959
898,898,0,2046,2876
899,899,0,2046,3943
900,900,0,2047,3078
901,901,0,2046,1159
902,902,0,2046,132
903,903,0,2046,1039
904,904,0,2046,2960
905,905,0,2046,3947
906,906,0,2046,2996
907,907,0,2047,1075
908,908,0,2046,130
909,909,0,2046,1122
910,910,0,2047,3043
911,911,0,2046,3946
912,912,0,2046,2912
913,913,0,2046,994
914,914,0,2046,134
915,915,0,2046,1207
916,916,0,2046,3123
917,917,0,2046,3940
918,918,0,2046,2826
919,919,0,2046,914
920,920,0,2047,143
921,921,0,2047,1294
922,922,0,2046,3201
923,923,0,2046,3929
924,924,0,2046,2739
925,925,0,2047,838
926,926,0,2046,156
927,927,0,2046,1382
928,928,0,2046,3276
929,929,0,2047,3913
930,930,0,2046,2648
931,931,0,2046,765
932,932,0,2047,175
933,933,0,2047,1474
934,934,0,2046,3347
935,935,0,2046,3892
936,936,0,2046,2557
937,937,0,2046,696
938,938,0,2046,198
939,939,0,2047,1567
940,940,0,2047,3415
941,941,0,2046,3867
942,942,0,2047,2463
943,943,0,2047,630
944,944,0,2047,225
945,945,0,2047,1660
946,946,0,2047,3480
947,947,0,2047,3838
948,948,0,2046,2369
949,949,0,2046,566
950,950,0,2047,256
951,951,0,2046,1754
952,952,0,2046,3541
953,953,0,2048,3804
954,954,0,2046,2275
955,955,0,2046,507
956,956,0,2046,293
957,957,0,2046,1850
958,958,0,2046,3598
959,959,0,2046,3765
960,960,0,2046,2180
961,961,0,2046,452
962,962,0,2046,334
963,963,0,2046,1945
964,964,0,2047,3651
965,965,0,2046,3721
966,966,0,2046,2084
967,967,0,2047,401
968,968,0,2047,379
969,969,0,2047,2041
970,970,0,2046,3701
971,971,0,2047,3674
972,972,0,2046,1988
973,973,0,2046,354
974,974,0,2047,428
975,975,0,2047,2136
976,976,0,2046,3745
977,977,0,2047,3623
978,978,0,2047,1892
979,979,0,2046,311
980,980,0,2046,482
981,981,0,2046,2232
982,982,0,2047,3787
983,983,0,2046,3567
984,984,0,2046,1797
985,985,0,2046,272
986,986,0,2046,540
987,987,0,2046,2328
988,988,0,2047,3823
989,989,0,2047,3508
990,990,0,2046,1703
991,991,0,2046,239
992,992,0,2047,601
993,993,0,2046,2422
994,994,0,2047,3854
995,995,0,2046,3444
996,996,0,2046,1609
997,997,0,2047,209
998,998,0,2046,665
999,999,0,2046,2516
1000,1000,0,2046,3882
1001,1001,0,2047,3379
1002,1002,0,2047,1516
1003,1003,0,2047,183
1004,1004,0,2046,735
1005,1005,0,2046,2608
1006,1006,0,2046,3905
1007,1007,0,2046,3308
1008,1008,0,2046,1423
1009,1009,0,2047,164
1010,1010,0,2047,805
1011,1011,0,2046,2699
1012,1012,0,2046,3923
1013,1013,0,2045,3235
1014,1014,0,2047,1334
1015,1015,0,2046,148
1016,1016,0,2046,880
1017,1017,0,2047,2788
1018,1018,0,2046,3936
1019,1019,0,2046,3158
1020,1020,0,2047,1245
