Sample in Buffer,Sample in Window,TRIGGER,adc1_data_a_d0[11:0],adc1_data_b_d0[11:0]
0,0,0,2046,3360
1,1,0,2047,2108
2,2,0,2047,650
3,3,0,2046,3301
4,4,0,2047,2216
5,5,0,2047,605
6,6,0,2047,3235
7,7,0,2046,2324
8,8,0,2046,568
9,9,0,2047,3163
10,10,0,2047,2430
11,11,0,2047,539
12,12,0,2046,3086
13,13,0,2046,2534
14,14,0,2047,516
15,15,0,2047,3003
16,16,0,2046,2636
17,17,0,2046,501
18,18,0,2046,2915
19,19,0,2046,2735
20,20,0,2047,493
21,21,0,2046,2824
22,22,0,2046,2830
23,23,0,2047,494
24,24,0,2046,2729
25,25,0,2047,2921
26,26,0,2046,502
27,27,0,2047,2629
28,28,0,2047,3009
29,29,0,2047,518
30,30,0,2047,2527
31,31,0,2047,3091
32,32,0,2046,541
33,33,0,2047,2423
34,34,0,2046,3168
35,35,0,2046,570
36,36,0,2046,2317
37,37,0,2046,3240
38,38,0,2047,609
39,39,0,2046,2210
40,40,0,2047,3305
41,41,0,2046,654
42,42,0,2046,2101
43,43,0,2046,3364
44,44,0,2046,705
45,45,0,2047,1992
46,46,0,2047,3417
47,47,0,2047,763
48,48,0,2047,1884
49,49,0,2046,3462
50,50,0,2046,828
51,51,0,2047,1775
52,52,0,2047,3501
53,53,0,2046,898
54,54,0,2046,1670
55,55,0,2047,3533
56,56,0,2047,975
57,57,0,2046,1565
58,58,0,2047,3557
59,59,0,2047,1056
60,60,0,2046,1462
61,61,0,2046,3574
62,62,0,2047,1143
63,63,0,2046,1363
64,64,0,2047,3582
65,65,0,2046,1234
66,66,0,2046,1267
67,67,0,2047,3584
68,68,0,2046,1329
69,69,0,2046,1175
70,70,0,2047,3578
71,71,0,2047,1428
72,72,0,2046,1086
73,73,0,2047,3564
74,74,0,2046,1529
75,75,0,2046,1003
76,76,0,2046,3542
77,77,0,2046,1632
78,78,0,2047,924
79,79,0,2047,3513
80,80,0,2047,1738
81,81,0,2046,852
82,82,0,2046,3476
83,83,0,2046,1846
84,84,0,2047,785
85,85,0,2046,3434
86,86,0,2047,1954
87,87,0,2046,725
88,88,0,2047,3383
89,89,0,2046,2063
90,90,0,2046,671
91,91,0,2046,3327
92,92,0,2047,2171
93,93,0,2046,624
94,94,0,2047,3263
95,95,0,2046,2278
96,96,0,2047,583
97,97,0,2047,3194
98,98,0,2046,2386
99,99,0,2047,550
100,100,0,2046,3119
101,101,0,2047,2492
102,102,0,2046,525
103,103,0,2046,3039
104,104,0,2046,2594
105,105,0,2047,506
106,106,0,2047,2953
107,107,0,2047,2694
108,108,0,2046,496
109,109,0,2046,2863
110,110,0,2047,2791
111,111,0,2046,492
112,112,0,2046,2769
113,113,0,2046,2884
114,114,0,2047,497
115,115,0,2047,2672
116,116,0,2047,2973
117,117,0,2046,510
118,118,0,2047,2570
119,119,0,2046,3058
120,120,0,2046,530
121,121,0,2046,2467
122,122,0,2046,3137
123,123,0,2047,557
124,124,0,2047,2361
125,125,0,2046,3210
126,126,0,2046,592
127,127,0,2047,2255
128,128,0,2047,3278
129,129,0,2047,634
130,130,0,2046,2146
131,131,0,2047,3341
132,132,0,2046,683
133,133,0,2046,2037
134,134,0,2047,3396
135,135,0,2047,738
136,136,0,2047,1928
137,137,0,2046,3445
138,138,0,2046,801
139,139,0,2046,1821
140,140,0,2046,3486
141,141,0,2046,869
142,142,0,2047,1714
143,143,0,2047,3521
144,144,0,2047,942
145,145,0,2046,1608
146,146,0,2046,3548
147,147,0,2047,1022
148,148,0,2047,1504
149,149,0,2046,3567
150,150,0,2046,1106
151,151,0,2047,1404
152,152,0,2046,3580
153,153,0,2046,1195
154,154,0,2046,1305
155,155,0,2046,3585
156,156,0,2047,1288
157,157,0,2046,1212
158,158,0,2046,3581
159,159,0,2046,1385
160,160,0,2047,1122
161,161,0,2047,3571
162,162,0,2046,1486
163,163,0,2046,1037
164,164,0,2047,3552
165,165,0,2046,1589
166,166,0,2046,956
167,167,0,2047,3527
168,168,0,2046,1694
169,169,0,2046,882
170,170,0,2047,3494
171,171,0,2047,1801
172,172,0,2046,812
173,173,0,2047,3452
174,174,0,2046,1909
175,175,0,2047,749
176,176,0,2047,3405
177,177,0,2047,2017
178,178,0,2046,693
179,179,0,2046,3352
180,180,0,2047,2126
181,181,0,2046,642
182,182,0,2046,3291
183,183,0,2046,2234
184,184,0,2046,599
185,185,0,2046,3223
186,186,0,2047,2342
187,187,0,2046,563
188,188,0,2046,3151
189,189,0,2047,2448
190,190,0,2046,535
191,191,0,2047,3072
192,192,0,2047,2552
193,193,0,2046,513
194,194,0,2047,2988
195,195,0,2047,2653
196,196,0,2046,499
197,197,0,2046,2901
198,198,0,2046,2750
199,199,0,2046,493
200,200,0,2047,2808
201,201,0,2046,2846
202,202,0,2046,494
203,203,0,2046,2712
204,204,0,2046,2936
205,205,0,2046,504
206,206,0,2046,2613
207,207,0,2046,3023
208,208,0,2046,521
209,209,0,2046,2510
210,210,0,2047,3104
211,211,0,2046,545
212,212,0,2046,2405
213,213,0,2047,3180
214,214,0,2046,577
215,215,0,2046,2299
216,216,0,2047,3251
217,217,0,2047,615
218,218,0,2047,2191
219,219,0,2047,3316
220,220,0,2046,662
221,221,0,2046,2083
222,222,0,2046,3374
223,223,0,2047,715
224,224,0,2046,1975
225,225,0,2047,3425
226,226,0,2046,774
227,227,0,2046,1865
228,228,0,2046,3470
229,229,0,2046,840
230,230,0,2046,1758
231,231,0,2046,3507
232,232,0,2047,911
233,233,0,2047,1652
234,234,0,2046,3538
235,235,0,2046,988
236,236,0,2046,1546
237,237,0,2046,3560
238,238,0,2047,1071
239,239,0,2046,1445
240,240,0,2046,3575
241,241,0,2046,1158
242,242,0,2046,1346
243,243,0,2047,3584
244,244,0,2046,1250
245,245,0,2047,1250
246,246,0,2047,3583
247,247,0,2047,1345
248,248,0,2046,1159
249,249,0,2047,3575
250,250,0,2046,1444
251,251,0,2047,1072
252,252,0,2047,3561
253,253,0,2047,1546
254,254,0,2046,990
255,255,0,2047,3537
256,256,0,2046,1650
257,257,0,2046,912
258,258,0,2047,3508
259,259,0,2047,1757
260,260,0,2047,841
261,261,0,2046,3470
262,262,0,2046,1863
263,263,0,2046,775
264,264,0,2047,3426
265,265,0,2046,1972
266,266,0,2046,716
267,267,0,2047,3374
268,268,0,2046,2081
269,269,0,2047,663
270,270,0,2046,3316
271,271,0,2046,2190
272,272,0,2046,617
273,273,0,2047,3252
274,274,0,2047,2298
275,275,0,2047,577
276,276,0,2046,3182
277,277,0,2046,2404
278,278,0,2046,545
279,279,0,2047,3105
280,280,0,2046,2509
281,281,0,2047,521
282,282,0,2046,3024
283,283,0,2047,2611
284,284,0,2046,504
285,285,0,2047,2938
286,286,0,2047,2710
287,287,0,2046,495
288,288,0,2047,2847
289,289,0,2046,2807
290,290,0,2046,493
291,291,0,2047,2752
292,292,0,2046,2899
293,293,0,2047,499
294,294,0,2047,2655
295,295,0,2047,2987
296,296,0,2046,513
297,297,0,2046,2553
298,298,0,2046,3071
299,299,0,2046,534
300,300,0,2047,2449
301,301,0,2047,3150
302,302,0,2046,562
303,303,0,2047,2343
304,304,0,2047,3222
305,305,0,2046,598
306,306,0,2046,2236
307,307,0,2046,3289
308,308,0,2046,642
309,309,0,2046,2128
310,310,0,2047,3351
311,311,0,2047,691
312,312,0,2046,2020
313,313,0,2047,3405
314,314,0,2047,748
315,315,0,2046,1911
316,316,0,2047,3453
317,317,0,2047,811
318,318,0,2047,1802
319,319,0,2046,3493
320,320,0,2046,881
321,321,0,2047,1695
322,322,0,2046,3525
323,323,0,2047,956
324,324,0,2047,1590
325,325,0,2047,3552
326,326,0,2047,1036
327,327,0,2047,1487
328,328,0,2046,3571
329,329,0,2046,1121
330,330,0,2047,1387
331,331,0,2047,3581
332,332,0,2046,1211
333,333,0,2047,1290
334,334,0,2046,3585
335,335,0,2046,1304
336,336,0,2046,1196
337,337,0,2046,3580
338,338,0,2046,1403
339,339,0,2046,1107
340,340,0,2047,3569
341,341,0,2046,1504
342,342,0,2046,1023
343,343,0,2046,3548
344,344,0,2047,1606
345,345,0,2046,943
346,346,0,2046,3522
347,347,0,2046,1711
348,348,0,2047,869
349,349,0,2047,3487
350,350,0,2047,1819
351,351,0,2047,802
352,352,0,2047,3445
353,353,0,2047,1927
354,354,0,2046,739
355,355,0,2047,3396
356,356,0,2047,2035
357,357,0,2046,684
358,358,0,2046,3341
359,359,0,2046,2144
360,360,0,2047,635
361,361,0,2047,3279
362,362,0,2047,2253
363,363,0,2047,592
364,364,0,2047,3211
365,365,0,2046,2360
366,366,0,2047,558
367,367,0,2046,3138
368,368,0,2046,2465
369,369,0,2047,531
370,370,0,2047,3058
371,371,0,2047,2569
372,372,0,2046,510
373,373,0,2046,2974
374,374,0,2047,2670
375,375,0,2046,498
376,376,0,2047,2884
377,377,0,2047,2767
378,378,0,2046,493
379,379,0,2047,2792
380,380,0,2046,2862
381,381,0,2047,496
382,382,0,2046,2696
383,383,0,2046,2951
384,384,0,2047,506
385,385,0,2047,2596
386,386,0,2047,3037
387,387,0,2047,525
388,388,0,2046,2492
389,389,0,2046,3117
390,390,0,2047,550
391,391,0,2047,2388
392,392,0,2047,3193
393,393,0,2047,583
394,394,0,2047,2281
395,395,0,2047,3261
396,396,0,2046,623
397,397,0,2047,2173
398,398,0,2047,3325
399,399,0,2047,670
400,400,0,2046,2065
401,401,0,2047,3382
402,402,0,2047,723
403,403,0,2046,1956
404,404,0,2046,3434
405,405,0,2046,784
406,406,0,2046,1848
407,407,0,2047,3476
408,408,0,2047,851
409,409,0,2047,1740
410,410,0,2046,3512
411,411,0,2047,924
412,412,0,2047,1634
413,413,0,2047,3541
414,414,0,2046,1002
415,415,0,2046,1530
416,416,0,2047,3563
417,417,0,2046,1085
418,418,0,2047,1428
419,419,0,2047,3578
420,420,0,2046,1173
421,421,0,2046,1330
422,422,0,2047,3584
423,423,0,2047,1265
424,424,0,2046,1235
425,425,0,2047,3583
426,426,0,2047,1361
427,427,0,2047,1144
428,428,0,2047,3574
429,429,0,2047,1460
430,430,0,2045,1058
431,431,0,2046,3557
432,432,0,2047,1563
433,433,0,2046,976
434,434,0,2047,3534
435,435,0,2047,1667
436,436,0,2047,900
437,437,0,2047,3502
438,438,0,2047,1774
439,439,0,2047,829
440,440,0,2047,3463
441,441,0,2046,1882
442,442,0,2046,764
443,443,0,2047,3418
444,444,0,2046,1990
445,445,0,2046,706
446,446,0,2047,3365
447,447,0,2046,2099
448,448,0,2047,654
449,449,0,2046,3306
450,450,0,2046,2207
451,451,0,2046,610
452,452,0,2046,3240
453,453,0,2047,2316
454,454,0,2047,571
455,455,0,2046,3169
456,456,0,2047,2421
457,457,0,2046,540
458,458,0,2046,3092
459,459,0,2046,2526
460,460,0,2047,517
461,461,0,2047,3010
462,462,0,2047,2628
463,463,0,2046,502
464,464,0,2046,2923
465,465,0,2047,2727
466,466,0,2046,494
467,467,0,2047,2832
468,468,0,2047,2823
469,469,0,2046,493
470,470,0,2046,2736
471,471,0,2046,2914
472,472,0,2046,501
473,473,0,2047,2638
474,474,0,2047,3001
475,475,0,2046,516
476,476,0,2047,2537
477,477,0,2047,3085
478,478,0,2046,539
479,479,0,2047,2432
480,480,0,2046,3162
481,481,0,2047,569
482,482,0,2046,2326
483,483,0,2046,3234
484,484,0,2047,605
485,485,0,2047,2218
486,486,0,2047,3299
487,487,0,2046,650
488,488,0,2046,2110
489,489,0,2047,3360
490,490,0,2046,701
491,491,0,2046,2001
492,492,0,2047,3413
493,493,0,2046,758
494,494,0,2046,1893
495,495,0,2046,3459
496,496,0,2046,823
497,497,0,2046,1785
498,498,0,2047,3499
499,499,0,2047,892
500,500,0,2047,1678
501,501,0,2047,3531
502,502,0,2046,969
503,503,0,2046,1573
504,504,0,2046,3556
505,505,0,2046,1049
506,506,0,2046,1471
507,507,0,2046,3573
508,508,0,2046,1135
509,509,0,2046,1371
510,510,0,2046,3582
511,511,0,2046,1227
512,512,0,2046,1275
513,513,0,2046,3584
514,514,0,2047,1320
515,515,0,2047,1183
516,516,0,2047,3579
517,517,0,2047,1419
518,518,0,2046,1094
519,519,0,2047,3564
520,520,0,2046,1520
521,521,0,2046,1010
522,522,0,2046,3544
523,523,0,2047,1623
524,524,0,2046,932
525,525,0,2047,3516
526,526,0,2046,1729
527,527,0,2046,858
528,528,0,2046,3480
529,529,0,2047,1836
530,530,0,2046,791
531,531,0,2047,3438
532,532,0,2047,1944
533,533,0,2046,730
534,534,0,2046,3388
535,535,0,2046,2053
536,536,0,2046,675
537,537,0,2046,3332
538,538,0,2047,2162
539,539,0,2047,627
540,540,0,2046,3269
541,541,0,2046,2270
542,542,0,2046,587
543,543,0,2046,3200
544,544,0,2046,2376
545,545,0,2046,553
546,546,0,2046,3126
547,547,0,2047,2483
548,548,0,2046,527
549,549,0,2046,3046
550,550,0,2047,2585
551,551,0,2046,507
552,552,0,2046,2961
553,553,0,2046,2686
554,554,0,2047,496
555,555,0,2046,2871
556,556,0,2047,2783
557,557,0,2046,493
558,558,0,2047,2777
559,559,0,2047,2876
560,560,0,2046,497
561,561,0,2047,2679
562,562,0,2046,2966
563,563,0,2046,509
564,564,0,2046,2579
565,565,0,2047,3050
566,566,0,2047,528
567,567,0,2046,2476
568,568,0,2047,3130
569,569,0,2047,554
570,570,0,2047,2370
571,571,0,2046,3204
572,572,0,2047,588
573,573,0,2046,2263
574,574,0,2047,3273
575,575,0,2046,630
576,576,0,2046,2156
577,577,0,2047,3335
578,578,0,2046,678
579,579,0,2046,2047
580,580,0,2046,3391
581,581,0,2046,734
582,582,0,2047,1938
583,583,0,2046,3440
584,584,0,2046,795
585,585,0,2046,1830
586,586,0,2046,3483
587,587,0,2047,862
588,588,0,2047,1722
589,589,0,2046,3517
590,590,0,2046,936
591,591,0,2046,1616
592,592,0,2047,3546
593,593,0,2047,1015
594,594,0,2046,1514
595,595,0,2046,3566
596,596,0,2047,1099
597,597,0,2046,1413
598,598,0,2046,3580
599,599,0,2047,1186
600,600,0,2046,1315
601,601,0,2047,3584
602,602,0,2046,1280
603,603,0,2046,1220
604,604,0,2046,3582
605,605,0,2046,1376
606,606,0,2046,1130
607,607,0,2047,3571
608,608,0,2047,1477
609,609,0,2046,1045
610,610,0,2047,3553
611,611,0,2046,1579
612,612,0,2046,964
613,613,0,2048,3529
614,614,0,2047,1683
615,615,0,2046,889
616,616,0,2047,3496
617,617,0,2047,1790
618,618,0,2047,819
619,619,0,2046,3457
620,620,0,2046,1899
621,621,0,2047,755
622,622,0,2046,3410
623,623,0,2047,2007
624,624,0,2046,697
625,625,0,2046,3357
626,626,0,2047,2116
627,627,0,2047,647
628,628,0,2047,3295
629,629,0,2046,2225
630,630,0,2047,603
631,631,0,2047,3229
632,632,0,2046,2332
633,633,0,2046,566
634,634,0,2046,3158
635,635,0,2047,2437
636,636,0,2047,537
637,637,0,2047,3080
638,638,0,2047,2542
639,639,0,2047,514
640,640,0,2047,2996
641,641,0,2047,2644
642,642,0,2047,500
643,643,0,2046,2909
644,644,0,2046,2742
645,645,0,2046,493
646,646,0,2046,2818
647,647,0,2046,2837
648,648,0,2047,495
649,649,0,2047,2721
650,650,0,2047,2929
651,651,0,2046,503
652,652,0,2047,2622
653,653,0,2046,3015
654,654,0,2047,519
655,655,0,2046,2520
656,656,0,2047,3097
657,657,0,2047,542
658,658,0,2047,2415
659,659,0,2046,3173
660,660,0,2047,573
661,661,0,2047,2309
662,662,0,2047,3244
663,663,0,2047,612
664,664,0,2047,2201
665,665,0,2046,3310
666,666,0,2046,657
667,667,0,2046,2093
668,668,0,2047,3368
669,669,0,2046,709
670,670,0,2046,1985
671,671,0,2046,3421
672,672,0,2047,767
673,673,0,2046,1876
674,674,0,2047,3466
675,675,0,2047,832
676,676,0,2047,1768
677,677,0,2046,3504
678,678,0,2046,904
679,679,0,2046,1662
680,680,0,2046,3535
681,681,0,2046,980
682,682,0,2047,1557
683,683,0,2046,3559
684,684,0,2046,1063
685,685,0,2046,1455
686,686,0,2046,3575
687,687,0,2046,1149
688,688,0,2046,1356
689,689,0,2047,3583
690,690,0,2047,1240
691,691,0,2046,1259
692,692,0,2046,3584
693,693,0,2047,1335
694,694,0,2046,1168
695,695,0,2047,3577
696,696,0,2047,1434
697,697,0,2046,1080
698,698,0,2046,3562
699,699,0,2046,1535
700,700,0,2046,998
701,701,0,2046,3541
702,702,0,2047,1639
703,703,0,2047,920
704,704,0,2047,3510
705,705,0,2046,1745
706,706,0,2046,848
707,707,0,2047,3474
708,708,0,2046,1853
709,709,0,2047,781
710,710,0,2046,3430
711,711,0,2047,1961
712,712,0,2046,721
713,713,0,2046,3380
714,714,0,2047,2069
715,715,0,2046,668
716,716,0,2047,3323
717,717,0,2047,2178
718,718,0,2046,620
719,719,0,2046,3258
720,720,0,2047,2287
721,721,0,2046,581
722,722,0,2046,3189
723,723,0,2046,2393
724,724,0,2046,548
725,725,0,2046,3114
726,726,0,2047,2498
727,727,0,2047,523
728,728,0,2046,3033
729,729,0,2046,2601
730,730,0,2046,506
731,731,0,2047,2947
732,732,0,2047,2701
733,733,0,2046,495
734,734,0,2047,2856
735,735,0,2047,2797
736,736,0,2046,492
737,737,0,2047,2762
738,738,0,2047,2890
739,739,0,2046,498
740,740,0,2047,2664
741,741,0,2046,2978
742,742,0,2047,511
743,743,0,2046,2563
744,744,0,2047,3062
745,745,0,2046,531
746,746,0,2046,2459
747,747,0,2046,3141
748,748,0,2046,559
749,749,0,2046,2354
750,750,0,2047,3215
751,751,0,2046,594
752,752,0,2046,2246
753,753,0,2046,3283
754,754,0,2047,637
755,755,0,2047,2139
756,756,0,2047,3344
757,757,0,2047,686
758,758,0,2047,2031
759,759,0,2047,3399
760,760,0,2047,742
761,761,0,2047,1921
762,762,0,2046,3447
763,763,0,2046,804
764,764,0,2046,1813
765,765,0,2047,3489
766,766,0,2047,874
767,767,0,2047,1707
768,768,0,2047,3522
769,769,0,2047,947
770,770,0,2047,1600
771,771,0,2047,3549
772,772,0,2047,1028
773,773,0,2047,1498
774,774,0,2047,3568
775,775,0,2046,1112
776,776,0,2047,1397
777,777,0,2046,3581
778,778,0,2046,1201
779,779,0,2046,1299
780,780,0,2047,3584
781,781,0,2046,1294
782,782,0,2047,1206
783,783,0,2046,3580
784,784,0,2046,1392
785,785,0,2047,1117
786,786,0,2047,3570
787,787,0,2047,1493
788,788,0,2047,1032
789,789,0,2047,3551
790,790,0,2046,1595
791,791,0,2046,951
792,792,0,2047,3524
793,793,0,2046,1701
794,794,0,2047,876
795,795,0,2047,3490
796,796,0,2047,1807
797,797,0,2047,808
798,798,0,2046,3449
799,799,0,2047,1916
800,800,0,2046,746
801,801,0,2046,3402
802,802,0,2046,2024
803,803,0,2046,689
804,804,0,2047,3347
805,805,0,2046,2133
806,806,0,2046,639
807,807,0,2046,3286
808,808,0,2047,2241
809,809,0,2047,596
810,810,0,2047,3219
811,811,0,2048,2349
812,812,0,2047,561
813,813,0,2047,3145
814,814,0,2046,2454
815,815,0,2047,533
816,816,0,2047,3068
817,817,0,2047,2558
818,818,0,2046,512
819,819,0,2047,2983
820,820,0,2046,2659
821,821,0,2047,498
822,822,0,2047,2895
823,823,0,2047,2757
824,824,0,2046,493
825,825,0,2046,2802
826,826,0,2047,2852
827,827,0,2046,495
828,828,0,2047,2707
829,829,0,2047,2942
830,830,0,2046,504
831,831,0,2046,2606
832,832,0,2046,3028
833,833,0,2046,522
834,834,0,2047,2504
835,835,0,2046,3109
836,836,0,2047,546
837,837,0,2047,2399
838,838,0,2046,3185
839,839,0,2046,579
840,840,0,2046,2291
841,841,0,2046,3255
842,842,0,2046,619
843,843,0,2046,2184
844,844,0,2046,3319
845,845,0,2046,665
846,846,0,2046,2076
847,847,0,2046,3377
848,848,0,2046,718
849,849,0,2046,1967
850,850,0,2046,3427
851,851,0,2047,778
852,852,0,2047,1858
853,853,0,2047,3473
854,854,0,2047,844
855,855,0,2046,1751
856,856,0,2047,3509
857,857,0,2046,916
858,858,0,2046,1645
859,859,0,2047,3539
860,860,0,2046,993
861,861,0,2046,1540
862,862,0,2046,3562
863,863,0,2047,1075
864,864,0,2046,1439
865,865,0,2047,3576
866,866,0,2047,1164
867,867,0,2046,1341
868,868,0,2047,3584
869,869,0,2047,1255
870,870,0,2047,1244
871,871,0,2047,3583
872,872,0,2047,1350
873,873,0,2046,1154
874,874,0,2046,3575
875,875,0,2046,1449
876,876,0,2046,1066
877,877,0,2046,3559
878,878,0,2047,1552
879,879,0,2046,984
880,880,0,2047,3536
881,881,0,2047,1657
882,882,0,2046,908
883,883,0,2046,3506
884,884,0,2046,1762
885,885,0,2046,837
886,886,0,2047,3468
887,887,0,2047,1870
888,888,0,2046,771
889,889,0,2047,3422
890,890,0,2047,1978
891,891,0,2047,712
892,892,0,2046,3371
893,893,0,2046,2087
894,894,0,2047,659
895,895,0,2046,3313
896,896,0,2047,2195
897,897,0,2047,614
898,898,0,2047,3247
899,899,0,2046,2304
900,900,0,2046,575
901,901,0,2047,3177
902,902,0,2046,2409
903,903,0,2046,543
904,904,0,2046,3101
905,905,0,2046,2514
906,906,0,2046,520
907,907,0,2046,3019
908,908,0,2047,2617
909,909,0,2046,504
910,910,0,2047,2933
911,911,0,2046,2716
912,912,0,2047,494
913,913,0,2046,2842
914,914,0,2047,2813
915,915,0,2046,493
916,916,0,2047,2747
917,917,0,2046,2905
918,918,0,2046,500
919,919,0,2046,2649
920,920,0,2047,2992
921,921,0,2046,514
922,922,0,2046,2548
923,923,0,2046,3075
924,924,0,2046,535
925,925,0,2047,2444
926,926,0,2046,3153
927,927,0,2047,564
928,928,0,2046,2338
929,929,0,2047,3226
930,930,0,2046,600
931,931,0,2047,2230
932,932,0,2046,3293
933,933,0,2047,644
934,934,0,2047,2122
935,935,0,2046,3353
936,936,0,2047,694
937,937,0,2046,2014
938,938,0,2047,3407
939,939,0,2046,752
940,940,0,2047,1904
941,941,0,2046,3454
942,942,0,2046,815
943,943,0,2046,1797
944,944,0,2046,3494
945,945,0,2047,885
946,946,0,2047,1689
947,947,0,2046,3527
948,948,0,2046,960
949,949,0,2046,1585
950,950,0,2047,3553
951,951,0,2046,1040
952,952,0,2047,1482
953,953,0,2046,3571
954,954,0,2047,1126
955,955,0,2046,1383
956,956,0,2047,3581
957,957,0,2047,1216
958,958,0,2047,1285
959,959,0,2046,3584
960,960,0,2046,1309
961,961,0,2047,1192
962,962,0,2046,3580
963,963,0,2046,1407
964,964,0,2046,1104
965,965,0,2046,3567
966,966,0,2048,1508
967,967,0,2047,1019
968,968,0,2047,3547
969,969,0,2046,1612
970,970,0,2046,939
971,971,0,2046,3520
972,972,0,2047,1717
973,973,0,2046,867
974,974,0,2046,3485
975,975,0,2046,1824
976,976,0,2047,798
977,977,0,2047,3443
978,978,0,2046,1932
979,979,0,2047,737
980,980,0,2047,3394
981,981,0,2047,2041
982,982,0,2047,680
983,983,0,2046,3338
984,984,0,2047,2149
985,985,0,2047,633
986,986,0,2046,3277
987,987,0,2047,2257
988,988,0,2046,591
989,989,0,2046,3209
990,990,0,2047,2366
991,991,0,2047,557
992,992,0,2046,3133
993,993,0,2047,2470
994,994,0,2047,529
995,995,0,2046,3055
996,996,0,2046,2574
997,997,0,2047,510
998,998,0,2047,2971
999,999,0,2046,2674
1000,1000,0,2046,497
1001,1001,0,2046,2881
1002,1002,0,2047,2772
1003,1003,0,2047,493
1004,1004,0,2046,2788
1005,1005,0,2047,2866
1006,1006,0,2046,496
1007,1007,0,2047,2691
1008,1008,0,2047,2955
1009,1009,0,2047,507
1010,1010,0,2047,2591
1011,1011,0,2047,3041
1012,1012,0,2046,525
1013,1013,0,2047,2488
1014,1014,0,2046,3122
1015,1015,0,2046,551
1016,1016,0,2046,2382
1017,1017,0,2046,3196
