Sample in Buffer,Sample in Window,TRIGGER,adc1_data_a_d0[11:0],adc1_data_b_d0[11:0]
0,0,0,2046,2915
1,1,0,2046,3480
2,2,0,2046,3890
3,3,0,2046,4095
4,4,0,2046,4081
5,5,0,2046,3842
6,6,0,2046,3408
7,7,0,2046,2824
8,8,0,2046,2156
9,9,0,2046,1474
10,10,0,2046,854
11,11,0,2046,363
12,12,0,2046,53
13,13,0,2047,0
14,14,0,2047,92
15,15,0,2046,435
16,16,0,2047,955
17,17,0,2047,1590
18,18,0,2047,2275
19,19,0,2046,2935
20,20,0,2047,3496
21,21,0,2046,3899
22,22,0,2046,4095
23,23,0,2046,4077
24,24,0,2046,3831
25,25,0,2046,3391
26,26,0,2045,2804
27,27,0,2046,2134
28,28,0,2046,1454
29,29,0,2046,836
30,30,0,2046,350
31,31,0,2047,46
32,32,0,2047,0
33,33,0,2046,100
34,34,0,2046,450
35,35,0,2046,973
36,36,0,2046,1612
37,37,0,2047,2297
38,38,0,2045,2954
39,39,0,2047,3510
40,40,0,2046,3909
41,41,0,2047,4095
42,42,0,2046,4072
43,43,0,2047,3820
44,44,0,2046,3375
45,45,0,2046,2784
46,46,0,2046,2112
47,47,0,2046,1432
48,48,0,2046,818
49,49,0,2046,337
50,50,0,2046,40
51,51,0,2046,0
52,52,0,2045,108
53,53,0,2046,464
54,54,0,2046,992
55,55,0,2046,1633
56,56,0,2046,2318
57,57,0,2047,2973
58,58,0,2046,3527
59,59,0,2047,3918
60,60,0,2047,4095
61,61,0,2047,4067
62,62,0,2046,3809
63,63,0,2046,3358
64,64,0,2047,2763
65,65,0,2046,2090
66,66,0,2046,1411
67,67,0,2046,801
68,68,0,2046,325
69,69,0,2047,34
70,70,0,2045,0
71,71,0,2046,116
72,72,0,2046,479
73,73,0,2046,1011
74,74,0,2046,1654
75,75,0,2047,2341
76,76,0,2047,2993
77,77,0,2046,3543
78,78,0,2046,3928
79,79,0,2046,4095
80,80,0,2046,4063
81,81,0,2047,3797
82,82,0,2046,3341
83,83,0,2046,2743
84,84,0,2047,2068
85,85,0,2047,1391
86,86,0,2046,783
87,87,0,2046,313
88,88,0,2046,28
89,89,0,2047,0
90,90,0,2046,124
91,91,0,2046,494
92,92,0,2047,1030
93,93,0,2046,1676
94,94,0,2046,2363
95,95,0,2046,3012
96,96,0,2047,3557
97,97,0,2046,3937
98,98,0,2046,4095
99,99,0,2046,4058
100,100,0,2047,3786
101,101,0,2045,3324
102,102,0,2046,2722
103,103,0,2047,2047
104,104,0,2046,1370
105,105,0,2046,766
106,106,0,2046,300
107,107,0,2046,23
108,108,0,2046,0
109,109,0,2047,133
110,110,0,2047,508
111,111,0,2046,1049
112,112,0,2046,1698
113,113,0,2047,2384
114,114,0,2046,3031
115,115,0,2047,3572
116,116,0,2047,3946
117,117,0,2047,4095
118,118,0,2046,4052
119,119,0,2046,3774
120,120,0,2047,3307
121,121,0,2046,2702
122,122,0,2047,2025
123,123,0,2046,1349
124,124,0,2047,748
125,125,0,2046,289
126,126,0,2047,18
127,127,0,2046,0
128,128,0,2046,142
129,129,0,2046,523
130,130,0,2046,1069
131,131,0,2047,1719
132,132,0,2046,2406
133,133,0,2047,3051
134,134,0,2047,3587
135,135,0,2046,3954
136,136,0,2047,4095
137,137,0,2047,4046
138,138,0,2047,3761
139,139,0,2047,3289
140,140,0,2047,2681
141,141,0,2046,2003
142,142,0,2047,1328
143,143,0,2046,732
144,144,0,2046,277
145,145,0,2046,13
146,146,0,2046,0
147,147,0,2047,151
148,148,0,2047,539
149,149,0,2047,1088
150,150,0,2047,1740
151,151,0,2046,2426
152,152,0,2046,3071
153,153,0,2046,3601
154,154,0,2046,3963
155,155,0,2046,4095
156,156,0,2047,4040
157,157,0,2046,3750
158,158,0,2046,3271
159,159,0,2046,2660
160,160,0,2046,1980
161,161,0,2046,1308
162,162,0,2046,715
163,163,0,2046,265
164,164,0,2047,8
165,165,0,2046,0
166,166,0,2046,161
167,167,0,2046,553
168,168,0,2047,1108
169,169,0,2046,1763
170,170,0,2046,2448
171,171,0,2046,3089
172,172,0,2046,3616
173,173,0,2047,3971
174,174,0,2046,4095
175,175,0,2046,4035
176,176,0,2046,3737
177,177,0,2046,3254
178,178,0,2046,2639
179,179,0,2046,1959
180,180,0,2046,1287
181,181,0,2046,698
182,182,0,2047,254
183,183,0,2047,3
184,184,0,2046,0
185,185,0,2046,170
186,186,0,2046,569
187,187,0,2047,1127
188,188,0,2046,1785
189,189,0,2046,2470
190,190,0,2046,3108
191,191,0,2047,3630
192,192,0,2047,3979
193,193,0,2046,4095
194,194,0,2046,4027
195,195,0,2046,3725
196,196,0,2047,3235
197,197,0,2046,2618
198,198,0,2046,1937
199,199,0,2046,1267
200,200,0,2046,681
201,201,0,2047,243
202,202,0,2046,0
203,203,0,2046,0
204,204,0,2046,180
205,205,0,2047,584
206,206,0,2047,1146
207,207,0,2047,1806
208,208,0,2046,2491
209,209,0,2047,3127
210,210,0,2046,3644
211,211,0,2046,3987
212,212,0,2047,4095
213,213,0,2047,4022
214,214,0,2046,3711
215,215,0,2046,3218
216,216,0,2047,2597
217,217,0,2046,1915
218,218,0,2046,1247
219,219,0,2046,664
220,220,0,2047,232
221,221,0,2046,0
222,222,0,2046,0
223,223,0,2046,190
224,224,0,2046,600
225,225,0,2046,1167
226,226,0,2046,1828
227,227,0,2047,2512
228,228,0,2047,3145
229,229,0,2046,3658
230,230,0,2046,3994
231,231,0,2046,4095
232,232,0,2046,4016
233,233,0,2047,3698
234,234,0,2046,3200
235,235,0,2046,2576
236,236,0,2047,1893
237,237,0,2046,1226
238,238,0,2046,648
239,239,0,2046,221
240,240,0,2046,0
241,241,0,2046,0
242,242,0,2046,199
243,243,0,2046,616
244,244,0,2047,1187
245,245,0,2047,1850
246,246,0,2046,2534
247,247,0,2046,3164
248,248,0,2047,3671
249,249,0,2046,4001
250,250,0,2047,4095
251,251,0,2046,4009
252,252,0,2046,3684
253,253,0,2046,3181
254,254,0,2047,2554
255,255,0,2046,1871
256,256,0,2046,1206
257,257,0,2046,632
258,258,0,2047,211
259,259,0,2047,0
260,260,0,2047,0
261,261,0,2047,211
262,262,0,2046,632
263,263,0,2046,1207
264,264,0,2046,1872
265,265,0,2046,2556
266,266,0,2047,3182
267,267,0,2046,3685
268,268,0,2046,4009
269,269,0,2047,4095
270,270,0,2046,4002
271,271,0,2046,3671
272,272,0,2046,3162
273,273,0,2046,2533
274,274,0,2046,1850
275,275,0,2046,1186
276,276,0,2046,615
277,277,0,2046,199
278,278,0,2046,0
279,279,0,2046,0
280,280,0,2047,220
281,281,0,2046,648
282,282,0,2047,1227
283,283,0,2046,1894
284,284,0,2047,2576
285,285,0,2046,3200
286,286,0,2046,3698
287,287,0,2046,4015
288,288,0,2046,4095
289,289,0,2046,3994
290,290,0,2047,3657
291,291,0,2047,3145
292,292,0,2045,2511
293,293,0,2047,1828
294,294,0,2046,1167
295,295,0,2047,600
296,296,0,2046,189
297,297,0,2047,0
298,298,0,2046,0
299,299,0,2046,231
300,300,0,2046,665
301,301,0,2046,1247
302,302,0,2047,1915
303,303,0,2046,2598
304,304,0,2047,3219
305,305,0,2046,3712
306,306,0,2046,4022
307,307,0,2047,4095
308,308,0,2047,3987
309,309,0,2046,3644
310,310,0,2047,3126
311,311,0,2046,2491
312,312,0,2046,1806
313,313,0,2046,1146
314,314,0,2046,584
315,315,0,2047,179
316,316,0,2046,0
317,317,0,2046,0
318,318,0,2046,242
319,319,0,2046,681
320,320,0,2047,1268
321,321,0,2046,1938
322,322,0,2047,2618
323,323,0,2046,3237
324,324,0,2047,3724
325,325,0,2046,4028
326,326,0,2046,4095
327,327,0,2047,3978
328,328,0,2047,3629
329,329,0,2046,3107
330,330,0,2046,2469
331,331,0,2046,1784
332,332,0,2046,1127
333,333,0,2046,569
334,334,0,2046,170
335,335,0,2047,0
336,336,0,2046,4
337,337,0,2046,253
338,338,0,2046,698
339,339,0,2046,1288
340,340,0,2046,1959
341,341,0,2046,2640
342,342,0,2046,3254
343,343,0,2046,3737
344,344,0,2047,4034
345,345,0,2047,4095
346,346,0,2047,3971
347,347,0,2046,3615
348,348,0,2046,3088
349,349,0,2046,2448
350,350,0,2047,1763
351,351,0,2046,1107
352,352,0,2046,553
353,353,0,2046,160
354,354,0,2046,0
355,355,0,2047,8
356,356,0,2047,264
357,357,0,2047,715
358,358,0,2046,1309
359,359,0,2047,1981
360,360,0,2046,2660
361,361,0,2047,3272
362,362,0,2046,3750
363,363,0,2046,4042
364,364,0,2046,4095
365,365,0,2046,3963
366,366,0,2046,3601
367,367,0,2047,3069
368,368,0,2046,2426
369,369,0,2046,1741
370,370,0,2046,1088
371,371,0,2047,538
372,372,0,2046,151
373,373,0,2047,0
374,374,0,2047,13
375,375,0,2047,276
376,376,0,2046,732
377,377,0,2046,1329
378,378,0,2047,2003
379,379,0,2046,2681
380,380,0,2047,3289
381,381,0,2047,3762
382,382,0,2046,4047
383,383,0,2047,4095
384,384,0,2046,3954
385,385,0,2047,3586
386,386,0,2047,3050
387,387,0,2047,2404
388,388,0,2046,1719
389,389,0,2046,1068
390,390,0,2047,522
391,391,0,2046,142
392,392,0,2047,0
393,393,0,2046,18
394,394,0,2046,288
395,395,0,2047,749
396,396,0,2046,1350
397,397,0,2046,2025
398,398,0,2046,2702
399,399,0,2046,3307
400,400,0,2046,3774
401,401,0,2047,4053
402,402,0,2047,4095
403,403,0,2047,3945
404,404,0,2047,3571
405,405,0,2046,3031
406,406,0,2046,2383
407,407,0,2046,1697
408,408,0,2046,1048
409,409,0,2046,507
410,410,0,2047,133
411,411,0,2047,0
412,412,0,2046,24
413,413,0,2046,299
414,414,0,2047,766
415,415,0,2047,1371
416,416,0,2046,2046
417,417,0,2046,2723
418,418,0,2046,3325
419,419,0,2046,3786
420,420,0,2047,4058
421,421,0,2046,4095
422,422,0,2046,3937
423,423,0,2046,3556
424,424,0,2046,3012
425,425,0,2046,2362
426,426,0,2047,1676
427,427,0,2046,1029
428,428,0,2046,493
429,429,0,2046,124
430,430,0,2047,0
431,431,0,2046,30
432,432,0,2046,312
433,433,0,2046,784
434,434,0,2046,1391
435,435,0,2047,2068
436,436,0,2047,2744
437,437,0,2047,3341
438,438,0,2046,3797
439,439,0,2047,4064
440,440,0,2046,4095
441,441,0,2047,3927
442,442,0,2046,3541
443,443,0,2047,2992
444,444,0,2046,2340
445,445,0,2047,1655
446,446,0,2046,1010
447,447,0,2046,479
448,448,0,2046,116
449,449,0,2047,0
450,450,0,2046,35
451,451,0,2046,324
452,452,0,2046,801
453,453,0,2046,1412
454,454,0,2046,2091
455,455,0,2046,2764
456,456,0,2046,3359
457,457,0,2047,3809
458,458,0,2046,4068
459,459,0,2046,4095
460,460,0,2046,3918
461,461,0,2046,3527
462,462,0,2046,2973
463,463,0,2046,2318
464,464,0,2046,1632
465,465,0,2046,991
466,466,0,2046,463
467,467,0,2046,108
468,468,0,2046,0
469,469,0,2046,40
470,470,0,2046,336
471,471,0,2046,819
472,472,0,2047,1433
473,473,0,2046,2113
474,474,0,2046,2785
475,475,0,2047,3376
476,476,0,2046,3821
477,477,0,2046,4073
478,478,0,2046,4095
479,479,0,2046,3908
480,480,0,2046,3511
481,481,0,2046,2953
482,482,0,2046,2296
483,483,0,2046,1611
484,484,0,2046,973
485,485,0,2047,450
486,486,0,2046,100
487,487,0,2046,0
488,488,0,2047,46
489,489,0,2046,349
490,490,0,2046,836
491,491,0,2047,1454
492,492,0,2046,2134
493,493,0,2047,2805
494,494,0,2046,3392
495,495,0,2046,3832
496,496,0,2046,4078
497,497,0,2047,4095
498,498,0,2047,3899
499,499,0,2047,3496
500,500,0,2047,2934
501,501,0,2046,2275
502,502,0,2046,1590
503,503,0,2046,954
504,504,0,2047,436
505,505,0,2046,93
506,506,0,2046,0
507,507,0,2046,53
508,508,0,2046,362
509,509,0,2045,854
510,510,0,2046,1475
511,511,0,2047,2157
512,512,0,2046,2825
513,513,0,2046,3408
514,514,0,2046,3843
515,515,0,2046,4082
516,516,0,2046,4095
517,517,0,2046,3890
518,518,0,2046,3479
519,519,0,2046,2913
520,520,0,2047,2253
521,521,0,2046,1568
522,522,0,2046,935
523,523,0,2046,423
524,524,0,2047,84
525,525,0,2046,0
526,526,0,2047,60
527,527,0,2046,376
528,528,0,2046,873
529,529,0,2046,1496
530,530,0,2046,2179
531,531,0,2047,2846
532,532,0,2046,3425
533,533,0,2046,3854
534,534,0,2046,4085
535,535,0,2046,4094
536,536,0,2046,3880
537,537,0,2046,3464
538,538,0,2046,2894
539,539,0,2047,2231
540,540,0,2046,1547
541,541,0,2046,917
542,542,0,2046,409
543,543,0,2046,77
544,544,0,2046,0
545,545,0,2046,67
546,546,0,2046,389
547,547,0,2046,891
548,548,0,2047,1517
549,549,0,2046,2200
550,550,0,2046,2866
551,551,0,2046,3441
552,552,0,2046,3864
553,553,0,2047,4089
554,554,0,2046,4090
555,555,0,2046,3869
556,556,0,2047,3448
557,557,0,2046,2874
558,558,0,2046,2209
559,559,0,2047,1526
560,560,0,2046,898
561,561,0,2046,395
562,562,0,2045,70
563,563,0,2046,0
564,564,0,2046,74
565,565,0,2046,403
566,566,0,2046,909
567,567,0,2047,1539
568,568,0,2046,2222
569,569,0,2046,2886
570,570,0,2046,3458
571,571,0,2046,3875
572,572,0,2046,4093
573,573,0,2046,4087
574,574,0,2047,3858
575,575,0,2047,3432
576,576,0,2046,2854
577,577,0,2046,2188
578,578,0,2047,1505
579,579,0,2046,880
580,580,0,2046,382
581,581,0,2046,63
582,582,0,2046,0
583,583,0,2046,80
584,584,0,2046,416
585,585,0,2047,928
586,586,0,2046,1559
587,587,0,2046,2243
588,588,0,2047,2905
589,589,0,2046,3473
590,590,0,2046,3885
591,591,0,2047,4095
592,592,0,2046,4083
593,593,0,2046,3848
594,594,0,2046,3416
595,595,0,2047,2834
596,596,0,2046,2165
597,597,0,2046,1484
598,598,0,2046,862
599,599,0,2046,368
600,600,0,2046,56
601,601,0,2046,0
602,602,0,2047,89
603,603,0,2046,429
604,604,0,2047,946
605,605,0,2046,1580
606,606,0,2046,2265
607,607,0,2046,2926
608,608,0,2046,3490
609,609,0,2046,3895
610,610,0,2046,4095
611,611,0,2047,4079
612,612,0,2046,3837
613,613,0,2047,3399
614,614,0,2047,2813
615,615,0,2046,2143
616,616,0,2047,1462
617,617,0,2046,844
618,618,0,2046,355
619,619,0,2046,50
620,620,0,2046,0
621,621,0,2047,96
622,622,0,2046,444
623,623,0,2046,964
624,624,0,2046,1602
625,625,0,2046,2287
626,626,0,2047,2945
627,627,0,2046,3505
628,628,0,2046,3905
629,629,0,2046,4095
630,630,0,2047,4075
631,631,0,2046,3825
632,632,0,2047,3382
633,633,0,2046,2793
634,634,0,2046,2122
635,635,0,2045,1442
636,636,0,2046,826
637,637,0,2046,343
638,638,0,2046,43
639,639,0,2046,0
640,640,0,2046,104
641,641,0,2047,458
642,642,0,2046,984
643,643,0,2047,1624
644,644,0,2046,2309
645,645,0,2047,2965
646,646,0,2046,3520
647,647,0,2046,3915
648,648,0,2047,4095
649,649,0,2047,4070
650,650,0,2046,3815
651,651,0,2046,3365
652,652,0,2046,2772
653,653,0,2047,2100
654,654,0,2046,1421
655,655,0,2047,809
656,656,0,2047,330
657,657,0,2046,38
658,658,0,2047,0
659,659,0,2047,113
660,660,0,2046,472
661,661,0,2046,1002
662,662,0,2046,1645
663,663,0,2046,2331
664,664,0,2046,2985
665,665,0,2047,3536
666,666,0,2046,3924
667,667,0,2046,4095
668,668,0,2046,4065
669,669,0,2046,3802
670,670,0,2046,3348
671,671,0,2046,2751
672,672,0,2046,2078
673,673,0,2047,1400
674,674,0,2046,791
675,675,0,2047,318
676,676,0,2046,31
677,677,0,2046,0
678,678,0,2046,121
679,679,0,2047,486
680,680,0,2046,1021
681,681,0,2046,1667
682,682,0,2047,2353
683,683,0,2046,3004
684,684,0,2046,3551
685,685,0,2046,3933
686,686,0,2046,4095
687,687,0,2046,4060
688,688,0,2046,3791
689,689,0,2046,3331
690,690,0,2046,2731
691,691,0,2046,2056
692,692,0,2046,1379
693,693,0,2046,773
694,694,0,2047,306
695,695,0,2046,25
696,696,0,2046,0
697,697,0,2046,130
698,698,0,2046,501
699,699,0,2047,1040
700,700,0,2046,1688
701,701,0,2046,2374
702,702,0,2047,3023
703,703,0,2046,3566
704,704,0,2046,3942
705,705,0,2047,4095
706,706,0,2046,4055
707,707,0,2046,3779
708,708,0,2046,3315
709,709,0,2046,2711
710,710,0,2046,2035
711,711,0,2047,1359
712,712,0,2045,756
713,713,0,2047,293
714,714,0,2046,20
715,715,0,2046,0
716,716,0,2047,138
717,717,0,2046,517
718,718,0,2046,1060
719,719,0,2047,1710
720,720,0,2046,2396
721,721,0,2046,3042
722,722,0,2046,3580
723,723,0,2047,3951
724,724,0,2046,4095
725,725,0,2046,4050
726,726,0,2046,3767
727,727,0,2046,3297
728,728,0,2046,2690
729,729,0,2047,2012
730,730,0,2046,1338
731,731,0,2046,739
732,732,0,2047,282
733,733,0,2046,15
734,734,0,2047,0
735,735,0,2046,147
736,736,0,2047,532
737,737,0,2047,1080
738,738,0,2047,1732
739,739,0,2046,2417
740,740,0,2046,3061
741,741,0,2047,3595
742,742,0,2046,3959
743,743,0,2046,4095
744,744,0,2047,4044
745,745,0,2046,3755
746,746,0,2046,3279
747,747,0,2046,2669
748,748,0,2046,1990
749,749,0,2046,1317
750,750,0,2046,721
751,751,0,2046,270
752,752,0,2047,10
753,753,0,2046,0
754,754,0,2046,156
755,755,0,2046,547
756,756,0,2046,1099
757,757,0,2046,1753
758,758,0,2046,2439
759,759,0,2046,3081
760,760,0,2046,3610
761,761,0,2047,3968
762,762,0,2046,4095
763,763,0,2046,4038
764,764,0,2047,3743
765,765,0,2046,3262
766,766,0,2046,2648
767,767,0,2046,1969
768,768,0,2046,1297
769,769,0,2047,705
770,770,0,2046,259
771,771,0,2047,5
772,772,0,2046,0
773,773,0,2047,165
774,774,0,2046,562
775,775,0,2047,1118
776,776,0,2046,1775
777,777,0,2046,2460
778,778,0,2046,3100
779,779,0,2046,3624
780,780,0,2047,3975
781,781,0,2046,4095
782,782,0,2046,4031
783,783,0,2046,3729
784,784,0,2046,3244
785,785,0,2047,2627
786,786,0,2046,1947
787,787,0,2046,1276
788,788,0,2046,689
789,789,0,2046,248
790,790,0,2047,1
791,791,0,2047,0
792,792,0,2046,175
793,793,0,2046,577
794,794,0,2047,1138
795,795,0,2047,1796
796,796,0,2046,2482
797,797,0,2047,3118
798,798,0,2046,3637
799,799,0,2047,3984
800,800,0,2047,4095
801,801,0,2047,4025
802,802,0,2046,3718
803,803,0,2046,3225
804,804,0,2046,2606
805,805,0,2046,1924
806,806,0,2046,1256
807,807,0,2047,673
808,808,0,2046,237
809,809,0,2046,0
810,810,0,2046,0
811,811,0,2046,184
812,812,0,2047,593
813,813,0,2047,1158
814,814,0,2046,1819
815,815,0,2046,2503
816,816,0,2047,3137
817,817,0,2046,3651
818,818,0,2046,3991
819,819,0,2046,4095
820,820,0,2047,4019
821,821,0,2046,3704
822,822,0,2046,3208
823,823,0,2047,2585
824,824,0,2047,1903
825,825,0,2046,1235
826,826,0,2046,655
827,827,0,2046,226
828,828,0,2046,0
829,829,0,2046,0
830,830,0,2047,196
831,831,0,2046,609
832,832,0,2046,1177
833,833,0,2047,1840
834,834,0,2046,2524
835,835,0,2047,3156
836,836,0,2047,3665
837,837,0,2046,3998
838,838,0,2046,4095
839,839,0,2047,4011
840,840,0,2046,3690
841,841,0,2046,3189
842,842,0,2046,2564
843,843,0,2046,1881
844,844,0,2046,1216
845,845,0,2047,639
846,846,0,2047,215
847,847,0,2046,0
848,848,0,2046,0
849,849,0,2047,205
850,850,0,2046,625
851,851,0,2047,1198
852,852,0,2046,1862
853,853,0,2046,2545
854,854,0,2046,3174
855,855,0,2047,3679
856,856,0,2046,4005
857,857,0,2046,4095
858,858,0,2046,4004
859,859,0,2046,3677
860,860,0,2047,3171
861,861,0,2046,2543
862,862,0,2046,1859
863,863,0,2047,1195
864,864,0,2046,623
865,865,0,2046,205
866,866,0,2046,0
867,867,0,2046,0
868,868,0,2046,216
869,869,0,2047,641
870,870,0,2047,1218
871,871,0,2047,1884
872,872,0,2046,2566
873,873,0,2047,3192
874,874,0,2047,3692
875,875,0,2047,4013
876,876,0,2047,4095
877,877,0,2046,3997
878,878,0,2046,3664
879,879,0,2046,3153
880,880,0,2046,2522
881,881,0,2046,1838
882,882,0,2046,1175
883,883,0,2046,608
884,884,0,2046,194
885,885,0,2046,0
886,886,0,2047,0
887,887,0,2046,226
888,888,0,2046,657
889,889,0,2047,1238
890,890,0,2046,1905
891,891,0,2046,2587
892,892,0,2046,3210
893,893,0,2046,3705
894,894,0,2046,4019
895,895,0,2046,4095
896,896,0,2046,3990
897,897,0,2046,3649
898,898,0,2046,3134
899,899,0,2046,2499
900,900,0,2046,1816
901,901,0,2046,1156
902,902,0,2046,591
903,903,0,2046,184
904,904,0,2046,0
905,905,0,2046,0
906,906,0,2046,237
907,907,0,2046,673
908,908,0,2046,1259
909,909,0,2046,1928
910,910,0,2046,2609
911,911,0,2046,3228
912,912,0,2046,3719
913,913,0,2046,4026
914,914,0,2047,4095
915,915,0,2046,3983
916,916,0,2047,3635
917,917,0,2046,3116
918,918,0,2047,2479
919,919,0,2046,1794
920,920,0,2046,1136
921,921,0,2047,576
922,922,0,2046,175
923,923,0,2047,0
924,924,0,2046,1
925,925,0,2046,249
926,926,0,2046,690
927,927,0,2046,1278
928,928,0,2046,1949
929,929,0,2046,2630
930,930,0,2046,3246
931,931,0,2047,3731
932,932,0,2046,4033
933,933,0,2046,4095
934,934,0,2047,3974
935,935,0,2046,3622
936,936,0,2046,3097
937,937,0,2046,2458
938,938,0,2047,1772
939,939,0,2047,1115
940,940,0,2047,560
941,941,0,2046,165
942,942,0,2046,0
943,943,0,2046,6
944,944,0,2046,259
945,945,0,2046,706
946,946,0,2046,1299
947,947,0,2046,1971
948,948,0,2046,2651
949,949,0,2046,3264
950,950,0,2046,3743
951,951,0,2046,4038
952,952,0,2046,4095
953,953,0,2046,3966
954,954,0,2047,3608
955,955,0,2046,3079
956,956,0,2046,2437
957,957,0,2046,1751
958,958,0,2046,1097
959,959,0,2047,544
960,960,0,2046,156
961,961,0,2047,0
962,962,0,2046,11
963,963,0,2047,271
964,964,0,2046,724
965,965,0,2046,1319
966,966,0,2046,1993
967,967,0,2046,2671
968,968,0,2046,3282
969,969,0,2046,3756
970,970,0,2046,4045
971,971,0,2046,4095
972,972,0,2046,3958
973,973,0,2047,3593
974,974,0,2046,3059
975,975,0,2046,2414
976,976,0,2046,1729
977,977,0,2046,1077
978,978,0,2046,529
979,979,0,2046,146
980,980,0,2047,0
981,981,0,2046,16
982,982,0,2046,283
983,983,0,2046,741
984,984,0,2045,1340
985,985,0,2046,2015
986,986,0,2046,2693
987,987,0,2046,3299
988,988,0,2046,3768
989,989,0,2046,4051
990,990,0,2047,4095
991,991,0,2046,3949
992,992,0,2046,3578
993,993,0,2046,3040
994,994,0,2046,2392
995,995,0,2046,1707
996,996,0,2046,1057
997,997,0,2047,515
998,998,0,2046,137
999,999,0,2046,0
1000,1000,0,2047,21
1001,1001,0,2046,294
1002,1002,0,2046,758
1003,1003,0,2046,1361
1004,1004,0,2046,2037
1005,1005,0,2047,2714
1006,1006,0,2047,3317
1007,1007,0,2046,3780
1008,1008,0,2046,4056
1009,1009,0,2047,4095
1010,1010,0,2046,3940
1011,1011,0,2046,3563
1012,1012,0,2045,3021
1013,1013,0,2046,2372
1014,1014,0,2046,1686
1015,1015,0,2047,1038
1016,1016,0,2046,500
1017,1017,0,2047,129
1018,1018,0,2047,0
1019,1019,0,2046,26
1020,1020,0,2047,306
1021,1021,0,2047,775
1022,1022,0,2046,1382
1023,1023,0,2046,2059
1024,1024,0,2046,2734
1025,1025,0,2047,3335
1026,1026,0,2046,3792
1027,1027,0,2046,4061
1028,1028,0,2046,4095
1029,1029,0,2046,3932
