Sample in Buffer,Sample in Window,TRIGGER,adc1_data_a_d0[11:0],adc1_data_b_d0[11:0]
0,0,0,2047,286
1,1,0,2046,5
2,2,0,2046,0
3,3,0,2046,224
4,4,0,2046,696
5,5,0,2047,1339
6,6,0,2047,2070
7,7,0,2047,2798
8,8,0,2047,3429
9,9,0,2046,3882
10,10,0,2045,4095
11,11,0,2046,4057
12,12,0,2047,3755
13,13,0,2047,3234
14,14,0,2047,2562
15,15,0,2046,1823
16,16,0,2046,1110
17,17,0,2047,517
18,18,0,2046,116
19,19,0,2046,0
20,20,0,2047,71
21,21,0,2046,431
22,22,0,2047,996
23,23,0,2047,1694
24,24,0,2047,2436
25,25,0,2046,3128
26,26,0,2047,3679
27,27,0,2047,4023
28,28,0,2047,4095
29,29,0,2046,3938
30,30,0,2046,3522
31,31,0,2046,2916
32,32,0,2046,2199
33,33,0,2046,1462
34,34,0,2046,798
35,35,0,2047,291
36,36,0,2047,8
37,37,0,2046,0
38,38,0,2047,219
39,39,0,2046,688
40,40,0,2047,1329
41,41,0,2046,2059
42,42,0,2046,2788
43,43,0,2046,3421
44,44,0,2047,3877
45,45,0,2047,4095
46,46,0,2047,4060
47,47,0,2047,3761
48,48,0,2046,3243
49,49,0,2046,2572
50,50,0,2047,1833
51,51,0,2047,1120
52,52,0,2046,524
53,53,0,2046,121
54,54,0,2046,0
55,55,0,2046,68
56,56,0,2046,424
57,57,0,2047,987
58,58,0,2047,1684
59,59,0,2047,2425
60,60,0,2046,3117
61,61,0,2047,3673
62,62,0,2047,4019
63,63,0,2047,4095
64,64,0,2047,3943
65,65,0,2046,3529
66,66,0,2047,2926
67,67,0,2046,2210
68,68,0,2046,1472
69,69,0,2047,806
70,70,0,2047,296
71,71,0,2046,10
72,72,0,2047,0
73,73,0,2047,214
74,74,0,2046,681
75,75,0,2046,1319
76,76,0,2046,2049
77,77,0,2046,2779
78,78,0,2046,3414
79,79,0,2047,3872
80,80,0,2046,4095
81,81,0,2045,4061
82,82,0,2046,3767
83,83,0,2047,3252
84,84,0,2047,2582
85,85,0,2047,1843
86,86,0,2047,1130
87,87,0,2046,532
88,88,0,2046,125
89,89,0,2046,0
90,90,0,2046,65
91,91,0,2047,417
92,92,0,2047,979
93,93,0,2047,1674
94,94,0,2047,2415
95,95,0,2047,3108
96,96,0,2046,3666
97,97,0,2046,4016
98,98,0,2046,4095
99,99,0,2046,3947
100,100,0,2046,3537
101,101,0,2046,2936
102,102,0,2046,2221
103,103,0,2046,1482
104,104,0,2047,814
105,105,0,2047,303
106,106,0,2047,12
107,107,0,2047,0
108,108,0,2047,209
109,109,0,2046,673
110,110,0,2047,1309
111,111,0,2046,2039
112,112,0,2047,2768
113,113,0,2047,3406
114,114,0,2047,3868
115,115,0,2046,4095
116,116,0,2046,4064
117,117,0,2046,3773
118,118,0,2047,3260
119,119,0,2046,2592
120,120,0,2047,1854
121,121,0,2046,1138
122,122,0,2046,538
123,123,0,2046,130
124,124,0,2047,0
125,125,0,2046,61
126,126,0,2046,412
127,127,0,2047,970
128,128,0,2047,1664
129,129,0,2047,2405
130,130,0,2047,3100
131,131,0,2047,3659
132,132,0,2046,4013
133,133,0,2047,4095
134,134,0,2047,3952
135,135,0,2046,3545
136,136,0,2046,2945
137,137,0,2046,2231
138,138,0,2047,1492
139,139,0,2047,823
140,140,0,2046,309
141,141,0,2046,14
142,142,0,2047,0
143,143,0,2046,205
144,144,0,2047,664
145,145,0,2047,1299
146,146,0,2047,2029
147,147,0,2047,2759
148,148,0,2046,3397
149,149,0,2046,3863
150,150,0,2047,4095
151,151,0,2048,4067
152,152,0,2046,3779
153,153,0,2047,3269
154,154,0,2046,2602
155,155,0,2046,1864
156,156,0,2047,1148
157,157,0,2046,547
158,158,0,2047,133
159,159,0,2047,0
160,160,0,2047,59
161,161,0,2047,405
162,162,0,2047,961
163,163,0,2046,1653
164,164,0,2047,2394
165,165,0,2046,3091
166,166,0,2046,3653
167,167,0,2047,4009
168,168,0,2046,4095
169,169,0,2046,3956
170,170,0,2046,3552
171,171,0,2046,2955
172,172,0,2047,2241
173,173,0,2046,1502
174,174,0,2047,832
175,175,0,2046,314
176,176,0,2047,17
177,177,0,2047,0
178,178,0,2046,199
179,179,0,2046,657
180,180,0,2047,1290
181,181,0,2047,2018
182,182,0,2046,2750
183,183,0,2046,3390
184,184,0,2047,3858
185,185,0,2046,4095
186,186,0,2046,4069
187,187,0,2046,3784
188,188,0,2047,3278
189,189,0,2047,2612
190,190,0,2046,1875
191,191,0,2046,1158
192,192,0,2047,553
193,193,0,2047,138
194,194,0,2047,0
195,195,0,2046,56
196,196,0,2047,398
197,197,0,2046,952
198,198,0,2046,1643
199,199,0,2047,2385
200,200,0,2047,3081
201,201,0,2046,3646
202,202,0,2046,4007
203,203,0,2047,4095
204,204,0,2047,3959
205,205,0,2047,3559
206,206,0,2046,2965
207,207,0,2047,2252
208,208,0,2046,1513
209,209,0,2046,840
210,210,0,2046,321
211,211,0,2047,20
212,212,0,2047,0
213,213,0,2046,194
214,214,0,2047,648
215,215,0,2046,1280
216,216,0,2046,2007
217,217,0,2046,2740
218,218,0,2046,3382
219,219,0,2046,3853
220,220,0,2046,4093
221,221,0,2047,4071
222,222,0,2047,3790
223,223,0,2046,3286
224,224,0,2046,2623
225,225,0,2046,1885
226,226,0,2046,1167
227,227,0,2047,561
228,228,0,2046,141
229,229,0,2046,0
230,230,0,2047,52
231,231,0,2047,392
232,232,0,2047,943
233,233,0,2047,1632
234,234,0,2047,2373
235,235,0,2046,3072
236,236,0,2046,3639
237,237,0,2047,4003
238,238,0,2047,4095
239,239,0,2046,3963
240,240,0,2047,3566
241,241,0,2046,2973
242,242,0,2047,2263
243,243,0,2047,1523
244,244,0,2047,849
245,245,0,2047,326
246,246,0,2047,22
247,247,0,2046,0
248,248,0,2047,190
249,249,0,2047,641
250,250,0,2047,1270
251,251,0,2047,1997
252,252,0,2047,2730
253,253,0,2047,3374
254,254,0,2047,3847
255,255,0,2047,4091
256,256,0,2047,4073
257,257,0,2047,3796
258,258,0,2046,3294
259,259,0,2046,2632
260,260,0,2046,1896
261,261,0,2047,1177
262,262,0,2047,568
263,263,0,2047,146
264,264,0,2047,0
265,265,0,2047,49
266,266,0,2047,386
267,267,0,2047,933
268,268,0,2047,1622
269,269,0,2046,2364
270,270,0,2047,3063
271,271,0,2047,3633
272,272,0,2046,3999
273,273,0,2047,4095
274,274,0,2047,3967
275,275,0,2046,3573
276,276,0,2047,2983
277,277,0,2047,2274
278,278,0,2046,1533
279,279,0,2046,857
280,280,0,2047,332
281,281,0,2047,25
282,282,0,2047,0
283,283,0,2047,185
284,284,0,2046,633
285,285,0,2047,1260
286,286,0,2046,1987
287,287,0,2047,2719
288,288,0,2047,3366
289,289,0,2047,3842
290,290,0,2047,4090
291,291,0,2046,4076
292,292,0,2047,3801
293,293,0,2047,3302
294,294,0,2046,2642
295,295,0,2046,1906
296,296,0,2046,1186
297,297,0,2046,575
298,298,0,2046,150
299,299,0,2046,0
300,300,0,2047,46
301,301,0,2046,380
302,302,0,2046,924
303,303,0,2046,1612
304,304,0,2047,2353
305,305,0,2046,3054
306,306,0,2047,3626
307,307,0,2046,3996
308,308,0,2046,4095
309,309,0,2046,3971
310,310,0,2046,3580
311,311,0,2046,2991
312,312,0,2046,2284
313,313,0,2047,1543
314,314,0,2046,866
315,315,0,2046,338
316,316,0,2047,27
317,317,0,2047,0
318,318,0,2046,181
319,319,0,2046,626
320,320,0,2047,1250
321,321,0,2047,1976
322,322,0,2047,2710
323,323,0,2046,3357
324,324,0,2046,3837
325,325,0,2046,4088
326,326,0,2046,4077
327,327,0,2047,3807
328,328,0,2046,3311
329,329,0,2046,2652
330,330,0,2047,1916
331,331,0,2047,1196
332,332,0,2047,582
333,333,0,2046,155
334,334,0,2047,0
335,335,0,2046,43
336,336,0,2047,374
337,337,0,2046,916
338,338,0,2046,1601
339,339,0,2047,2342
340,340,0,2046,3045
341,341,0,2046,3619
342,342,0,2046,3993
343,343,0,2047,4095
344,344,0,2046,3974
345,345,0,2046,3587
346,346,0,2046,3002
347,347,0,2047,2294
348,348,0,2047,1553
349,349,0,2046,875
350,350,0,2047,344
351,351,0,2047,30
352,352,0,2046,0
353,353,0,2046,175
354,354,0,2047,618
355,355,0,2046,1241
356,356,0,2046,1965
357,357,0,2046,2700
358,358,0,2046,3349
359,359,0,2046,3833
360,360,0,2047,4087
361,361,0,2046,4080
362,362,0,2046,3812
363,363,0,2048,3319
364,364,0,2046,2663
365,365,0,2046,1927
366,366,0,2046,1206
367,367,0,2046,590
368,368,0,2046,160
369,369,0,2047,0
370,370,0,2047,40
371,371,0,2047,366
372,372,0,2046,907
373,373,0,2047,1591
374,374,0,2047,2332
375,375,0,2047,3036
376,376,0,2047,3612
377,377,0,2046,3989
378,378,0,2046,4095
379,379,0,2047,3979
380,380,0,2047,3594
381,381,0,2046,3011
382,382,0,2046,2304
383,383,0,2047,1564
384,384,0,2047,883
385,385,0,2047,351
386,386,0,2047,32
387,387,0,2046,0
388,388,0,2047,171
389,389,0,2047,611
390,390,0,2047,1231
391,391,0,2047,1955
392,392,0,2047,2690
393,393,0,2046,3340
394,394,0,2046,3827
395,395,0,2046,4084
396,396,0,2047,4081
397,397,0,2047,3818
398,398,0,2046,3327
399,399,0,2046,2672
400,400,0,2047,1937
401,401,0,2046,1215
402,402,0,2046,598
403,403,0,2047,164
404,404,0,2047,0
405,405,0,2047,38
406,406,0,2047,360
407,407,0,2047,898
408,408,0,2047,1581
409,409,0,2047,2321
410,410,0,2047,3027
411,411,0,2046,3606
412,412,0,2046,3985
413,413,0,2047,4095
414,414,0,2047,3983
415,415,0,2046,3601
416,416,0,2046,3020
417,417,0,2046,2315
418,418,0,2046,1574
419,419,0,2047,892
420,420,0,2047,357
421,421,0,2047,36
422,422,0,2047,0
423,423,0,2046,167
424,424,0,2047,603
425,425,0,2046,1222
426,426,0,2047,1945
427,427,0,2047,2680
428,428,0,2046,3333
429,429,0,2047,3821
430,430,0,2046,4083
431,431,0,2046,4083
432,432,0,2046,3823
433,433,0,2046,3335
434,434,0,2046,2682
435,435,0,2047,1948
436,436,0,2046,1224
437,437,0,2046,606
438,438,0,2046,168
439,439,0,2047,0
440,440,0,2047,35
441,441,0,2047,355
442,442,0,2046,889
443,443,0,2046,1570
444,444,0,2047,2311
445,445,0,2046,3017
446,446,0,2046,3599
447,447,0,2046,3982
448,448,0,2047,4095
449,449,0,2046,3986
450,450,0,2047,3608
451,451,0,2046,3030
452,452,0,2046,2324
453,453,0,2047,1584
454,454,0,2046,901
455,455,0,2046,363
456,456,0,2047,38
457,457,0,2047,0
458,458,0,2047,163
459,459,0,2046,595
460,460,0,2046,1212
461,461,0,2046,1934
462,462,0,2046,2669
463,463,0,2047,3324
464,464,0,2047,3816
465,465,0,2046,4080
466,466,0,2047,4085
467,467,0,2046,3828
468,468,0,2047,3343
469,469,0,2046,2693
470,470,0,2047,1958
471,471,0,2047,1235
472,472,0,2047,613
473,473,0,2047,173
474,474,0,2046,0
475,475,0,2046,31
476,476,0,2046,348
477,477,0,2047,880
478,478,0,2046,1560
479,479,0,2046,2301
480,480,0,2047,3008
481,481,0,2046,3592
482,482,0,2047,3978
483,483,0,2046,4095
484,484,0,2046,3990
485,485,0,2046,3615
486,486,0,2047,3039
487,487,0,2046,2335
488,488,0,2046,1595
489,489,0,2047,909
490,490,0,2046,369
491,491,0,2046,41
492,492,0,2047,0
493,493,0,2047,158
494,494,0,2047,588
495,495,0,2047,1202
496,496,0,2046,1923
497,497,0,2046,2660
498,498,0,2047,3316
499,499,0,2047,3810
500,500,0,2046,4079
501,501,0,2047,4087
502,502,0,2047,3834
503,503,0,2046,3351
504,504,0,2047,2703
505,505,0,2047,1969
506,506,0,2046,1244
507,507,0,2047,621
508,508,0,2046,178
509,509,0,2047,0
510,510,0,2047,29
511,511,0,2047,342
512,512,0,2046,871
513,513,0,2046,1550
514,514,0,2047,2291
515,515,0,2047,2999
516,516,0,2046,3585
517,517,0,2047,3975
518,518,0,2046,4095
519,519,0,2046,3993
520,520,0,2046,3622
521,521,0,2047,3048
522,522,0,2046,2346
523,523,0,2046,1605
524,524,0,2047,919
525,525,0,2046,376
526,526,0,2046,44
527,527,0,2046,0
528,528,0,2046,153
529,529,0,2046,580
530,530,0,2046,1192
531,531,0,2047,1913
532,532,0,2047,2650
533,533,0,2047,3308
534,534,0,2046,3804
535,535,0,2047,4077
536,536,0,2047,4089
537,537,0,2046,3839
538,538,0,2046,3359
539,539,0,2046,2712
540,540,0,2046,1979
541,541,0,2047,1254
542,542,0,2047,628
543,543,0,2047,182
544,544,0,2047,0
545,545,0,2047,26
546,546,0,2047,335
547,547,0,2047,863
548,548,0,2046,1539
549,549,0,2046,2280
550,550,0,2047,2989
551,551,0,2047,3578
552,552,0,2046,3970
553,553,0,2047,4095
554,554,0,2046,3996
555,555,0,2047,3628
556,556,0,2046,3057
557,557,0,2046,2356
558,558,0,2046,1616
559,559,0,2047,927
560,560,0,2046,382
561,561,0,2047,48
562,562,0,2046,0
563,563,0,2047,149
564,564,0,2047,573
565,565,0,2047,1183
566,566,0,2047,1903
567,567,0,2047,2639
568,568,0,2047,3300
569,569,0,2047,3799
570,570,0,2047,4074
571,571,0,2047,4091
572,572,0,2046,3844
573,573,0,2047,3368
574,574,0,2047,2722
575,575,0,2046,1990
576,576,0,2047,1264
577,577,0,2047,636
578,578,0,2047,187
579,579,0,2046,0
580,580,0,2047,24
581,581,0,2047,330
582,582,0,2046,855
583,583,0,2047,1529
584,584,0,2047,2269
585,585,0,2046,2980
586,586,0,2046,3570
587,587,0,2047,3966
588,588,0,2047,4095
589,589,0,2046,4000
590,590,0,2047,3635
591,591,0,2047,3066
592,592,0,2047,2367
593,593,0,2047,1625
594,594,0,2047,937
595,595,0,2046,389
596,596,0,2047,50
597,597,0,2046,0
598,598,0,2047,145
599,599,0,2046,565
600,600,0,2046,1174
601,601,0,2047,1892
602,602,0,2047,2629
603,603,0,2046,3290
604,604,0,2047,3794
605,605,0,2047,4073
606,606,0,2046,4092
607,607,0,2046,3849
608,608,0,2047,3376
609,609,0,2047,2732
610,610,0,2047,2001
611,611,0,2046,1274
612,612,0,2047,644
613,613,0,2046,192
614,614,0,2047,0
615,615,0,2046,20
616,616,0,2046,324
617,617,0,2046,846
618,618,0,2046,1520
619,619,0,2046,2259
620,620,0,2046,2971
621,621,0,2047,3563
622,622,0,2047,3962
623,623,0,2046,4095
624,624,0,2047,4003
625,625,0,2046,3642
626,626,0,2046,3076
627,627,0,2047,2377
628,628,0,2046,1636
629,629,0,2047,945
630,630,0,2046,395
631,631,0,2047,53
632,632,0,2047,0
633,633,0,2047,140
634,634,0,2047,557
635,635,0,2047,1163
636,636,0,2047,1882
637,637,0,2047,2619
638,638,0,2046,3283
639,639,0,2047,3788
640,640,0,2047,4069
641,641,0,2047,4095
642,642,0,2047,3855
643,643,0,2046,3384
644,644,0,2047,2743
645,645,0,2046,2011
646,646,0,2047,1284
647,647,0,2047,652
648,648,0,2047,197
649,649,0,2046,0
650,650,0,2047,19
651,651,0,2046,319
652,652,0,2046,837
653,653,0,2047,1509
654,654,0,2046,2248
655,655,0,2046,2961
656,656,0,2046,3557
657,657,0,2047,3959
658,658,0,2046,4095
659,659,0,2046,4008
660,660,0,2047,3649
661,661,0,2047,3084
662,662,0,2046,2388
663,663,0,2046,1647
664,664,0,2047,954
665,665,0,2046,401
666,666,0,2047,56
667,667,0,2046,0
668,668,0,2047,136
669,669,0,2046,551
670,670,0,2046,1155
671,671,0,2047,1871
672,672,0,2046,2609
673,673,0,2047,3275
674,674,0,2047,3782
675,675,0,2047,4067
676,676,0,2046,4095
677,677,0,2046,3860
678,678,0,2046,3392
679,679,0,2046,2753
680,680,0,2046,2022
681,681,0,2047,1293
682,682,0,2046,659
683,683,0,2047,203
684,684,0,2047,0
685,685,0,2046,16
686,686,0,2047,313
687,687,0,2047,829
688,688,0,2046,1499
689,689,0,2046,2238
690,690,0,2046,2952
691,691,0,2046,3549
692,692,0,2047,3954
693,693,0,2047,4095
694,694,0,2047,4011
695,695,0,2047,3655
696,696,0,2046,3093
697,697,0,2047,2398
698,698,0,2046,1656
699,699,0,2047,964
700,700,0,2046,408
701,701,0,2046,60
702,702,0,2046,0
703,703,0,2047,132
704,704,0,2046,543
705,705,0,2047,1145
706,706,0,2047,1860
707,707,0,2046,2599
708,708,0,2046,3266
709,709,0,2047,3776
710,710,0,2046,4066
711,711,0,2046,4095
712,712,0,2047,3865
713,713,0,2046,3400
714,714,0,2047,2762
715,715,0,2046,2032
716,716,0,2046,1303
717,717,0,2046,668
718,718,0,2046,207
719,719,0,2046,0
720,720,0,2047,14
721,721,0,2046,307
722,722,0,2047,820
723,723,0,2047,1489
724,724,0,2047,2228
725,725,0,2046,2942
726,726,0,2046,3541
727,727,0,2047,3951
728,728,0,2047,4095
729,729,0,2046,4014
730,730,0,2046,3661
731,731,0,2046,3103
732,732,0,2047,2408
733,733,0,2046,1667
734,734,0,2047,973
735,735,0,2046,414
736,736,0,2047,63
737,737,0,2046,0
738,738,0,2046,127
739,739,0,2047,536
740,740,0,2047,1136
741,741,0,2046,1850
742,742,0,2046,2589
743,743,0,2046,3257
744,744,0,2047,3771
745,745,0,2047,4063
746,746,0,2047,4095
747,747,0,2047,3870
748,748,0,2047,3408
749,749,0,2046,2772
750,750,0,2047,2043
751,751,0,2046,1313
752,752,0,2047,675
753,753,0,2047,212
754,754,0,2047,0
755,755,0,2047,11
756,756,0,2047,301
757,757,0,2047,812
758,758,0,2047,1479
759,759,0,2046,2217
760,760,0,2046,2933
761,761,0,2047,3534
762,762,0,2046,3945
763,763,0,2046,4095
764,764,0,2046,4017
765,765,0,2046,3669
766,766,0,2047,3111
767,767,0,2047,2418
768,768,0,2047,1677
769,769,0,2046,982
770,770,0,2046,421
771,771,0,2047,66
772,772,0,2047,0
773,773,0,2046,123
774,774,0,2046,529
775,775,0,2046,1126
776,776,0,2046,1839
777,777,0,2046,2579
778,778,0,2046,3249
779,779,0,2046,3766
780,780,0,2047,4061
781,781,0,2046,4095
782,782,0,2046,3875
783,783,0,2047,3416
784,784,0,2047,2781
785,785,0,2047,2053
786,786,0,2046,1323
787,787,0,2046,684
788,788,0,2047,217
789,789,0,2047,0
790,790,0,2046,9
791,791,0,2046,295
792,792,0,2046,803
793,793,0,2047,1468
794,794,0,2046,2207
795,795,0,2047,2923
796,796,0,2047,3527
797,797,0,2047,3942
798,798,0,2046,4095
799,799,0,2046,4020
800,800,0,2046,3675
801,801,0,2046,3120
802,802,0,2047,2429
803,803,0,2047,1687
804,804,0,2046,990
805,805,0,2046,427
806,806,0,2046,70
807,807,0,2047,0
808,808,0,2047,120
809,809,0,2047,522
810,810,0,2046,1116
811,811,0,2046,1829
812,812,0,2047,2568
813,813,0,2047,3240
814,814,0,2046,3759
815,815,0,2046,4058
816,816,0,2047,4095
817,817,0,2047,3880
818,818,0,2046,3424
819,819,0,2046,2791
820,820,0,2047,2064
821,821,0,2047,1333
822,822,0,2047,692
823,823,0,2047,222
824,824,0,2046,0
825,825,0,2047,7
826,826,0,2046,290
827,827,0,2046,795
828,828,0,2046,1458
829,829,0,2047,2196
830,830,0,2047,2914
831,831,0,2047,3520
832,832,0,2047,3938
833,833,0,2046,4095
834,834,0,2047,4023
835,835,0,2047,3681
836,836,0,2047,3129
837,837,0,2046,2440
838,838,0,2046,1698
839,839,0,2047,1000
840,840,0,2046,433
841,841,0,2047,73
842,842,0,2047,0
843,843,0,2047,116
844,844,0,2046,515
845,845,0,2046,1107
846,846,0,2047,1818
847,847,0,2047,2558
848,848,0,2046,3232
849,849,0,2046,3753
850,850,0,2047,4056
851,851,0,2047,4095
852,852,0,2046,3885
853,853,0,2047,3431
854,854,0,2046,2802
855,855,0,2046,2074
856,856,0,2046,1343
857,857,0,2047,699
858,858,0,2047,227
859,859,0,2047,0
860,860,0,2046,5
861,861,0,2047,284
862,862,0,2046,786
863,863,0,2046,1448
864,864,0,2046,2185
865,865,0,2047,2904
866,866,0,2046,3512
867,867,0,2047,3932
868,868,0,2047,4095
869,869,0,2046,4027
870,870,0,2046,3687
871,871,0,2046,3138
872,872,0,2046,2450
873,873,0,2046,1708
874,874,0,2046,1010
875,875,0,2047,441
876,876,0,2047,77
877,877,0,2046,0
878,878,0,2047,112
879,879,0,2046,508
880,880,0,2046,1097
881,881,0,2046,1807
882,882,0,2046,2548
883,883,0,2046,3223
884,884,0,2046,3748
885,885,0,2047,4054
886,886,0,2047,4095
887,887,0,2047,3890
888,888,0,2047,3439
889,889,0,2046,2811
890,890,0,2046,2084
891,891,0,2046,1353
892,892,0,2046,708
893,893,0,2047,232
894,894,0,2046,0
895,895,0,2047,3
896,896,0,2047,278
897,897,0,2047,778
898,898,0,2047,1438
899,899,0,2047,2175
900,900,0,2048,2894
901,901,0,2046,3505
902,902,0,2047,3928
903,903,0,2046,4095
904,904,0,2047,4030
905,905,0,2047,3694
906,906,0,2046,3147
907,907,0,2046,2460
908,908,0,2047,1719
909,909,0,2047,1019
910,910,0,2047,448
911,911,0,2046,80
912,912,0,2046,0
913,913,0,2046,108
914,914,0,2047,501
915,915,0,2046,1088
916,916,0,2047,1797
917,917,0,2046,2537
918,918,0,2047,3214
919,919,0,2047,3741
920,920,0,2047,4051
921,921,0,2046,4095
922,922,0,2046,3895
923,923,0,2047,3448
924,924,0,2047,2821
925,925,0,2046,2095
926,926,0,2047,1362
927,927,0,2047,716
928,928,0,2046,237
929,929,0,2047,0
930,930,0,2046,0
931,931,0,2046,273
932,932,0,2046,769
933,933,0,2047,1428
934,934,0,2047,2164
935,935,0,2046,2885
936,936,0,2047,3498
937,937,0,2046,3925
938,938,0,2046,4095
939,939,0,2046,4033
940,940,0,2047,3701
941,941,0,2046,3156
942,942,0,2047,2470
943,943,0,2046,1729
944,944,0,2047,1028
945,945,0,2047,455
946,946,0,2046,84
947,947,0,2047,0
948,948,0,2046,104
949,949,0,2046,493
950,950,0,2047,1079
951,951,0,2046,1787
952,952,0,2047,2528
953,953,0,2046,3205
954,954,0,2047,3734
955,955,0,2047,4048
956,956,0,2046,4095
957,957,0,2047,3899
958,958,0,2046,3455
959,959,0,2047,2831
960,960,0,2047,2106
961,961,0,2047,1373
962,962,0,2046,724
963,963,0,2046,243
964,964,0,2047,0
965,965,0,2046,0
966,966,0,2047,267
967,967,0,2047,762
968,968,0,2047,1418
969,969,0,2046,2154
970,970,0,2047,2875
971,971,0,2047,3490
972,972,0,2047,3919
973,973,0,2047,4095
974,974,0,2046,4036
975,975,0,2046,3707
976,976,0,2046,3166
977,977,0,2046,2481
978,978,0,2046,1740
979,979,0,2047,1037
980,980,0,2046,461
981,981,0,2046,87
982,982,0,2046,0
983,983,0,2047,100
984,984,0,2047,486
985,985,0,2046,1069
986,986,0,2047,1776
987,987,0,2047,2517
988,988,0,2047,3196
989,989,0,2047,3729
990,990,0,2047,4045
991,991,0,2047,4095
992,992,0,2046,3903
993,993,0,2047,3462
994,994,0,2046,2841
995,995,0,2047,2117
996,996,0,2047,1383
997,997,0,2047,732
998,998,0,2046,248
999,999,0,2046,0
1000,1000,0,2046,0
1001,1001,0,2047,262
1002,1002,0,2047,753
1003,1003,0,2046,1408
1004,1004,0,2046,2144
1005,1005,0,2047,2865
1006,1006,0,2046,3482
1007,1007,0,2047,3915
1008,1008,0,2046,4095
1009,1009,0,2047,4039
1010,1010,0,2047,3713
1011,1011,0,2047,3174
1012,1012,0,2046,2491
1013,1013,0,2046,1750
1014,1014,0,2047,1046
1015,1015,0,2047,468
1016,1016,0,2046,90
1017,1017,0,2047,0
1018,1018,0,2047,96
1019,1019,0,2047,478
1020,1020,0,2047,1061
1021,1021,0,2046,1766
1022,1022,0,2046,2507
1023,1023,0,2047,3188
1024,1024,0,2046,3723
1025,1025,0,2046,4042
1026,1026,0,2046,4095
1027,1027,0,2046,3908
1028,1028,0,2046,3470
1029,1029,0,2046,2850
