Sample in Buffer,Sample in Window,TRIGGER,adc1_data_a_d0[11:0],adc1_data_b_d0[11:0]
0,0,0,2047,2415
1,1,0,2046,2713
2,2,0,2046,2995
3,3,0,2046,3257
4,4,0,2046,3490
5,5,0,2047,3693
6,6,0,2046,3859
7,7,0,2046,3985
8,8,0,2047,4068
9,9,0,2047,4095
10,10,0,2046,4095
11,11,0,2046,4050
12,12,0,2046,3955
13,13,0,2047,3817
14,14,0,2047,3641
15,15,0,2047,3430
16,16,0,2046,3188
17,17,0,2047,2922
18,18,0,2046,2635
19,19,0,2046,2335
20,20,0,2046,2029
21,21,0,2047,1722
22,22,0,2046,1422
23,23,0,2046,1136
24,24,0,2046,869
25,25,0,2047,628
26,26,0,2046,418
27,27,0,2046,244
28,28,0,2047,109
29,29,0,2046,17
30,30,0,2046,0
31,31,0,2047,0
32,32,0,2047,10
33,33,0,2047,98
34,34,0,2047,229
35,35,0,2046,399
36,36,0,2046,605
37,37,0,2047,843
38,38,0,2046,1107
39,39,0,2047,1391
40,40,0,2047,1690
41,41,0,2047,1997
42,42,0,2047,2303
43,43,0,2046,2603
44,44,0,2047,2892
45,45,0,2047,3162
46,46,0,2047,3407
47,47,0,2047,3621
48,48,0,2047,3801
49,49,0,2047,3942
50,50,0,2046,4042
51,51,0,2046,4095
52,52,0,2046,4095
53,53,0,2047,4075
54,54,0,2047,3994
55,55,0,2047,3874
56,56,0,2046,3711
57,57,0,2047,3513
58,58,0,2046,3282
59,59,0,2046,3024
60,60,0,2047,2744
61,61,0,2046,2448
62,62,0,2047,2143
63,63,0,2046,1836
64,64,0,2046,1533
65,65,0,2046,1241
66,66,0,2047,966
67,67,0,2046,715
68,68,0,2046,492
69,69,0,2046,305
70,70,0,2047,154
71,71,0,2047,46
72,72,0,2046,0
73,73,0,2047,0
74,74,0,2047,0
75,75,0,2047,60
76,76,0,2047,175
77,77,0,2047,331
78,78,0,2046,524
79,79,0,2046,751
80,80,0,2046,1006
81,81,0,2046,1283
82,82,0,2046,1578
83,83,0,2046,1881
84,84,0,2047,2189
85,85,0,2046,2492
86,86,0,2046,2787
87,87,0,2046,3064
88,88,0,2047,3317
89,89,0,2047,3545
90,90,0,2047,3738
91,91,0,2047,3894
92,92,0,2047,4010
93,93,0,2046,4082
94,94,0,2046,4095
95,95,0,2046,4092
96,96,0,2046,4030
97,97,0,2046,3924
98,98,0,2047,3776
99,99,0,2046,3591
100,100,0,2046,3372
101,101,0,2047,3123
102,102,0,2046,2850
103,103,0,2047,2559
104,104,0,2047,2257
105,105,0,2047,1950
106,106,0,2047,1644
107,107,0,2047,1348
108,108,0,2047,1066
109,109,0,2046,805
110,110,0,2047,572
111,111,0,2047,370
112,112,0,2046,206
113,113,0,2047,82
114,114,0,2046,0
115,115,0,2046,0
116,116,0,2046,0
117,117,0,2047,28
118,118,0,2046,127
119,119,0,2047,268
120,120,0,2046,448
121,121,0,2046,663
122,122,0,2046,908
123,123,0,2046,1178
124,124,0,2046,1467
125,125,0,2046,1768
126,126,0,2046,2074
127,127,0,2047,2380
128,128,0,2047,2678
129,129,0,2047,2962
130,130,0,2046,3227
131,131,0,2046,3465
132,132,0,2046,3671
133,133,0,2046,3841
134,134,0,2046,3972
135,135,0,2047,4061
136,136,0,2047,4095
137,137,0,2047,4095
138,138,0,2047,4058
139,139,0,2047,3968
140,140,0,2047,3836
141,141,0,2046,3664
142,142,0,2046,3457
143,143,0,2046,3219
144,144,0,2046,2955
145,145,0,2046,2670
146,146,0,2047,2371
147,147,0,2047,2065
148,148,0,2047,1758
149,149,0,2046,1457
150,150,0,2046,1169
151,151,0,2047,900
152,152,0,2047,656
153,153,0,2047,442
154,154,0,2047,263
155,155,0,2046,123
156,156,0,2046,25
157,157,0,2047,0
158,158,0,2047,0
159,159,0,2046,1
160,160,0,2047,85
161,161,0,2046,211
162,162,0,2047,377
163,163,0,2046,579
164,164,0,2046,814
165,165,0,2047,1074
166,166,0,2047,1357
167,167,0,2047,1654
168,168,0,2047,1960
169,169,0,2047,2267
170,170,0,2046,2569
171,171,0,2047,2858
172,172,0,2046,3131
173,173,0,2046,3379
174,174,0,2046,3597
175,175,0,2046,3781
176,176,0,2046,3928
177,177,0,2046,4032
178,178,0,2046,4094
179,179,0,2046,4095
180,180,0,2047,4081
181,181,0,2046,4007
182,182,0,2047,3890
183,183,0,2046,3733
184,184,0,2047,3538
185,185,0,2047,3311
186,186,0,2046,3056
187,187,0,2046,2777
188,188,0,2046,2484
189,189,0,2046,2180
190,190,0,2046,1873
191,191,0,2046,1568
192,192,0,2047,1275
193,193,0,2046,998
194,194,0,2046,743
195,195,0,2046,517
196,196,0,2047,326
197,197,0,2047,170
198,198,0,2046,56
199,199,0,2047,0
200,200,0,2046,0
201,201,0,2046,0
202,202,0,2046,49
203,203,0,2047,159
204,204,0,2046,310
205,205,0,2046,499
206,206,0,2046,722
207,207,0,2046,974
208,208,0,2046,1250
209,209,0,2047,1543
210,210,0,2046,1845
211,211,0,2047,2153
212,212,0,2047,2457
213,213,0,2046,2753
214,214,0,2046,3032
215,215,0,2046,3290
216,216,0,2047,3519
217,217,0,2046,3717
218,218,0,2047,3878
219,219,0,2046,3998
220,220,0,2047,4075
221,221,0,2047,4095
222,222,0,2047,4095
223,223,0,2046,4039
224,224,0,2047,3939
225,225,0,2046,3796
226,226,0,2046,3615
227,227,0,2047,3399
228,228,0,2046,3154
229,229,0,2047,2884
230,230,0,2046,2595
231,231,0,2047,2294
232,232,0,2047,1987
233,233,0,2047,1681
234,234,0,2046,1383
235,235,0,2047,1099
236,236,0,2046,835
237,237,0,2047,598
238,238,0,2047,393
239,239,0,2047,223
240,240,0,2046,94
241,241,0,2047,7
242,242,0,2046,0
243,243,0,2047,0
244,244,0,2046,19
245,245,0,2046,113
246,246,0,2046,249
247,247,0,2046,424
248,248,0,2047,637
249,249,0,2047,877
250,250,0,2046,1145
251,251,0,2047,1431
252,252,0,2046,1732
253,253,0,2046,2038
254,254,0,2046,2345
255,255,0,2047,2644
256,256,0,2046,2929
257,257,0,2046,3196
258,258,0,2047,3437
259,259,0,2047,3648
260,260,0,2046,3822
261,261,0,2046,3959
262,262,0,2046,4051
263,263,0,2047,4095
264,264,0,2046,4095
265,265,0,2047,4066
266,266,0,2046,3981
267,267,0,2046,3853
268,268,0,2046,3686
269,269,0,2047,3483
270,270,0,2046,3249
271,271,0,2046,2987
272,272,0,2046,2705
273,273,0,2046,2407
274,274,0,2046,2102
275,275,0,2046,1795
276,276,0,2046,1493
277,277,0,2046,1203
278,278,0,2047,931
279,279,0,2047,684
280,280,0,2046,465
281,281,0,2047,281
282,282,0,2047,137
283,283,0,2046,34
284,284,0,2046,0
285,285,0,2047,0
286,286,0,2047,0
287,287,0,2047,73
288,288,0,2047,193
289,289,0,2046,355
290,290,0,2047,553
291,291,0,2046,783
292,292,0,2046,1042
293,293,0,2047,1322
294,294,0,2047,1618
295,295,0,2047,1923
296,296,0,2046,2230
297,297,0,2046,2534
298,298,0,2046,2824
299,299,0,2047,3099
300,300,0,2046,3350
301,301,0,2047,3573
302,302,0,2047,3761
303,303,0,2047,3913
304,304,0,2046,4023
305,305,0,2046,4090
306,306,0,2047,4095
307,307,0,2046,4086
308,308,0,2047,4017
309,309,0,2046,3906
310,310,0,2046,3753
311,311,0,2046,3563
312,312,0,2046,3340
313,313,0,2046,3087
314,314,0,2047,2812
315,315,0,2047,2520
316,316,0,2047,2217
317,317,0,2047,1909
318,318,0,2047,1604
319,319,0,2047,1309
320,320,0,2047,1030
321,321,0,2047,773
322,322,0,2046,543
323,323,0,2046,346
324,324,0,2047,187
325,325,0,2047,68
326,326,0,2047,0
327,327,0,2046,0
328,328,0,2046,0
329,329,0,2047,39
330,330,0,2047,143
331,331,0,2046,290
332,332,0,2047,475
333,333,0,2046,694
334,334,0,2047,943
335,335,0,2047,1216
336,336,0,2046,1507
337,337,0,2046,1809
338,338,0,2046,2116
339,339,0,2047,2421
340,340,0,2047,2718
341,341,0,2047,2999
342,342,0,2047,3260
343,343,0,2046,3494
344,344,0,2046,3695
345,345,0,2046,3861
346,346,0,2047,3987
347,347,0,2046,4069
348,348,0,2047,4095
349,349,0,2046,4095
350,350,0,2046,4049
351,351,0,2047,3953
352,352,0,2047,3814
353,353,0,2046,3638
354,354,0,2047,3427
355,355,0,2047,3185
356,356,0,2046,2917
357,357,0,2046,2630
358,358,0,2046,2330
359,359,0,2046,2024
360,360,0,2047,1717
361,361,0,2046,1418
362,362,0,2047,1131
363,363,0,2046,865
364,364,0,2046,625
365,365,0,2046,416
366,366,0,2047,242
367,367,0,2047,106
368,368,0,2047,16
369,369,0,2047,0
370,370,0,2046,0
371,371,0,2047,11
372,372,0,2047,99
373,373,0,2047,231
374,374,0,2047,402
375,375,0,2046,608
376,376,0,2047,847
377,377,0,2047,1111
378,378,0,2047,1396
379,379,0,2047,1695
380,380,0,2046,2002
381,381,0,2047,2308
382,382,0,2047,2609
383,383,0,2046,2896
384,384,0,2046,3166
385,385,0,2046,3410
386,386,0,2047,3624
387,387,0,2047,3804
388,388,0,2046,3945
389,389,0,2047,4043
390,390,0,2046,4095
391,391,0,2047,4095
392,392,0,2046,4073
393,393,0,2046,3994
394,394,0,2046,3871
395,395,0,2047,3708
396,396,0,2047,3509
397,397,0,2046,3278
398,398,0,2047,3019
399,399,0,2046,2739
400,400,0,2046,2443
401,401,0,2046,2138
402,402,0,2046,1831
403,403,0,2047,1528
404,404,0,2047,1236
405,405,0,2046,962
406,406,0,2046,711
407,407,0,2047,490
408,408,0,2046,301
409,409,0,2047,153
410,410,0,2046,44
411,411,0,2047,0
412,412,0,2047,0
413,413,0,2046,0
414,414,0,2046,61
415,415,0,2047,177
416,416,0,2046,333
417,417,0,2046,527
418,418,0,2047,754
419,419,0,2046,1010
420,420,0,2047,1288
421,421,0,2046,1582
422,422,0,2047,1887
423,423,0,2046,2194
424,424,0,2047,2498
425,425,0,2046,2791
426,426,0,2046,3068
427,427,0,2047,3322
428,428,0,2046,3548
429,429,0,2047,3741
430,430,0,2047,3897
431,431,0,2046,4011
432,432,0,2046,4083
433,433,0,2046,4095
434,434,0,2047,4092
435,435,0,2047,4028
436,436,0,2046,3921
437,437,0,2047,3774
438,438,0,2046,3587
439,439,0,2046,3367
440,440,0,2047,3119
441,441,0,2047,2846
442,442,0,2046,2555
443,443,0,2046,2253
444,444,0,2046,1946
445,445,0,2046,1640
446,446,0,2046,1343
447,447,0,2047,1062
448,448,0,2047,802
449,449,0,2046,569
450,450,0,2046,368
451,451,0,2046,203
452,452,0,2046,80
453,453,0,2046,0
454,454,0,2046,0
455,455,0,2047,0
456,456,0,2047,29
457,457,0,2046,128
458,458,0,2046,270
459,459,0,2046,450
460,460,0,2046,666
461,461,0,2046,912
462,462,0,2046,1183
463,463,0,2046,1471
464,464,0,2046,1773
465,465,0,2046,2079
466,466,0,2046,2386
467,467,0,2046,2683
468,468,0,2047,2967
469,469,0,2046,3231
470,470,0,2046,3468
471,471,0,2046,3673
472,472,0,2046,3843
473,473,0,2046,3974
474,474,0,2046,4061
475,475,0,2046,4095
476,476,0,2047,4095
477,477,0,2047,4057
478,478,0,2047,3966
479,479,0,2046,3834
480,480,0,2046,3661
481,481,0,2046,3453
482,482,0,2046,3214
483,483,0,2046,2950
484,484,0,2047,2666
485,485,0,2047,2367
486,486,0,2046,2060
487,487,0,2046,1753
488,488,0,2046,1453
489,489,0,2046,1165
490,490,0,2046,896
491,491,0,2046,651
492,492,0,2047,439
493,493,0,2046,260
494,494,0,2046,121
495,495,0,2046,24
496,496,0,2046,0
497,497,0,2047,0
498,498,0,2046,3
499,499,0,2047,86
500,500,0,2046,213
501,501,0,2047,379
502,502,0,2047,582
503,503,0,2047,817
504,504,0,2046,1079
505,505,0,2046,1362
506,506,0,2047,1659
507,507,0,2046,1964
508,508,0,2046,2272
509,509,0,2047,2574
510,510,0,2046,2862
511,511,0,2047,3135
512,512,0,2047,3382
513,513,0,2047,3600
514,514,0,2047,3784
515,515,0,2047,3929
516,516,0,2047,4034
517,517,0,2047,4095
518,518,0,2047,4095
519,519,0,2046,4080
520,520,0,2046,4005
521,521,0,2047,3888
522,522,0,2046,3730
523,523,0,2047,3534
524,524,0,2047,3306
525,525,0,2046,3051
526,526,0,2046,2773
527,527,0,2046,2479
528,528,0,2047,2175
529,529,0,2047,1867
530,530,0,2047,1563
531,531,0,2046,1270
532,532,0,2046,993
533,533,0,2046,739
534,534,0,2046,514
535,535,0,2046,322
536,536,0,2046,168
537,537,0,2046,55
538,538,0,2047,0
539,539,0,2047,0
540,540,0,2046,0
541,541,0,2047,50
542,542,0,2046,161
543,543,0,2046,313
544,544,0,2046,502
545,545,0,2046,726
546,546,0,2046,979
547,547,0,2046,1254
548,548,0,2047,1547
549,549,0,2047,1851
550,550,0,2046,2158
551,551,0,2047,2461
552,552,0,2046,2757
553,553,0,2046,3036
554,554,0,2047,3293
555,555,0,2047,3523
556,556,0,2047,3720
557,557,0,2047,3881
558,558,0,2046,4001
559,559,0,2046,4077
560,560,0,2046,4095
561,561,0,2047,4095
562,562,0,2046,4038
563,563,0,2047,3936
564,564,0,2046,3793
565,565,0,2047,3612
566,566,0,2046,3396
567,567,0,2046,3150
568,568,0,2047,2879
569,569,0,2046,2590
570,570,0,2046,2289
571,571,0,2047,1982
572,572,0,2046,1677
573,573,0,2046,1378
574,574,0,2047,1094
575,575,0,2046,831
576,576,0,2046,595
577,577,0,2046,389
578,578,0,2046,221
579,579,0,2046,92
580,580,0,2047,6
581,581,0,2047,0
582,582,0,2047,0
583,583,0,2046,21
584,584,0,2047,115
585,585,0,2047,252
586,586,0,2047,428
587,587,0,2047,639
588,588,0,2047,881
589,589,0,2047,1149
590,590,0,2047,1436
591,591,0,2047,1736
592,592,0,2046,2043
593,593,0,2046,2349
594,594,0,2046,2648
595,595,0,2046,2934
596,596,0,2047,3200
597,597,0,2047,3441
598,598,0,2047,3651
599,599,0,2046,3825
600,600,0,2046,3960
601,601,0,2046,4053
602,602,0,2047,4095
603,603,0,2047,4095
604,604,0,2047,4065
605,605,0,2047,3980
606,606,0,2047,3852
607,607,0,2046,3683
608,608,0,2047,3480
609,609,0,2047,3245
610,610,0,2047,2983
611,611,0,2046,2700
612,612,0,2047,2403
613,613,0,2047,2097
614,614,0,2047,1789
615,615,0,2046,1488
616,616,0,2047,1198
617,617,0,2047,927
618,618,0,2047,679
619,619,0,2046,462
620,620,0,2047,279
621,621,0,2047,135
622,622,0,2046,34
623,623,0,2047,0
624,624,0,2046,0
625,625,0,2047,0
626,626,0,2046,74
627,627,0,2047,195
628,628,0,2047,357
629,629,0,2047,556
630,630,0,2046,788
631,631,0,2047,1047
632,632,0,2047,1327
633,633,0,2046,1623
634,634,0,2046,1928
635,635,0,2046,2235
636,636,0,2046,2538
637,637,0,2046,2830
638,638,0,2047,3104
639,639,0,2047,3354
640,640,0,2046,3576
641,641,0,2046,3765
642,642,0,2046,3915
643,643,0,2047,4024
644,644,0,2046,4090
645,645,0,2047,4095
646,646,0,2047,4086
647,647,0,2047,4017
648,648,0,2047,3904
649,649,0,2046,3751
650,650,0,2047,3560
651,651,0,2047,3336
652,652,0,2046,3084
653,653,0,2046,2808
654,654,0,2047,2515
655,655,0,2046,2212
656,656,0,2046,1904
657,657,0,2046,1599
658,658,0,2047,1304
659,659,0,2047,1026
660,660,0,2046,768
661,661,0,2046,539
662,662,0,2046,343
663,663,0,2046,184
664,664,0,2047,66
665,665,0,2046,0
666,666,0,2046,0
667,667,0,2047,0
668,668,0,2047,40
669,669,0,2047,146
670,670,0,2047,293
671,671,0,2047,479
672,672,0,2046,698
673,673,0,2047,947
674,674,0,2046,1220
675,675,0,2046,1511
676,676,0,2047,1814
677,677,0,2047,2121
678,678,0,2047,2426
679,679,0,2047,2722
680,680,0,2046,3004
681,681,0,2047,3265
682,682,0,2046,3498
683,683,0,2047,3698
684,684,0,2046,3863
685,685,0,2046,3988
686,686,0,2047,4070
687,687,0,2047,4095
688,688,0,2047,4095
689,689,0,2046,4047
690,690,0,2047,3952
691,691,0,2046,3812
692,692,0,2047,3635
693,693,0,2046,3424
694,694,0,2046,3180
695,695,0,2046,2912
696,696,0,2047,2625
697,697,0,2046,2326
698,698,0,2047,2019
699,699,0,2047,1712
700,700,0,2046,1413
701,701,0,2046,1128
702,702,0,2047,861
703,703,0,2047,621
704,704,0,2046,413
705,705,0,2047,240
706,706,0,2047,105
707,707,0,2047,14
708,708,0,2046,0
709,709,0,2046,0
710,710,0,2047,12
711,711,0,2047,101
712,712,0,2046,233
713,713,0,2046,405
714,714,0,2047,612
715,715,0,2047,852
716,716,0,2046,1116
717,717,0,2046,1401
718,718,0,2047,1701
719,719,0,2046,2007
720,720,0,2046,2313
721,721,0,2047,2613
722,722,0,2046,2901
723,723,0,2046,3170
724,724,0,2047,3413
725,725,0,2046,3628
726,726,0,2047,3807
727,727,0,2046,3947
728,728,0,2047,4044
729,729,0,2047,4095
730,730,0,2046,4095
731,731,0,2046,4072
732,732,0,2047,3992
733,733,0,2047,3869
734,734,0,2046,3706
735,735,0,2047,3505
736,736,0,2046,3274
737,737,0,2047,3015
738,738,0,2047,2735
739,739,0,2046,2438
740,740,0,2047,2133
741,741,0,2047,1826
742,742,0,2047,1523
743,743,0,2046,1232
744,744,0,2047,958
745,745,0,2047,707
746,746,0,2047,486
747,747,0,2047,299
748,748,0,2047,150
749,749,0,2046,43
750,750,0,2047,0
751,751,0,2046,0
752,752,0,2046,0
753,753,0,2046,63
754,754,0,2047,179
755,755,0,2047,336
756,756,0,2047,531
757,757,0,2047,759
758,758,0,2046,1015
759,759,0,2046,1293
760,760,0,2047,1587
761,761,0,2047,1892
762,762,0,2047,2199
763,763,0,2046,2503
764,764,0,2046,2796
765,765,0,2047,3073
766,766,0,2047,3326
767,767,0,2047,3552
768,768,0,2047,3744
769,769,0,2047,3899
770,770,0,2047,4013
771,771,0,2046,4084
772,772,0,2047,4095
773,773,0,2046,4091
774,774,0,2047,4027
775,775,0,2047,3920
776,776,0,2047,3770
777,777,0,2046,3584
778,778,0,2046,3364
779,779,0,2047,3114
780,780,0,2047,2841
781,781,0,2047,2550
782,782,0,2047,2248
783,783,0,2046,1941
784,784,0,2047,1635
785,785,0,2046,1338
786,786,0,2046,1058
787,787,0,2047,798
788,788,0,2046,565
789,789,0,2047,365
790,790,0,2046,201
791,791,0,2047,78
792,792,0,2047,0
793,793,0,2046,0
794,794,0,2047,0
795,795,0,2047,30
796,796,0,2046,130
797,797,0,2047,273
798,798,0,2046,454
799,799,0,2047,670
800,800,0,2047,916
801,801,0,2047,1188
802,802,0,2046,1476
803,803,0,2047,1777
804,804,0,2047,2084
805,805,0,2047,2390
806,806,0,2046,2687
807,807,0,2046,2971
808,808,0,2046,3235
809,809,0,2047,3471
810,810,0,2047,3676
811,811,0,2047,3846
812,812,0,2047,3976
813,813,0,2046,4062
814,814,0,2047,4095
815,815,0,2046,4095
816,816,0,2047,4057
817,817,0,2047,3965
818,818,0,2047,3831
819,819,0,2047,3658
820,820,0,2046,3451
821,821,0,2047,3210
822,822,0,2047,2945
823,823,0,2046,2660
824,824,0,2047,2362
825,825,0,2046,2056
826,826,0,2047,1748
827,827,0,2046,1448
828,828,0,2047,1160
829,829,0,2046,892
830,830,0,2047,648
831,831,0,2047,435
832,832,0,2046,258
833,833,0,2046,118
834,834,0,2047,23
835,835,0,2046,0
836,836,0,2047,0
837,837,0,2046,5
838,838,0,2047,88
839,839,0,2047,215
840,840,0,2046,383
841,841,0,2046,586
842,842,0,2046,821
843,843,0,2047,1083
844,844,0,2047,1366
845,845,0,2047,1664
846,846,0,2047,1969
847,847,0,2047,2276
848,848,0,2046,2578
849,849,0,2047,2868
850,850,0,2047,3139
851,851,0,2047,3386
852,852,0,2047,3604
853,853,0,2046,3787
854,854,0,2047,3932
855,855,0,2047,4034
856,856,0,2047,4095
857,857,0,2047,4095
858,858,0,2047,4079
859,859,0,2046,4004
860,860,0,2047,3886
861,861,0,2046,3727
862,862,0,2047,3532
863,863,0,2046,3304
864,864,0,2046,3047
865,865,0,2046,2769
866,866,0,2046,2475
867,867,0,2046,2171
868,868,0,2046,1863
869,869,0,2047,1559
870,870,0,2047,1266
871,871,0,2046,989
872,872,0,2046,735
873,873,0,2046,511
874,874,0,2047,320
875,875,0,2047,166
876,876,0,2047,54
877,877,0,2047,0
878,878,0,2046,0
879,879,0,2046,0
880,880,0,2047,52
881,881,0,2046,163
882,882,0,2046,316
883,883,0,2047,506
884,884,0,2047,731
885,885,0,2047,983
886,886,0,2047,1258
887,887,0,2047,1551
888,888,0,2046,1855
889,889,0,2047,2161
890,890,0,2046,2466
891,891,0,2046,2761
892,892,0,2047,3040
893,893,0,2046,3297
894,894,0,2047,3526
895,895,0,2046,3723
896,896,0,2047,3883
897,897,0,2046,4001
898,898,0,2047,4078
899,899,0,2047,4095
900,900,0,2046,4095
901,901,0,2047,4037
902,902,0,2047,3935
903,903,0,2046,3791
904,904,0,2046,3608
905,905,0,2047,3392
906,906,0,2046,3146
907,907,0,2047,2875
908,908,0,2046,2585
909,909,0,2047,2284
910,910,0,2047,1978
911,911,0,2047,1672
912,912,0,2047,1374
913,913,0,2047,1090
914,914,0,2046,827
915,915,0,2047,591
916,916,0,2047,387
917,917,0,2047,218
918,918,0,2046,91
919,919,0,2047,4
920,920,0,2047,0
921,921,0,2047,0
922,922,0,2046,22
923,923,0,2047,116
924,924,0,2046,254
925,925,0,2047,431
926,926,0,2046,643
927,927,0,2046,885
928,928,0,2046,1154
929,929,0,2046,1441
930,930,0,2046,1741
931,931,0,2047,2048
932,932,0,2046,2354
933,933,0,2047,2653
934,934,0,2047,2938
935,935,0,2047,3205
936,936,0,2046,3444
937,937,0,2047,3653
938,938,0,2047,3827
939,939,0,2046,3962
940,940,0,2046,4055
941,941,0,2047,4095
942,942,0,2047,4095
943,943,0,2047,4064
944,944,0,2047,3978
945,945,0,2046,3849
946,946,0,2047,3680
947,947,0,2047,3477
948,948,0,2047,3241
949,949,0,2047,2978
950,950,0,2047,2695
951,951,0,2046,2398
952,952,0,2046,2092
953,953,0,2046,1785
954,954,0,2047,1483
955,955,0,2047,1194
956,956,0,2047,923
957,957,0,2047,676
958,958,0,2046,459
959,959,0,2047,277
960,960,0,2047,133
961,961,0,2046,32
962,962,0,2047,0
963,963,0,2046,0
964,964,0,2047,0
965,965,0,2046,76
966,966,0,2047,198
967,967,0,2047,360
968,968,0,2047,560
969,969,0,2047,792
970,970,0,2046,1052
971,971,0,2046,1331
972,972,0,2046,1628
973,973,0,2046,1933
974,974,0,2046,2240
975,975,0,2047,2543
976,976,0,2046,2834
977,977,0,2046,3108
978,978,0,2046,3358
979,979,0,2047,3580
980,980,0,2046,3767
981,981,0,2047,3918
982,982,0,2046,4025
983,983,0,2046,4091
984,984,0,2047,4095
985,985,0,2047,4085
986,986,0,2047,4015
987,987,0,2046,3902
988,988,0,2046,3748
989,989,0,2047,3556
990,990,0,2047,3332
991,991,0,2047,3079
992,992,0,2047,2803
993,993,0,2046,2511
994,994,0,2046,2206
995,995,0,2047,1900
996,996,0,2046,1595
997,997,0,2047,1300
998,998,0,2047,1021
999,999,0,2047,765
1000,1000,0,2047,537
1001,1001,0,2046,340
1002,1002,0,2047,182
1003,1003,0,2046,65
1004,1004,0,2046,0
1005,1005,0,2047,0
1006,1006,0,2046,0
1007,1007,0,2047,41
1008,1008,0,2047,148
1009,1009,0,2047,295
1010,1010,0,2046,482
1011,1011,0,2047,703
1012,1012,0,2047,952
1013,1013,0,2046,1225
1014,1014,0,2047,1517
1015,1015,0,2047,1820
1016,1016,0,2047,2126
1017,1017,0,2047,2431
1018,1018,0,2046,2727
1019,1019,0,2047,3009
1020,1020,0,2046,3268
1021,1021,0,2046,3501
1022,1022,0,2046,3701
1023,1023,0,2047,3866
1024,1024,0,2047,3990
1025,1025,0,2046,4072
1026,1026,0,2047,4095
1027,1027,0,2046,4095
1028,1028,0,2047,4046
1029,1029,0,2047,3949
