Sample in Buffer,Sample in Window,TRIGGER,adc1_data_a_d0[11:0],adc1_data_b_d0[11:0]
0,0,0,2046,991
1,1,0,2046,229
2,2,0,2046,0
3,3,0,2046,350
4,4,0,2047,1197
5,5,0,2046,2289
6,6,0,2047,3307
7,7,0,2047,3958
8,8,0,2046,4051
9,9,0,2046,3560
10,10,0,2046,2628
11,11,0,2046,1525
12,12,0,2046,572
13,13,0,2046,41
14,14,0,2047,92
15,15,0,2046,707
16,16,0,2046,1709
17,17,0,2046,2805
18,18,0,2047,3679
19,19,0,2046,4078
20,20,0,2046,3884
21,21,0,2046,3153
22,22,0,2046,2101
23,23,0,2046,1030
24,24,0,2046,252
25,25,0,2047,0
26,26,0,2046,325
27,27,0,2046,1154
28,28,0,2046,2242
29,29,0,2047,3270
30,30,0,2047,3940
31,31,0,2046,4059
32,32,0,2046,3591
33,33,0,2046,2672
34,34,0,2047,1570
35,35,0,2046,604
36,36,0,2046,53
37,37,0,2047,78
38,38,0,2046,673
39,39,0,2047,1663
40,40,0,2046,2762
41,41,0,2046,3651
42,42,0,2047,4073
43,43,0,2046,3903
44,44,0,2046,3192
45,45,0,2046,2147
46,46,0,2046,1071
47,47,0,2046,274
48,48,0,2046,0
49,49,0,2047,300
50,50,0,2046,1113
51,51,0,2046,2196
52,52,0,2047,3232
53,53,0,2046,3923
54,54,0,2046,4065
55,55,0,2046,3621
56,56,0,2047,2716
57,57,0,2047,1615
58,58,0,2046,637
59,59,0,2047,65
60,60,0,2046,65
61,61,0,2047,638
62,62,0,2046,1617
63,63,0,2047,2719
64,64,0,2047,3623
65,65,0,2046,4066
66,66,0,2046,3922
67,67,0,2047,3231
68,68,0,2047,2194
69,69,0,2046,1112
70,70,0,2047,299
71,71,0,2046,0
72,72,0,2046,275
73,73,0,2046,1072
74,74,0,2047,2150
75,75,0,2046,3194
76,76,0,2047,3904
77,77,0,2046,4071
78,78,0,2047,3649
79,79,0,2046,2760
80,80,0,2046,1661
81,81,0,2046,672
82,82,0,2046,78
83,83,0,2046,54
84,84,0,2047,605
85,85,0,2046,1572
86,86,0,2046,2674
87,87,0,2046,3592
88,88,0,2046,4059
89,89,0,2047,3940
90,90,0,2046,3268
91,91,0,2046,2240
92,92,0,2046,1153
93,93,0,2047,324
94,94,0,2046,0
95,95,0,2046,252
96,96,0,2046,1032
97,97,0,2046,2104
98,98,0,2047,3156
99,99,0,2046,3884
100,100,0,2046,4077
101,101,0,2046,3678
102,102,0,2046,2803
103,103,0,2046,1707
104,104,0,2046,706
105,105,0,2046,92
106,106,0,2047,43
107,107,0,2047,572
108,108,0,2046,1526
109,109,0,2047,2631
110,110,0,2046,3562
111,111,0,2047,4051
112,112,0,2046,3957
113,113,0,2047,3305
114,114,0,2046,2286
115,115,0,2046,1196
116,116,0,2046,349
117,117,0,2046,0
118,118,0,2046,230
119,119,0,2046,992
120,120,0,2046,2057
121,121,0,2047,3117
122,122,0,2047,3863
123,123,0,2046,4081
124,124,0,2046,3705
125,125,0,2046,2846
126,126,0,2046,1752
127,127,0,2047,741
128,128,0,2047,107
129,129,0,2046,33
130,130,0,2046,540
131,131,0,2046,1482
132,132,0,2047,2586
133,133,0,2046,3530
134,134,0,2047,4042
135,135,0,2046,3972
136,136,0,2047,3341
137,137,0,2046,2332
138,138,0,2047,1238
139,139,0,2047,376
140,140,0,2046,0
141,141,0,2046,209
142,142,0,2047,952
143,143,0,2046,2011
144,144,0,2047,3076
145,145,0,2046,3842
146,146,0,2047,4084
147,147,0,2046,3732
148,148,0,2046,2889
149,149,0,2046,1798
150,150,0,2046,779
151,151,0,2046,123
152,152,0,2046,24
153,153,0,2046,509
154,154,0,2046,1438
155,155,0,2046,2541
156,156,0,2047,3498
157,157,0,2046,4032
158,158,0,2046,3987
159,159,0,2046,3376
160,160,0,2047,2379
161,161,0,2046,1281
162,162,0,2047,404
163,163,0,2045,1
164,164,0,2047,188
165,165,0,2047,913
166,166,0,2046,1965
167,167,0,2046,3036
168,168,0,2047,3820
169,169,0,2047,4086
170,170,0,2047,3758
171,171,0,2047,2930
172,172,0,2047,1845
173,173,0,2046,816
174,174,0,2046,140
175,175,0,2047,16
176,176,0,2046,478
177,177,0,2047,1394
178,178,0,2046,2495
179,179,0,2046,3465
180,180,0,2046,4020
181,181,0,2046,4001
182,182,0,2046,3412
183,183,0,2046,2424
184,184,0,2046,1324
185,185,0,2046,431
186,186,0,2046,5
187,187,0,2046,169
188,188,0,2046,874
189,189,0,2046,1918
190,190,0,2046,2996
191,191,0,2047,3796
192,192,0,2047,4087
193,193,0,2046,3783
194,194,0,2046,2972
195,195,0,2046,1891
196,196,0,2047,853
197,197,0,2047,157
198,198,0,2047,8
199,199,0,2046,449
200,200,0,2046,1349
201,201,0,2046,2450
202,202,0,2047,3431
203,203,0,2046,4008
204,204,0,2046,4013
205,205,0,2046,3446
206,206,0,2046,2470
207,207,0,2046,1368
208,208,0,2047,461
209,209,0,2046,11
210,210,0,2046,150
211,211,0,2047,837
212,212,0,2046,1871
213,213,0,2047,2955
214,214,0,2046,3772
215,215,0,2046,4086
216,216,0,2046,3806
217,217,0,2046,3013
218,218,0,2046,1937
219,219,0,2046,891
220,220,0,2046,177
221,221,0,2046,3
222,222,0,2046,420
223,223,0,2046,1307
224,224,0,2046,2405
225,225,0,2046,3396
226,226,0,2046,3995
227,227,0,2046,4025
228,228,0,2047,3479
229,229,0,2046,2515
230,230,0,2047,1412
231,231,0,2046,491
232,232,0,2046,18
233,233,0,2046,133
234,234,0,2047,799
235,235,0,2046,1825
236,236,0,2046,2913
237,237,0,2046,3746
238,238,0,2047,4085
239,239,0,2047,3829
240,240,0,2046,3054
241,241,0,2046,1983
242,242,0,2046,930
243,243,0,2046,197
244,244,0,2046,0
245,245,0,2046,391
246,246,0,2046,1262
247,247,0,2046,2359
248,248,0,2046,3361
249,249,0,2046,3981
250,250,0,2046,4036
251,251,0,2046,3512
252,252,0,2046,2559
253,253,0,2047,1457
254,254,0,2046,522
255,255,0,2046,28
256,256,0,2046,116
257,257,0,2046,762
258,258,0,2046,1779
259,259,0,2046,2871
260,260,0,2047,3720
261,261,0,2047,4082
262,262,0,2046,3851
263,263,0,2046,3094
264,264,0,2047,2029
265,265,0,2047,969
266,266,0,2046,218
267,267,0,2047,0
268,268,0,2046,365
269,269,0,2046,1220
270,270,0,2047,2313
271,271,0,2047,3326
272,272,0,2046,3966
273,273,0,2047,4046
274,274,0,2046,3543
275,275,0,2046,2605
276,276,0,2046,1502
277,277,0,2046,554
278,278,0,2046,37
279,279,0,2046,100
280,280,0,2046,727
281,281,0,2047,1732
282,282,0,2046,2828
283,283,0,2046,3694
284,284,0,2046,4079
285,285,0,2046,3872
286,286,0,2046,3133
287,287,0,2047,2077
288,288,0,2046,1009
289,289,0,2046,240
290,290,0,2046,0
291,291,0,2046,339
292,292,0,2046,1178
293,293,0,2046,2266
294,294,0,2046,3290
295,295,0,2046,3949
296,296,0,2047,4054
297,297,0,2047,3575
298,298,0,2046,2649
299,299,0,2046,1546
300,300,0,2047,586
301,301,0,2046,47
302,302,0,2046,86
303,303,0,2047,691
304,304,0,2047,1687
305,305,0,2046,2784
306,306,0,2047,3666
307,307,0,2046,4075
308,308,0,2046,3893
309,309,0,2047,3172
310,310,0,2047,2123
311,311,0,2046,1049
312,312,0,2046,262
313,313,0,2046,0
314,314,0,2047,313
315,315,0,2047,1136
316,316,0,2047,2220
317,317,0,2046,3252
318,318,0,2047,3932
319,319,0,2046,4062
320,320,0,2046,3605
321,321,0,2046,2693
322,322,0,2046,1592
323,323,0,2046,620
324,324,0,2047,58
325,325,0,2046,73
326,326,0,2046,656
327,327,0,2046,1641
328,328,0,2047,2742
329,329,0,2047,3638
330,330,0,2046,4070
331,331,0,2047,3912
332,332,0,2046,3210
333,333,0,2047,2170
334,334,0,2046,1090
335,335,0,2046,286
336,336,0,2046,0
337,337,0,2047,288
338,338,0,2046,1094
339,339,0,2047,2174
340,340,0,2046,3214
341,341,0,2046,3914
342,342,0,2046,4068
343,343,0,2046,3635
344,344,0,2047,2737
345,345,0,2046,1637
346,346,0,2046,653
347,347,0,2046,71
348,348,0,2046,60
349,349,0,2046,623
350,350,0,2047,1596
351,351,0,2047,2697
352,352,0,2046,3608
353,353,0,2046,4063
354,354,0,2046,3930
355,355,0,2046,3249
356,356,0,2047,2215
357,357,0,2046,1131
358,358,0,2046,310
359,359,0,2047,0
360,360,0,2047,265
361,361,0,2046,1053
362,362,0,2046,2128
363,363,0,2046,3176
364,364,0,2046,3895
365,365,0,2046,4074
366,366,0,2047,3663
367,367,0,2047,2781
368,368,0,2046,1682
369,369,0,2047,688
370,370,0,2046,85
371,371,0,2046,48
372,372,0,2046,591
373,373,0,2046,1551
374,374,0,2046,2654
375,375,0,2047,3578
376,376,0,2046,4056
377,377,0,2046,3947
378,378,0,2046,3286
379,379,0,2046,2262
380,380,0,2046,1174
381,381,0,2046,336
382,382,0,2046,0
383,383,0,2046,241
384,384,0,2046,1012
385,385,0,2046,2082
386,386,0,2047,3137
387,387,0,2047,3875
388,388,0,2046,4079
389,389,0,2047,3691
390,390,0,2047,2824
391,391,0,2046,1729
392,392,0,2046,723
393,393,0,2046,99
394,394,0,2046,37
395,395,0,2047,557
396,396,0,2046,1506
397,397,0,2046,2609
398,398,0,2046,3547
399,399,0,2046,4048
400,400,0,2047,3964
401,401,0,2046,3321
402,402,0,2046,2308
403,403,0,2047,1216
404,404,0,2047,362
405,405,0,2046,0
406,406,0,2046,220
407,407,0,2047,973
408,408,0,2046,2036
409,409,0,2046,3098
410,410,0,2047,3853
411,411,0,2046,4082
412,412,0,2047,3717
413,413,0,2046,2867
414,414,0,2046,1774
415,415,0,2046,759
416,416,0,2046,114
417,417,0,2046,29
418,418,0,2047,525
419,419,0,2047,1461
420,420,0,2046,2565
421,421,0,2046,3515
422,422,0,2046,4037
423,423,0,2047,3979
424,424,0,2046,3359
425,425,0,2046,2354
426,426,0,2046,1259
427,427,0,2046,389
428,428,0,2046,0
429,429,0,2046,199
430,430,0,2046,933
431,431,0,2046,1989
432,432,0,2046,3058
433,433,0,2047,3832
434,434,0,2046,4085
435,435,0,2047,3744
436,436,0,2046,2908
437,437,0,2046,1821
438,438,0,2047,795
439,439,0,2047,131
440,440,0,2046,20
441,441,0,2046,495
442,442,0,2047,1416
443,443,0,2047,2520
444,444,0,2047,3483
445,445,0,2047,4027
446,446,0,2047,3994
447,447,0,2046,3393
448,448,0,2047,2400
449,449,0,2047,1301
450,450,0,2046,417
451,451,0,2046,3
452,452,0,2046,179
453,453,0,2046,895
454,454,0,2046,1943
455,455,0,2046,3018
456,456,0,2046,3809
457,457,0,2047,4087
458,458,0,2046,3769
459,459,0,2047,2950
460,460,0,2046,1867
461,461,0,2046,833
462,462,0,2046,148
463,463,0,2046,13
464,464,0,2046,464
465,465,0,2046,1373
466,466,0,2046,2474
467,467,0,2046,3449
468,468,0,2046,4015
469,469,0,2046,4007
470,470,0,2046,3428
471,471,0,2046,2446
472,472,0,2046,1345
473,473,0,2046,446
474,474,0,2047,8
475,475,0,2046,160
476,476,0,2046,857
477,477,0,2046,1896
478,478,0,2046,2976
479,479,0,2046,3785
480,480,0,2046,4087
481,481,0,2046,3794
482,482,0,2046,2991
483,483,0,2046,1913
484,484,0,2046,871
485,485,0,2046,166
486,486,0,2046,6
487,487,0,2047,434
488,488,0,2047,1328
489,489,0,2046,2428
490,490,0,2047,3415
491,491,0,2046,4002
492,492,0,2046,4019
493,493,0,2046,3462
494,494,0,2046,2490
495,495,0,2047,1389
496,496,0,2047,475
497,497,0,2046,15
498,498,0,2047,142
499,499,0,2046,819
500,500,0,2047,1850
501,501,0,2046,2935
502,502,0,2047,3760
503,503,0,2046,4086
504,504,0,2046,3818
505,505,0,2047,3033
506,506,0,2046,1960
507,507,0,2047,909
508,508,0,2047,186
509,509,0,2046,1
510,510,0,2046,406
511,511,0,2046,1286
512,512,0,2046,2382
513,513,0,2046,3380
514,514,0,2046,3988
515,515,0,2046,4030
516,516,0,2046,3494
517,517,0,2047,2536
518,518,0,2046,1434
519,519,0,2046,506
520,520,0,2046,23
521,521,0,2046,125
522,522,0,2046,782
523,523,0,2047,1803
524,524,0,2046,2893
525,525,0,2046,3734
526,526,0,2047,4085
527,527,0,2046,3840
528,528,0,2046,3073
529,529,0,2046,2006
530,530,0,2046,948
531,531,0,2045,207
532,532,0,2046,0
533,533,0,2046,379
534,534,0,2046,1243
535,535,0,2046,2338
536,536,0,2046,3345
537,537,0,2046,3974
538,538,0,2047,4040
539,539,0,2047,3527
540,540,0,2046,2581
541,541,0,2046,1477
542,542,0,2046,537
543,543,0,2046,32
544,544,0,2046,109
545,545,0,2046,746
546,546,0,2047,1757
547,547,0,2046,2851
548,548,0,2047,3708
549,549,0,2046,4082
550,550,0,2046,3861
551,551,0,2046,3113
552,552,0,2046,2052
553,553,0,2047,988
554,554,0,2046,227
555,555,0,2047,0
556,556,0,2046,352
557,557,0,2047,1199
558,558,0,2046,2291
559,559,0,2046,3309
560,560,0,2046,3958
561,561,0,2046,4049
562,562,0,2046,3558
563,563,0,2046,2626
564,564,0,2046,1523
565,565,0,2046,569
566,566,0,2046,42
567,567,0,2046,93
568,568,0,2046,710
569,569,0,2046,1711
570,570,0,2046,2808
571,571,0,2047,3681
572,572,0,2046,4077
573,573,0,2046,3883
574,574,0,2046,3151
575,575,0,2047,2098
576,576,0,2046,1028
577,577,0,2047,250
578,578,0,2047,0
579,579,0,2047,326
580,580,0,2047,1158
581,581,0,2047,2246
582,582,0,2046,3272
583,583,0,2046,3941
584,584,0,2046,4058
585,585,0,2046,3589
586,586,0,2046,2669
587,587,0,2046,1567
588,588,0,2046,602
589,589,0,2046,53
590,590,0,2046,80
591,591,0,2047,674
592,592,0,2047,1666
593,593,0,2047,2764
594,594,0,2047,3653
595,595,0,2046,4072
596,596,0,2047,3902
597,597,0,2046,3190
598,598,0,2046,2145
599,599,0,2047,1068
600,600,0,2047,273
601,601,0,2046,0
602,602,0,2046,300
603,603,0,2047,1116
604,604,0,2046,2199
605,605,0,2046,3235
606,606,0,2046,3924
607,607,0,2047,4065
608,608,0,2046,3620
609,609,0,2046,2713
610,610,0,2046,1613
611,611,0,2046,635
612,612,0,2046,64
613,613,0,2046,67
614,614,0,2046,640
615,615,0,2045,1620
616,616,0,2047,2721
617,617,0,2046,3624
618,618,0,2047,4067
619,619,0,2046,3921
620,620,0,2046,3228
621,621,0,2046,2191
622,622,0,2047,1110
623,623,0,2046,297
624,624,0,2046,0
625,625,0,2046,277
626,626,0,2046,1075
627,627,0,2047,2153
628,628,0,2046,3197
629,629,0,2046,3905
630,630,0,2047,4072
631,631,0,2047,3648
632,632,0,2047,2758
633,633,0,2046,1659
634,634,0,2047,670
635,635,0,2047,77
636,636,0,2047,54
637,637,0,2046,607
638,638,0,2047,1575
639,639,0,2046,2677
640,640,0,2047,3594
641,641,0,2046,4059
642,642,0,2047,3938
643,643,0,2047,3266
644,644,0,2046,2238
645,645,0,2047,1151
646,646,0,2046,321
647,647,0,2046,0
648,648,0,2047,253
649,649,0,2047,1034
650,650,0,2046,2106
651,651,0,2046,3158
652,652,0,2046,3885
653,653,0,2047,4077
654,654,0,2047,3677
655,655,0,2046,2800
656,656,0,2046,1704
657,657,0,2047,703
658,658,0,2046,91
659,659,0,2046,44
660,660,0,2046,574
661,661,0,2046,1530
662,662,0,2046,2632
663,663,0,2046,3563
664,664,0,2046,4051
665,665,0,2046,3956
666,666,0,2046,3303
667,667,0,2046,2284
668,668,0,2046,1194
669,669,0,2046,348
670,670,0,2047,0
671,671,0,2047,231
672,672,0,2046,995
673,673,0,2046,2060
674,674,0,2047,3119
675,675,0,2047,3865
676,676,0,2047,4080
677,677,0,2046,3703
678,678,0,2047,2844
679,679,0,2046,1750
680,680,0,2046,739
681,681,0,2046,106
682,682,0,2046,33
683,683,0,2046,542
684,684,0,2046,1485
685,685,0,2046,2587
686,686,0,2047,3532
687,687,0,2046,4042
688,688,0,2046,3971
689,689,0,2046,3339
690,690,0,2046,2330
691,691,0,2046,1236
692,692,0,2046,374
693,693,0,2046,0
694,694,0,2046,210
695,695,0,2046,955
696,696,0,2046,2014
697,697,0,2046,3079
698,698,0,2047,3843
699,699,0,2046,4084
700,700,0,2047,3730
701,701,0,2046,2885
702,702,0,2047,1795
703,703,0,2046,776
704,704,0,2046,123
705,705,0,2046,24
706,706,0,2047,511
707,707,0,2046,1440
708,708,0,2047,2544
709,709,0,2046,3500
710,710,0,2047,4032
711,711,0,2046,3986
712,712,0,2046,3375
713,713,0,2046,2375
714,714,0,2046,1278
715,715,0,2046,402
716,716,0,2047,0
717,717,0,2046,189
718,718,0,2046,915
719,719,0,2046,1967
720,720,0,2047,3039
721,721,0,2046,3821
722,722,0,2047,4085
723,723,0,2046,3756
724,724,0,2047,2929
725,725,0,2046,1842
726,726,0,2046,813
727,727,0,2046,139
728,728,0,2047,17
729,729,0,2046,481
730,730,0,2046,1396
731,731,0,2046,2498
732,732,0,2047,3467
733,733,0,2046,4021
734,734,0,2046,4000
735,735,0,2046,3409
736,736,0,2047,2421
737,737,0,2047,1322
738,738,0,2046,430
739,739,0,2047,5
740,740,0,2046,170
741,741,0,2047,877
742,742,0,2047,1920
743,743,0,2046,2999
744,744,0,2046,3798
745,745,0,2046,4086
746,746,0,2046,3781
747,747,0,2047,2970
748,748,0,2046,1888
749,749,0,2046,850
750,750,0,2046,157
751,751,0,2046,10
752,752,0,2046,450
753,753,0,2046,1351
754,754,0,2046,2453
755,755,0,2047,3433
756,756,0,2046,4009
757,757,0,2047,4013
758,758,0,2046,3444
759,759,0,2047,2467
760,760,0,2047,1366
761,761,0,2047,460
762,762,0,2046,11
763,763,0,2046,152
764,764,0,2046,839
765,765,0,2046,1874
766,766,0,2046,2958
767,767,0,2046,3773
768,768,0,2046,4087
769,769,0,2046,3804
770,770,0,2047,3011
771,771,0,2046,1934
772,772,0,2046,889
773,773,0,2046,175
774,774,0,2047,4
775,775,0,2046,422
776,776,0,2047,1309
777,777,0,2047,2407
778,778,0,2046,3398
779,779,0,2046,3996
780,780,0,2046,4025
781,781,0,2046,3476
782,782,0,2046,2511
783,783,0,2046,1409
784,784,0,2047,489
785,785,0,2046,19
786,786,0,2046,134
787,787,0,2046,802
788,788,0,2046,1828
789,789,0,2047,2915
790,790,0,2047,3748
791,791,0,2045,4085
792,792,0,2047,3828
793,793,0,2046,3052
794,794,0,2046,1981
795,795,0,2046,927
796,796,0,2047,196
797,797,0,2046,0
798,798,0,2047,393
799,799,0,2046,1266
800,800,0,2046,2361
801,801,0,2047,3364
802,802,0,2046,3981
803,803,0,2046,4036
804,804,0,2046,3509
805,805,0,2046,2557
806,806,0,2046,1454
807,807,0,2046,520
808,808,0,2046,27
809,809,0,2047,118
810,810,0,2047,765
811,811,0,2046,1782
812,812,0,2047,2873
813,813,0,2046,3722
814,814,0,2046,4083
815,815,0,2047,3850
816,816,0,2045,3091
817,817,0,2047,2027
818,818,0,2046,966
819,819,0,2046,217
820,820,0,2046,0
821,821,0,2046,366
822,822,0,2047,1222
823,823,0,2047,2316
824,824,0,2046,3328
825,825,0,2046,3967
826,826,0,2046,4045
827,827,0,2046,3542
828,828,0,2046,2602
829,829,0,2046,1498
830,830,0,2046,552
831,831,0,2047,36
832,832,0,2047,101
833,833,0,2046,729
834,834,0,2047,1736
835,835,0,2046,2831
836,836,0,2046,3696
837,837,0,2046,4080
838,838,0,2047,3871
839,839,0,2047,3131
840,840,0,2046,2074
841,841,0,2046,1006
842,842,0,2046,239
843,843,0,2046,0
844,844,0,2046,340
845,845,0,2046,1180
846,846,0,2047,2270
847,847,0,2046,3292
848,848,0,2046,3951
849,849,0,2047,4054
850,850,0,2047,3572
851,851,0,2046,2646
852,852,0,2046,1544
853,853,0,2046,584
854,854,0,2046,47
855,855,0,2047,87
856,856,0,2046,693
857,857,0,2047,1690
858,858,0,2047,2788
859,859,0,2046,3668
860,860,0,2046,4076
861,861,0,2046,3891
862,862,0,2046,3170
863,863,0,2046,2120
864,864,0,2047,1046
865,865,0,2046,261
866,866,0,2046,0
867,867,0,2046,315
868,868,0,2046,1137
869,869,0,2047,2223
870,870,0,2046,3255
871,871,0,2047,3933
872,872,0,2046,4062
873,873,0,2046,3603
874,874,0,2046,2691
875,875,0,2046,1588
876,876,0,2047,617
877,877,0,2047,58
878,878,0,2047,74
879,879,0,2047,658
880,880,0,2046,1644
881,881,0,2047,2744
882,882,0,2047,3639
883,883,0,2046,4070
884,884,0,2046,3911
885,885,0,2046,3208
886,886,0,2046,2166
887,887,0,2047,1087
888,888,0,2046,285
889,889,0,2047,0
890,890,0,2046,290
891,891,0,2046,1096
892,892,0,2046,2178
893,893,0,2047,3217
894,894,0,2046,3915
895,895,0,2046,4069
896,896,0,2046,3633
897,897,0,2046,2734
898,898,0,2047,1634
899,899,0,2046,650
900,900,0,2046,70
901,901,0,2046,60
902,902,0,2046,625
903,903,0,2046,1599
904,904,0,2047,2700
905,905,0,2046,3610
906,906,0,2046,4063
907,907,0,2047,3928
908,908,0,2047,3246
909,909,0,2046,2213
910,910,0,2046,1129
911,911,0,2046,308
912,912,0,2047,0
913,913,0,2046,266
914,914,0,2046,1055
915,915,0,2046,2131
916,916,0,2046,3179
917,917,0,2046,3896
918,918,0,2047,4074
919,919,0,2047,3661
920,920,0,2046,2778
921,921,0,2046,1680
922,922,0,2047,686
923,923,0,2046,83
924,924,0,2046,49
925,925,0,2046,591
926,926,0,2047,1554
927,927,0,2047,2656
928,928,0,2047,3579
929,929,0,2046,4056
930,930,0,2047,3947
931,931,0,2046,3283
932,932,0,2046,2259
933,933,0,2047,1170
934,934,0,2046,334
935,935,0,2046,0
936,936,0,2047,242
937,937,0,2047,1016
938,938,0,2047,2085
939,939,0,2047,3140
940,940,0,2047,3876
941,941,0,2046,4079
942,942,0,2047,3690
943,943,0,2046,2821
944,944,0,2047,1725
945,945,0,2047,721
946,946,0,2047,98
947,947,0,2046,38
948,948,0,2047,559
949,949,0,2046,1509
950,950,0,2047,2612
951,951,0,2047,3549
952,952,0,2047,4048
953,953,0,2046,3963
954,954,0,2046,3319
955,955,0,2046,2305
956,956,0,2046,1213
957,957,0,2046,361
958,958,0,2046,0
959,959,0,2047,222
960,960,0,2046,975
961,961,0,2046,2037
962,962,0,2046,3101
963,963,0,2047,3855
964,964,0,2046,4082
965,965,0,2047,3716
966,966,0,2046,2863
967,967,0,2046,1771
968,968,0,2047,757
969,969,0,2047,113
970,970,0,2046,29
971,971,0,2046,527
972,972,0,2046,1464
973,973,0,2046,2568
974,974,0,2046,3517
975,975,0,2046,4038
976,976,0,2046,3978
977,977,0,2046,3355
978,978,0,2047,2351
979,979,0,2047,1255
980,980,0,2047,387
981,981,0,2047,0
982,982,0,2047,200
983,983,0,2046,936
984,984,0,2047,1991
985,985,0,2046,3061
986,986,0,2047,3833
987,987,0,2046,4084
988,988,0,2046,3742
989,989,0,2047,2906
990,990,0,2047,1817
991,991,0,2046,793
992,992,0,2046,130
993,993,0,2047,21
994,994,0,2047,496
995,995,0,2046,1420
996,996,0,2046,2523
997,997,0,2046,3484
998,998,0,2047,4027
999,999,0,2046,3993
1000,1000,0,2047,3391
1001,1001,0,2047,2396
1002,1002,0,2046,1299
1003,1003,0,2047,415
1004,1004,0,2047,2
1005,1005,0,2046,180
1006,1006,0,2047,897
1007,1007,0,2047,1945
1008,1008,0,2047,3020
1009,1009,0,2046,3810
1010,1010,0,2046,4086
1011,1011,0,2046,3768
1012,1012,0,2046,2948
1013,1013,0,2047,1863
1014,1014,0,2046,831
1015,1015,0,2046,148
1016,1016,0,2046,13
1017,1017,0,2046,466
1018,1018,0,2046,1376
1019,1019,0,2047,2477
1020,1020,0,2046,3452
1021,1021,0,2047,4015
1022,1022,0,2046,4006
1023,1023,0,2047,3425
1024,1024,0,2047,2442
1025,1025,0,2046,1342
1026,1026,0,2047,444
1027,1027,0,2046,9
