Sample in Buffer,Sample in Window,TRIGGER,adc1_data_a_d0[11:0],adc1_data_b_d0[11:0]
0,0,0,2047,1785
1,1,0,2047,2662
2,2,0,2046,3426
3,3,0,2046,3938
4,4,0,2046,4095
5,5,0,2046,3898
6,6,0,2046,3352
7,7,0,2046,2568
8,8,0,2047,1689
9,9,0,2047,873
10,10,0,2046,268
11,11,0,2046,0
12,12,0,2047,74
13,13,0,2046,519
14,14,0,2046,1241
15,15,0,2046,2107
16,16,0,2046,2961
17,17,0,2046,3647
18,18,0,2047,4042
19,19,0,2046,4073
20,20,0,2046,3735
21,21,0,2047,3088
22,22,0,2046,2252
23,23,0,2047,1377
24,24,0,2046,621
25,25,0,2046,123
26,26,0,2046,0
27,27,0,2046,196
28,28,0,2046,755
29,29,0,2046,1547
30,30,0,2046,2426
31,31,0,2046,3236
32,32,0,2046,3829
33,33,0,2047,4095
34,34,0,2046,3990
35,35,0,2046,3530
36,36,0,2047,2800
37,37,0,2046,1931
38,38,0,2047,1081
39,39,0,2047,406
40,40,0,2047,27
41,41,0,2047,11
42,42,0,2047,365
43,43,0,2046,1022
44,44,0,2046,1864
45,45,0,2047,2736
46,46,0,2047,3483
47,47,0,2046,3968
48,48,0,2046,4095
49,49,0,2046,3861
50,50,0,2046,3290
51,51,0,2047,2493
52,52,0,2047,1612
53,53,0,2047,809
54,54,0,2046,228
55,55,0,2046,0
56,56,0,2047,100
57,57,0,2046,574
58,58,0,2046,1313
59,59,0,2047,2185
60,60,0,2047,3030
61,61,0,2046,3695
62,62,0,2046,4060
63,63,0,2046,4057
64,64,0,2047,3689
65,65,0,2046,3020
66,66,0,2047,2173
67,67,0,2047,1302
68,68,0,2046,565
69,69,0,2047,96
70,70,0,2046,0
71,71,0,2046,234
72,72,0,2047,817
73,73,0,2047,1622
74,74,0,2046,2503
75,75,0,2047,3300
76,76,0,2046,3867
77,77,0,2047,4095
78,78,0,2047,3964
79,79,0,2046,3475
80,80,0,2046,2726
81,81,0,2047,1853
82,82,0,2046,1012
83,83,0,2046,358
84,84,0,2047,10
85,85,0,2046,29
86,86,0,2046,412
87,87,0,2047,1091
88,88,0,2046,1942
89,89,0,2046,2810
90,90,0,2046,3538
91,91,0,2046,3995
92,92,0,2047,4095
93,93,0,2046,3824
94,94,0,2046,3227
95,95,0,2047,2415
96,96,0,2047,1534
97,97,0,2046,746
98,98,0,2046,192
99,99,0,2046,0
100,100,0,2046,128
101,101,0,2046,630
102,102,0,2047,1388
103,103,0,2047,2264
104,104,0,2046,3098
105,105,0,2047,3741
106,106,0,2047,4075
107,107,0,2046,4038
108,108,0,2046,3639
109,109,0,2047,2950
110,110,0,2047,2094
111,111,0,2046,1229
112,112,0,2046,511
113,113,0,2046,70
114,114,0,2047,0
115,115,0,2047,274
116,116,0,2047,882
117,117,0,2046,1700
118,118,0,2046,2580
119,119,0,2047,3361
120,120,0,2046,3903
121,121,0,2046,4095
122,122,0,2047,3934
123,123,0,2047,3417
124,124,0,2046,2651
125,125,0,2047,1773
126,126,0,2047,944
127,127,0,2046,313
128,128,0,2047,0
129,129,0,2046,49
130,130,0,2047,462
131,131,0,2047,1162
132,132,0,2047,2021
133,133,0,2047,2883
134,134,0,2047,3591
135,135,0,2047,4018
136,136,0,2046,4087
137,137,0,2046,3781
138,138,0,2046,3161
139,139,0,2047,2337
140,140,0,2046,1459
141,141,0,2046,686
142,142,0,2046,157
143,143,0,2046,0
144,144,0,2046,159
145,145,0,2047,690
146,146,0,2046,1463
147,147,0,2047,2342
148,148,0,2047,3165
149,149,0,2046,3784
150,150,0,2046,4087
151,151,0,2047,4016
152,152,0,2046,3588
153,153,0,2046,2878
154,154,0,2046,2016
155,155,0,2047,1158
156,156,0,2046,459
157,157,0,2046,47
158,158,0,2046,0
159,159,0,2046,316
160,160,0,2047,949
161,161,0,2046,1779
162,162,0,2046,2656
163,163,0,2046,3420
164,164,0,2047,3934
165,165,0,2046,4095
166,166,0,2047,3901
167,167,0,2046,3358
168,168,0,2046,2575
169,169,0,2046,1695
170,170,0,2046,878
171,171,0,2046,271
172,172,0,2046,0
173,173,0,2046,72
174,174,0,2047,515
175,175,0,2047,1234
176,176,0,2046,2100
177,177,0,2047,2954
178,178,0,2047,3643
179,179,0,2047,4039
180,180,0,2046,4074
181,181,0,2046,3738
182,182,0,2046,3093
183,183,0,2047,2259
184,184,0,2046,1384
185,185,0,2046,627
186,186,0,2046,126
187,187,0,2046,0
188,188,0,2047,193
189,189,0,2046,750
190,190,0,2046,1539
191,191,0,2045,2420
192,192,0,2046,3230
193,193,0,2047,3826
194,194,0,2046,4095
195,195,0,2047,3993
196,196,0,2047,3535
197,197,0,2047,2806
198,198,0,2045,1937
199,199,0,2046,1087
200,200,0,2046,409
201,201,0,2046,28
202,202,0,2046,10
203,203,0,2047,360
204,204,0,2046,1016
205,205,0,2047,1857
206,206,0,2046,2730
207,207,0,2046,3479
208,208,0,2046,3965
209,209,0,2046,4095
210,210,0,2046,3865
211,211,0,2047,3296
212,212,0,2046,2499
213,213,0,2047,1618
214,214,0,2046,813
215,215,0,2046,232
216,216,0,2046,0
217,217,0,2046,97
218,218,0,2046,568
219,219,0,2046,1307
220,220,0,2046,2179
221,221,0,2046,3024
222,222,0,2047,3691
223,223,0,2046,4057
224,224,0,2047,4059
225,225,0,2047,3692
226,226,0,2046,3026
227,227,0,2047,2180
228,228,0,2046,1309
229,229,0,2046,570
230,230,0,2047,98
231,231,0,2046,0
232,232,0,2046,231
233,233,0,2047,812
234,234,0,2046,1616
235,235,0,2046,2497
236,236,0,2046,3294
237,237,0,2047,3864
238,238,0,2047,4095
239,239,0,2047,3966
240,240,0,2046,3480
241,241,0,2047,2732
242,242,0,2046,1859
243,243,0,2046,1017
244,244,0,2046,363
245,245,0,2046,12
246,246,0,2047,27
247,247,0,2046,408
248,248,0,2046,1085
249,249,0,2047,1935
250,250,0,2047,2804
251,251,0,2046,3533
252,252,0,2046,3993
253,253,0,2046,4095
254,254,0,2046,3827
255,255,0,2046,3232
256,256,0,2046,2422
257,257,0,2046,1541
258,258,0,2047,751
259,259,0,2046,195
260,260,0,2047,0
261,261,0,2046,125
262,262,0,2047,626
263,263,0,2046,1382
264,264,0,2047,2257
265,265,0,2046,3093
266,266,0,2046,3737
267,267,0,2046,4074
268,268,0,2046,4041
269,269,0,2047,3644
270,270,0,2046,2956
271,271,0,2046,2101
272,272,0,2046,1235
273,273,0,2046,516
274,274,0,2046,72
275,275,0,2046,0
276,276,0,2046,270
277,277,0,2047,877
278,278,0,2047,1694
279,279,0,2046,2574
280,280,0,2046,3356
281,281,0,2046,3899
282,282,0,2046,4095
283,283,0,2046,3936
284,284,0,2046,3422
285,285,0,2045,2657
286,286,0,2047,1780
287,287,0,2046,950
288,288,0,2046,317
289,289,0,2047,0
290,290,0,2047,47
291,291,0,2046,458
292,292,0,2046,1157
293,293,0,2047,2015
294,294,0,2047,2877
295,295,0,2046,3587
296,296,0,2046,4016
297,297,0,2046,4088
298,298,0,2046,3785
299,299,0,2046,3167
300,300,0,2046,2344
301,301,0,2047,1465
302,302,0,2047,691
303,303,0,2046,160
304,304,0,2046,0
305,305,0,2046,157
306,306,0,2046,683
307,307,0,2046,1457
308,308,0,2046,2336
309,309,0,2046,3160
310,310,0,2047,3781
311,311,0,2046,4086
312,312,0,2046,4019
313,313,0,2046,3593
314,314,0,2047,2885
315,315,0,2047,2023
316,316,0,2045,1164
317,317,0,2047,463
318,318,0,2047,49
319,319,0,2047,0
320,320,0,2046,313
321,321,0,2046,943
322,322,0,2046,1772
323,323,0,2046,2649
324,324,0,2047,3416
325,325,0,2046,3932
326,326,0,2047,4095
327,327,0,2047,3903
328,328,0,2046,3363
329,329,0,2046,2581
330,330,0,2047,1702
331,331,0,2046,884
332,332,0,2047,276
333,333,0,2046,0
334,334,0,2046,68
335,335,0,2046,510
336,336,0,2046,1228
337,337,0,2046,2093
338,338,0,2046,2948
339,339,0,2047,3638
340,340,0,2047,4038
341,341,0,2046,4075
342,342,0,2046,3742
343,343,0,2046,3100
344,344,0,2046,2266
345,345,0,2046,1389
346,346,0,2046,632
347,347,0,2047,129
348,348,0,2046,0
349,349,0,2046,190
350,350,0,2047,745
351,351,0,2046,1532
352,352,0,2046,2413
353,353,0,2047,3225
354,354,0,2046,3822
355,355,0,2046,4095
356,356,0,2047,3995
357,357,0,2046,3540
358,358,0,2047,2811
359,359,0,2046,1944
360,360,0,2046,1093
361,361,0,2046,413
362,362,0,2046,30
363,363,0,2046,9
364,364,0,2046,357
365,365,0,2046,1010
366,366,0,2046,1850
367,367,0,2046,2724
368,368,0,2047,3474
369,369,0,2046,3963
370,370,0,2047,4095
371,371,0,2047,3868
372,372,0,2047,3301
373,373,0,2047,2505
374,374,0,2046,1625
375,375,0,2047,820
376,376,0,2047,235
377,377,0,2046,0
378,378,0,2046,95
379,379,0,2047,563
380,380,0,2046,1301
381,381,0,2046,2172
382,382,0,2046,3018
383,383,0,2046,3687
384,384,0,2047,4056
385,385,0,2046,4061
386,386,0,2047,3696
387,387,0,2047,3032
388,388,0,2047,2187
389,389,0,2046,1316
390,390,0,2046,575
391,391,0,2047,100
392,392,0,2047,0
393,393,0,2047,228
394,394,0,2047,807
395,395,0,2046,1610
396,396,0,2046,2490
397,397,0,2046,3288
398,398,0,2047,3861
399,399,0,2047,4095
400,400,0,2046,3968
401,401,0,2046,3484
402,402,0,2047,2738
403,403,0,2047,1866
404,404,0,2047,1024
405,405,0,2047,366
406,406,0,2047,12
407,407,0,2047,25
408,408,0,2046,403
409,409,0,2046,1079
410,410,0,2047,1929
411,411,0,2046,2798
412,412,0,2047,3529
413,413,0,2046,3990
414,414,0,2046,4095
415,415,0,2046,3830
416,416,0,2046,3238
417,417,0,2046,2428
418,418,0,2047,1548
419,419,0,2046,756
420,420,0,2047,197
421,421,0,2046,0
422,422,0,2046,123
423,423,0,2046,621
424,424,0,2046,1376
425,425,0,2046,2250
426,426,0,2047,3087
427,427,0,2046,3734
428,428,0,2046,4073
429,429,0,2047,4042
430,430,0,2046,3648
431,431,0,2046,2962
432,432,0,2046,2109
433,433,0,2046,1242
434,434,0,2046,520
435,435,0,2046,74
436,436,0,2047,0
437,437,0,2046,267
438,438,0,2047,871
439,439,0,2047,1686
440,440,0,2046,2567
441,441,0,2046,3351
442,442,0,2047,3896
443,443,0,2046,4095
444,444,0,2046,3939
445,445,0,2046,3428
446,446,0,2046,2664
447,447,0,2047,1787
448,448,0,2046,955
449,449,0,2047,321
450,450,0,2046,0
451,451,0,2047,45
452,452,0,2046,453
453,453,0,2046,1150
454,454,0,2046,2007
455,455,0,2047,2871
456,456,0,2046,3582
457,457,0,2047,4014
458,458,0,2046,4088
459,459,0,2047,3790
460,460,0,2047,3173
461,461,0,2045,2350
462,462,0,2047,1472
463,463,0,2047,696
464,464,0,2046,163
465,465,0,2047,0
466,466,0,2046,154
467,467,0,2046,679
468,468,0,2046,1450
469,469,0,2047,2328
470,470,0,2047,3153
471,471,0,2047,3777
472,472,0,2046,4086
473,473,0,2047,4021
474,474,0,2047,3598
475,475,0,2046,2891
476,476,0,2046,2030
477,477,0,2047,1170
478,478,0,2047,468
479,479,0,2047,51
480,480,0,2047,0
481,481,0,2046,309
482,482,0,2046,937
483,483,0,2047,1765
484,484,0,2046,2642
485,485,0,2047,3410
486,486,0,2047,3929
487,487,0,2046,4095
488,488,0,2047,3907
489,489,0,2047,3368
490,490,0,2046,2588
491,491,0,2047,1709
492,492,0,2047,890
493,493,0,2046,279
494,494,0,2046,0
495,495,0,2046,67
496,496,0,2046,506
497,497,0,2047,1222
498,498,0,2047,2087
499,499,0,2046,2941
500,500,0,2046,3633
501,501,0,2046,4035
502,502,0,2047,4077
503,503,0,2046,3747
504,504,0,2046,3106
505,505,0,2047,2273
506,506,0,2046,1396
507,507,0,2046,637
508,508,0,2047,132
509,509,0,2047,0
510,510,0,2047,188
511,511,0,2047,739
512,512,0,2047,1526
513,513,0,2046,2406
514,514,0,2047,3219
515,515,0,2046,3818
516,516,0,2047,4095
517,517,0,2046,3998
518,518,0,2047,3544
519,519,0,2046,2818
520,520,0,2046,1950
521,521,0,2046,1099
522,522,0,2046,418
523,523,0,2047,31
524,524,0,2047,8
525,525,0,2046,353
526,526,0,2047,1004
527,527,0,2046,1843
528,528,0,2047,2717
529,529,0,2047,3468
530,530,0,2046,3960
531,531,0,2046,4095
532,532,0,2047,3871
533,533,0,2047,3307
534,534,0,2047,2512
535,535,0,2046,1632
536,536,0,2046,825
537,537,0,2047,238
538,538,0,2046,0
539,539,0,2046,92
540,540,0,2047,559
541,541,0,2046,1295
542,542,0,2046,2165
543,543,0,2047,3011
544,544,0,2046,3682
545,545,0,2047,4055
546,546,0,2047,4061
547,547,0,2047,3701
548,548,0,2047,3038
549,549,0,2046,2194
550,550,0,2046,1323
551,551,0,2046,579
552,552,0,2046,102
553,553,0,2046,0
554,554,0,2047,224
555,555,0,2047,801
556,556,0,2046,1602
557,557,0,2046,2483
558,558,0,2046,3283
559,559,0,2046,3857
560,560,0,2047,4095
561,561,0,2046,3971
562,562,0,2047,3489
563,563,0,2046,2745
564,564,0,2047,1872
565,565,0,2047,1029
566,566,0,2046,370
567,567,0,2046,14
568,568,0,2047,23
569,569,0,2046,399
570,570,0,2046,1073
571,571,0,2046,1921
572,572,0,2046,2791
573,573,0,2046,3524
574,574,0,2046,3988
575,575,0,2046,4095
576,576,0,2047,3833
577,577,0,2046,3243
578,578,0,2046,2435
579,579,0,2046,1554
580,580,0,2047,762
581,581,0,2046,201
582,582,0,2046,0
583,583,0,2046,120
584,584,0,2047,615
585,585,0,2046,1369
586,586,0,2046,2243
587,587,0,2047,3081
588,588,0,2046,3729
589,589,0,2046,4071
590,590,0,2046,4043
591,591,0,2046,3653
592,592,0,2046,2967
593,593,0,2046,2115
594,594,0,2046,1249
595,595,0,2047,525
596,596,0,2047,76
597,597,0,2046,0
598,598,0,2046,264
599,599,0,2047,865
600,600,0,2047,1680
601,601,0,2047,2560
602,602,0,2047,3345
603,603,0,2047,3894
604,604,0,2046,4095
605,605,0,2047,3942
606,606,0,2047,3432
607,607,0,2047,2670
608,608,0,2046,1794
609,609,0,2047,961
610,610,0,2046,325
611,611,0,2046,0
612,612,0,2046,43
613,613,0,2047,448
614,614,0,2047,1143
615,615,0,2046,2001
616,616,0,2046,2864
617,617,0,2047,3578
618,618,0,2046,4013
619,619,0,2047,4089
620,620,0,2047,3793
621,621,0,2046,3179
622,622,0,2046,2357
623,623,0,2047,1478
624,624,0,2047,701
625,625,0,2047,165
626,626,0,2047,0
627,627,0,2046,151
628,628,0,2047,673
629,629,0,2046,1444
630,630,0,2046,2321
631,631,0,2046,3148
632,632,0,2047,3773
633,633,0,2046,4084
634,634,0,2047,4022
635,635,0,2047,3602
636,636,0,2047,2897
637,637,0,2047,2036
638,638,0,2046,1176
639,639,0,2046,473
640,640,0,2046,54
641,641,0,2047,0
642,642,0,2046,305
643,643,0,2047,931
644,644,0,2047,1758
645,645,0,2046,2635
646,646,0,2046,3406
647,647,0,2047,3926
648,648,0,2047,4095
649,649,0,2046,3909
650,650,0,2047,3373
651,651,0,2046,2594
652,652,0,2046,1716
653,653,0,2046,896
654,654,0,2047,281
655,655,0,2047,0
656,656,0,2046,65
657,657,0,2046,500
658,658,0,2046,1215
659,659,0,2047,2080
660,660,0,2046,2935
661,661,0,2047,3629
662,662,0,2046,4034
663,663,0,2046,4078
664,664,0,2047,3750
665,665,0,2047,3112
666,666,0,2046,2279
667,667,0,2047,1403
668,668,0,2046,642
669,669,0,2046,133
670,670,0,2047,0
671,671,0,2047,184
672,672,0,2046,734
673,673,0,2046,1519
674,674,0,2047,2400
675,675,0,2046,3214
676,676,0,2046,3815
677,677,0,2047,4095
678,678,0,2047,4000
679,679,0,2046,3550
680,680,0,2047,2825
681,681,0,2047,1957
682,682,0,2046,1105
683,683,0,2046,423
684,684,0,2046,32
685,685,0,2046,6
686,686,0,2046,349
687,687,0,2046,998
688,688,0,2047,1836
689,689,0,2047,2711
690,690,0,2047,3463
691,691,0,2047,3958
692,692,0,2047,4095
693,693,0,2047,3875
694,694,0,2046,3311
695,695,0,2046,2519
696,696,0,2046,1638
697,697,0,2047,830
698,698,0,2046,242
699,699,0,2046,0
700,700,0,2046,91
701,701,0,2046,555
702,702,0,2047,1288
703,703,0,2047,2158
704,704,0,2046,3005
705,705,0,2047,3679
706,706,0,2046,4053
707,707,0,2047,4063
708,708,0,2047,3705
709,709,0,2047,3043
710,710,0,2046,2200
711,711,0,2046,1328
712,712,0,2047,584
713,713,0,2046,104
714,714,0,2046,0
715,715,0,2046,221
716,716,0,2046,796
717,717,0,2046,1596
718,718,0,2047,2477
719,719,0,2046,3278
720,720,0,2046,3853
721,721,0,2046,4095
722,722,0,2047,3973
723,723,0,2047,3494
724,724,0,2046,2752
725,725,0,2046,1879
726,726,0,2046,1036
727,727,0,2046,374
728,728,0,2047,15
729,729,0,2047,23
730,730,0,2047,395
731,731,0,2046,1068
732,732,0,2046,1915
733,733,0,2047,2785
734,734,0,2047,3520
735,735,0,2047,3986
736,736,0,2047,4095
737,737,0,2046,3837
738,738,0,2047,3248
739,739,0,2046,2441
740,740,0,2046,1561
741,741,0,2046,767
742,742,0,2046,204
743,743,0,2047,0
744,744,0,2046,118
745,745,0,2046,610
746,746,0,2046,1362
747,747,0,2046,2236
748,748,0,2046,3075
749,749,0,2047,3725
750,750,0,2046,4070
751,751,0,2046,4045
752,752,0,2047,3657
753,753,0,2047,2974
754,754,0,2046,2122
755,755,0,2047,1255
756,756,0,2046,530
757,757,0,2047,78
758,758,0,2046,0
759,759,0,2046,260
760,760,0,2046,859
761,761,0,2047,1673
762,762,0,2046,2554
763,763,0,2046,3340
764,764,0,2046,3891
765,765,0,2046,4095
766,766,0,2046,3944
767,767,0,2047,3437
768,768,0,2046,2677
769,769,0,2047,1801
770,770,0,2047,967
771,771,0,2047,329
772,772,0,2046,0
773,773,0,2046,42
774,774,0,2046,444
775,775,0,2046,1137
776,776,0,2046,1994
777,777,0,2046,2858
778,778,0,2047,3574
779,779,0,2047,4011
780,780,0,2047,4090
781,781,0,2047,3796
782,782,0,2046,3184
783,783,0,2046,2363
784,784,0,2046,1485
785,785,0,2046,706
786,786,0,2046,169
787,787,0,2046,0
788,788,0,2046,148
789,789,0,2047,668
790,790,0,2046,1437
791,791,0,2046,2315
792,792,0,2047,3142
793,793,0,2047,3770
794,794,0,2047,4083
795,795,0,2047,4024
796,796,0,2047,3606
797,797,0,2046,2904
798,798,0,2047,2042
799,799,0,2046,1182
800,800,0,2046,477
801,801,0,2046,55
802,802,0,2046,0
803,803,0,2047,301
804,804,0,2047,926
805,805,0,2046,1751
806,806,0,2046,2629
807,807,0,2047,3399
808,808,0,2046,3924
809,809,0,2046,4095
810,810,0,2047,3912
811,811,0,2047,3378
812,812,0,2046,2601
813,813,0,2046,1722
814,814,0,2046,901
815,815,0,2047,285
816,816,0,2046,0
817,817,0,2047,63
818,818,0,2047,496
819,819,0,2046,1209
820,820,0,2046,2072
821,821,0,2047,2930
822,822,0,2047,3625
823,823,0,2046,4032
824,824,0,2047,4078
825,825,0,2046,3754
826,826,0,2045,3118
827,827,0,2047,2285
828,828,0,2047,1409
829,829,0,2047,647
830,830,0,2046,137
831,831,0,2046,0
832,832,0,2046,182
833,833,0,2047,729
834,834,0,2047,1513
835,835,0,2046,2393
836,836,0,2047,3208
837,837,0,2047,3811
838,838,0,2046,4093
839,839,0,2046,4001
840,840,0,2047,3554
841,841,0,2047,2831
842,842,0,2046,1965
843,843,0,2047,1111
844,844,0,2047,426
845,845,0,2046,34
846,846,0,2046,6
847,847,0,2046,346
848,848,0,2047,992
849,849,0,2047,1830
850,850,0,2046,2704
851,851,0,2047,3459
852,852,0,2046,3955
853,853,0,2046,4095
854,854,0,2047,3878
855,855,0,2047,3318
856,856,0,2046,2525
857,857,0,2047,1645
858,858,0,2046,836
859,859,0,2046,245
860,860,0,2046,0
861,861,0,2046,88
862,862,0,2046,550
863,863,0,2047,1282
864,864,0,2046,2151
865,865,0,2047,3000
866,866,0,2046,3674
867,867,0,2046,4052
868,868,0,2046,4064
869,869,0,2046,3708
870,870,0,2046,3049
871,871,0,2047,2207
872,872,0,2046,1334
873,873,0,2046,589
874,874,0,2046,107
875,875,0,2047,0
876,876,0,2046,218
877,877,0,2047,791
878,878,0,2046,1590
879,879,0,2047,2470
880,880,0,2046,3273
881,881,0,2046,3851
882,882,0,2047,4095
883,883,0,2046,3976
884,884,0,2047,3498
885,885,0,2047,2758
886,886,0,2047,1885
887,887,0,2046,1041
888,888,0,2046,378
889,889,0,2047,16
890,890,0,2046,22
891,891,0,2045,392
892,892,0,2046,1062
893,893,0,2046,1908
894,894,0,2046,2779
895,895,0,2046,3515
896,896,0,2047,3983
897,897,0,2046,4095
898,898,0,2047,3840
899,899,0,2047,3254
900,900,0,2047,2449
901,901,0,2046,1568
902,902,0,2046,772
903,903,0,2046,208
904,904,0,2046,0
905,905,0,2047,116
906,906,0,2046,606
907,907,0,2046,1357
908,908,0,2046,2230
909,909,0,2047,3069
910,910,0,2047,3721
911,911,0,2046,4068
912,912,0,2046,4046
913,913,0,2046,3660
914,914,0,2047,2980
915,915,0,2046,2129
916,916,0,2047,1261
917,917,0,2046,534
918,918,0,2047,80
919,919,0,2046,0
920,920,0,2046,257
921,921,0,2047,854
922,922,0,2047,1667
923,923,0,2046,2547
924,924,0,2046,3334
925,925,0,2046,3887
926,926,0,2046,4095
927,927,0,2047,3946
928,928,0,2046,3442
929,929,0,2046,2682
930,930,0,2046,1807
931,931,0,2046,973
932,932,0,2047,332
933,933,0,2046,1
934,934,0,2046,39
935,935,0,2046,440
936,936,0,2046,1132
937,937,0,2046,1987
938,938,0,2046,2852
939,939,0,2046,3569
940,940,0,2046,4009
941,941,0,2046,4091
942,942,0,2046,3800
943,943,0,2047,3189
944,944,0,2047,2370
945,945,0,2046,1491
946,946,0,2046,712
947,947,0,2046,172
948,948,0,2046,0
949,949,0,2046,145
950,950,0,2046,663
951,951,0,2046,1432
952,952,0,2046,2308
953,953,0,2047,3137
954,954,0,2046,3766
955,955,0,2047,4082
956,956,0,2046,4026
957,957,0,2046,3611
958,958,0,2046,2910
959,959,0,2047,2050
960,960,0,2046,1188
961,961,0,2047,481
962,962,0,2047,56
963,963,0,2046,0
964,964,0,2046,298
965,965,0,2046,920
966,966,0,2047,1745
967,967,0,2047,2622
968,968,0,2047,3395
969,969,0,2047,3921
970,970,0,2046,4095
971,971,0,2046,3915
972,972,0,2046,3383
973,973,0,2047,2607
974,974,0,2047,1730
975,975,0,2047,906
976,976,0,2047,289
977,977,0,2046,0
978,978,0,2046,61
979,979,0,2046,492
980,980,0,2047,1202
981,981,0,2046,2066
982,982,0,2046,2923
983,983,0,2046,3621
984,984,0,2046,4031
985,985,0,2047,4079
986,986,0,2046,3757
987,987,0,2046,3123
988,988,0,2046,2292
989,989,0,2046,1415
990,990,0,2047,652
991,991,0,2046,139
992,992,0,2046,0
993,993,0,2046,179
994,994,0,2046,723
995,995,0,2047,1507
996,996,0,2046,2386
997,997,0,2047,3203
998,998,0,2045,3808
999,999,0,2046,4092
1000,1000,0,2046,4003
1001,1001,0,2046,3558
1002,1002,0,2047,2837
1003,1003,0,2046,1971
1004,1004,0,2046,1118
1005,1005,0,2046,430
1006,1006,0,2047,35
1007,1007,0,2047,3
1008,1008,0,2047,341
1009,1009,0,2046,987
1010,1010,0,2046,1823
1011,1011,0,2046,2698
1012,1012,0,2046,3453
1013,1013,0,2046,3953
1014,1014,0,2046,4095
1015,1015,0,2046,3880
1016,1016,0,2047,3323
1017,1017,0,2046,2531
1018,1018,0,2046,1651
1019,1019,0,2047,841
1020,1020,0,2046,248
1021,1021,0,2046,0
1022,1022,0,2045,85
1023,1023,0,2046,545
1024,1024,0,2047,1276
1025,1025,0,2046,2145
1026,1026,0,2046,2995
1027,1027,0,2047,3670
1028,1028,0,2046,4050
