Sample in Buffer,Sample in Window,TRIGGER,adc1_data_a_d0[11:0],adc1_data_b_d0[11:0]
0,0,0,2047,153
1,1,0,2046,44
2,2,0,2047,628
3,3,0,2046,1701
4,4,0,2046,2892
5,5,0,2047,3787
6,6,0,2046,4074
7,7,0,2046,3653
8,8,0,2047,2672
9,9,0,2047,1472
10,10,0,2046,468
11,11,0,2046,9
12,12,0,2047,254
13,13,0,2046,1120
14,14,0,2046,2304
15,15,0,2047,3396
16,16,0,2047,4017
17,17,0,2046,3951
18,18,0,2047,3220
19,19,0,2046,2079
20,20,0,2047,925
21,21,0,2047,156
22,22,0,2046,42
23,23,0,2046,620
24,24,0,2047,1692
25,25,0,2046,2883
26,26,0,2046,3781
27,27,0,2046,4075
28,28,0,2046,3660
29,29,0,2046,2683
30,30,0,2047,1481
31,31,0,2047,475
32,32,0,2046,10
33,33,0,2046,249
34,34,0,2047,1110
35,35,0,2046,2293
36,36,0,2047,3389
37,37,0,2046,4014
38,38,0,2046,3954
39,39,0,2046,3228
40,40,0,2046,2089
41,41,0,2047,933
42,42,0,2046,161
43,43,0,2047,40
44,44,0,2046,613
45,45,0,2047,1681
46,46,0,2046,2874
47,47,0,2046,3776
48,48,0,2047,4075
49,49,0,2046,3666
50,50,0,2046,2692
51,51,0,2047,1491
52,52,0,2046,481
53,53,0,2046,10
54,54,0,2046,244
55,55,0,2046,1102
56,56,0,2047,2284
57,57,0,2047,3381
58,58,0,2046,4011
59,59,0,2046,3957
60,60,0,2046,3236
61,61,0,2046,2100
62,62,0,2047,942
63,63,0,2047,165
64,64,0,2046,38
65,65,0,2047,606
66,66,0,2047,1671
67,67,0,2046,2864
68,68,0,2047,3771
69,69,0,2047,4075
70,70,0,2047,3672
71,71,0,2046,2701
72,72,0,2046,1502
73,73,0,2047,488
74,74,0,2046,12
75,75,0,2047,239
76,76,0,2047,1092
77,77,0,2046,2273
78,78,0,2046,3372
79,79,0,2047,4009
80,80,0,2046,3961
81,81,0,2046,3244
82,82,0,2046,2110
83,83,0,2046,950
84,84,0,2046,168
85,85,0,2046,36
86,86,0,2046,598
87,87,0,2046,1661
88,88,0,2046,2855
89,89,0,2046,3765
90,90,0,2046,4076
91,91,0,2046,3678
92,92,0,2047,2711
93,93,0,2046,1511
94,94,0,2046,494
95,95,0,2046,12
96,96,0,2046,235
97,97,0,2046,1083
98,98,0,2046,2263
99,99,0,2046,3365
100,100,0,2047,4006
101,101,0,2046,3965
102,102,0,2046,3253
103,103,0,2046,2120
104,104,0,2046,960
105,105,0,2047,173
106,106,0,2046,34
107,107,0,2047,591
108,108,0,2046,1650
109,109,0,2047,2845
110,110,0,2047,3760
111,111,0,2047,4076
112,112,0,2046,3685
113,113,0,2046,2722
114,114,0,2046,1522
115,115,0,2047,501
116,116,0,2047,13
117,117,0,2046,229
118,118,0,2046,1074
119,119,0,2047,2253
120,120,0,2046,3358
121,121,0,2047,4004
122,122,0,2046,3968
123,123,0,2046,3261
124,124,0,2046,2130
125,125,0,2046,969
126,126,0,2047,177
127,127,0,2047,32
128,128,0,2046,584
129,129,0,2046,1640
130,130,0,2046,2837
131,131,0,2046,3754
132,132,0,2046,4077
133,133,0,2046,3691
134,134,0,2046,2731
135,135,0,2046,1532
136,136,0,2047,508
137,137,0,2046,16
138,138,0,2046,225
139,139,0,2046,1064
140,140,0,2047,2243
141,141,0,2046,3349
142,142,0,2046,4001
143,143,0,2046,3971
144,144,0,2046,3269
145,145,0,2046,2140
146,146,0,2046,976
147,147,0,2046,181
148,148,0,2046,31
149,149,0,2046,577
150,150,0,2046,1631
151,151,0,2046,2826
152,152,0,2047,3748
153,153,0,2046,4077
154,154,0,2046,3697
155,155,0,2046,2741
156,156,0,2046,1542
157,157,0,2046,515
158,158,0,2046,16
159,159,0,2046,220
160,160,0,2046,1055
161,161,0,2047,2233
162,162,0,2047,3342
163,163,0,2047,3998
164,164,0,2047,3974
165,165,0,2046,3277
166,166,0,2046,2151
167,167,0,2047,986
168,168,0,2047,186
169,169,0,2046,29
170,170,0,2046,569
171,171,0,2047,1620
172,172,0,2046,2817
173,173,0,2046,3743
174,174,0,2046,4076
175,175,0,2046,3703
176,176,0,2047,2751
177,177,0,2046,1552
178,178,0,2047,521
179,179,0,2046,18
180,180,0,2047,215
181,181,0,2046,1048
182,182,0,2046,2221
183,183,0,2047,3334
184,184,0,2046,3995
185,185,0,2046,3978
186,186,0,2046,3286
187,187,0,2046,2162
188,188,0,2046,995
189,189,0,2047,190
190,190,0,2047,27
191,191,0,2046,562
192,192,0,2047,1610
193,193,0,2046,2807
194,194,0,2046,3737
195,195,0,2047,4077
196,196,0,2047,3709
197,197,0,2046,2760
198,198,0,2046,1563
199,199,0,2046,530
200,200,0,2046,19
201,201,0,2047,211
202,202,0,2046,1038
203,203,0,2047,2212
204,204,0,2047,3326
205,205,0,2046,3992
206,206,0,2047,3981
207,207,0,2047,3294
208,208,0,2046,2172
209,209,0,2046,1003
210,210,0,2047,194
211,211,0,2046,25
212,212,0,2046,555
213,213,0,2046,1600
214,214,0,2046,2798
215,215,0,2047,3731
216,216,0,2047,4077
217,217,0,2047,3715
218,218,0,2046,2770
219,219,0,2046,1572
220,220,0,2046,536
221,221,0,2047,21
222,222,0,2047,207
223,223,0,2046,1029
224,224,0,2046,2202
225,225,0,2046,3318
226,226,0,2046,3990
227,227,0,2046,3984
228,228,0,2046,3302
229,229,0,2047,2182
230,230,0,2046,1013
231,231,0,2047,198
232,232,0,2047,23
233,233,0,2046,548
234,234,0,2047,1590
235,235,0,2047,2788
236,236,0,2046,3726
237,237,0,2046,4077
238,238,0,2047,3721
239,239,0,2047,2780
240,240,0,2046,1581
241,241,0,2047,543
242,242,0,2046,22
243,243,0,2046,203
244,244,0,2047,1020
245,245,0,2046,2191
246,246,0,2047,3309
247,247,0,2047,3987
248,248,0,2046,3987
249,249,0,2046,3310
250,250,0,2046,2192
251,251,0,2046,1021
252,252,0,2045,203
253,253,0,2046,22
254,254,0,2046,541
255,255,0,2046,1579
256,256,0,2046,2778
257,257,0,2046,3720
258,258,0,2046,4077
259,259,0,2047,3727
260,260,0,2046,2789
261,261,0,2046,1592
262,262,0,2046,550
263,263,0,2046,23
264,264,0,2047,197
265,265,0,2047,1011
266,266,0,2047,2181
267,267,0,2046,3302
268,268,0,2045,3983
269,269,0,2046,3989
270,270,0,2046,3319
271,271,0,2047,2203
272,272,0,2046,1030
273,273,0,2046,208
274,274,0,2046,21
275,275,0,2046,534
276,276,0,2046,1570
277,277,0,2047,2768
278,278,0,2047,3714
279,279,0,2046,4077
280,280,0,2046,3733
281,281,0,2047,2798
282,282,0,2047,1602
283,283,0,2046,557
284,284,0,2047,25
285,285,0,2046,193
286,286,0,2046,1002
287,287,0,2047,2170
288,288,0,2047,3293
289,289,0,2046,3980
290,290,0,2046,3992
291,291,0,2046,3326
292,292,0,2046,2213
293,293,0,2046,1040
294,294,0,2046,212
295,295,0,2047,19
296,296,0,2046,527
297,297,0,2047,1560
298,298,0,2046,2759
299,299,0,2046,3708
300,300,0,2046,4077
301,301,0,2046,3738
302,302,0,2046,2808
303,303,0,2047,1611
304,304,0,2046,564
305,305,0,2046,27
306,306,0,2046,188
307,307,0,2046,992
308,308,0,2046,2160
309,309,0,2046,3285
310,310,0,2047,3977
311,311,0,2047,3995
312,312,0,2046,3334
313,313,0,2046,2224
314,314,0,2046,1048
315,315,0,2046,217
316,316,0,2047,17
317,317,0,2047,521
318,318,0,2046,1549
319,319,0,2046,2749
320,320,0,2046,3702
321,321,0,2046,4077
322,322,0,2046,3743
323,323,0,2047,2817
324,324,0,2046,1622
325,325,0,2046,571
326,326,0,2047,29
327,327,0,2046,185
328,328,0,2046,985
329,329,0,2046,2149
330,330,0,2046,3276
331,331,0,2046,3974
332,332,0,2046,3998
333,333,0,2047,3343
334,334,0,2046,2234
335,335,0,2046,1057
336,336,0,2047,221
337,337,0,2047,16
338,338,0,2045,514
339,339,0,2046,1540
340,340,0,2047,2739
341,341,0,2046,3696
342,342,0,2046,4077
343,343,0,2047,3749
344,344,0,2046,2828
345,345,0,2046,1632
346,346,0,2046,579
347,347,0,2047,30
348,348,0,2047,180
349,349,0,2047,976
350,350,0,2047,2140
351,351,0,2047,3268
352,352,0,2046,3970
353,353,0,2046,4001
354,354,0,2046,3351
355,355,0,2046,2244
356,356,0,2046,1067
357,357,0,2046,227
358,358,0,2046,15
359,359,0,2046,507
360,360,0,2047,1530
361,361,0,2047,2730
362,362,0,2047,3691
363,363,0,2047,4075
364,364,0,2047,3755
365,365,0,2047,2838
366,366,0,2047,1642
367,367,0,2047,585
368,368,0,2047,33
369,369,0,2047,176
370,370,0,2046,967
371,371,0,2046,2129
372,372,0,2047,3260
373,373,0,2047,3967
374,374,0,2046,4003
375,375,0,2047,3357
376,376,0,2047,2254
377,377,0,2046,1076
378,378,0,2047,231
379,379,0,2046,13
380,380,0,2046,500
381,381,0,2047,1520
382,382,0,2046,2720
383,383,0,2046,3684
384,384,0,2047,4076
385,385,0,2046,3760
386,386,0,2047,2847
387,387,0,2047,1652
388,388,0,2047,593
389,389,0,2046,35
390,390,0,2047,172
391,391,0,2047,958
392,392,0,2046,2118
393,393,0,2047,3252
394,394,0,2046,3964
395,395,0,2046,4007
396,396,0,2046,3366
397,397,0,2046,2264
398,398,0,2047,1085
399,399,0,2047,235
400,400,0,2047,13
401,401,0,2046,493
402,402,0,2046,1509
403,403,0,2047,2711
404,404,0,2046,3678
405,405,0,2047,4076
406,406,0,2047,3766
407,407,0,2046,2857
408,408,0,2047,1662
409,409,0,2046,600
410,410,0,2046,36
411,411,0,2046,167
412,412,0,2047,949
413,413,0,2046,2108
414,414,0,2046,3244
415,415,0,2046,3961
416,416,0,2046,4009
417,417,0,2047,3374
418,418,0,2046,2275
419,419,0,2046,1093
420,420,0,2046,240
421,421,0,2047,11
422,422,0,2046,486
423,423,0,2047,1501
424,424,0,2046,2701
425,425,0,2047,3672
426,426,0,2047,4075
427,427,0,2047,3771
428,428,0,2046,2865
429,429,0,2046,1672
430,430,0,2046,607
431,431,0,2047,38
432,432,0,2046,163
433,433,0,2045,940
434,434,0,2046,2098
435,435,0,2046,3235
436,436,0,2047,3956
437,437,0,2046,4012
438,438,0,2046,3382
439,439,0,2046,2285
440,440,0,2047,1103
441,441,0,2047,246
442,442,0,2046,10
443,443,0,2047,479
444,444,0,2046,1490
445,445,0,2047,2691
446,446,0,2046,3665
447,447,0,2047,4074
448,448,0,2046,3777
449,449,0,2046,2875
450,450,0,2047,1683
451,451,0,2046,615
452,452,0,2046,40
453,453,0,2046,160
454,454,0,2046,932
455,455,0,2047,2088
456,456,0,2047,3227
457,457,0,2046,3953
458,458,0,2047,4014
459,459,0,2046,3390
460,460,0,2046,2295
461,461,0,2045,1112
462,462,0,2046,250
463,463,0,2046,9
464,464,0,2047,473
465,465,0,2046,1480
466,466,0,2046,2681
467,467,0,2046,3659
468,468,0,2046,4074
469,469,0,2046,3782
470,470,0,2046,2884
471,471,0,2046,1693
472,472,0,2047,622
473,473,0,2046,42
474,474,0,2046,156
475,475,0,2046,923
476,476,0,2047,2077
477,477,0,2046,3218
478,478,0,2047,3950
479,479,0,2046,4017
480,480,0,2047,3397
481,481,0,2046,2306
482,482,0,2047,1122
483,483,0,2046,256
484,484,0,2046,8
485,485,0,2047,465
486,486,0,2046,1470
487,487,0,2047,2671
488,488,0,2046,3653
489,489,0,2046,4074
490,490,0,2046,3787
491,491,0,2047,2893
492,492,0,2047,1703
493,493,0,2046,629
494,494,0,2047,45
495,495,0,2046,152
496,496,0,2047,914
497,497,0,2046,2068
498,498,0,2046,3210
499,499,0,2046,3946
500,500,0,2047,4020
501,501,0,2046,3405
502,502,0,2046,2316
503,503,0,2046,1131
504,504,0,2046,261
505,505,0,2047,7
506,506,0,2046,460
507,507,0,2046,1460
508,508,0,2047,2662
509,509,0,2047,3646
510,510,0,2046,4073
511,511,0,2046,3793
512,512,0,2046,2903
513,513,0,2046,1714
514,514,0,2046,637
515,515,0,2046,46
516,516,0,2047,147
517,517,0,2046,905
518,518,0,2047,2057
519,519,0,2047,3201
520,520,0,2047,3942
521,521,0,2047,4022
522,522,0,2046,3412
523,523,0,2046,2327
524,524,0,2047,1140
525,525,0,2047,266
526,526,0,2047,6
527,527,0,2047,453
528,528,0,2047,1451
529,529,0,2047,2652
530,530,0,2046,3641
531,531,0,2047,4073
532,532,0,2046,3798
533,533,0,2046,2912
534,534,0,2046,1723
535,535,0,2046,645
536,536,0,2046,49
537,537,0,2046,144
538,538,0,2046,898
539,539,0,2046,2047
540,540,0,2046,3193
541,541,0,2046,3939
542,542,0,2046,4024
543,543,0,2046,3420
544,544,0,2046,2337
545,545,0,2046,1149
546,546,0,2046,271
547,547,0,2046,5
548,548,0,2047,446
549,549,0,2047,1440
550,550,0,2047,2642
551,551,0,2047,3634
552,552,0,2047,4072
553,553,0,2046,3803
554,554,0,2046,2921
555,555,0,2047,1733
556,556,0,2047,652
557,557,0,2046,52
558,558,0,2047,140
559,559,0,2046,888
560,560,0,2046,2036
561,561,0,2046,3185
562,562,0,2046,3935
563,563,0,2047,4026
564,564,0,2046,3428
565,565,0,2046,2347
566,566,0,2046,1159
567,567,0,2046,275
568,568,0,2047,4
569,569,0,2046,440
570,570,0,2046,1431
571,571,0,2046,2633
572,572,0,2047,3627
573,573,0,2047,4071
574,574,0,2046,3807
575,575,0,2047,2931
576,576,0,2047,1744
577,577,0,2046,659
578,578,0,2046,53
579,579,0,2046,137
580,580,0,2046,880
581,581,0,2046,2026
582,582,0,2047,3176
583,583,0,2047,3931
584,584,0,2046,4028
585,585,0,2047,3436
586,586,0,2046,2357
587,587,0,2046,1167
588,588,0,2046,280
589,589,0,2046,4
590,590,0,2047,433
591,591,0,2046,1420
592,592,0,2047,2622
593,593,0,2046,3621
594,594,0,2046,4070
595,595,0,2046,3813
596,596,0,2046,2940
597,597,0,2047,1755
598,598,0,2046,667
599,599,0,2046,56
600,600,0,2046,133
601,601,0,2046,872
602,602,0,2046,2016
603,603,0,2047,3168
604,604,0,2046,3927
605,605,0,2046,4031
606,606,0,2047,3442
607,607,0,2046,2366
608,608,0,2047,1177
609,609,0,2046,287
610,610,0,2046,3
611,611,0,2046,427
612,612,0,2047,1410
613,613,0,2047,2612
614,614,0,2046,3614
615,615,0,2046,4069
616,616,0,2046,3818
617,617,0,2047,2949
618,618,0,2046,1765
619,619,0,2046,675
620,620,0,2046,58
621,621,0,2047,129
622,622,0,2047,863
623,623,0,2046,2005
624,624,0,2046,3158
625,625,0,2047,3923
626,626,0,2047,4032
627,627,0,2047,3450
628,628,0,2046,2377
629,629,0,2046,1187
630,630,0,2046,292
631,631,0,2046,3
632,632,0,2046,421
633,633,0,2046,1401
634,634,0,2047,2603
635,635,0,2046,3608
636,636,0,2046,4068
637,637,0,2046,3823
638,638,0,2047,2959
639,639,0,2046,1775
640,640,0,2047,682
641,641,0,2046,60
642,642,0,2046,125
643,643,0,2047,855
644,644,0,2046,1995
645,645,0,2046,3150
646,646,0,2047,3919
647,647,0,2047,4035
648,648,0,2046,3457
649,649,0,2046,2387
650,650,0,2047,1196
651,651,0,2046,297
652,652,0,2047,2
653,653,0,2046,415
654,654,0,2047,1392
655,655,0,2046,2592
656,656,0,2047,3601
657,657,0,2045,4067
658,658,0,2046,3828
659,659,0,2046,2968
660,660,0,2046,1785
661,661,0,2046,691
662,662,0,2046,64
663,663,0,2046,122
664,664,0,2046,847
665,665,0,2046,1984
666,666,0,2046,3142
667,667,0,2046,3916
668,668,0,2047,4037
669,669,0,2046,3465
670,670,0,2047,2397
671,671,0,2047,1205
672,672,0,2047,302
673,673,0,2047,2
674,674,0,2046,409
675,675,0,2047,1382
676,676,0,2046,2582
677,677,0,2047,3595
678,678,0,2046,4066
679,679,0,2046,3833
680,680,0,2046,2977
681,681,0,2047,1795
682,682,0,2046,698
683,683,0,2047,65
684,684,0,2046,118
685,685,0,2046,837
686,686,0,2046,1974
687,687,0,2047,3133
688,688,0,2046,3911
689,689,0,2047,4039
690,690,0,2047,3473
691,691,0,2046,2408
692,692,0,2046,1214
693,693,0,2046,308
694,694,0,2046,1
695,695,0,2046,402
696,696,0,2046,1371
697,697,0,2046,2572
698,698,0,2046,3588
699,699,0,2046,4066
700,700,0,2046,3839
701,701,0,2046,2986
702,702,0,2046,1805
703,703,0,2046,706
704,704,0,2047,69
705,705,0,2046,115
706,706,0,2046,829
707,707,0,2046,1964
708,708,0,2047,3124
709,709,0,2047,3907
710,710,0,2046,4041
711,711,0,2046,3480
712,712,0,2046,2418
713,713,0,2046,1225
714,714,0,2046,313
715,715,0,2046,1
716,716,0,2047,396
717,717,0,2046,1361
718,718,0,2046,2562
719,719,0,2046,3580
720,720,0,2046,4064
721,721,0,2046,3843
722,722,0,2047,2994
723,723,0,2046,1815
724,724,0,2046,714
725,725,0,2047,72
726,726,0,2046,111
727,727,0,2047,821
728,728,0,2046,1953
729,729,0,2047,3115
730,730,0,2047,3903
731,731,0,2046,4043
732,732,0,2047,3487
733,733,0,2046,2428
734,734,0,2046,1233
735,735,0,2047,319
736,736,0,2047,0
737,737,0,2046,390
738,738,0,2047,1352
739,739,0,2046,2553
740,740,0,2046,3574
741,741,0,2046,4063
742,742,0,2046,3848
743,743,0,2047,3005
744,744,0,2046,1826
745,745,0,2046,722
746,746,0,2046,74
747,747,0,2047,109
748,748,0,2046,813
749,749,0,2046,1943
750,750,0,2047,3107
751,751,0,2047,3899
752,752,0,2046,4045
753,753,0,2047,3494
754,754,0,2047,2438
755,755,0,2046,1243
756,756,0,2046,325
757,757,0,2047,0
758,758,0,2046,384
759,759,0,2046,1343
760,760,0,2047,2542
761,761,0,2046,3567
762,762,0,2046,4062
763,763,0,2047,3853
764,764,0,2047,3014
765,765,0,2046,1836
766,766,0,2046,730
767,767,0,2046,77
768,768,0,2046,105
769,769,0,2046,805
770,770,0,2046,1933
771,771,0,2047,3098
772,772,0,2046,3896
773,773,0,2046,4047
774,774,0,2046,3501
775,775,0,2046,2449
776,776,0,2047,1253
777,777,0,2046,330
778,778,0,2046,0
779,779,0,2046,377
780,780,0,2047,1333
781,781,0,2047,2533
782,782,0,2046,3560
783,783,0,2047,4060
784,784,0,2046,3858
785,785,0,2047,3023
786,786,0,2047,1847
787,787,0,2046,738
788,788,0,2046,80
789,789,0,2046,101
790,790,0,2046,797
791,791,0,2047,1922
792,792,0,2046,3089
793,793,0,2047,3890
794,794,0,2047,4048
795,795,0,2047,3509
796,796,0,2046,2458
797,797,0,2047,1263
798,798,0,2046,336
799,799,0,2046,0
800,800,0,2047,372
801,801,0,2047,1323
802,802,0,2046,2522
803,803,0,2046,3554
804,804,0,2046,4059
805,805,0,2046,3862
806,806,0,2046,3032
807,807,0,2046,1858
808,808,0,2047,745
809,809,0,2047,82
810,810,0,2046,99
811,811,0,2047,787
812,812,0,2047,1912
813,813,0,2047,3080
814,814,0,2047,3886
815,815,0,2046,4050
816,816,0,2047,3516
817,817,0,2047,2469
818,818,0,2046,1273
819,819,0,2047,342
820,820,0,2046,0
821,821,0,2046,366
822,822,0,2046,1313
823,823,0,2046,2512
824,824,0,2047,3547
825,825,0,2047,4057
826,826,0,2047,3867
827,827,0,2046,3041
828,828,0,2046,1867
829,829,0,2046,754
830,830,0,2046,86
831,831,0,2046,95
832,832,0,2046,779
833,833,0,2047,1902
834,834,0,2047,3071
835,835,0,2047,3881
836,836,0,2047,4052
837,837,0,2047,3522
838,838,0,2046,2479
839,839,0,2046,1281
840,840,0,2046,347
841,841,0,2047,0
842,842,0,2047,361
843,843,0,2047,1303
844,844,0,2046,2502
845,845,0,2047,3540
846,846,0,2047,4056
847,847,0,2047,3871
848,848,0,2047,3050
849,849,0,2046,1878
850,850,0,2047,762
851,851,0,2046,88
852,852,0,2046,92
853,853,0,2046,771
854,854,0,2046,1891
855,855,0,2047,3062
856,856,0,2047,3877
857,857,0,2047,4053
858,858,0,2047,3530
859,859,0,2046,2489
860,860,0,2046,1291
861,861,0,2046,354
862,862,0,2047,0
863,863,0,2047,354
864,864,0,2046,1294
865,865,0,2046,2492
866,866,0,2046,3532
867,867,0,2046,4054
868,868,0,2047,3876
869,869,0,2046,3059
870,870,0,2046,1889
871,871,0,2046,770
872,872,0,2046,92
873,873,0,2046,89
874,874,0,2047,764
875,875,0,2047,1881
876,876,0,2046,3052
877,877,0,2046,3872
878,878,0,2047,4055
879,879,0,2047,3536
880,880,0,2046,2499
881,881,0,2046,1301
882,882,0,2046,359
883,883,0,2046,0
884,884,0,2047,349
885,885,0,2046,1284
886,886,0,2047,2482
887,887,0,2047,3526
888,888,0,2046,4053
889,889,0,2046,3880
890,890,0,2046,3067
891,891,0,2046,1898
892,892,0,2046,778
893,893,0,2047,95
894,894,0,2046,86
895,895,0,2047,756
896,896,0,2047,1870
897,897,0,2047,3044
898,898,0,2046,3868
899,899,0,2046,4056
900,900,0,2046,3544
901,901,0,2047,2509
902,902,0,2046,1311
903,903,0,2046,365
904,904,0,2046,0
905,905,0,2047,342
906,906,0,2046,1275
907,907,0,2046,2472
908,908,0,2046,3518
909,909,0,2046,4052
910,910,0,2047,3884
911,911,0,2047,3077
912,912,0,2046,1909
913,913,0,2046,786
914,914,0,2047,98
915,915,0,2046,83
916,916,0,2047,747
917,917,0,2046,1860
918,918,0,2046,3035
919,919,0,2046,3864
920,920,0,2046,4058
921,921,0,2047,3551
922,922,0,2046,2520
923,923,0,2046,1320
924,924,0,2046,371
925,925,0,2047,0
926,926,0,2046,337
927,927,0,2047,1264
928,928,0,2046,2461
929,929,0,2046,3511
930,930,0,2046,4050
931,931,0,2047,3889
932,932,0,2046,3086
933,933,0,2046,1920
934,934,0,2046,794
935,935,0,2047,101
936,936,0,2046,80
937,937,0,2047,739
938,938,0,2046,1850
939,939,0,2046,3026
940,940,0,2047,3859
941,941,0,2047,4059
942,942,0,2046,3559
943,943,0,2047,2529
944,944,0,2047,1330
945,945,0,2047,377
946,946,0,2046,1
947,947,0,2047,331
948,948,0,2046,1256
949,949,0,2047,2452
950,950,0,2046,3504
951,951,0,2047,4048
952,952,0,2046,3893
953,953,0,2046,3094
954,954,0,2046,1929
955,955,0,2047,803
956,956,0,2046,105
957,957,0,2047,77
958,958,0,2046,731
959,959,0,2047,1840
960,960,0,2046,3017
961,961,0,2046,3854
962,962,0,2046,4061
963,963,0,2046,3565
964,964,0,2047,2540
965,965,0,2047,1340
966,966,0,2047,383
967,967,0,2046,0
968,968,0,2046,326
969,969,0,2047,1246
970,970,0,2047,2441
971,971,0,2047,3496
972,972,0,2047,4046
973,973,0,2046,3898
974,974,0,2047,3103
975,975,0,2047,1940
976,976,0,2047,811
977,977,0,2046,107
978,978,0,2046,74
979,979,0,2047,723
980,980,0,2046,1829
981,981,0,2047,3008
982,982,0,2047,3850
983,983,0,2046,4062
984,984,0,2047,3573
985,985,0,2047,2549
986,986,0,2046,1349
987,987,0,2046,389
988,988,0,2046,1
989,989,0,2046,320
990,990,0,2047,1236
991,991,0,2046,2431
992,992,0,2047,3490
993,993,0,2047,4044
994,994,0,2046,3902
995,995,0,2046,3112
996,996,0,2047,1951
997,997,0,2046,820
998,998,0,2047,111
999,999,0,2046,72
1000,1000,0,2047,715
1001,1001,0,2046,1819
1002,1002,0,2046,2999
1003,1003,0,2046,3846
1004,1004,0,2047,4062
1005,1005,0,2046,3578
1006,1006,0,2047,2559
1007,1007,0,2047,1360
1008,1008,0,2047,396
1009,1009,0,2047,1
1010,1010,0,2047,315
1011,1011,0,2046,1227
1012,1012,0,2046,2421
1013,1013,0,2046,3482
1014,1014,0,2046,4042
1015,1015,0,2046,3906
1016,1016,0,2046,3122
1017,1017,0,2046,1960
1018,1018,0,2046,828
1019,1019,0,2047,114
1020,1020,0,2046,69
1021,1021,0,2047,708
1022,1022,0,2046,1808
1023,1023,0,2046,2990
1024,1024,0,2047,3841
1025,1025,0,2047,4065
1026,1026,0,2046,3585
