Sample in Buffer,Sample in Window,TRIGGER,adc1_data_a_d0[11:0],adc1_data_b_d0[11:0]
0,0,0,2046,99
1,1,0,2047,256
2,2,0,2047,468
3,3,0,2046,729
4,4,0,2046,1031
5,5,0,2047,1362
6,6,0,2046,1717
7,7,0,2046,2080
8,8,0,2047,2442
9,9,0,2046,2792
10,10,0,2046,3117
11,11,0,2047,3411
12,12,0,2046,3662
13,13,0,2047,3861
14,14,0,2046,4006
15,15,0,2046,4089
16,16,0,2046,4095
17,17,0,2046,4065
18,18,0,2047,3957
19,19,0,2046,3791
20,20,0,2047,3571
21,21,0,2047,3304
22,22,0,2046,2998
23,23,0,2046,2662
24,24,0,2046,2308
25,25,0,2047,1945
26,26,0,2046,1584
27,27,0,2046,1239
28,28,0,2047,917
29,29,0,2047,631
30,30,0,2046,386
31,31,0,2046,193
32,32,0,2046,58
33,33,0,2046,0
34,34,0,2046,0
35,35,0,2046,24
36,36,0,2046,138
37,37,0,2046,312
38,38,0,2046,539
39,39,0,2047,812
40,40,0,2047,1123
41,41,0,2046,1462
42,42,0,2047,1820
43,43,0,2047,2184
44,44,0,2046,2544
45,45,0,2046,2888
46,46,0,2046,3205
47,47,0,2047,3487
48,48,0,2046,3724
49,49,0,2046,3908
50,50,0,2047,4035
51,51,0,2046,4095
52,52,0,2047,4095
53,53,0,2047,4039
54,54,0,2046,3916
55,55,0,2047,3733
56,56,0,2047,3499
57,57,0,2046,3220
58,58,0,2047,2905
59,59,0,2046,2562
60,60,0,2047,2204
61,61,0,2047,1841
62,62,0,2046,1484
63,63,0,2046,1144
64,64,0,2046,831
65,65,0,2046,555
66,66,0,2045,326
67,67,0,2047,149
68,68,0,2047,30
69,69,0,2046,0
70,70,0,2047,0
71,71,0,2047,50
72,72,0,2046,182
73,73,0,2046,371
74,74,0,2046,611
75,75,0,2046,897
76,76,0,2046,1217
77,77,0,2047,1563
78,78,0,2047,1924
79,79,0,2046,2287
80,80,0,2046,2643
81,81,0,2046,2981
82,82,0,2046,3290
83,83,0,2046,3559
84,84,0,2047,3781
85,85,0,2046,3951
86,86,0,2046,4061
87,87,0,2046,4095
88,88,0,2046,4091
89,89,0,2046,4010
90,90,0,2047,3869
91,91,0,2046,3672
92,92,0,2046,3424
93,93,0,2046,3133
94,94,0,2046,2809
95,95,0,2046,2461
96,96,0,2047,2101
97,97,0,2046,1738
98,98,0,2047,1385
99,99,0,2046,1051
100,100,0,2047,748
101,101,0,2047,484
102,102,0,2046,269
103,103,0,2046,108
104,104,0,2047,7
105,105,0,2047,0
106,106,0,2046,0
107,107,0,2047,81
108,108,0,2046,230
109,109,0,2046,435
110,110,0,2046,689
111,111,0,2046,986
112,112,0,2047,1314
113,113,0,2047,1665
114,114,0,2046,2028
115,115,0,2046,2390
116,116,0,2046,2743
117,117,0,2047,3073
118,118,0,2047,3371
119,119,0,2046,3629
120,120,0,2046,3837
121,121,0,2046,3989
122,122,0,2047,4080
123,123,0,2046,4095
124,124,0,2046,4074
125,125,0,2047,3976
126,126,0,2047,3818
127,127,0,2046,3606
128,128,0,2046,3345
129,129,0,2047,3044
130,130,0,2047,2712
131,131,0,2046,2359
132,132,0,2047,1996
133,133,0,2046,1636
134,134,0,2047,1287
135,135,0,2047,961
136,136,0,2046,669
137,137,0,2046,418
138,138,0,2046,218
139,139,0,2046,73
140,140,0,2046,0
141,141,0,2046,0
142,142,0,2046,12
143,143,0,2047,118
144,144,0,2047,283
145,145,0,2047,503
146,146,0,2046,770
147,147,0,2046,1076
148,148,0,2046,1412
149,149,0,2047,1768
150,150,0,2047,2132
151,151,0,2046,2492
152,152,0,2046,2840
153,153,0,2046,3162
154,154,0,2047,3449
155,155,0,2047,3693
156,156,0,2046,3885
157,157,0,2046,4022
158,158,0,2047,4095
159,159,0,2046,4095
160,160,0,2047,4052
161,161,0,2047,3937
162,162,0,2046,3763
163,163,0,2047,3536
164,164,0,2047,3263
165,165,0,2047,2952
166,166,0,2047,2612
167,167,0,2047,2256
168,168,0,2046,1894
169,169,0,2046,1534
170,170,0,2046,1191
171,171,0,2047,874
172,172,0,2047,593
173,173,0,2046,355
174,174,0,2047,171
175,175,0,2046,43
176,176,0,2046,0
177,177,0,2046,0
178,178,0,2047,37
179,179,0,2047,160
180,180,0,2046,341
181,181,0,2046,575
182,182,0,2047,854
183,183,0,2046,1170
184,184,0,2047,1512
185,185,0,2047,1872
186,186,0,2047,2235
187,187,0,2047,2593
188,188,0,2046,2935
189,189,0,2047,3248
190,190,0,2047,3523
191,191,0,2046,3754
192,192,0,2047,3931
193,193,0,2047,4049
194,194,0,2046,4095
195,195,0,2047,4095
196,196,0,2047,4025
197,197,0,2047,3894
198,198,0,2047,3703
199,199,0,2046,3462
200,200,0,2046,3177
201,201,0,2047,2857
202,202,0,2046,2512
203,203,0,2047,2152
204,204,0,2047,1790
205,205,0,2047,1434
206,206,0,2046,1097
207,207,0,2047,789
208,208,0,2046,520
209,209,0,2047,297
210,210,0,2047,128
211,211,0,2046,18
212,212,0,2046,0
213,213,0,2047,0
214,214,0,2047,65
215,215,0,2046,206
216,216,0,2046,402
217,217,0,2047,650
218,218,0,2047,941
219,219,0,2047,1265
220,220,0,2046,1614
221,221,0,2047,1975
222,222,0,2047,2339
223,223,0,2046,2693
224,224,0,2047,3028
225,225,0,2046,3331
226,226,0,2046,3595
227,227,0,2047,3809
228,228,0,2047,3971
229,229,0,2046,4071
230,230,0,2047,4095
231,231,0,2046,4083
232,232,0,2046,3994
233,233,0,2046,3845
234,234,0,2046,3640
235,235,0,2047,3384
236,236,0,2046,3090
237,237,0,2046,2761
238,238,0,2047,2411
239,239,0,2046,2049
240,240,0,2047,1687
241,241,0,2047,1336
242,242,0,2047,1007
243,243,0,2046,708
244,244,0,2046,452
245,245,0,2046,243
246,246,0,2046,90
247,247,0,2047,0
248,248,0,2046,0
249,249,0,2046,2
250,250,0,2046,100
251,251,0,2047,257
252,252,0,2046,469
253,253,0,2047,729
254,254,0,2047,1030
255,255,0,2046,1363
256,256,0,2047,1716
257,257,0,2046,2079
258,258,0,2046,2441
259,259,0,2046,2791
260,260,0,2047,3118
261,261,0,2046,3411
262,262,0,2047,3661
263,263,0,2046,3861
264,264,0,2046,4005
265,265,0,2047,4088
266,266,0,2047,4095
267,267,0,2047,4064
268,268,0,2047,3958
269,269,0,2046,3791
270,270,0,2047,3572
271,271,0,2046,3304
272,272,0,2046,2998
273,273,0,2046,2663
274,274,0,2046,2308
275,275,0,2047,1946
276,276,0,2046,1586
277,277,0,2047,1239
278,278,0,2047,917
279,279,0,2046,630
280,280,0,2046,387
281,281,0,2046,194
282,282,0,2046,57
283,283,0,2046,0
284,284,0,2046,0
285,285,0,2046,24
286,286,0,2046,138
287,287,0,2047,312
288,288,0,2047,538
289,289,0,2047,811
290,290,0,2047,1123
291,291,0,2046,1463
292,292,0,2046,1820
293,293,0,2047,2184
294,294,0,2047,2543
295,295,0,2047,2888
296,296,0,2046,3204
297,297,0,2046,3487
298,298,0,2046,3723
299,299,0,2047,3908
300,300,0,2046,4036
301,301,0,2047,4095
302,302,0,2046,4095
303,303,0,2046,4040
304,304,0,2046,3916
305,305,0,2046,3733
306,306,0,2046,3500
307,307,0,2047,3220
308,308,0,2047,2904
309,309,0,2046,2562
310,310,0,2046,2205
311,311,0,2046,1842
312,312,0,2046,1485
313,313,0,2046,1144
314,314,0,2046,832
315,315,0,2046,555
316,316,0,2046,326
317,317,0,2046,149
318,318,0,2046,30
319,319,0,2046,0
320,320,0,2046,0
321,321,0,2047,50
322,322,0,2047,182
323,323,0,2047,371
324,324,0,2047,612
325,325,0,2046,896
326,326,0,2046,1218
327,327,0,2046,1563
328,328,0,2046,1924
329,329,0,2046,2288
330,330,0,2046,2644
331,331,0,2046,2981
332,332,0,2046,3289
333,333,0,2046,3559
334,334,0,2046,3782
335,335,0,2046,3951
336,336,0,2047,4060
337,337,0,2046,4095
338,338,0,2046,4091
339,339,0,2046,4011
340,340,0,2046,3869
341,341,0,2046,3672
342,342,0,2047,3424
343,343,0,2047,3133
344,344,0,2046,2809
345,345,0,2047,2462
346,346,0,2046,2101
347,347,0,2047,1738
348,348,0,2047,1385
349,349,0,2047,1051
350,350,0,2047,748
351,351,0,2047,486
352,352,0,2046,270
353,353,0,2047,108
354,354,0,2047,7
355,355,0,2046,0
356,356,0,2047,0
357,357,0,2046,82
358,358,0,2047,230
359,359,0,2046,435
360,360,0,2047,689
361,361,0,2046,985
362,362,0,2046,1314
363,363,0,2047,1665
364,364,0,2046,2027
365,365,0,2046,2390
366,366,0,2046,2742
367,367,0,2047,3073
368,368,0,2047,3371
369,369,0,2046,3628
370,370,0,2046,3836
371,371,0,2046,3988
372,372,0,2046,4081
373,373,0,2046,4095
374,374,0,2046,4073
375,375,0,2047,3977
376,376,0,2047,3818
377,377,0,2046,3606
378,378,0,2046,3345
379,379,0,2046,3044
380,380,0,2047,2712
381,381,0,2047,2360
382,382,0,2046,1997
383,383,0,2046,1635
384,384,0,2046,1287
385,385,0,2046,961
386,386,0,2047,669
387,387,0,2046,418
388,388,0,2046,218
389,389,0,2047,73
390,390,0,2047,0
391,391,0,2046,0
392,392,0,2046,12
393,393,0,2046,118
394,394,0,2046,283
395,395,0,2047,503
396,396,0,2047,769
397,397,0,2047,1076
398,398,0,2046,1412
399,399,0,2047,1768
400,400,0,2046,2131
401,401,0,2046,2492
402,402,0,2046,2840
403,403,0,2046,3161
404,404,0,2046,3449
405,405,0,2046,3693
406,406,0,2046,3885
407,407,0,2046,4021
408,408,0,2046,4095
409,409,0,2046,4095
410,410,0,2047,4052
411,411,0,2047,3937
412,412,0,2047,3762
413,413,0,2047,3536
414,414,0,2046,3264
415,415,0,2047,2952
416,416,0,2047,2613
417,417,0,2046,2257
418,418,0,2046,1894
419,419,0,2046,1534
420,420,0,2046,1191
421,421,0,2046,875
422,422,0,2047,593
423,423,0,2047,356
424,424,0,2047,170
425,425,0,2046,44
426,426,0,2046,0
427,427,0,2046,0
428,428,0,2046,36
429,429,0,2046,159
430,430,0,2047,341
431,431,0,2046,574
432,432,0,2047,853
433,433,0,2046,1170
434,434,0,2047,1512
435,435,0,2046,1871
436,436,0,2046,2235
437,437,0,2046,2594
438,438,0,2046,2935
439,439,0,2046,3247
440,440,0,2046,3523
441,441,0,2046,3753
442,442,0,2046,3931
443,443,0,2047,4048
444,444,0,2046,4095
445,445,0,2046,4095
446,446,0,2047,4026
447,447,0,2046,3894
448,448,0,2046,3703
449,449,0,2046,3463
450,450,0,2046,3178
451,451,0,2047,2858
452,452,0,2046,2513
453,453,0,2047,2154
454,454,0,2046,1790
455,455,0,2046,1435
456,456,0,2046,1098
457,457,0,2047,790
458,458,0,2047,520
459,459,0,2047,298
460,460,0,2046,128
461,461,0,2046,18
462,462,0,2047,0
463,463,0,2046,0
464,464,0,2046,65
465,465,0,2047,204
466,466,0,2046,402
467,467,0,2046,650
468,468,0,2046,940
469,469,0,2047,1265
470,470,0,2046,1614
471,471,0,2046,1974
472,472,0,2047,2339
473,473,0,2047,2693
474,474,0,2047,3027
475,475,0,2046,3331
476,476,0,2047,3594
477,477,0,2046,3809
478,478,0,2047,3970
479,479,0,2047,4071
480,480,0,2046,4095
481,481,0,2047,4083
482,482,0,2047,3994
483,483,0,2047,3845
484,484,0,2046,3639
485,485,0,2047,3385
486,486,0,2047,3089
487,487,0,2046,2762
488,488,0,2046,2412
489,489,0,2046,2049
490,490,0,2046,1687
491,491,0,2046,1336
492,492,0,2047,1006
493,493,0,2046,709
494,494,0,2046,451
495,495,0,2046,244
496,496,0,2047,91
497,497,0,2047,0
498,498,0,2047,0
499,499,0,2047,2
500,500,0,2047,99
501,501,0,2046,256
502,502,0,2046,468
503,503,0,2046,729
504,504,0,2047,1030
505,505,0,2047,1362
506,506,0,2047,1716
507,507,0,2046,2079
508,508,0,2046,2442
509,509,0,2046,2791
510,510,0,2046,3118
511,511,0,2047,3410
512,512,0,2047,3660
513,513,0,2047,3861
514,514,0,2047,4005
515,515,0,2046,4088
516,516,0,2046,4095
517,517,0,2046,4063
518,518,0,2047,3957
519,519,0,2046,3790
520,520,0,2047,3572
521,521,0,2046,3305
522,522,0,2046,2999
523,523,0,2046,2663
524,524,0,2047,2309
525,525,0,2047,1946
526,526,0,2046,1586
527,527,0,2046,1239
528,528,0,2046,917
529,529,0,2046,630
530,530,0,2046,387
531,531,0,2047,194
532,532,0,2046,57
533,533,0,2046,0
534,534,0,2046,0
535,535,0,2046,23
536,536,0,2046,138
537,537,0,2047,312
538,538,0,2047,538
539,539,0,2046,811
540,540,0,2047,1122
541,541,0,2046,1462
542,542,0,2046,1819
543,543,0,2047,2183
544,544,0,2047,2543
545,545,0,2047,2887
546,546,0,2046,3205
547,547,0,2046,3486
548,548,0,2046,3723
549,549,0,2046,3908
550,550,0,2046,4035
551,551,0,2046,4095
552,552,0,2046,4095
553,553,0,2047,4040
554,554,0,2046,3916
555,555,0,2047,3733
556,556,0,2046,3500
557,557,0,2046,3221
558,558,0,2046,2906
559,559,0,2047,2563
560,560,0,2046,2205
561,561,0,2046,1842
562,562,0,2046,1485
563,563,0,2046,1145
564,564,0,2047,832
565,565,0,2046,556
566,566,0,2046,327
567,567,0,2046,149
568,568,0,2046,30
569,569,0,2046,0
570,570,0,2046,0
571,571,0,2046,50
572,572,0,2046,182
573,573,0,2046,371
574,574,0,2047,612
575,575,0,2046,896
576,576,0,2046,1217
577,577,0,2046,1562
578,578,0,2046,1923
579,579,0,2046,2287
580,580,0,2046,2643
581,581,0,2046,2981
582,582,0,2046,3290
583,583,0,2047,3559
584,584,0,2047,3782
585,585,0,2046,3951
586,586,0,2046,4060
587,587,0,2047,4095
588,588,0,2047,4091
589,589,0,2046,4010
590,590,0,2046,3870
591,591,0,2046,3672
592,592,0,2047,3425
593,593,0,2046,3134
594,594,0,2046,2810
595,595,0,2046,2462
596,596,0,2046,2102
597,597,0,2046,1739
598,598,0,2046,1386
599,599,0,2046,1052
600,600,0,2046,748
601,601,0,2047,486
602,602,0,2047,270
603,603,0,2047,108
604,604,0,2046,7
605,605,0,2047,0
606,606,0,2047,0
607,607,0,2046,81
608,608,0,2046,230
609,609,0,2047,435
610,610,0,2046,689
611,611,0,2047,985
612,612,0,2046,1313
613,613,0,2046,1664
614,614,0,2046,2027
615,615,0,2046,2390
616,616,0,2047,2742
617,617,0,2046,3072
618,618,0,2046,3371
619,619,0,2047,3628
620,620,0,2046,3836
621,621,0,2047,3988
622,622,0,2046,4080
623,623,0,2046,4095
624,624,0,2046,4074
625,625,0,2047,3976
626,626,0,2047,3819
627,627,0,2047,3606
628,628,0,2046,3345
629,629,0,2047,3045
630,630,0,2046,2713
631,631,0,2047,2360
632,632,0,2046,1997
633,633,0,2046,1637
634,634,0,2046,1288
635,635,0,2047,962
636,636,0,2047,670
637,637,0,2046,419
638,638,0,2046,218
639,639,0,2046,74
640,640,0,2046,0
641,641,0,2047,0
642,642,0,2047,12
643,643,0,2046,118
644,644,0,2047,283
645,645,0,2046,503
646,646,0,2047,769
647,647,0,2046,1075
648,648,0,2047,1412
649,649,0,2047,1768
650,650,0,2047,2130
651,651,0,2047,2491
652,652,0,2046,2839
653,653,0,2047,3161
654,654,0,2047,3449
655,655,0,2047,3693
656,656,0,2047,3885
657,657,0,2046,4020
658,658,0,2047,4095
659,659,0,2046,4095
660,660,0,2047,4053
661,661,0,2047,3937
662,662,0,2046,3763
663,663,0,2046,3536
664,664,0,2046,3263
665,665,0,2046,2953
666,666,0,2047,2613
667,667,0,2046,2257
668,668,0,2047,1894
669,669,0,2046,1535
670,670,0,2046,1191
671,671,0,2047,874
672,672,0,2046,593
673,673,0,2046,356
674,674,0,2046,171
675,675,0,2046,43
676,676,0,2046,0
677,677,0,2047,0
678,678,0,2046,36
679,679,0,2047,159
680,680,0,2046,341
681,681,0,2047,574
682,682,0,2047,853
683,683,0,2046,1169
684,684,0,2046,1512
685,685,0,2046,1871
686,686,0,2047,2235
687,687,0,2046,2593
688,688,0,2046,2934
689,689,0,2046,3248
690,690,0,2046,3523
691,691,0,2046,3753
692,692,0,2047,3930
693,693,0,2047,4048
694,694,0,2047,4095
695,695,0,2047,4095
696,696,0,2047,4025
697,697,0,2046,3894
698,698,0,2047,3704
699,699,0,2046,3462
700,700,0,2047,3178
701,701,0,2047,2858
702,702,0,2046,2514
703,703,0,2046,2153
704,704,0,2046,1790
705,705,0,2047,1435
706,706,0,2046,1098
707,707,0,2047,791
708,708,0,2046,520
709,709,0,2046,298
710,710,0,2047,128
711,711,0,2047,18
712,712,0,2046,0
713,713,0,2046,0
714,714,0,2046,65
715,715,0,2046,205
716,716,0,2047,402
717,717,0,2047,650
718,718,0,2046,941
719,719,0,2047,1265
720,720,0,2047,1613
721,721,0,2046,1975
722,722,0,2047,2338
723,723,0,2046,2693
724,724,0,2046,3027
725,725,0,2047,3331
726,726,0,2046,3594
727,727,0,2046,3809
728,728,0,2047,3971
729,729,0,2046,4071
730,730,0,2047,4095
731,731,0,2046,4083
732,732,0,2047,3994
733,733,0,2046,3845
734,734,0,2046,3640
735,735,0,2047,3385
736,736,0,2047,3090
737,737,0,2046,2762
738,738,0,2046,2411
739,739,0,2046,2049
740,740,0,2046,1688
741,741,0,2047,1337
742,742,0,2046,1006
743,743,0,2047,709
744,744,0,2047,452
745,745,0,2046,243
746,746,0,2047,90
747,747,0,2046,0
748,748,0,2046,0
749,749,0,2046,2
750,750,0,2046,98
751,751,0,2047,256
752,752,0,2046,468
753,753,0,2046,728
754,754,0,2046,1030
755,755,0,2046,1362
756,756,0,2047,1716
757,757,0,2046,2079
758,758,0,2046,2440
759,759,0,2046,2791
760,760,0,2046,3117
761,761,0,2046,3410
762,762,0,2046,3660
763,763,0,2046,3861
764,764,0,2046,4005
765,765,0,2046,4089
766,766,0,2046,4095
767,767,0,2047,4064
768,768,0,2046,3958
769,769,0,2046,3791
770,770,0,2046,3572
771,771,0,2046,3305
772,772,0,2047,2999
773,773,0,2046,2664
774,774,0,2047,2309
775,775,0,2046,1946
776,776,0,2046,1586
777,777,0,2046,1239
778,778,0,2047,918
779,779,0,2046,632
780,780,0,2047,387
781,781,0,2046,194
782,782,0,2047,58
783,783,0,2046,0
784,784,0,2046,0
785,785,0,2047,23
786,786,0,2046,138
787,787,0,2047,311
788,788,0,2047,538
789,789,0,2046,810
790,790,0,2047,1121
791,791,0,2047,1462
792,792,0,2047,1819
793,793,0,2047,2183
794,794,0,2046,2543
795,795,0,2047,2887
796,796,0,2045,3204
797,797,0,2047,3486
798,798,0,2046,3723
799,799,0,2046,3908
800,800,0,2046,4035
801,801,0,2047,4095
802,802,0,2047,4095
803,803,0,2046,4039
804,804,0,2047,3916
805,805,0,2046,3734
806,806,0,2046,3500
807,807,0,2047,3221
808,808,0,2046,2906
809,809,0,2047,2563
810,810,0,2046,2206
811,811,0,2046,1842
812,812,0,2047,1484
813,813,0,2046,1145
814,814,0,2046,832
815,815,0,2046,556
816,816,0,2046,326
817,817,0,2046,149
818,818,0,2047,30
819,819,0,2047,0
820,820,0,2046,0
821,821,0,2047,50
822,822,0,2046,182
823,823,0,2047,371
824,824,0,2046,611
825,825,0,2046,897
826,826,0,2046,1217
827,827,0,2046,1562
828,828,0,2046,1923
829,829,0,2046,2287
830,830,0,2046,2643
831,831,0,2047,2981
832,832,0,2046,3289
833,833,0,2046,3558
834,834,0,2046,3782
835,835,0,2047,3951
836,836,0,2046,4060
837,837,0,2047,4095
838,838,0,2046,4091
839,839,0,2046,4011
840,840,0,2046,3870
841,841,0,2046,3672
842,842,0,2046,3424
843,843,0,2046,3134
844,844,0,2047,2810
845,845,0,2047,2463
846,846,0,2047,2101
847,847,0,2047,1739
848,848,0,2047,1386
849,849,0,2046,1052
850,850,0,2046,749
851,851,0,2047,486
852,852,0,2046,270
853,853,0,2046,109
854,854,0,2046,8
855,855,0,2046,0
856,856,0,2046,0
857,857,0,2046,82
858,858,0,2046,230
859,859,0,2046,435
860,860,0,2047,689
861,861,0,2047,984
862,862,0,2047,1313
863,863,0,2047,1663
864,864,0,2046,2027
865,865,0,2046,2390
866,866,0,2047,2741
867,867,0,2046,3072
868,868,0,2046,3371
869,869,0,2046,3628
870,870,0,2047,3835
871,871,0,2046,3988
872,872,0,2047,4080
873,873,0,2046,4095
874,874,0,2046,4074
875,875,0,2047,3977
876,876,0,2046,3818
877,877,0,2047,3606
878,878,0,2046,3346
879,879,0,2047,3045
880,880,0,2046,2712
881,881,0,2047,2360
882,882,0,2046,1998
883,883,0,2046,1636
884,884,0,2047,1287
885,885,0,2047,962
886,886,0,2046,669
887,887,0,2046,419
888,888,0,2047,218
889,889,0,2046,73
890,890,0,2046,0
891,891,0,2047,0
892,892,0,2046,12
893,893,0,2046,117
894,894,0,2046,283
895,895,0,2046,502
896,896,0,2047,769
897,897,0,2046,1075
898,898,0,2047,1412
899,899,0,2046,1767
900,900,0,2046,2131
901,901,0,2047,2492
902,902,0,2046,2839
903,903,0,2046,3161
904,904,0,2047,3449
905,905,0,2047,3692
906,906,0,2047,3885
907,907,0,2046,4021
908,908,0,2046,4095
909,909,0,2046,4095
910,910,0,2047,4052
911,911,0,2047,3937
912,912,0,2046,3763
913,913,0,2046,3536
914,914,0,2046,3264
915,915,0,2047,2953
916,916,0,2046,2614
917,917,0,2046,2257
918,918,0,2046,1894
919,919,0,2046,1535
920,920,0,2046,1191
921,921,0,2046,875
922,922,0,2046,593
923,923,0,2047,355
924,924,0,2047,171
925,925,0,2046,43
926,926,0,2047,0
927,927,0,2047,0
928,928,0,2047,36
929,929,0,2046,159
930,930,0,2047,340
931,931,0,2047,574
932,932,0,2046,853
933,933,0,2047,1169
934,934,0,2047,1511
935,935,0,2046,1871
936,936,0,2046,2235
937,937,0,2047,2593
938,938,0,2046,2934
939,939,0,2046,3248
940,940,0,2047,3523
941,941,0,2047,3753
942,942,0,2046,3930
943,943,0,2046,4049
944,944,0,2046,4095
945,945,0,2047,4095
946,946,0,2047,4025
947,947,0,2046,3893
948,948,0,2046,3704
949,949,0,2046,3463
950,950,0,2046,3178
951,951,0,2047,2859
952,952,0,2046,2513
953,953,0,2047,2153
954,954,0,2047,1791
955,955,0,2046,1436
956,956,0,2046,1099
957,957,0,2047,790
958,958,0,2046,522
959,959,0,2046,298
960,960,0,2046,129
961,961,0,2046,18
962,962,0,2046,0
963,963,0,2046,0
964,964,0,2046,65
965,965,0,2046,205
966,966,0,2046,402
967,967,0,2047,650
968,968,0,2046,940
969,969,0,2046,1264
970,970,0,2046,1613
971,971,0,2047,1974
972,972,0,2046,2338
973,973,0,2046,2693
974,974,0,2046,3027
975,975,0,2046,3330
976,976,0,2046,3594
977,977,0,2047,3809
978,978,0,2047,3971
979,979,0,2046,4071
980,980,0,2047,4095
981,981,0,2047,4084
982,982,0,2046,3994
983,983,0,2046,3844
984,984,0,2046,3640
985,985,0,2046,3386
986,986,0,2046,3090
987,987,0,2046,2762
988,988,0,2047,2412
989,989,0,2046,2050
990,990,0,2046,1688
991,991,0,2046,1337
992,992,0,2046,1007
993,993,0,2047,709
994,994,0,2046,452
995,995,0,2047,244
996,996,0,2046,91
997,997,0,2047,0
998,998,0,2046,0
999,999,0,2046,1
1000,1000,0,2046,99
1001,1001,0,2047,256
1002,1002,0,2047,468
1003,1003,0,2047,728
1004,1004,0,2046,1030
1005,1005,0,2046,1362
1006,1006,0,2046,1715
1007,1007,0,2047,2078
1008,1008,0,2047,2441
1009,1009,0,2047,2790
1010,1010,0,2046,3117
1011,1011,0,2047,3410
1012,1012,0,2047,3660
1013,1013,0,2047,3861
1014,1014,0,2047,4005
1015,1015,0,2046,4088
1016,1016,0,2047,4095
1017,1017,0,2046,4064
1018,1018,0,2046,3958
1019,1019,0,2047,3792
1020,1020,0,2047,3572
1021,1021,0,2046,3305
1022,1022,0,2046,2999
1023,1023,0,2046,2664
1024,1024,0,2046,2309
1025,1025,0,2047,1946
1026,1026,0,2046,1586
1027,1027,0,2046,1240
1028,1028,0,2046,918
