Sample in Buffer,Sample in Window,TRIGGER,adc1_data_a_d0[11:0],adc1_data_b_d0[11:0]
0,0,0,2046,614
1,1,0,2046,222
2,2,0,2047,0
3,3,0,2047,0
4,4,0,2046,125
5,5,0,2047,464
6,6,0,2046,947
7,7,0,2046,1532
8,8,0,2046,2165
9,9,0,2046,2785
10,10,0,2046,3337
11,11,0,2046,3767
12,12,0,2046,4037
13,13,0,2046,4095
14,14,0,2047,4011
15,15,0,2046,3717
16,16,0,2046,3267
17,17,0,2046,2705
18,18,0,2047,2079
19,19,0,2046,1449
20,20,0,2047,875
21,21,0,2047,408
22,22,0,2046,95
23,23,0,2046,0
24,24,0,2046,18
25,25,0,2046,265
26,26,0,2046,677
27,27,0,2046,1215
28,28,0,2047,1830
29,29,0,2047,2465
30,30,0,2046,3059
31,31,0,2046,3558
32,32,0,2046,3917
33,33,0,2046,4095
34,34,0,2047,4093
35,35,0,2046,3894
36,36,0,2046,3522
37,37,0,2047,3012
38,38,0,2046,2412
39,39,0,2047,1777
40,40,0,2047,1167
41,41,0,2046,637
42,42,0,2047,238
43,43,0,2045,6
44,44,0,2046,0
45,45,0,2047,114
46,46,0,2047,443
47,47,0,2047,920
48,48,0,2047,1501
49,49,0,2047,2132
50,50,0,2047,2755
51,51,0,2047,3311
52,52,0,2046,3748
53,53,0,2047,4028
54,54,0,2046,4095
55,55,0,2046,4021
56,56,0,2047,3737
57,57,0,2047,3295
58,58,0,2046,2736
59,59,0,2047,2112
60,60,0,2046,1480
61,61,0,2047,903
62,62,0,2047,429
63,63,0,2046,105
64,64,0,2046,0
65,65,0,2047,11
66,66,0,2046,248
67,67,0,2046,652
68,68,0,2047,1186
69,69,0,2046,1798
70,70,0,2046,2433
71,71,0,2046,3031
72,72,0,2046,3536
73,73,0,2046,3903
74,74,0,2046,4095
75,75,0,2047,4095
76,76,0,2046,3909
77,77,0,2046,3544
78,78,0,2047,3041
79,79,0,2046,2444
80,80,0,2046,1809
81,81,0,2046,1196
82,82,0,2046,662
83,83,0,2046,255
84,84,0,2047,13
85,85,0,2046,0
86,86,0,2047,101
87,87,0,2046,421
88,88,0,2047,892
89,89,0,2047,1470
90,90,0,2046,2100
91,91,0,2046,2724
92,92,0,2046,3285
93,93,0,2047,3730
94,94,0,2046,4018
95,95,0,2046,4095
96,96,0,2046,4030
97,97,0,2046,3755
98,98,0,2047,3321
99,99,0,2047,2765
100,100,0,2046,2144
101,101,0,2047,1512
102,102,0,2046,930
103,103,0,2046,450
104,104,0,2046,118
105,105,0,2047,0
106,106,0,2046,3
107,107,0,2046,232
108,108,0,2046,629
109,109,0,2047,1156
110,110,0,2046,1766
111,111,0,2047,2401
112,112,0,2046,3002
113,113,0,2046,3514
114,114,0,2046,3889
115,115,0,2046,4091
116,116,0,2046,4095
117,117,0,2046,3922
118,118,0,2046,3567
119,119,0,2046,3069
120,120,0,2047,2476
121,121,0,2047,1843
122,122,0,2046,1227
123,123,0,2047,685
124,124,0,2046,271
125,125,0,2047,21
126,126,0,2046,0
127,127,0,2046,89
128,128,0,2046,401
129,129,0,2047,865
130,130,0,2047,1438
131,131,0,2046,2067
132,132,0,2046,2694
133,133,0,2046,3259
134,134,0,2046,3711
135,135,0,2046,4007
136,136,0,2046,4095
137,137,0,2046,4039
138,138,0,2046,3774
139,139,0,2047,3345
140,140,0,2047,2795
141,141,0,2046,2177
142,142,0,2046,1544
143,143,0,2046,958
144,144,0,2046,472
145,145,0,2046,130
146,146,0,2046,0
147,147,0,2047,0
148,148,0,2046,215
149,149,0,2047,605
150,150,0,2046,1127
151,151,0,2047,1734
152,152,0,2047,2369
153,153,0,2047,2972
154,154,0,2046,3491
155,155,0,2046,3874
156,156,0,2047,4085
157,157,0,2046,4095
158,158,0,2046,3936
159,159,0,2047,3588
160,160,0,2045,3097
161,161,0,2046,2508
162,162,0,2046,1874
163,163,0,2046,1256
164,164,0,2046,710
165,165,0,2047,289
166,166,0,2047,29
167,167,0,2046,0
168,168,0,2047,78
169,169,0,2047,381
170,170,0,2047,839
171,171,0,2046,1407
172,172,0,2046,2035
173,173,0,2046,2662
174,174,0,2046,3232
175,175,0,2046,3692
176,176,0,2046,3997
177,177,0,2046,4095
178,178,0,2046,4048
179,179,0,2047,3792
180,180,0,2046,3370
181,181,0,2046,2826
182,182,0,2046,2209
183,183,0,2047,1576
184,184,0,2047,985
185,185,0,2046,493
186,186,0,2047,143
187,187,0,2046,0
188,188,0,2046,0
189,189,0,2046,200
190,190,0,2046,581
191,191,0,2047,1097
192,192,0,2046,1701
193,193,0,2047,2336
194,194,0,2046,2943
195,195,0,2046,3467
196,196,0,2046,3857
197,197,0,2047,4079
198,198,0,2047,4095
199,199,0,2046,3949
200,200,0,2046,3610
201,201,0,2046,3125
202,202,0,2046,2540
203,203,0,2046,1907
204,204,0,2046,1287
205,205,0,2046,736
206,206,0,2046,307
207,207,0,2047,38
208,208,0,2046,0
209,209,0,2046,67
210,210,0,2046,362
211,211,0,2046,812
212,212,0,2046,1376
213,213,0,2047,2002
214,214,0,2046,2632
215,215,0,2046,3206
216,216,0,2046,3671
217,217,0,2046,3985
218,218,0,2046,4095
219,219,0,2047,4058
220,220,0,2046,3809
221,221,0,2046,3396
222,222,0,2046,2857
223,223,0,2046,2242
224,224,0,2046,1607
225,225,0,2046,1014
226,226,0,2046,514
227,227,0,2046,158
228,228,0,2046,0
229,229,0,2046,0
230,230,0,2047,185
231,231,0,2047,559
232,232,0,2046,1069
233,233,0,2047,1669
234,234,0,2047,2304
235,235,0,2047,2914
236,236,0,2046,3444
237,237,0,2046,3841
238,238,0,2046,4072
239,239,0,2047,4095
240,240,0,2046,3962
241,241,0,2046,3631
242,242,0,2045,3153
243,243,0,2046,2571
244,244,0,2046,1940
245,245,0,2045,1318
246,246,0,2046,761
247,247,0,2046,326
248,248,0,2047,47
249,249,0,2046,0
250,250,0,2046,57
251,251,0,2046,342
252,252,0,2046,786
253,253,0,2047,1346
254,254,0,2047,1970
255,255,0,2046,2601
256,256,0,2046,3178
257,257,0,2047,3651
258,258,0,2046,3974
259,259,0,2046,4095
260,260,0,2047,4065
261,261,0,2047,3826
262,262,0,2046,3420
263,263,0,2047,2886
264,264,0,2046,2273
265,265,0,2046,1639
266,266,0,2047,1042
267,267,0,2046,536
268,268,0,2046,172
269,269,0,2047,0
270,270,0,2046,0
271,271,0,2046,170
272,272,0,2046,536
273,273,0,2047,1039
274,274,0,2046,1637
275,275,0,2046,2271
276,276,0,2046,2885
277,277,0,2046,3420
278,278,0,2046,3825
279,279,0,2046,4065
280,280,0,2046,4095
281,281,0,2046,3974
282,282,0,2046,3652
283,283,0,2046,3180
284,284,0,2047,2602
285,285,0,2046,1972
286,286,0,2047,1348
287,287,0,2047,788
288,288,0,2046,343
289,289,0,2046,57
290,290,0,2046,0
291,291,0,2046,47
292,292,0,2047,324
293,293,0,2047,760
294,294,0,2047,1315
295,295,0,2046,1937
296,296,0,2046,2569
297,297,0,2046,3152
298,298,0,2047,3630
299,299,0,2047,3961
300,300,0,2047,4095
301,301,0,2047,4073
302,302,0,2046,3842
303,303,0,2047,3444
304,304,0,2046,2916
305,305,0,2047,2306
306,306,0,2047,1671
307,307,0,2047,1071
308,308,0,2047,560
309,309,0,2046,186
310,310,0,2046,0
311,311,0,2047,0
312,312,0,2047,156
313,313,0,2046,513
314,314,0,2046,1012
315,315,0,2046,1606
316,316,0,2047,2239
317,317,0,2047,2855
318,318,0,2046,3395
319,319,0,2046,3808
320,320,0,2045,4057
321,321,0,2046,4095
322,322,0,2046,3986
323,323,0,2046,3672
324,324,0,2046,3207
325,325,0,2047,2634
326,326,0,2046,2005
327,327,0,2046,1379
328,328,0,2046,814
329,329,0,2046,363
330,330,0,2046,68
331,331,0,2046,0
332,332,0,2046,38
333,333,0,2047,306
334,334,0,2046,734
335,335,0,2046,1284
336,336,0,2047,1905
337,337,0,2046,2538
338,338,0,2046,3124
339,339,0,2046,3609
340,340,0,2046,3949
341,341,0,2046,4095
342,342,0,2047,4079
343,343,0,2046,3858
344,344,0,2047,3468
345,345,0,2046,2945
346,346,0,2046,2338
347,347,0,2047,1703
348,348,0,2046,1100
349,349,0,2047,583
350,350,0,2046,201
351,351,0,2046,0
352,352,0,2046,0
353,353,0,2046,142
354,354,0,2047,491
355,355,0,2047,983
356,356,0,2047,1574
357,357,0,2046,2207
358,358,0,2047,2825
359,359,0,2046,3370
360,360,0,2046,3791
361,361,0,2047,4049
362,362,0,2047,4095
363,363,0,2047,3998
364,364,0,2046,3692
365,365,0,2047,3234
366,366,0,2046,2665
367,367,0,2046,2037
368,368,0,2046,1409
369,369,0,2047,840
370,370,0,2046,382
371,371,0,2046,79
372,372,0,2046,0
373,373,0,2046,29
374,374,0,2046,288
375,375,0,2046,709
376,376,0,2046,1253
377,377,0,2046,1873
378,378,0,2046,2506
379,379,0,2046,3096
380,380,0,2046,3587
381,381,0,2046,3936
382,382,0,2046,4095
383,383,0,2046,4086
384,384,0,2046,3875
385,385,0,2046,3492
386,386,0,2046,2975
387,387,0,2046,2371
388,388,0,2047,1735
389,389,0,2046,1129
390,390,0,2046,607
391,391,0,2046,218
392,392,0,2046,0
393,393,0,2047,0
394,394,0,2046,130
395,395,0,2046,469
396,396,0,2046,955
397,397,0,2046,1542
398,398,0,2047,2174
399,399,0,2046,2794
400,400,0,2046,3345
401,401,0,2046,3772
402,402,0,2046,4040
403,403,0,2046,4095
404,404,0,2046,4008
405,405,0,2047,3712
406,406,0,2046,3260
407,407,0,2046,2696
408,408,0,2047,2069
409,409,0,2046,1441
410,410,0,2046,867
411,411,0,2046,402
412,412,0,2046,90
413,413,0,2046,0
414,414,0,2047,21
415,415,0,2046,270
416,416,0,2046,685
417,417,0,2047,1225
418,418,0,2047,1840
419,419,0,2046,2474
420,420,0,2047,3068
421,421,0,2046,3565
422,422,0,2047,3922
423,423,0,2046,4095
424,424,0,2046,4091
425,425,0,2046,3890
426,426,0,2047,3515
427,427,0,2047,3003
428,428,0,2047,2403
429,429,0,2046,1767
430,430,0,2047,1159
431,431,0,2046,630
432,432,0,2046,234
433,433,0,2047,4
434,434,0,2047,0
435,435,0,2047,117
436,436,0,2046,449
437,437,0,2046,928
438,438,0,2047,1510
439,439,0,2047,2142
440,440,0,2047,2764
441,441,0,2047,3319
442,442,0,2047,3755
443,443,0,2047,4031
444,444,0,2047,4095
445,445,0,2047,4018
446,446,0,2047,3731
447,447,0,2046,3287
448,448,0,2047,2726
449,449,0,2046,2102
450,450,0,2047,1472
451,451,0,2047,894
452,452,0,2046,423
453,453,0,2047,102
454,454,0,2046,0
455,455,0,2047,13
456,456,0,2046,253
457,457,0,2047,660
458,458,0,2047,1195
459,459,0,2046,1807
460,460,0,2047,2442
461,461,0,2046,3039
462,462,0,2047,3544
463,463,0,2046,3908
464,464,0,2046,4095
465,465,0,2046,4095
466,466,0,2047,3904
467,467,0,2046,3538
468,468,0,2046,3032
469,469,0,2046,2434
470,470,0,2046,1799
471,471,0,2046,1187
472,472,0,2046,654
473,473,0,2046,249
474,474,0,2046,11
475,475,0,2046,0
476,476,0,2047,104
477,477,0,2046,428
478,478,0,2046,901
479,479,0,2046,1479
480,480,0,2047,2109
481,481,0,2046,2734
482,482,0,2047,3294
483,483,0,2047,3736
484,484,0,2047,4021
485,485,0,2046,4095
486,486,0,2046,4029
487,487,0,2046,3751
488,488,0,2046,3312
489,489,0,2047,2756
490,490,0,2046,2134
491,491,0,2047,1503
492,492,0,2046,922
493,493,0,2046,444
494,494,0,2046,114
495,495,0,2046,0
496,496,0,2046,5
497,497,0,2046,237
498,498,0,2046,636
499,499,0,2046,1165
500,500,0,2046,1776
501,501,0,2046,2411
502,502,0,2047,3011
503,503,0,2047,3521
504,504,0,2046,3893
505,505,0,2047,4093
506,506,0,2046,4095
507,507,0,2046,3919
508,508,0,2047,3561
509,509,0,2046,3060
510,510,0,2047,2466
511,511,0,2046,1832
512,512,0,2046,1216
513,513,0,2046,678
514,514,0,2046,266
515,515,0,2046,19
516,516,0,2047,0
517,517,0,2046,92
518,518,0,2046,407
519,519,0,2047,873
520,520,0,2047,1448
521,521,0,2047,2077
522,522,0,2046,2703
523,523,0,2047,3267
524,524,0,2047,3717
525,525,0,2046,4011
526,526,0,2047,4095
527,527,0,2046,4037
528,528,0,2045,3769
529,529,0,2046,3338
530,530,0,2047,2787
531,531,0,2047,2167
532,532,0,2046,1534
533,533,0,2046,949
534,534,0,2047,464
535,535,0,2046,126
536,536,0,2046,0
537,537,0,2047,0
538,538,0,2046,220
539,539,0,2046,612
540,540,0,2046,1135
541,541,0,2046,1743
542,542,0,2047,2378
543,543,0,2046,2982
544,544,0,2046,3498
545,545,0,2046,3879
546,546,0,2046,4087
547,547,0,2046,4095
548,548,0,2046,3933
549,549,0,2046,3582
550,550,0,2046,3089
551,551,0,2047,2498
552,552,0,2046,1865
553,553,0,2046,1247
554,554,0,2047,703
555,555,0,2046,284
556,556,0,2046,27
557,557,0,2046,0
558,558,0,2046,81
559,559,0,2047,387
560,560,0,2047,846
561,561,0,2047,1416
562,562,0,2047,2045
563,563,0,2047,2672
564,564,0,2046,3240
565,565,0,2046,3698
566,566,0,2046,4000
567,567,0,2046,4095
568,568,0,2046,4047
569,569,0,2046,3787
570,570,0,2046,3364
571,571,0,2047,2817
572,572,0,2046,2199
573,573,0,2046,1566
574,574,0,2046,977
575,575,0,2047,486
576,576,0,2046,140
577,577,0,2046,0
578,578,0,2046,0
579,579,0,2046,205
580,580,0,2046,588
581,581,0,2046,1106
582,582,0,2046,1711
583,583,0,2046,2346
584,584,0,2047,2953
585,585,0,2046,3474
586,586,0,2047,3863
587,587,0,2046,4081
588,588,0,2046,4095
589,589,0,2046,3946
590,590,0,2046,3604
591,591,0,2046,3117
592,592,0,2046,2529
593,593,0,2046,1897
594,594,0,2047,1276
595,595,0,2046,729
596,596,0,2046,302
597,597,0,2046,36
598,598,0,2047,0
599,599,0,2047,71
600,600,0,2046,368
601,601,0,2046,820
602,602,0,2047,1386
603,603,0,2046,2012
604,604,0,2046,2641
605,605,0,2046,3213
606,606,0,2046,3678
607,607,0,2046,3989
608,608,0,2046,4095
609,609,0,2046,4055
610,610,0,2047,3804
611,611,0,2046,3389
612,612,0,2046,2847
613,613,0,2046,2232
614,614,0,2047,1598
615,615,0,2047,1004
616,616,0,2046,508
617,617,0,2046,154
618,618,0,2047,0
619,619,0,2047,0
620,620,0,2046,189
621,621,0,2047,565
622,622,0,2046,1077
623,623,0,2046,1679
624,624,0,2046,2314
625,625,0,2046,2923
626,626,0,2047,3450
627,627,0,2046,3847
628,628,0,2047,4074
629,629,0,2047,4095
630,630,0,2047,3958
631,631,0,2047,3625
632,632,0,2047,3144
633,633,0,2046,2561
634,634,0,2046,1929
635,635,0,2046,1307
636,636,0,2047,753
637,637,0,2046,320
638,638,0,2046,44
639,639,0,2047,0
640,640,0,2047,60
641,641,0,2046,348
642,642,0,2046,793
643,643,0,2047,1354
644,644,0,2047,1979
645,645,0,2046,2609
646,646,0,2046,3187
647,647,0,2046,3657
648,648,0,2046,3978
649,649,0,2047,4095
650,650,0,2047,4063
651,651,0,2047,3821
652,652,0,2046,3413
653,653,0,2046,2877
654,654,0,2047,2264
655,655,0,2046,1630
656,656,0,2046,1033
657,657,0,2046,530
658,658,0,2046,167
659,659,0,2046,0
660,660,0,2046,0
661,661,0,2046,174
662,662,0,2046,543
663,663,0,2046,1049
664,664,0,2046,1647
665,665,0,2046,2281
666,666,0,2046,2893
667,667,0,2046,3427
668,668,0,2046,3830
669,669,0,2046,4067
670,670,0,2047,4095
671,671,0,2045,3971
672,672,0,2046,3645
673,673,0,2046,3172
674,674,0,2046,2593
675,675,0,2046,1962
676,676,0,2047,1338
677,677,0,2046,780
678,678,0,2046,338
679,679,0,2047,55
680,680,0,2046,0
681,681,0,2046,50
682,682,0,2046,329
683,683,0,2046,768
684,684,0,2046,1324
685,685,0,2047,1948
686,686,0,2046,2578
687,687,0,2046,3160
688,688,0,2047,3637
689,689,0,2046,3965
690,690,0,2046,4095
691,691,0,2046,4070
692,692,0,2046,3838
693,693,0,2046,3437
694,694,0,2046,2907
695,695,0,2046,2296
696,696,0,2046,1662
697,697,0,2046,1062
698,698,0,2046,553
699,699,0,2046,182
700,700,0,2046,0
701,701,0,2046,0
702,702,0,2046,160
703,703,0,2046,520
704,704,0,2046,1020
705,705,0,2047,1615
706,706,0,2046,2249
707,707,0,2046,2863
708,708,0,2046,3402
709,709,0,2046,3813
710,710,0,2046,4059
711,711,0,2046,4095
712,712,0,2046,3983
713,713,0,2046,3666
714,714,0,2046,3200
715,715,0,2046,2624
716,716,0,2046,1994
717,717,0,2047,1369
718,718,0,2046,806
719,719,0,2046,357
720,720,0,2046,65
721,721,0,2046,0
722,722,0,2046,39
723,723,0,2047,311
724,724,0,2047,742
725,725,0,2047,1294
726,726,0,2046,1914
727,727,0,2046,2547
728,728,0,2046,3131
729,729,0,2046,3615
730,730,0,2047,3952
731,731,0,2046,4095
732,732,0,2046,4078
733,733,0,2047,3854
734,734,0,2046,3461
735,735,0,2046,2936
736,736,0,2046,2329
737,737,0,2047,1694
738,738,0,2046,1091
739,739,0,2047,576
740,740,0,2047,197
741,741,0,2046,0
742,742,0,2047,0
743,743,0,2046,146
744,744,0,2046,498
745,745,0,2046,991
746,746,0,2046,1583
747,747,0,2046,2216
748,748,0,2046,2834
749,749,0,2046,3376
750,750,0,2046,3796
751,751,0,2046,4051
752,752,0,2046,4095
753,753,0,2046,3994
754,754,0,2046,3686
755,755,0,2046,3226
756,756,0,2046,2655
757,757,0,2047,2027
758,758,0,2047,1400
759,759,0,2046,832
760,760,0,2047,377
761,761,0,2046,75
762,762,0,2046,0
763,763,0,2046,32
764,764,0,2046,293
765,765,0,2046,716
766,766,0,2046,1263
767,767,0,2046,1881
768,768,0,2046,2515
769,769,0,2047,3104
770,770,0,2046,3594
771,771,0,2047,3939
772,772,0,2047,4095
773,773,0,2047,4084
774,774,0,2046,3870
775,775,0,2046,3485
776,776,0,2046,2966
777,777,0,2046,2362
778,778,0,2046,1726
779,779,0,2046,1120
780,780,0,2047,599
781,781,0,2046,213
782,782,0,2047,0
783,783,0,2046,0
784,784,0,2047,133
785,785,0,2046,476
786,786,0,2046,963
787,787,0,2046,1550
788,788,0,2046,2184
789,789,0,2047,2804
790,790,0,2047,3351
791,791,0,2047,3779
792,792,0,2047,4043
793,793,0,2047,4095
794,794,0,2046,4005
795,795,0,2046,3707
796,796,0,2047,3252
797,797,0,2047,2687
798,798,0,2045,2059
799,799,0,2047,1431
800,800,0,2046,859
801,801,0,2046,396
802,802,0,2046,87
803,803,0,2046,0
804,804,0,2047,23
805,805,0,2046,275
806,806,0,2046,691
807,807,0,2047,1233
808,808,0,2046,1849
809,809,0,2046,2483
810,810,0,2046,3076
811,811,0,2046,3572
812,812,0,2047,3926
813,813,0,2046,4095
814,814,0,2047,4089
815,815,0,2046,3885
816,816,0,2047,3508
817,817,0,2046,2995
818,818,0,2046,2393
819,819,0,2046,1758
820,820,0,2046,1149
821,821,0,2046,623
822,822,0,2046,229
823,823,0,2047,1
824,824,0,2046,0
825,825,0,2046,120
826,826,0,2047,455
827,827,0,2046,935
828,828,0,2047,1520
829,829,0,2047,2151
830,830,0,2047,2773
831,831,0,2046,3326
832,832,0,2046,3760
833,833,0,2046,4034
834,834,0,2046,4095
835,835,0,2046,4015
836,836,0,2046,3726
837,837,0,2046,3279
838,838,0,2046,2717
839,839,0,2046,2093
840,840,0,2047,1462
841,841,0,2046,886
842,842,0,2047,417
843,843,0,2046,98
844,844,0,2047,0
845,845,0,2047,15
846,846,0,2046,258
847,847,0,2047,667
848,848,0,2046,1203
849,849,0,2047,1817
850,850,0,2047,2451
851,851,0,2046,3048
852,852,0,2046,3549
853,853,0,2047,3912
854,854,0,2046,4095
855,855,0,2046,4095
856,856,0,2046,3900
857,857,0,2047,3530
858,858,0,2047,3024
859,859,0,2047,2425
860,860,0,2047,1791
861,861,0,2046,1179
862,862,0,2046,647
863,863,0,2046,245
864,864,0,2047,8
865,865,0,2046,0
866,866,0,2047,108
867,867,0,2046,433
868,868,0,2046,908
869,869,0,2046,1488
870,870,0,2047,2119
871,871,0,2046,2742
872,872,0,2047,3301
873,873,0,2046,3741
874,874,0,2046,4024
875,875,0,2046,4095
876,876,0,2046,4026
877,877,0,2046,3745
878,878,0,2045,3305
879,879,0,2046,2748
880,880,0,2047,2125
881,881,0,2046,1494
882,882,0,2046,914
883,883,0,2047,438
884,884,0,2046,110
885,885,0,2046,0
886,886,0,2046,7
887,887,0,2046,242
888,888,0,2046,643
889,889,0,2047,1173
890,890,0,2047,1785
891,891,0,2046,2419
892,892,0,2046,3019
893,893,0,2046,3527
894,894,0,2046,3897
895,895,0,2046,4094
896,896,0,2047,4095
897,897,0,2047,3914
898,898,0,2047,3554
899,899,0,2046,3053
900,900,0,2047,2457
901,901,0,2047,1823
902,902,0,2046,1209
903,903,0,2046,671
904,904,0,2047,261
905,905,0,2046,16
906,906,0,2046,0
907,907,0,2046,96
908,908,0,2047,413
909,909,0,2046,881
910,910,0,2046,1457
911,911,0,2046,2087
912,912,0,2047,2712
913,913,0,2047,3274
914,914,0,2046,3722
915,915,0,2046,4014
916,916,0,2047,4095
917,917,0,2047,4035
918,918,0,2046,3763
919,919,0,2047,3330
920,920,0,2046,2779
921,921,0,2046,2157
922,922,0,2046,1525
923,923,0,2046,941
924,924,0,2046,459
925,925,0,2046,122
926,926,0,2047,0
927,927,0,2047,1
928,928,0,2046,225
929,929,0,2047,618
930,930,0,2047,1144
931,931,0,2046,1752
932,932,0,2046,2388
933,933,0,2046,2990
934,934,0,2046,3504
935,935,0,2047,3882
936,936,0,2046,4089
937,937,0,2047,4095
938,938,0,2046,3928
939,939,0,2047,3576
940,940,0,2047,3080
941,941,0,2046,2489
942,942,0,2046,1855
943,943,0,2047,1238
944,944,0,2046,696
945,945,0,2046,279
946,946,0,2047,24
947,947,0,2045,0
948,948,0,2046,84
949,949,0,2046,393
950,950,0,2046,855
951,951,0,2046,1425
952,952,0,2046,2054
953,953,0,2047,2681
954,954,0,2046,3248
955,955,0,2047,3704
956,956,0,2046,4004
957,957,0,2046,4095
958,958,0,2047,4043
959,959,0,2046,3781
960,960,0,2047,3356
961,961,0,2046,2808
962,962,0,2046,2190
963,963,0,2046,1557
964,964,0,2046,969
965,965,0,2047,480
966,966,0,2046,136
967,967,0,2046,0
968,968,0,2046,0
969,969,0,2046,209
970,970,0,2047,595
971,971,0,2047,1114
972,972,0,2047,1720
973,973,0,2047,2355
974,974,0,2046,2961
975,975,0,2047,3481
976,976,0,2047,3867
977,977,0,2046,4083
978,978,0,2046,4095
979,979,0,2047,3942
980,980,0,2047,3597
981,981,0,2046,3109
982,982,0,2046,2520
983,983,0,2046,1888
984,984,0,2047,1268
985,985,0,2046,721
986,986,0,2047,296
987,987,0,2047,33
988,988,0,2046,0
989,989,0,2046,74
990,990,0,2047,374
991,991,0,2047,828
992,992,0,2047,1395
993,993,0,2046,2021
994,994,0,2046,2650
995,995,0,2046,3221
996,996,0,2047,3683
997,997,0,2047,3992
998,998,0,2046,4095
999,999,0,2046,4053
1000,1000,0,2047,3799
1001,1001,0,2046,3381
1002,1002,0,2047,2838
1003,1003,0,2046,2222
1004,1004,0,2047,1589
1005,1005,0,2045,996
1006,1006,0,2047,501
1007,1007,0,2046,149
1008,1008,0,2047,0
1009,1009,0,2047,0
1010,1010,0,2046,194
1011,1011,0,2046,572
1012,1012,0,2046,1085
1013,1013,0,2046,1688
1014,1014,0,2046,2323
1015,1015,0,2047,2932
1016,1016,0,2046,3458
1017,1017,0,2046,3851
1018,1018,0,2046,4076
1019,1019,0,2046,4095
1020,1020,0,2047,3954
1021,1021,0,2046,3619
1022,1022,0,2047,3136
1023,1023,0,2046,2552
1024,1024,0,2047,1920
1025,1025,0,2047,1299
1026,1026,0,2047,747
1027,1027,0,2046,314
1028,1028,0,2046,42
1029,1029,0,2047,0
1030,1030,0,2047,63
