Sample in Buffer,Sample in Window,TRIGGER,adc1_data_a_d0[11:0],adc1_data_b_d0[11:0]
0,0,0,2047,3906
1,1,0,2046,3752
2,2,0,2047,3562
3,3,0,2047,3338
4,4,0,2046,3084
5,5,0,2047,2808
6,6,0,2046,2515
7,7,0,2047,2210
8,8,0,2047,1902
9,9,0,2046,1597
10,10,0,2046,1301
11,11,0,2047,1021
12,12,0,2047,764
13,13,0,2046,535
14,14,0,2046,339
15,15,0,2047,181
16,16,0,2046,64
17,17,0,2046,0
18,18,0,2046,0
19,19,0,2047,0
20,20,0,2047,45
21,21,0,2047,153
22,22,0,2045,302
23,23,0,2047,490
24,24,0,2046,713
25,25,0,2047,965
26,26,0,2046,1240
27,27,0,2046,1533
28,28,0,2047,1836
29,29,0,2046,2144
30,30,0,2047,2451
31,31,0,2047,2747
32,32,0,2046,3028
33,33,0,2046,3287
34,34,0,2047,3518
35,35,0,2047,3715
36,36,0,2047,3877
37,37,0,2046,3998
38,38,0,2047,4076
39,39,0,2046,4095
40,40,0,2046,4095
41,41,0,2046,4038
42,42,0,2046,3936
43,43,0,2046,3791
44,44,0,2047,3609
45,45,0,2046,3392
46,46,0,2046,3145
47,47,0,2046,2873
48,48,0,2047,2583
49,49,0,2047,2281
50,50,0,2047,1973
51,51,0,2046,1666
52,52,0,2047,1368
53,53,0,2046,1083
54,54,0,2047,820
55,55,0,2046,585
56,56,0,2046,381
57,57,0,2046,213
58,58,0,2047,87
59,59,0,2046,3
60,60,0,2046,0
61,61,0,2046,0
62,62,0,2046,26
63,63,0,2047,124
64,64,0,2046,265
65,65,0,2047,444
66,66,0,2047,659
67,67,0,2046,905
68,68,0,2047,1174
69,69,0,2046,1464
70,70,0,2047,1766
71,71,0,2046,2074
72,72,0,2047,2381
73,73,0,2046,2680
74,74,0,2047,2964
75,75,0,2047,3229
76,76,0,2047,3467
77,77,0,2047,3674
78,78,0,2047,3844
79,79,0,2046,3974
80,80,0,2046,4062
81,81,0,2047,4095
82,82,0,2047,4095
83,83,0,2047,4054
84,84,0,2047,3962
85,85,0,2046,3828
86,86,0,2046,3654
87,87,0,2046,3445
88,88,0,2047,3204
89,89,0,2045,2937
90,90,0,2046,2651
91,91,0,2046,2351
92,92,0,2046,2044
93,93,0,2046,1736
94,94,0,2047,1436
95,95,0,2046,1148
96,96,0,2046,879
97,97,0,2046,636
98,98,0,2046,425
99,99,0,2047,249
100,100,0,2046,112
101,101,0,2047,18
102,102,0,2047,0
103,103,0,2046,0
104,104,0,2046,10
105,105,0,2047,98
106,106,0,2046,229
107,107,0,2046,400
108,108,0,2046,607
109,109,0,2046,845
110,110,0,2046,1111
111,111,0,2046,1396
112,112,0,2047,1696
113,113,0,2047,2002
114,114,0,2046,2311
115,115,0,2046,2612
116,116,0,2046,2901
117,117,0,2046,3170
118,118,0,2047,3415
119,119,0,2047,3629
120,120,0,2046,3808
121,121,0,2046,3948
122,122,0,2046,4045
123,123,0,2047,4095
124,124,0,2046,4095
125,125,0,2047,4069
126,126,0,2046,3988
127,127,0,2046,3862
128,128,0,2046,3697
129,129,0,2047,3495
130,130,0,2047,3262
131,131,0,2047,3001
132,132,0,2047,2719
133,133,0,2046,2421
134,134,0,2046,2114
135,135,0,2047,1807
136,136,0,2047,1503
137,137,0,2046,1212
138,138,0,2047,939
139,139,0,2046,689
140,140,0,2046,470
141,141,0,2046,286
142,142,0,2047,140
143,143,0,2046,36
144,144,0,2046,0
145,145,0,2046,0
146,146,0,2046,0
147,147,0,2046,73
148,148,0,2046,195
149,149,0,2046,357
150,150,0,2046,556
151,151,0,2046,788
152,152,0,2047,1047
153,153,0,2046,1329
154,154,0,2046,1626
155,155,0,2046,1931
156,156,0,2046,2241
157,157,0,2047,2543
158,158,0,2046,2835
159,159,0,2047,3111
160,160,0,2046,3361
161,161,0,2046,3583
162,162,0,2047,3770
163,163,0,2046,3920
164,164,0,2046,4027
165,165,0,2047,4091
166,166,0,2047,4095
167,167,0,2046,4082
168,168,0,2046,4011
169,169,0,2047,3895
170,170,0,2046,3738
171,171,0,2047,3545
172,172,0,2047,3319
173,173,0,2047,3063
174,174,0,2047,2785
175,175,0,2047,2490
176,176,0,2046,2186
177,177,0,2047,1877
178,178,0,2047,1573
179,179,0,2046,1278
180,180,0,2047,999
181,181,0,2046,744
182,182,0,2047,517
183,183,0,2046,325
184,184,0,2047,170
185,185,0,2045,57
186,186,0,2046,0
187,187,0,2046,0
188,188,0,2047,0
189,189,0,2047,51
190,190,0,2046,163
191,191,0,2047,316
192,192,0,2047,507
193,193,0,2047,732
194,194,0,2046,986
195,195,0,2047,1263
196,196,0,2047,1557
197,197,0,2047,1861
198,198,0,2046,2170
199,199,0,2047,2475
200,200,0,2046,2770
201,201,0,2046,3050
202,202,0,2047,3306
203,203,0,2046,3534
204,204,0,2047,3730
205,205,0,2046,3889
206,206,0,2046,4006
207,207,0,2047,4080
208,208,0,2046,4095
209,209,0,2047,4092
210,210,0,2046,4031
211,211,0,2046,3925
212,212,0,2046,3778
213,213,0,2047,3592
214,214,0,2046,3373
215,215,0,2047,3124
216,216,0,2046,2851
217,217,0,2046,2559
218,218,0,2046,2256
219,219,0,2046,1948
220,220,0,2047,1642
221,221,0,2047,1343
222,222,0,2046,1061
223,223,0,2047,801
224,224,0,2046,567
225,225,0,2046,366
226,226,0,2047,202
227,227,0,2046,78
228,228,0,2046,0
229,229,0,2047,0
230,230,0,2047,0
231,231,0,2047,31
232,232,0,2046,134
233,233,0,2047,277
234,234,0,2046,460
235,235,0,2046,677
236,236,0,2046,925
237,237,0,2046,1197
238,238,0,2047,1488
239,239,0,2046,1791
240,240,0,2047,2099
241,241,0,2047,2405
242,242,0,2047,2703
243,243,0,2046,2987
244,244,0,2047,3250
245,245,0,2047,3485
246,246,0,2047,3688
247,247,0,2047,3855
248,248,0,2046,3983
249,249,0,2045,4067
250,250,0,2046,4095
251,251,0,2047,4095
252,252,0,2046,4049
253,253,0,2046,3953
254,254,0,2046,3816
255,255,0,2046,3639
256,256,0,2047,3427
257,257,0,2046,3184
258,258,0,2046,2916
259,259,0,2047,2627
260,260,0,2046,2326
261,261,0,2047,2019
262,262,0,2046,1712
263,263,0,2047,1412
264,264,0,2047,1125
265,265,0,2047,859
266,266,0,2046,617
267,267,0,2046,409
268,268,0,2046,236
269,269,0,2047,103
270,270,0,2046,13
271,271,0,2046,0
272,272,0,2046,0
273,273,0,2047,16
274,274,0,2046,106
275,275,0,2047,241
276,276,0,2046,415
277,277,0,2046,625
278,278,0,2046,866
279,279,0,2047,1133
280,280,0,2047,1421
281,281,0,2047,1721
282,282,0,2046,2028
283,283,0,2047,2335
284,284,0,2047,2635
285,285,0,2046,2924
286,286,0,2046,3191
287,287,0,2047,3433
288,288,0,2046,3644
289,289,0,2046,3821
290,290,0,2046,3957
291,291,0,2047,4051
292,292,0,2046,4095
293,293,0,2047,4095
294,294,0,2046,4065
295,295,0,2046,3979
296,296,0,2046,3851
297,297,0,2046,3683
298,298,0,2046,3478
299,299,0,2046,3242
300,300,0,2047,2979
301,301,0,2047,2696
302,302,0,2046,2397
303,303,0,2047,2090
304,304,0,2047,1782
305,305,0,2047,1479
306,306,0,2047,1190
307,307,0,2047,918
308,308,0,2047,670
309,309,0,2047,454
310,310,0,2046,273
311,311,0,2047,130
312,312,0,2046,30
313,313,0,2047,0
314,314,0,2047,0
315,315,0,2046,0
316,316,0,2046,82
317,317,0,2046,206
318,318,0,2046,372
319,319,0,2047,574
320,320,0,2047,808
321,321,0,2047,1070
322,322,0,2047,1353
323,323,0,2047,1651
324,324,0,2046,1957
325,325,0,2046,2265
326,326,0,2046,2568
327,327,0,2047,2859
328,328,0,2047,3131
329,329,0,2047,3380
330,330,0,2047,3599
331,331,0,2047,3783
332,332,0,2046,3929
333,333,0,2046,4033
334,334,0,2046,4094
335,335,0,2046,4095
336,336,0,2047,4078
337,337,0,2047,4003
338,338,0,2047,3884
339,339,0,2047,3725
340,340,0,2046,3528
341,341,0,2046,3299
342,342,0,2047,3041
343,343,0,2046,2761
344,344,0,2046,2466
345,345,0,2047,2161
346,346,0,2047,1852
347,347,0,2046,1548
348,348,0,2046,1254
349,349,0,2046,978
350,350,0,2047,725
351,351,0,2047,500
352,352,0,2047,310
353,353,0,2046,158
354,354,0,2047,48
355,355,0,2046,0
356,356,0,2047,0
357,357,0,2047,0
358,358,0,2047,59
359,359,0,2046,174
360,360,0,2047,330
361,361,0,2047,524
362,362,0,2047,752
363,363,0,2046,1008
364,364,0,2047,1286
365,365,0,2046,1581
366,366,0,2046,1886
367,367,0,2046,2194
368,368,0,2047,2499
369,369,0,2046,2794
370,370,0,2046,3071
371,371,0,2046,3325
372,372,0,2047,3552
373,373,0,2046,3744
374,374,0,2047,3899
375,375,0,2047,4013
376,376,0,2047,4084
377,377,0,2047,4095
378,378,0,2046,4090
379,379,0,2046,4024
380,380,0,2047,3915
381,381,0,2047,3764
382,382,0,2046,3576
383,383,0,2047,3354
384,384,0,2046,3103
385,385,0,2046,2828
386,386,0,2047,2535
387,387,0,2047,2231
388,388,0,2047,1924
389,389,0,2046,1618
390,390,0,2046,1321
391,391,0,2047,1040
392,392,0,2046,782
393,393,0,2046,549
394,394,0,2047,352
395,395,0,2047,191
396,396,0,2046,71
397,397,0,2046,0
398,398,0,2046,0
399,399,0,2046,0
400,400,0,2046,39
401,401,0,2047,144
402,402,0,2047,291
403,403,0,2047,476
404,404,0,2046,697
405,405,0,2047,946
406,406,0,2046,1221
407,407,0,2046,1512
408,408,0,2047,1816
409,409,0,2047,2123
410,410,0,2047,2429
411,411,0,2046,2726
412,412,0,2046,3009
413,413,0,2046,3270
414,414,0,2047,3502
415,415,0,2046,3703
416,416,0,2047,3868
417,417,0,2046,3991
418,418,0,2046,4072
419,419,0,2047,4095
420,420,0,2047,4095
421,421,0,2047,4043
422,422,0,2046,3944
423,423,0,2046,3802
424,424,0,2047,3623
425,425,0,2047,3407
426,426,0,2047,3162
427,427,0,2047,2892
428,428,0,2046,2603
429,429,0,2047,2302
430,430,0,2046,1995
431,431,0,2047,1687
432,432,0,2046,1388
433,433,0,2047,1102
434,434,0,2047,838
435,435,0,2046,600
436,436,0,2047,394
437,437,0,2047,224
438,438,0,2046,94
439,439,0,2047,7
440,440,0,2047,0
441,441,0,2046,0
442,442,0,2047,21
443,443,0,2047,116
444,444,0,2046,253
445,445,0,2047,431
446,446,0,2046,643
447,447,0,2046,887
448,448,0,2046,1156
449,449,0,2047,1444
450,450,0,2047,1745
451,451,0,2047,2053
452,452,0,2047,2360
453,453,0,2047,2659
454,454,0,2047,2945
455,455,0,2046,3211
456,456,0,2046,3452
457,457,0,2046,3660
458,458,0,2047,3833
459,459,0,2047,3966
460,460,0,2046,4057
461,461,0,2047,4095
462,462,0,2046,4095
463,463,0,2046,4059
464,464,0,2046,3971
465,465,0,2046,3839
466,466,0,2047,3668
467,467,0,2046,3460
468,468,0,2047,3222
469,469,0,2046,2957
470,470,0,2046,2671
471,471,0,2046,2372
472,472,0,2046,2065
473,473,0,2046,1758
474,474,0,2046,1456
475,475,0,2047,1167
476,476,0,2047,897
477,477,0,2046,652
478,478,0,2046,438
479,479,0,2047,260
480,480,0,2047,120
481,481,0,2046,24
482,482,0,2046,0
483,483,0,2047,0
484,484,0,2047,6
485,485,0,2046,90
486,486,0,2046,219
487,487,0,2047,386
488,488,0,2047,591
489,489,0,2046,828
490,490,0,2046,1091
491,491,0,2046,1376
492,492,0,2047,1675
493,493,0,2046,1982
494,494,0,2046,2290
495,495,0,2046,2592
496,496,0,2046,2881
497,497,0,2047,3152
498,498,0,2047,3399
499,499,0,2047,3615
500,500,0,2046,3796
501,501,0,2047,3940
502,502,0,2046,4040
503,503,0,2046,4095
504,504,0,2047,4095
505,505,0,2047,4074
506,506,0,2047,3995
507,507,0,2046,3872
508,508,0,2046,3710
509,509,0,2047,3511
510,510,0,2047,3279
511,511,0,2047,3020
512,512,0,2047,2738
513,513,0,2047,2442
514,514,0,2046,2136
515,515,0,2047,1828
516,516,0,2047,1524
517,517,0,2046,1231
518,518,0,2046,957
519,519,0,2047,706
520,520,0,2046,484
521,521,0,2047,297
522,522,0,2047,149
523,523,0,2047,42
524,524,0,2047,0
525,525,0,2046,0
526,526,0,2046,0
527,527,0,2047,67
528,528,0,2046,185
529,529,0,2046,344
530,530,0,2046,542
531,531,0,2047,771
532,532,0,2047,1029
533,533,0,2046,1309
534,534,0,2047,1606
535,535,0,2047,1911
536,536,0,2046,2219
537,537,0,2046,2523
538,538,0,2046,2816
539,539,0,2046,3092
540,540,0,2046,3345
541,541,0,2047,3569
542,542,0,2046,3759
543,543,0,2046,3910
544,544,0,2046,4020
545,545,0,2046,4088
546,546,0,2047,4095
547,547,0,2047,4086
548,548,0,2046,4017
549,549,0,2046,3904
550,550,0,2046,3750
551,551,0,2047,3560
552,552,0,2046,3335
553,553,0,2046,3081
554,554,0,2047,2804
555,555,0,2046,2511
556,556,0,2047,2207
557,557,0,2046,1899
558,558,0,2047,1593
559,559,0,2047,1298
560,560,0,2046,1018
561,561,0,2047,761
562,562,0,2046,533
563,563,0,2046,337
564,564,0,2046,179
565,565,0,2047,63
566,566,0,2046,0
567,567,0,2046,0
568,568,0,2047,0
569,569,0,2046,46
570,570,0,2046,154
571,571,0,2047,305
572,572,0,2046,493
573,573,0,2047,715
574,574,0,2046,968
575,575,0,2046,1244
576,576,0,2047,1536
577,577,0,2047,1840
578,578,0,2047,2148
579,579,0,2047,2454
580,580,0,2046,2750
581,581,0,2046,3030
582,582,0,2047,3289
583,583,0,2047,3520
584,584,0,2046,3718
585,585,0,2046,3879
586,586,0,2046,4000
587,587,0,2047,4076
588,588,0,2046,4095
589,589,0,2047,4095
590,590,0,2046,4036
591,591,0,2046,3934
592,592,0,2047,3789
593,593,0,2047,3607
594,594,0,2047,3390
595,595,0,2046,3142
596,596,0,2047,2870
597,597,0,2046,2579
598,598,0,2046,2278
599,599,0,2047,1969
600,600,0,2047,1662
601,601,0,2046,1364
602,602,0,2047,1080
603,603,0,2047,817
604,604,0,2046,582
605,605,0,2047,378
606,606,0,2047,212
607,607,0,2046,86
608,608,0,2047,2
609,609,0,2046,0
610,610,0,2047,0
611,611,0,2047,26
612,612,0,2047,125
613,613,0,2047,266
614,614,0,2046,446
615,615,0,2046,662
616,616,0,2046,908
617,617,0,2047,1178
618,618,0,2047,1468
619,619,0,2047,1770
620,620,0,2047,2078
621,621,0,2046,2384
622,622,0,2047,2683
623,623,0,2048,2967
624,624,0,2046,3232
625,625,0,2047,3469
626,626,0,2047,3675
627,627,0,2047,3845
628,628,0,2046,3975
629,629,0,2046,4062
630,630,0,2046,4095
631,631,0,2046,4095
632,632,0,2047,4054
633,633,0,2046,3962
634,634,0,2047,3826
635,635,0,2046,3652
636,636,0,2046,3442
637,637,0,2047,3201
638,638,0,2047,2935
639,639,0,2047,2648
640,640,0,2047,2347
641,641,0,2046,2040
642,642,0,2047,1733
643,643,0,2047,1432
644,644,0,2047,1145
645,645,0,2047,877
646,646,0,2046,634
647,647,0,2046,422
648,648,0,2046,247
649,649,0,2047,111
650,650,0,2046,18
651,651,0,2046,0
652,652,0,2047,0
653,653,0,2046,11
654,654,0,2046,100
655,655,0,2046,230
656,656,0,2046,402
657,657,0,2046,610
658,658,0,2047,848
659,659,0,2046,1114
660,660,0,2047,1399
661,661,0,2047,1700
662,662,0,2047,2007
663,663,0,2047,2315
664,664,0,2046,2616
665,665,0,2047,2904
666,666,0,2047,3174
667,667,0,2046,3418
668,668,0,2046,3631
669,669,0,2047,3809
670,670,0,2047,3950
671,671,0,2046,4046
672,672,0,2047,4095
673,673,0,2047,4095
674,674,0,2046,4069
675,675,0,2046,3986
676,676,0,2047,3861
677,677,0,2046,3695
678,678,0,2046,3492
679,679,0,2047,3259
680,680,0,2046,2998
681,681,0,2047,2716
682,682,0,2047,2418
683,683,0,2047,2111
684,684,0,2047,1803
685,685,0,2047,1500
686,686,0,2047,1209
687,687,0,2046,935
688,688,0,2046,687
689,689,0,2046,467
690,690,0,2047,283
691,691,0,2046,139
692,692,0,2047,35
693,693,0,2046,0
694,694,0,2046,0
695,695,0,2047,0
696,696,0,2047,75
697,697,0,2046,197
698,698,0,2046,359
699,699,0,2047,559
700,700,0,2046,791
701,701,0,2046,1051
702,702,0,2047,1333
703,703,0,2047,1629
704,704,0,2046,1935
705,705,0,2047,2244
706,706,0,2047,2547
707,707,0,2047,2839
708,708,0,2047,3114
709,709,0,2047,3363
710,710,0,2046,3585
711,711,0,2046,3771
712,712,0,2046,3921
713,713,0,2046,4028
714,714,0,2046,4091
715,715,0,2047,4095
716,716,0,2047,4082
717,717,0,2046,4009
718,718,0,2047,3893
719,719,0,2046,3737
720,720,0,2047,3543
721,721,0,2046,3316
722,722,0,2047,3060
723,723,0,2046,2782
724,724,0,2047,2487
725,725,0,2047,2182
726,726,0,2047,1874
727,727,0,2046,1569
728,728,0,2047,1274
729,729,0,2047,997
730,730,0,2047,742
731,731,0,2046,515
732,732,0,2046,323
733,733,0,2047,168
734,734,0,2047,55
735,735,0,2046,0
736,736,0,2047,0
737,737,0,2047,0
738,738,0,2046,52
739,739,0,2046,165
740,740,0,2046,318
741,741,0,2046,509
742,742,0,2046,734
743,743,0,2046,989
744,744,0,2047,1266
745,745,0,2047,1560
746,746,0,2046,1865
747,747,0,2046,2173
748,748,0,2046,2478
749,749,0,2046,2774
750,750,0,2047,3052
751,751,0,2047,3308
752,752,0,2047,3536
753,753,0,2046,3732
754,754,0,2046,3890
755,755,0,2047,4007
756,756,0,2047,4080
757,757,0,2046,4095
758,758,0,2047,4092
759,759,0,2047,4030
760,760,0,2046,3924
761,761,0,2047,3776
762,762,0,2047,3591
763,763,0,2047,3370
764,764,0,2047,3121
765,765,0,2047,2847
766,766,0,2046,2556
767,767,0,2047,2252
768,768,0,2046,1945
769,769,0,2047,1639
770,770,0,2047,1340
771,771,0,2047,1058
772,772,0,2046,797
773,773,0,2047,564
774,774,0,2047,364
775,775,0,2047,201
776,776,0,2047,78
777,777,0,2047,0
778,778,0,2046,0
779,779,0,2046,0
780,780,0,2047,34
781,781,0,2046,134
782,782,0,2047,279
783,783,0,2046,462
784,784,0,2046,680
785,785,0,2046,929
786,786,0,2047,1200
787,787,0,2046,1491
788,788,0,2046,1795
789,789,0,2046,2102
790,790,0,2047,2408
791,791,0,2046,2706
792,792,0,2046,2990
793,793,0,2047,3252
794,794,0,2046,3487
795,795,0,2047,3691
796,796,0,2046,3858
797,797,0,2046,3983
798,798,0,2047,4067
799,799,0,2047,4095
800,800,0,2046,4095
801,801,0,2046,4047
802,802,0,2046,3951
803,803,0,2047,3814
804,804,0,2046,3637
805,805,0,2047,3424
806,806,0,2046,3180
807,807,0,2046,2911
808,808,0,2047,2624
809,809,0,2047,2323
810,810,0,2046,2015
811,811,0,2047,1707
812,812,0,2046,1408
813,813,0,2046,1121
814,814,0,2046,855
815,815,0,2046,615
816,816,0,2047,406
817,817,0,2047,234
818,818,0,2046,102
819,819,0,2046,12
820,820,0,2047,0
821,821,0,2046,0
822,822,0,2046,16
823,823,0,2046,107
824,824,0,2047,243
825,825,0,2046,418
826,826,0,2047,627
827,827,0,2047,869
828,828,0,2046,1136
829,829,0,2046,1423
830,830,0,2046,1725
831,831,0,2047,2032
832,832,0,2046,2339
833,833,0,2047,2640
834,834,0,2046,2926
835,835,0,2046,3194
836,836,0,2046,3435
837,837,0,2046,3647
838,838,0,2046,3823
839,839,0,2046,3959
840,840,0,2046,4052
841,841,0,2046,4095
842,842,0,2047,4095
843,843,0,2047,4064
844,844,0,2046,3979
845,845,0,2047,3849
846,846,0,2047,3680
847,847,0,2046,3475
848,848,0,2046,3238
849,849,0,2047,2975
850,850,0,2046,2691
851,851,0,2047,2393
852,852,0,2047,2086
853,853,0,2047,1778
854,854,0,2046,1476
855,855,0,2047,1186
856,856,0,2046,915
857,857,0,2047,668
858,858,0,2047,452
859,859,0,2047,271
860,860,0,2047,128
861,861,0,2046,29
862,862,0,2047,0
863,863,0,2046,0
864,864,0,2047,1
865,865,0,2046,82
866,866,0,2047,208
867,867,0,2046,374
868,868,0,2047,576
869,869,0,2047,811
870,870,0,2047,1073
871,871,0,2047,1356
872,872,0,2047,1654
873,873,0,2047,1961
874,874,0,2047,2269
875,875,0,2047,2571
876,876,0,2047,2862
877,877,0,2047,3134
878,878,0,2046,3383
879,879,0,2047,3601
880,880,0,2046,3785
881,881,0,2046,3931
882,882,0,2046,4034
883,883,0,2046,4095
884,884,0,2047,4095
885,885,0,2047,4077
886,886,0,2047,4001
887,887,0,2046,3882
888,888,0,2046,3722
889,889,0,2046,3525
890,890,0,2047,3296
891,891,0,2046,3038
892,892,0,2047,2758
893,893,0,2046,2462
894,894,0,2046,2157
895,895,0,2046,1848
896,896,0,2047,1544
897,897,0,2046,1251
898,898,0,2047,974
899,899,0,2047,722
900,900,0,2047,498
901,901,0,2046,309
902,902,0,2046,157
903,903,0,2047,48
904,904,0,2046,0
905,905,0,2046,0
906,906,0,2047,0
907,907,0,2046,59
908,908,0,2046,175
909,909,0,2047,333
910,910,0,2047,527
911,911,0,2046,755
912,912,0,2047,1010
913,913,0,2047,1289
914,914,0,2047,1584
915,915,0,2046,1889
916,916,0,2046,2198
917,917,0,2046,2503
918,918,0,2047,2797
919,919,0,2046,3074
920,920,0,2046,3328
921,921,0,2047,3554
922,922,0,2047,3745
923,923,0,2047,3901
924,924,0,2047,4014
925,925,0,2046,4085
926,926,0,2047,4095
927,927,0,2046,4088
928,928,0,2046,4023
929,929,0,2046,3913
930,930,0,2046,3762
931,931,0,2047,3574
932,932,0,2048,3351
933,933,0,2047,3100
934,934,0,2047,2825
935,935,0,2047,2532
936,936,0,2047,2228
937,937,0,2047,1919
938,938,0,2046,1613
939,939,0,2047,1317
940,940,0,2047,1036
941,941,0,2046,778
942,942,0,2046,547
943,943,0,2047,349
944,944,0,2047,188
945,945,0,2046,69
946,946,0,2046,0
947,947,0,2046,0
948,948,0,2046,0
949,949,0,2047,40
950,950,0,2047,145
951,951,0,2046,292
952,952,0,2046,479
953,953,0,2046,699
954,954,0,2046,950
955,955,0,2046,1224
956,956,0,2047,1516
957,957,0,2047,1819
958,958,0,2046,2127
959,959,0,2047,2433
960,960,0,2047,2730
961,961,0,2047,3011
962,962,0,2046,3273
963,963,0,2047,3505
964,964,0,2047,3705
965,965,0,2047,3869
966,966,0,2047,3992
967,967,0,2047,4072
968,968,0,2047,4095
969,969,0,2047,4095
970,970,0,2047,4042
971,971,0,2046,3943
972,972,0,2046,3801
973,973,0,2047,3621
974,974,0,2047,3405
975,975,0,2046,3160
976,976,0,2047,2890
977,977,0,2046,2600
978,978,0,2047,2299
979,979,0,2046,1991
980,980,0,2046,1684
981,981,0,2046,1384
982,982,0,2046,1100
983,983,0,2047,835
984,984,0,2046,597
985,985,0,2047,392
986,986,0,2046,223
987,987,0,2046,93
988,988,0,2046,7
989,989,0,2046,0
990,990,0,2046,0
991,991,0,2046,22
992,992,0,2047,118
993,993,0,2047,256
994,994,0,2046,433
995,995,0,2046,646
996,996,0,2047,890
997,997,0,2046,1159
998,998,0,2047,1447
999,999,0,2046,1749
1000,1000,0,2046,2057
1001,1001,0,2046,2363
1002,1002,0,2047,2663
1003,1003,0,2047,2949
1004,1004,0,2046,3215
1005,1005,0,2046,3454
1006,1006,0,2047,3662
1007,1007,0,2047,3836
1008,1008,0,2046,3967
1009,1009,0,2047,4057
1010,1010,0,2047,4095
1011,1011,0,2046,4095
1012,1012,0,2047,4059
1013,1013,0,2047,3970
1014,1014,0,2046,3837
1015,1015,0,2046,3665
1016,1016,0,2047,3457
1017,1017,0,2047,3218
1018,1018,0,2047,2952
1019,1019,0,2046,2667
1020,1020,0,2046,2368
1021,1021,0,2047,2062
1022,1022,0,2047,1753
1023,1023,0,2046,1452
1024,1024,0,2047,1163
1025,1025,0,2047,894
1026,1026,0,2046,650
1027,1027,0,2047,436
1028,1028,0,2047,258
1029,1029,0,2046,118
