Sample in Buffer,Sample in Window,TRIGGER,adc1_data_a_d0[11:0],adc1_data_b_d0[11:0]
0,0,0,2047,558
1,1,0,2047,1075
2,2,0,2046,1685
3,3,0,2047,2328
4,4,0,2047,2945
5,5,0,2046,3474
6,6,0,2046,3866
7,7,0,2047,4083
8,8,0,2047,4095
9,9,0,2047,3929
10,10,0,2047,3572
11,11,0,2046,3069
12,12,0,2046,2468
13,13,0,2046,1826
14,14,0,2047,1202
15,15,0,2047,661
16,16,0,2047,251
17,17,0,2046,10
18,18,0,2046,0
19,19,0,2047,116
20,20,0,2046,451
21,21,0,2047,939
22,22,0,2047,1531
23,23,0,2047,2172
24,24,0,2046,2801
25,25,0,2046,3356
26,26,0,2046,3785
27,27,0,2046,4048
28,28,0,2046,4095
29,29,0,2047,3989
30,30,0,2046,3674
31,31,0,2046,3203
32,32,0,2047,2620
33,33,0,2046,1982
34,34,0,2046,1349
35,35,0,2046,782
36,36,0,2046,336
37,37,0,2047,51
38,38,0,2047,0
39,39,0,2046,61
40,40,0,2047,355
41,41,0,2046,808
42,42,0,2047,1380
43,43,0,2046,2015
44,44,0,2046,2653
45,45,0,2046,3231
46,46,0,2046,3695
47,47,0,2047,4001
48,48,0,2046,4095
49,49,0,2046,4039
50,50,0,2046,3766
51,51,0,2047,3330
52,52,0,2046,2769
53,53,0,2047,2139
54,54,0,2046,1499
55,55,0,2047,910
56,56,0,2046,431
57,57,0,2047,103
58,58,0,2047,0
59,59,0,2046,17
60,60,0,2047,267
61,61,0,2047,686
62,62,0,2045,1234
63,63,0,2046,1859
64,64,0,2046,2501
65,65,0,2046,3099
66,66,0,2046,3595
67,67,0,2046,3943
68,68,0,2046,4095
69,69,0,2047,4077
70,70,0,2047,3850
71,71,0,2047,3449
72,72,0,2046,2914
73,73,0,2047,2295
74,74,0,2047,1652
75,75,0,2047,1046
76,76,0,2046,534
77,77,0,2047,167
78,78,0,2046,0
79,79,0,2046,0
80,80,0,2046,189
81,81,0,2046,571
82,82,0,2046,1091
83,83,0,2047,1703
84,84,0,2046,2347
85,85,0,2046,2961
86,86,0,2046,3487
87,87,0,2047,3875
88,88,0,2047,4087
89,89,0,2046,4095
90,90,0,2046,3922
91,91,0,2047,3560
92,92,0,2046,3054
93,93,0,2046,2450
94,94,0,2046,1808
95,95,0,2047,1187
96,96,0,2046,647
97,97,0,2046,241
98,98,0,2047,6
99,99,0,2046,0
100,100,0,2046,123
101,101,0,2046,464
102,102,0,2047,954
103,103,0,2046,1549
104,104,0,2046,2191
105,105,0,2047,2817
106,106,0,2047,3370
107,107,0,2046,3796
108,108,0,2047,4053
109,109,0,2047,4095
110,110,0,2047,3983
111,111,0,2047,3663
112,112,0,2046,3188
113,113,0,2046,2603
114,114,0,2047,1964
115,115,0,2046,1332
116,116,0,2046,768
117,117,0,2046,326
118,118,0,2046,46
119,119,0,2046,0
120,120,0,2046,67
121,121,0,2045,365
122,122,0,2046,823
123,123,0,2046,1398
124,124,0,2047,2034
125,125,0,2046,2670
126,126,0,2046,3246
127,127,0,2046,3706
128,128,0,2046,4006
129,129,0,2047,4095
130,130,0,2046,4034
131,131,0,2047,3757
132,132,0,2046,3315
133,133,0,2046,2752
134,134,0,2047,2122
135,135,0,2047,1482
136,136,0,2047,895
137,137,0,2046,419
138,138,0,2047,97
139,139,0,2046,0
140,140,0,2046,22
141,141,0,2047,277
142,142,0,2047,700
143,143,0,2046,1251
144,144,0,2047,1877
145,145,0,2046,2519
146,146,0,2046,3115
147,147,0,2046,3608
148,148,0,2046,3950
149,149,0,2047,4095
150,150,0,2047,4073
151,151,0,2047,3841
152,152,0,2046,3435
153,153,0,2046,2897
154,154,0,2046,2278
155,155,0,2047,1634
156,156,0,2046,1030
157,157,0,2046,522
158,158,0,2047,158
159,159,0,2046,0
160,160,0,2046,0
161,161,0,2047,199
162,162,0,2046,584
163,163,0,2046,1107
164,164,0,2046,1722
165,165,0,2046,2364
166,166,0,2047,2976
167,167,0,2047,3500
168,168,0,2046,3883
169,169,0,2047,4090
170,170,0,2047,4095
171,171,0,2046,3914
172,172,0,2047,3548
173,173,0,2046,3038
174,174,0,2046,2432
175,175,0,2046,1789
176,176,0,2047,1170
177,177,0,2047,634
178,178,0,2047,232
179,179,0,2046,1
180,180,0,2047,0
181,181,0,2046,130
182,182,0,2047,475
183,183,0,2046,970
184,184,0,2047,1567
185,185,0,2047,2209
186,186,0,2047,2834
187,187,0,2046,3384
188,188,0,2046,3805
189,189,0,2046,4057
190,190,0,2047,4095
191,191,0,2046,3976
192,192,0,2047,3651
193,193,0,2047,3172
194,194,0,2046,2585
195,195,0,2047,1946
196,196,0,2047,1315
197,197,0,2047,754
198,198,0,2047,315
199,199,0,2046,40
200,200,0,2046,0
201,201,0,2046,74
202,202,0,2046,377
203,203,0,2046,838
204,204,0,2046,1416
205,205,0,2046,2052
206,206,0,2046,2688
207,207,0,2046,3260
208,208,0,2046,3716
209,209,0,2046,4013
210,210,0,2047,4095
211,211,0,2046,4028
212,212,0,2047,3746
213,213,0,2047,3302
214,214,0,2046,2735
215,215,0,2047,2103
216,216,0,2047,1464
217,217,0,2046,881
218,218,0,2047,408
219,219,0,2046,91
220,220,0,2046,0
221,221,0,2047,27
222,222,0,2046,287
223,223,0,2046,714
224,224,0,2047,1268
225,225,0,2046,1895
226,226,0,2047,2536
227,227,0,2047,3130
228,228,0,2047,3620
229,229,0,2046,3958
230,230,0,2047,4095
231,231,0,2047,4069
232,232,0,2047,3831
233,233,0,2046,3422
234,234,0,2046,2881
235,235,0,2046,2259
236,236,0,2046,1617
237,237,0,2047,1014
238,238,0,2046,510
239,239,0,2046,152
240,240,0,2047,0
241,241,0,2046,0
242,242,0,2047,206
243,243,0,2046,597
244,244,0,2046,1124
245,245,0,2046,1739
246,246,0,2047,2383
247,247,0,2047,2993
248,248,0,2046,3513
249,249,0,2046,3891
250,250,0,2047,4093
251,251,0,2046,4095
252,252,0,2046,3906
253,253,0,2046,3536
254,254,0,2046,3022
255,255,0,2046,2415
256,256,0,2046,1772
257,257,0,2046,1154
258,258,0,2047,620
259,259,0,2045,223
260,260,0,2047,0
261,261,0,2047,0
262,262,0,2046,137
263,263,0,2046,488
264,264,0,2047,986
265,265,0,2047,1585
266,266,0,2047,2226
267,267,0,2046,2851
268,268,0,2047,3398
269,269,0,2047,3814
270,270,0,2047,4062
271,271,0,2046,4095
272,272,0,2047,3970
273,273,0,2046,3640
274,274,0,2047,3157
275,275,0,2047,2568
276,276,0,2047,1928
277,277,0,2047,1299
278,278,0,2046,740
279,279,0,2046,304
280,280,0,2047,36
281,281,0,2047,0
282,282,0,2046,79
283,283,0,2047,387
284,284,0,2046,853
285,285,0,2047,1433
286,286,0,2046,2070
287,287,0,2047,2704
288,288,0,2046,3275
289,289,0,2046,3727
290,290,0,2047,4019
291,291,0,2047,4095
292,292,0,2047,4023
293,293,0,2046,3736
294,294,0,2047,3286
295,295,0,2047,2718
296,296,0,2046,2085
297,297,0,2047,1447
298,298,0,2046,867
299,299,0,2047,397
300,300,0,2047,84
301,301,0,2047,0
302,302,0,2046,32
303,303,0,2046,297
304,304,0,2046,727
305,305,0,2047,1285
306,306,0,2046,1913
307,307,0,2046,2553
308,308,0,2047,3146
309,309,0,2047,3631
310,310,0,2047,3965
311,311,0,2047,4095
312,312,0,2047,4065
313,313,0,2046,3822
314,314,0,2046,3409
315,315,0,2047,2864
316,316,0,2046,2242
317,317,0,2046,1598
318,318,0,2047,999
319,319,0,2046,498
320,320,0,2047,143
321,321,0,2046,0
322,322,0,2047,0
323,323,0,2046,215
324,324,0,2047,610
325,325,0,2047,1140
326,326,0,2047,1758
327,327,0,2047,2401
328,328,0,2047,3009
329,329,0,2047,3525
330,330,0,2047,3900
331,331,0,2046,4095
332,332,0,2047,4094
333,333,0,2046,3898
334,334,0,2046,3522
335,335,0,2046,3006
336,336,0,2047,2397
337,337,0,2046,1753
338,338,0,2046,1138
339,339,0,2047,607
340,340,0,2046,215
341,341,0,2046,0
342,342,0,2047,0
343,343,0,2047,145
344,344,0,2046,500
345,345,0,2046,1002
346,346,0,2046,1602
347,347,0,2046,2244
348,348,0,2047,2868
349,349,0,2046,3411
350,350,0,2046,3824
351,351,0,2046,4065
352,352,0,2046,4095
353,353,0,2046,3962
354,354,0,2047,3628
355,355,0,2046,3141
356,356,0,2046,2550
357,357,0,2047,1910
358,358,0,2047,1281
359,359,0,2046,725
360,360,0,2046,294
361,361,0,2046,30
362,362,0,2047,0
363,363,0,2046,85
364,364,0,2047,398
365,365,0,2047,868
366,366,0,2046,1450
367,367,0,2046,2089
368,368,0,2047,2721
369,369,0,2046,3290
370,370,0,2047,3738
371,371,0,2046,4024
372,372,0,2046,4095
373,373,0,2047,4017
374,374,0,2047,3725
375,375,0,2046,3272
376,376,0,2046,2701
377,377,0,2047,2066
378,378,0,2046,1430
379,379,0,2046,852
380,380,0,2046,386
381,381,0,2047,78
382,382,0,2046,0
383,383,0,2046,37
384,384,0,2047,307
385,385,0,2047,742
386,386,0,2047,1302
387,387,0,2046,1932
388,388,0,2047,2571
389,389,0,2046,3161
390,390,0,2046,3643
391,391,0,2046,3971
392,392,0,2046,4095
393,393,0,2046,4060
394,394,0,2047,3813
395,395,0,2046,3395
396,396,0,2046,2848
397,397,0,2046,2223
398,398,0,2046,1581
399,399,0,2046,983
400,400,0,2046,485
401,401,0,2046,137
402,402,0,2046,0
403,403,0,2046,0
404,404,0,2047,224
405,405,0,2046,623
406,406,0,2047,1158
407,407,0,2046,1775
408,408,0,2046,2419
409,409,0,2047,3025
410,410,0,2047,3538
411,411,0,2047,3908
412,412,0,2047,4095
413,413,0,2046,4092
414,414,0,2046,3889
415,415,0,2046,3510
416,416,0,2046,2989
417,417,0,2046,2378
418,418,0,2046,1735
419,419,0,2046,1121
420,420,0,2047,594
421,421,0,2047,205
422,422,0,2047,0
423,423,0,2046,0
424,424,0,2047,152
425,425,0,2046,512
426,426,0,2047,1017
427,427,0,2046,1620
428,428,0,2046,2263
429,429,0,2046,2885
430,430,0,2046,3425
431,431,0,2047,3833
432,432,0,2046,4070
433,433,0,2046,4095
434,434,0,2046,3956
435,435,0,2047,3616
436,436,0,2047,3126
437,437,0,2047,2532
438,438,0,2046,1891
439,439,0,2047,1264
440,440,0,2046,711
441,441,0,2047,285
442,442,0,2046,26
443,443,0,2046,0
444,444,0,2046,92
445,445,0,2046,410
446,446,0,2046,884
447,447,0,2047,1468
448,448,0,2046,2107
449,449,0,2047,2739
450,450,0,2046,3304
451,451,0,2046,3749
452,452,0,2046,4030
453,453,0,2046,4095
454,454,0,2047,4012
455,455,0,2046,3714
456,456,0,2046,3257
457,457,0,2046,2683
458,458,0,2045,2048
459,459,0,2047,1412
460,460,0,2046,836
461,461,0,2046,374
462,462,0,2046,72
463,463,0,2046,0
464,464,0,2046,41
465,465,0,2047,317
466,466,0,2046,756
467,467,0,2047,1318
468,468,0,2046,1950
469,469,0,2047,2589
470,470,0,2046,3176
471,471,0,2046,3654
472,472,0,2047,3978
473,473,0,2046,4095
474,474,0,2046,4056
475,475,0,2047,3802
476,476,0,2047,3381
477,477,0,2047,2830
478,478,0,2047,2205
479,479,0,2046,1563
480,480,0,2046,968
481,481,0,2047,474
482,482,0,2046,129
483,483,0,2046,0
484,484,0,2047,3
485,485,0,2047,233
486,486,0,2046,637
487,487,0,2046,1174
488,488,0,2046,1793
489,489,0,2046,2437
490,490,0,2046,3042
491,491,0,2046,3551
492,492,0,2046,3916
493,493,0,2046,4095
494,494,0,2047,4089
495,495,0,2047,3881
496,496,0,2047,3496
497,497,0,2046,2973
498,498,0,2047,2361
499,499,0,2047,1718
500,500,0,2047,1104
501,501,0,2047,581
502,502,0,2047,196
503,503,0,2046,0
504,504,0,2046,0
505,505,0,2046,160
506,506,0,2046,525
507,507,0,2046,1032
508,508,0,2047,1639
509,509,0,2046,2282
510,510,0,2047,2901
511,511,0,2047,3439
512,512,0,2047,3842
513,513,0,2046,4074
514,514,0,2046,4095
515,515,0,2047,3949
516,516,0,2047,3604
517,517,0,2046,3110
518,518,0,2047,2515
519,519,0,2046,1873
520,520,0,2046,1247
521,521,0,2046,697
522,522,0,2047,275
523,523,0,2046,21
524,524,0,2046,0
525,525,0,2046,98
526,526,0,2047,422
527,527,0,2047,899
528,528,0,2046,1485
529,529,0,2046,2125
530,530,0,2046,2756
531,531,0,2046,3318
532,532,0,2047,3758
533,533,0,2047,4035
534,534,0,2047,4095
535,535,0,2046,4006
536,536,0,2046,3704
537,537,0,2047,3242
538,538,0,2047,2666
539,539,0,2046,2030
540,540,0,2047,1394
541,541,0,2047,821
542,542,0,2046,363
543,543,0,2047,65
544,544,0,2046,0
545,545,0,2046,46
546,546,0,2046,327
547,547,0,2046,771
548,548,0,2047,1336
549,549,0,2047,1968
550,550,0,2047,2607
551,551,0,2047,3191
552,552,0,2046,3665
553,553,0,2046,3984
554,554,0,2047,4095
555,555,0,2046,4051
556,556,0,2046,3793
557,557,0,2046,3367
558,558,0,2046,2813
559,559,0,2046,2187
560,560,0,2046,1545
561,561,0,2046,951
562,562,0,2046,462
563,563,0,2046,121
564,564,0,2046,0
565,565,0,2047,7
566,566,0,2047,243
567,567,0,2047,650
568,568,0,2047,1190
569,569,0,2046,1812
570,570,0,2047,2454
571,571,0,2046,3057
572,572,0,2046,3563
573,573,0,2046,3923
574,574,0,2046,4095
575,575,0,2046,4086
576,576,0,2047,3872
577,577,0,2047,3483
578,578,0,2046,2958
579,579,0,2047,2343
580,580,0,2047,1700
581,581,0,2046,1088
582,582,0,2047,568
583,583,0,2047,188
584,584,0,2046,0
585,585,0,2047,0
586,586,0,2047,168
587,587,0,2046,537
588,588,0,2045,1049
589,589,0,2047,1656
590,590,0,2046,2299
591,591,0,2047,2918
592,592,0,2046,3452
593,593,0,2046,3851
594,594,0,2046,4078
595,595,0,2047,4095
596,596,0,2047,3941
597,597,0,2046,3592
598,598,0,2046,3095
599,599,0,2046,2497
600,600,0,2046,1855
601,601,0,2046,1230
602,602,0,2047,684
603,603,0,2046,265
604,604,0,2046,16
605,605,0,2047,0
606,606,0,2046,105
607,607,0,2046,433
608,608,0,2047,914
609,609,0,2047,1503
610,610,0,2047,2143
611,611,0,2046,2773
612,612,0,2046,3333
613,613,0,2047,3769
614,614,0,2047,4040
615,615,0,2047,4095
616,616,0,2046,4000
617,617,0,2046,3693
618,618,0,2046,3227
619,619,0,2047,2648
620,620,0,2047,2011
621,621,0,2046,1378
622,622,0,2047,806
623,623,0,2047,353
624,624,0,2047,60
625,625,0,2046,0
626,626,0,2047,52
627,627,0,2046,337
628,628,0,2046,786
629,629,0,2047,1353
630,630,0,2046,1986
631,631,0,2047,2624
632,632,0,2047,3206
633,633,0,2046,3677
634,634,0,2047,3990
635,635,0,2047,4095
636,636,0,2047,4047
637,637,0,2046,3783
638,638,0,2047,3353
639,639,0,2046,2797
640,640,0,2047,2169
641,641,0,2046,1527
642,642,0,2047,936
643,643,0,2047,450
644,644,0,2046,115
645,645,0,2047,0
646,646,0,2046,11
647,647,0,2046,252
648,648,0,2046,664
649,649,0,2046,1207
650,650,0,2046,1829
651,651,0,2047,2472
652,652,0,2047,3074
653,653,0,2047,3575
654,654,0,2046,3931
655,655,0,2047,4095
656,656,0,2046,4082
657,657,0,2046,3864
658,658,0,2046,3471
659,659,0,2046,2940
660,660,0,2046,2325
661,661,0,2046,1681
662,662,0,2046,1072
663,663,0,2046,555
664,664,0,2046,180
665,665,0,2047,0
666,666,0,2046,0
667,667,0,2046,176
668,668,0,2046,550
669,669,0,2047,1065
670,670,0,2046,1673
671,671,0,2047,2318
672,672,0,2046,2934
673,673,0,2046,3465
674,674,0,2047,3861
675,675,0,2046,4081
676,676,0,2047,4095
677,677,0,2047,3934
678,678,0,2046,3581
679,679,0,2046,3080
680,680,0,2046,2480
681,681,0,2046,1836
682,682,0,2046,1214
683,683,0,2046,670
684,684,0,2046,256
685,685,0,2046,13
686,686,0,2047,0
687,687,0,2047,111
688,688,0,2046,444
689,689,0,2047,930
690,690,0,2047,1521
691,691,0,2046,2161
692,692,0,2047,2789
693,693,0,2047,3348
694,694,0,2047,3779
695,695,0,2047,4045
696,696,0,2047,4095
697,697,0,2046,3993
698,698,0,2046,3682
699,699,0,2047,3212
700,700,0,2047,2631
701,701,0,2046,1994
702,702,0,2046,1360
703,703,0,2047,792
704,704,0,2046,342
705,705,0,2047,54
706,706,0,2047,0
707,707,0,2046,58
708,708,0,2047,348
709,709,0,2046,800
710,710,0,2046,1370
711,711,0,2046,2003
712,712,0,2046,2642
713,713,0,2047,3221
714,714,0,2046,3688
715,715,0,2046,3997
716,716,0,2046,4095
717,717,0,2046,4042
718,718,0,2046,3773
719,719,0,2046,3338
720,720,0,2047,2780
721,721,0,2046,2151
722,722,0,2047,1511
723,723,0,2047,921
724,724,0,2047,438
725,725,0,2047,108
726,726,0,2047,0
727,727,0,2047,15
728,728,0,2046,261
729,729,0,2046,677
730,730,0,2046,1224
731,731,0,2046,1848
732,732,0,2047,2490
733,733,0,2046,3089
734,734,0,2047,3588
735,735,0,2046,3938
736,736,0,2046,4095
737,737,0,2046,4079
738,738,0,2046,3855
739,739,0,2046,3458
740,740,0,2047,2924
741,741,0,2047,2307
742,742,0,2046,1664
743,743,0,2046,1056
744,744,0,2046,542
745,745,0,2046,172
746,746,0,2046,0
747,747,0,2046,0
748,748,0,2046,185
749,749,0,2047,563
750,750,0,2046,1081
751,751,0,2046,1692
752,752,0,2046,2335
753,753,0,2046,2950
754,754,0,2047,3478
755,755,0,2047,3870
756,756,0,2046,4084
757,757,0,2046,4095
758,758,0,2046,3926
759,759,0,2046,3568
760,760,0,2046,3064
761,761,0,2046,2462
762,762,0,2046,1819
763,763,0,2046,1197
764,764,0,2046,656
765,765,0,2046,247
766,766,0,2046,9
767,767,0,2047,0
768,768,0,2046,118
769,769,0,2046,456
770,770,0,2046,945
771,771,0,2046,1539
772,772,0,2046,2179
773,773,0,2046,2806
774,774,0,2046,3361
775,775,0,2046,3789
776,776,0,2047,4050
777,777,0,2047,4095
778,778,0,2046,3987
779,779,0,2046,3670
780,780,0,2046,3198
781,781,0,2046,2614
782,782,0,2047,1976
783,783,0,2047,1343
784,784,0,2047,777
785,785,0,2046,332
786,786,0,2046,49
787,787,0,2046,0
788,788,0,2046,63
789,789,0,2046,358
790,790,0,2047,815
791,791,0,2046,1386
792,792,0,2046,2022
793,793,0,2046,2659
794,794,0,2047,3236
795,795,0,2046,3699
796,796,0,2046,4003
797,797,0,2046,4095
798,798,0,2046,4037
799,799,0,2046,3763
800,800,0,2046,3324
801,801,0,2046,2763
802,802,0,2046,2132
803,803,0,2046,1493
804,804,0,2047,905
805,805,0,2046,427
806,806,0,2047,101
807,807,0,2046,0
808,808,0,2047,19
809,809,0,2046,271
810,810,0,2047,692
811,811,0,2046,1241
812,812,0,2047,1866
813,813,0,2046,2507
814,814,0,2047,3104
815,815,0,2046,3600
816,816,0,2046,3945
817,817,0,2047,4095
818,818,0,2046,4075
819,819,0,2046,3846
820,820,0,2046,3444
821,821,0,2047,2908
822,822,0,2046,2289
823,823,0,2047,1646
824,824,0,2046,1040
825,825,0,2047,530
826,826,0,2047,164
827,827,0,2047,0
828,828,0,2046,0
829,829,0,2046,193
830,830,0,2046,576
831,831,0,2047,1098
832,832,0,2046,1710
833,833,0,2046,2354
834,834,0,2046,2967
835,835,0,2046,3492
836,836,0,2046,3878
837,837,0,2046,4089
838,838,0,2046,4095
839,839,0,2046,3919
840,840,0,2046,3555
841,841,0,2046,3048
842,842,0,2046,2444
843,843,0,2046,1802
844,844,0,2047,1181
845,845,0,2046,643
846,846,0,2047,237
847,847,0,2046,4
848,848,0,2046,0
849,849,0,2046,125
850,850,0,2047,468
851,851,0,2046,961
852,852,0,2046,1556
853,853,0,2047,2197
854,854,0,2046,2824
855,855,0,2047,3375
856,856,0,2046,3799
857,857,0,2046,4054
858,858,0,2046,4095
859,859,0,2047,3981
860,860,0,2046,3658
861,861,0,2046,3182
862,862,0,2046,2596
863,863,0,2046,1958
864,864,0,2046,1326
865,865,0,2047,763
866,866,0,2046,322
867,867,0,2047,44
868,868,0,2046,0
869,869,0,2047,69
870,870,0,2046,369
871,871,0,2047,829
872,872,0,2047,1404
873,873,0,2046,2040
874,874,0,2046,2676
875,875,0,2047,3251
876,876,0,2047,3710
877,877,0,2047,4010
878,878,0,2046,4095
879,879,0,2046,4031
880,880,0,2046,3753
881,881,0,2046,3311
882,882,0,2047,2746
883,883,0,2046,2115
884,884,0,2046,1476
885,885,0,2046,890
886,886,0,2046,416
887,887,0,2046,95
888,888,0,2046,0
889,889,0,2047,24
890,890,0,2047,281
891,891,0,2047,705
892,892,0,2047,1257
893,893,0,2046,1884
894,894,0,2046,2525
895,895,0,2046,3121
896,896,0,2046,3612
897,897,0,2046,3953
898,898,0,2046,4095
899,899,0,2046,4071
900,900,0,2046,3837
901,901,0,2046,3431
902,902,0,2046,2891
903,903,0,2046,2271
904,904,0,2047,1628
905,905,0,2046,1025
906,906,0,2046,518
907,907,0,2047,156
908,908,0,2046,0
909,909,0,2047,0
910,910,0,2047,201
911,911,0,2046,588
912,912,0,2047,1114
913,913,0,2045,1727
914,914,0,2046,2371
915,915,0,2046,2982
916,916,0,2047,3504
917,917,0,2046,3887
918,918,0,2047,4091
919,919,0,2047,4095
920,920,0,2047,3912
921,921,0,2046,3543
922,922,0,2046,3033
923,923,0,2046,2426
924,924,0,2046,1783
925,925,0,2046,1164
926,926,0,2046,629
927,927,0,2046,228
928,928,0,2046,0
929,929,0,2046,0
930,930,0,2046,133
931,931,0,2046,480
932,932,0,2046,975
933,933,0,2046,1573
934,934,0,2046,2216
935,935,0,2047,2840
936,936,0,2046,3388
937,937,0,2046,3808
938,938,0,2046,4058
939,939,0,2046,4095
940,940,0,2047,3974
941,941,0,2046,3648
942,942,0,2046,3167
943,943,0,2047,2579
944,944,0,2047,1939
945,945,0,2046,1310
946,946,0,2046,748
947,947,0,2047,311
948,948,0,2046,39
949,949,0,2046,0
950,950,0,2047,75
951,951,0,2047,381
952,952,0,2046,845
953,953,0,2047,1422
954,954,0,2046,2059
955,955,0,2047,2694
956,956,0,2046,3266
957,957,0,2046,3721
958,958,0,2046,4015
959,959,0,2046,4095
960,960,0,2047,4026
961,961,0,2047,3743
962,962,0,2046,3296
963,963,0,2046,2729
964,964,0,2047,2097
965,965,0,2046,1458
966,966,0,2047,875
967,967,0,2047,403
968,968,0,2046,89
969,969,0,2046,0
970,970,0,2047,28
971,971,0,2046,290
972,972,0,2046,719
973,973,0,2046,1274
974,974,0,2047,1901
975,975,0,2047,2543
976,976,0,2047,3135
977,977,0,2047,3624
978,978,0,2047,3960
979,979,0,2046,4095
980,980,0,2046,4067
981,981,0,2046,3828
982,982,0,2046,3417
983,983,0,2047,2876
984,984,0,2047,2254
985,985,0,2047,1610
986,986,0,2046,1009
987,987,0,2046,505
988,988,0,2046,149
989,989,0,2046,0
990,990,0,2047,0
991,991,0,2046,210
992,992,0,2046,602
993,993,0,2046,1130
994,994,0,2047,1746
995,995,0,2046,2390
996,996,0,2047,2998
997,997,0,2046,3517
998,998,0,2047,3894
999,999,0,2046,4094
1000,1000,0,2046,4095
1001,1001,0,2047,3903
1002,1002,0,2046,3531
1003,1003,0,2045,3016
1004,1004,0,2046,2408
1005,1005,0,2047,1765
1006,1006,0,2047,1148
1007,1007,0,2046,616
1008,1008,0,2047,220
1009,1009,0,2046,0
1010,1010,0,2047,0
1011,1011,0,2047,140
1012,1012,0,2047,493
1013,1013,0,2046,991
1014,1014,0,2046,1591
1015,1015,0,2046,2234
1016,1016,0,2046,2857
1017,1017,0,2046,3402
1018,1018,0,2046,3818
1019,1019,0,2046,4064
1020,1020,0,2046,4095
1021,1021,0,2046,3967
1022,1022,0,2046,3635
1023,1023,0,2046,3152
1024,1024,0,2047,2561
1025,1025,0,2046,1921
1026,1026,0,2046,1292
1027,1027,0,2046,734
1028,1028,0,2046,301
1029,1029,0,2046,34
