Sample in Buffer,Sample in Window,TRIGGER,adc1_data_a_d0[11:0],adc1_data_b_d0[11:0]
0,0,0,2046,3624
1,1,0,2047,4063
2,2,0,2046,3971
3,3,0,2047,3369
4,4,0,2047,2420
5,5,0,2046,1370
6,6,0,2047,496
7,7,0,2047,27
8,8,0,2046,85
9,9,0,2047,655
10,10,0,2047,1588
11,11,0,2046,2639
12,12,0,2046,3533
13,13,0,2046,4035
14,14,0,2046,4013
15,15,0,2047,3472
16,16,0,2047,2555
17,17,0,2046,1503
18,18,0,2046,591
19,19,0,2046,60
20,20,0,2046,48
21,21,0,2046,556
22,22,0,2047,1454
23,23,0,2047,2506
24,24,0,2046,3434
25,25,0,2047,3997
26,26,0,2046,4046
27,27,0,2046,3568
28,28,0,2046,2687
29,29,0,2046,1637
30,30,0,2046,693
31,31,0,2046,102
32,32,0,2047,18
33,33,0,2046,464
34,34,0,2046,1323
35,35,0,2046,2370
36,36,0,2047,3329
37,37,0,2047,3951
38,38,0,2047,4071
39,39,0,2046,3656
40,40,0,2046,2817
41,41,0,2047,1774
42,42,0,2047,800
43,43,0,2046,151
44,44,0,2046,0
45,45,0,2046,379
46,46,0,2047,1196
47,47,0,2046,2233
48,48,0,2046,3219
49,49,0,2046,3897
50,50,0,2046,4086
51,51,0,2046,3738
52,52,0,2046,2944
53,53,0,2046,1911
54,54,0,2047,913
55,55,0,2047,211
56,56,0,2047,0
57,57,0,2047,301
58,58,0,2047,1071
59,59,0,2046,2094
60,60,0,2046,3104
61,61,0,2047,3833
62,62,0,2046,4093
63,63,0,2046,3812
64,64,0,2046,3066
65,65,0,2046,2050
66,66,0,2047,1031
67,67,0,2047,277
68,68,0,2047,0
69,69,0,2046,232
70,70,0,2046,951
71,71,0,2046,1956
72,72,0,2046,2983
73,73,0,2046,3762
74,74,0,2046,4088
75,75,0,2047,3878
76,76,0,2046,3183
77,77,0,2046,2187
78,78,0,2046,1154
79,79,0,2046,353
80,80,0,2046,0
81,81,0,2046,170
82,82,0,2047,836
83,83,0,2046,1818
84,84,0,2046,2858
85,85,0,2047,3683
86,86,0,2046,4076
87,87,0,2046,3935
88,88,0,2046,3296
89,89,0,2047,2326
90,90,0,2047,1281
91,91,0,2046,435
92,92,0,2047,11
93,93,0,2047,117
94,94,0,2046,727
95,95,0,2047,1681
96,96,0,2047,2729
97,97,0,2047,3597
98,98,0,2046,4054
99,99,0,2047,3984
100,100,0,2046,3402
101,101,0,2047,2463
102,102,0,2046,1411
103,103,0,2046,525
104,104,0,2047,37
105,105,0,2047,72
106,106,0,2047,624
107,107,0,2046,1546
108,108,0,2046,2597
109,109,0,2046,3503
110,110,0,2046,4024
111,111,0,2047,4024
112,112,0,2047,3503
113,113,0,2046,2597
114,114,0,2046,1544
115,115,0,2047,622
116,116,0,2046,72
117,117,0,2046,37
118,118,0,2046,527
119,119,0,2046,1413
120,120,0,2047,2463
121,121,0,2047,3403
122,122,0,2046,3984
123,123,0,2046,4055
124,124,0,2046,3596
125,125,0,2047,2728
126,126,0,2046,1680
127,127,0,2047,726
128,128,0,2046,116
129,129,0,2047,11
130,130,0,2046,437
131,131,0,2046,1283
132,132,0,2046,2327
133,133,0,2046,3296
134,134,0,2046,3935
135,135,0,2047,4076
136,136,0,2046,3683
137,137,0,2047,2857
138,138,0,2046,1816
139,139,0,2046,834
140,140,0,2047,169
141,141,0,2047,0
142,142,0,2046,354
143,143,0,2046,1156
144,144,0,2047,2189
145,145,0,2047,3184
146,146,0,2046,3878
147,147,0,2047,4089
148,148,0,2046,3761
149,149,0,2046,2982
150,150,0,2046,1955
151,151,0,2047,950
152,152,0,2047,231
153,153,0,2046,0
154,154,0,2046,279
155,155,0,2047,1033
156,156,0,2047,2051
157,157,0,2046,3066
158,158,0,2046,3812
159,159,0,2046,4092
160,160,0,2046,3834
161,161,0,2047,3104
162,162,0,2046,2093
163,163,0,2046,1069
164,164,0,2046,300
165,165,0,2047,0
166,166,0,2047,212
167,167,0,2047,915
168,168,0,2046,1913
169,169,0,2046,2944
170,170,0,2046,3738
171,171,0,2047,4087
172,172,0,2046,3897
173,173,0,2047,3219
174,174,0,2046,2231
175,175,0,2047,1194
176,176,0,2046,378
177,177,0,2046,0
178,178,0,2046,152
179,179,0,2046,802
180,180,0,2046,1775
181,181,0,2046,2818
182,182,0,2046,3657
183,183,0,2046,4071
184,184,0,2046,3952
185,185,0,2047,3330
186,186,0,2046,2368
187,187,0,2046,1321
188,188,0,2046,462
189,189,0,2046,18
190,190,0,2047,102
191,191,0,2046,694
192,192,0,2046,1639
193,193,0,2046,2688
194,194,0,2047,3568
195,195,0,2047,4046
196,196,0,2046,3998
197,197,0,2046,3435
198,198,0,2046,2504
199,199,0,2046,1453
200,200,0,2046,555
201,201,0,2046,46
202,202,0,2047,60
203,203,0,2046,593
204,204,0,2046,1504
205,205,0,2046,2556
206,206,0,2046,3472
207,207,0,2046,4013
208,208,0,2047,4035
209,209,0,2046,3533
210,210,0,2046,2638
211,211,0,2047,1587
212,212,0,2046,654
213,213,0,2046,85
214,214,0,2046,28
215,215,0,2047,498
216,216,0,2046,1372
217,217,0,2046,2420
218,218,0,2046,3370
219,219,0,2046,3970
220,220,0,2047,4063
221,221,0,2046,3624
222,222,0,2046,2769
223,223,0,2046,1722
224,224,0,2046,759
225,225,0,2047,132
226,226,0,2046,5
227,227,0,2046,410
228,228,0,2047,1243
229,229,0,2047,2284
230,230,0,2047,3261
231,231,0,2046,3918
232,232,0,2046,4082
233,233,0,2046,3708
234,234,0,2047,2896
235,235,0,2047,1859
236,236,0,2046,870
237,237,0,2046,187
238,238,0,2046,0
239,239,0,2047,329
240,240,0,2047,1117
241,241,0,2047,2146
242,242,0,2047,3148
243,243,0,2047,3858
244,244,0,2046,4091
245,245,0,2047,3786
246,246,0,2047,3020
247,247,0,2047,1998
248,248,0,2047,987
249,249,0,2047,252
250,250,0,2046,0
251,251,0,2047,257
252,252,0,2046,995
253,253,0,2047,2008
254,254,0,2047,3028
255,255,0,2046,3790
256,256,0,2046,4091
257,257,0,2047,3854
258,258,0,2047,3141
259,259,0,2046,2136
260,260,0,2046,1108
261,261,0,2047,324
262,262,0,2047,0
263,263,0,2047,192
264,264,0,2046,879
265,265,0,2047,1870
266,266,0,2046,2905
267,267,0,2046,3713
268,268,0,2046,4082
269,269,0,2046,3915
270,270,0,2046,3254
271,271,0,2047,2274
272,272,0,2046,1233
273,273,0,2047,403
274,274,0,2047,3
275,275,0,2047,135
276,276,0,2046,767
277,277,0,2047,1733
278,278,0,2046,2779
279,279,0,2047,3630
280,280,0,2047,4064
281,281,0,2046,3967
282,282,0,2047,3363
283,283,0,2046,2410
284,284,0,2047,1362
285,285,0,2047,490
286,286,0,2047,26
287,287,0,2046,88
288,288,0,2046,661
289,289,0,2047,1597
290,290,0,2046,2647
291,291,0,2046,3539
292,292,0,2046,4036
293,293,0,2046,4010
294,294,0,2047,3465
295,295,0,2046,2547
296,296,0,2047,1494
297,297,0,2047,585
298,298,0,2046,57
299,299,0,2047,49
300,300,0,2046,562
301,301,0,2046,1463
302,302,0,2047,2514
303,303,0,2047,3440
304,304,0,2047,4000
305,305,0,2046,4045
306,306,0,2046,3562
307,307,0,2047,2680
308,308,0,2046,1628
309,309,0,2046,686
310,310,0,2047,99
311,311,0,2046,20
312,312,0,2046,469
313,313,0,2047,1331
314,314,0,2046,2378
315,315,0,2046,3336
316,316,0,2046,3955
317,317,0,2046,4070
318,318,0,2047,3651
319,319,0,2047,2809
320,320,0,2046,1765
321,321,0,2046,794
322,322,0,2046,148
323,323,0,2046,0
324,324,0,2046,383
325,325,0,2047,1203
326,326,0,2047,2241
327,327,0,2046,3226
328,328,0,2046,3901
329,329,0,2047,4086
330,330,0,2046,3733
331,331,0,2046,2935
332,332,0,2046,1902
333,333,0,2046,905
334,334,0,2046,207
335,335,0,2046,0
336,336,0,2046,306
337,337,0,2046,1079
338,338,0,2046,2103
339,339,0,2046,3111
340,340,0,2047,3837
341,341,0,2046,4092
342,342,0,2046,3808
343,343,0,2046,3059
344,344,0,2046,2041
345,345,0,2046,1024
346,346,0,2046,273
347,347,0,2046,0
348,348,0,2046,236
349,349,0,2046,958
350,350,0,2046,1965
351,351,0,2047,2991
352,352,0,2047,3767
353,353,0,2046,4090
354,354,0,2047,3874
355,355,0,2046,3177
356,356,0,2046,2179
357,357,0,2047,1146
358,358,0,2046,347
359,359,0,2046,0
360,360,0,2046,174
361,361,0,2046,843
362,362,0,2046,1827
363,363,0,2046,2866
364,364,0,2047,3688
365,365,0,2047,4078
366,366,0,2046,3932
367,367,0,2046,3289
368,368,0,2047,2317
369,369,0,2047,1272
370,370,0,2046,429
371,371,0,2047,8
372,372,0,2046,120
373,373,0,2047,734
374,374,0,2046,1690
375,375,0,2047,2738
376,376,0,2046,3602
377,377,0,2046,4056
378,378,0,2046,3982
379,379,0,2047,3395
380,380,0,2046,2453
381,381,0,2046,1403
382,382,0,2047,519
383,383,0,2046,34
384,384,0,2047,75
385,385,0,2046,630
386,386,0,2047,1554
387,387,0,2046,2606
388,388,0,2046,3509
389,389,0,2046,4026
390,390,0,2046,4022
391,391,0,2046,3496
392,392,0,2047,2588
393,393,0,2046,1536
394,394,0,2046,616
395,395,0,2047,70
396,396,0,2046,39
397,397,0,2047,532
398,398,0,2046,1421
399,399,0,2046,2471
400,400,0,2046,3409
401,401,0,2047,3987
402,402,0,2046,4053
403,403,0,2047,3591
404,404,0,2047,2720
405,405,0,2047,1670
406,406,0,2046,719
407,407,0,2046,113
408,408,0,2047,12
409,409,0,2046,442
410,410,0,2047,1290
411,411,0,2046,2336
412,412,0,2047,3303
413,413,0,2047,3939
414,414,0,2047,4076
415,415,0,2046,3678
416,416,0,2046,2849
417,417,0,2046,1808
418,418,0,2046,828
419,419,0,2046,165
420,420,0,2046,0
421,421,0,2047,358
422,422,0,2046,1164
423,423,0,2046,2198
424,424,0,2047,3191
425,425,0,2047,3882
426,426,0,2045,4089
427,427,0,2046,3757
428,428,0,2046,2974
429,429,0,2046,1946
430,430,0,2046,942
431,431,0,2047,226
432,432,0,2046,0
433,433,0,2046,283
434,434,0,2047,1040
435,435,0,2047,2060
436,436,0,2046,3074
437,437,0,2046,3817
438,438,0,2046,4092
439,439,0,2046,3829
440,440,0,2046,3095
441,441,0,2046,2084
442,442,0,2046,1062
443,443,0,2046,296
444,444,0,2046,0
445,445,0,2046,215
446,446,0,2047,923
447,447,0,2046,1922
448,448,0,2046,2952
449,449,0,2046,3743
450,450,0,2046,4087
451,451,0,2046,3893
452,452,0,2047,3211
453,453,0,2047,2222
454,454,0,2046,1185
455,455,0,2047,373
456,456,0,2047,0
457,457,0,2046,156
458,458,0,2047,809
459,459,0,2046,1784
460,460,0,2046,2826
461,461,0,2046,3662
462,462,0,2046,4073
463,463,0,2047,3948
464,464,0,2046,3323
465,465,0,2046,2359
466,466,0,2047,1313
467,467,0,2047,457
468,468,0,2046,16
469,469,0,2046,105
470,470,0,2046,701
471,471,0,2047,1648
472,472,0,2047,2697
473,473,0,2046,3574
474,474,0,2047,4048
475,475,0,2047,3995
476,476,0,2046,3427
477,477,0,2046,2495
478,478,0,2046,1444
479,479,0,2046,549
480,480,0,2046,44
481,481,0,2047,63
482,482,0,2046,600
483,483,0,2046,1513
484,484,0,2047,2564
485,485,0,2046,3479
486,486,0,2046,4014
487,487,0,2046,4033
488,488,0,2047,3527
489,489,0,2047,2629
490,490,0,2046,1577
491,491,0,2046,647
492,492,0,2046,82
493,493,0,2046,29
494,494,0,2046,503
495,495,0,2047,1380
496,496,0,2046,2429
497,497,0,2047,3376
498,498,0,2047,3973
499,499,0,2046,4061
500,500,0,2046,3618
501,501,0,2046,2761
502,502,0,2046,1714
503,503,0,2046,752
504,504,0,2046,128
505,505,0,2047,5
506,506,0,2046,415
507,507,0,2046,1251
508,508,0,2047,2293
509,509,0,2047,3268
510,510,0,2046,3922
511,511,0,2047,4080
512,512,0,2047,3703
513,513,0,2047,2889
514,514,0,2046,1850
515,515,0,2046,863
516,516,0,2046,184
517,517,0,2047,0
518,518,0,2046,334
519,519,0,2046,1125
520,520,0,2046,2155
521,521,0,2046,3156
522,522,0,2047,3862
523,523,0,2046,4091
524,524,0,2047,3781
525,525,0,2047,3013
526,526,0,2046,1989
527,527,0,2046,979
528,528,0,2047,246
529,529,0,2046,0
530,530,0,2046,262
531,531,0,2047,1003
532,532,0,2046,2017
533,533,0,2046,3037
534,534,0,2046,3795
535,535,0,2047,4092
536,536,0,2047,3850
537,537,0,2046,3132
538,538,0,2046,2127
539,539,0,2046,1099
540,540,0,2046,319
541,541,0,2046,0
542,542,0,2047,196
543,543,0,2046,886
544,544,0,2046,1878
545,545,0,2047,2913
546,546,0,2047,3719
547,547,0,2047,4083
548,548,0,2046,3912
549,549,0,2046,3247
550,550,0,2046,2266
551,551,0,2046,1225
552,552,0,2047,398
553,553,0,2046,2
554,554,0,2046,139
555,555,0,2047,775
556,556,0,2047,1742
557,557,0,2047,2786
558,558,0,2047,3635
559,559,0,2047,4066
560,560,0,2047,3965
561,561,0,2046,3356
562,562,0,2046,2402
563,563,0,2047,1354
564,564,0,2046,485
565,565,0,2047,24
566,566,0,2046,91
567,567,0,2047,669
568,568,0,2047,1606
569,569,0,2046,2656
570,570,0,2047,3545
571,571,0,2047,4038
572,572,0,2046,4008
573,573,0,2046,3459
574,574,0,2046,2537
575,575,0,2047,1485
576,576,0,2047,579
577,577,0,2046,55
578,578,0,2047,51
579,579,0,2047,568
580,580,0,2046,1471
581,581,0,2047,2523
582,582,0,2046,3447
583,583,0,2046,4003
584,584,0,2046,4043
585,585,0,2047,3556
586,586,0,2047,2671
587,587,0,2047,1620
588,588,0,2047,679
589,589,0,2046,95
590,590,0,2047,22
591,591,0,2047,475
592,592,0,2047,1340
593,593,0,2047,2387
594,594,0,2047,3343
595,595,0,2047,3958
596,596,0,2046,4069
597,597,0,2046,3646
598,598,0,2046,2801
599,599,0,2047,1756
600,600,0,2046,786
601,601,0,2047,144
602,602,0,2047,0
603,603,0,2046,390
604,604,0,2047,1211
605,605,0,2046,2250
606,606,0,2047,3233
607,607,0,2046,3904
608,608,0,2046,4085
609,609,0,2047,3728
610,610,0,2047,2927
611,611,0,2046,1894
612,612,0,2047,899
613,613,0,2047,203
614,614,0,2046,0
615,615,0,2046,311
616,616,0,2046,1086
617,617,0,2046,2112
618,618,0,2047,3119
619,619,0,2046,3842
620,620,0,2046,4092
621,621,0,2047,3803
622,622,0,2046,3051
623,623,0,2046,2032
624,624,0,2046,1017
625,625,0,2046,269
626,626,0,2047,0
627,627,0,2046,240
628,628,0,2046,966
629,629,0,2047,1974
630,630,0,2046,2999
631,631,0,2047,3772
632,632,0,2046,4090
633,633,0,2047,3870
634,634,0,2046,3168
635,635,0,2047,2170
636,636,0,2046,1138
637,637,0,2046,342
638,638,0,2046,0
639,639,0,2046,178
640,640,0,2047,851
641,641,0,2046,1836
642,642,0,2046,2874
643,643,0,2047,3694
644,644,0,2046,4079
645,645,0,2047,3929
646,646,0,2046,3281
647,647,0,2046,2308
648,648,0,2046,1264
649,649,0,2046,423
650,650,0,2046,8
651,651,0,2047,123
652,652,0,2046,741
653,653,0,2047,1699
654,654,0,2046,2746
655,655,0,2047,3609
656,656,0,2046,4058
657,657,0,2047,3978
658,658,0,2046,3388
659,659,0,2046,2444
660,660,0,2046,1394
661,661,0,2047,513
662,662,0,2046,32
663,663,0,2047,78
664,664,0,2046,636
665,665,0,2046,1563
666,666,0,2046,2615
667,667,0,2046,3516
668,668,0,2047,4029
669,669,0,2046,4020
670,670,0,2046,3490
671,671,0,2046,2580
672,672,0,2046,1527
673,673,0,2046,609
674,674,0,2046,67
675,675,0,2047,41
676,676,0,2047,538
677,677,0,2046,1430
678,678,0,2046,2481
679,679,0,2046,3416
680,680,0,2046,3990
681,681,0,2046,4052
682,682,0,2047,3585
683,683,0,2046,2711
684,684,0,2046,1662
685,685,0,2046,712
686,686,0,2046,110
687,687,0,2047,14
688,688,0,2047,448
689,689,0,2047,1300
690,690,0,2045,2344
691,691,0,2047,3310
692,692,0,2047,3942
693,693,0,2046,4075
694,694,0,2047,3672
695,695,0,2047,2841
696,696,0,2047,1799
697,697,0,2047,821
698,698,0,2046,161
699,699,0,2047,0
700,700,0,2047,363
701,701,0,2046,1171
702,702,0,2046,2207
703,703,0,2047,3199
704,704,0,2046,3885
705,705,0,2047,4088
706,706,0,2046,3752
707,707,0,2046,2966
708,708,0,2047,1937
709,709,0,2047,935
710,710,0,2047,222
711,711,0,2047,0
712,712,0,2046,288
713,713,0,2046,1048
714,714,0,2046,2069
715,715,0,2047,3082
716,716,0,2046,3821
717,717,0,2046,4093
718,718,0,2047,3825
719,719,0,2046,3087
720,720,0,2047,2075
721,721,0,2047,1054
722,722,0,2047,291
723,723,0,2046,0
724,724,0,2047,220
725,725,0,2047,930
726,726,0,2047,1931
727,727,0,2047,2961
728,728,0,2046,3749
729,729,0,2047,4088
730,730,0,2047,3889
731,731,0,2047,3205
732,732,0,2046,2213
733,733,0,2046,1177
734,734,0,2046,367
735,735,0,2046,0
736,736,0,2046,160
737,737,0,2047,816
738,738,0,2046,1793
739,739,0,2046,2834
740,740,0,2046,3667
741,741,0,2047,4073
742,742,0,2047,3945
743,743,0,2047,3315
744,744,0,2046,2351
745,745,0,2046,1305
746,746,0,2046,450
747,747,0,2047,15
748,748,0,2047,108
749,749,0,2046,708
750,750,0,2047,1656
751,751,0,2047,2705
752,752,0,2047,3581
753,753,0,2047,4050
754,754,0,2046,3992
755,755,0,2047,3421
756,756,0,2046,2487
757,757,0,2047,1436
758,758,0,2046,543
759,759,0,2047,42
760,760,0,2046,65
761,761,0,2047,605
762,762,0,2047,1521
763,763,0,2046,2573
764,764,0,2046,3484
765,765,0,2047,4018
766,766,0,2047,4031
767,767,0,2047,3521
768,768,0,2046,2621
769,769,0,2046,1570
770,770,0,2046,641
771,771,0,2047,79
772,772,0,2046,31
773,773,0,2046,509
774,774,0,2046,1389
775,775,0,2047,2438
776,776,0,2046,3382
777,777,0,2047,3976
778,778,0,2047,4060
779,779,0,2046,3613
780,780,0,2047,2752
781,781,0,2047,1705
782,782,0,2046,746
783,783,0,2047,125
784,784,0,2046,7
785,785,0,2047,421
786,786,0,2046,1259
787,787,0,2047,2301
788,788,0,2047,3276
789,789,0,2046,3926
790,790,0,2046,4080
791,791,0,2046,3698
792,792,0,2047,2880
793,793,0,2047,1841
794,794,0,2047,855
795,795,0,2046,179
796,796,0,2046,0
797,797,0,2047,339
798,798,0,2046,1132
799,799,0,2046,2165
800,800,0,2047,3162
801,801,0,2047,3867
802,802,0,2047,4091
803,803,0,2047,3775
804,804,0,2046,3005
805,805,0,2046,1980
806,806,0,2046,971
807,807,0,2046,243
808,808,0,2047,0
809,809,0,2046,265
810,810,0,2047,1010
811,811,0,2046,2026
812,812,0,2046,3044
813,813,0,2047,3799
814,814,0,2046,4092
815,815,0,2046,3846
816,816,0,2047,3125
817,817,0,2046,2119
818,818,0,2047,1091
819,819,0,2046,314
820,820,0,2047,0
821,821,0,2047,199
822,822,0,2046,893
823,823,0,2046,1887
824,824,0,2046,2922
825,825,0,2046,3724
826,826,0,2046,4084
827,827,0,2047,3908
828,828,0,2047,3240
829,829,0,2046,2257
830,830,0,2046,1216
831,831,0,2046,393
832,832,0,2046,0
833,833,0,2046,143
834,834,0,2046,782
835,835,0,2046,1750
836,836,0,2047,2795
837,837,0,2047,3641
838,838,0,2047,4067
839,839,0,2046,3961
840,840,0,2046,3349
841,841,0,2046,2393
842,842,0,2047,1346
843,843,0,2046,479
844,844,0,2046,22
845,845,0,2047,94
846,846,0,2046,674
847,847,0,2046,1614
848,848,0,2047,2664
849,849,0,2046,3552
850,850,0,2046,4041
851,851,0,2046,4005
852,852,0,2046,3452
853,853,0,2046,2529
854,854,0,2047,1477
855,855,0,2047,572
856,856,0,2047,53
857,857,0,2047,54
858,858,0,2047,575
859,859,0,2046,1480
860,860,0,2047,2531
861,861,0,2047,3454
862,862,0,2046,4006
863,863,0,2046,4040
864,864,0,2046,3550
865,865,0,2046,2662
866,866,0,2047,1611
867,867,0,2046,672
868,868,0,2047,92
869,869,0,2046,23
870,870,0,2047,481
871,871,0,2047,1348
872,872,0,2046,2396
873,873,0,2047,3350
874,874,0,2046,3961
875,875,0,2046,4068
876,876,0,2046,3640
877,877,0,2046,2792
878,878,0,2047,1747
879,879,0,2045,779
880,880,0,2047,141
881,881,0,2046,1
882,882,0,2046,395
883,883,0,2046,1219
884,884,0,2046,2259
885,885,0,2047,3241
886,886,0,2046,3908
887,887,0,2046,4085
888,888,0,2046,3724
889,889,0,2047,2919
890,890,0,2047,1885
891,891,0,2047,890
892,892,0,2046,198
893,893,0,2046,0
894,894,0,2046,316
895,895,0,2047,1094
896,896,0,2046,2120
897,897,0,2046,3126
898,898,0,2047,3847
899,899,0,2047,4092
900,900,0,2046,3800
901,901,0,2047,3043
902,902,0,2047,2024
903,903,0,2046,1008
904,904,0,2047,264
905,905,0,2046,0
906,906,0,2046,244
907,907,0,2046,973
908,908,0,2047,1982
909,909,0,2046,3007
910,910,0,2046,3777
911,911,0,2046,4091
912,912,0,2046,3866
913,913,0,2046,3161
914,914,0,2046,2161
915,915,0,2046,1130
916,916,0,2046,337
917,917,0,2046,0
918,918,0,2046,181
919,919,0,2047,858
920,920,0,2047,1845
921,921,0,2047,2882
922,922,0,2046,3699
923,923,0,2047,4079
924,924,0,2046,3925
925,925,0,2046,3274
926,926,0,2047,2299
927,927,0,2046,1256
928,928,0,2046,418
929,929,0,2046,6
930,930,0,2046,126
931,931,0,2047,748
932,932,0,2046,1709
933,933,0,2047,2754
934,934,0,2046,3614
935,935,0,2046,4059
936,936,0,2047,3975
937,937,0,2047,3382
938,938,0,2047,2435
939,939,0,2047,1386
940,940,0,2046,507
941,941,0,2047,31
942,942,0,2046,80
943,943,0,2047,643
944,944,0,2047,1571
945,945,0,2047,2623
946,946,0,2047,3521
947,947,0,2047,4031
948,948,0,2046,4017
949,949,0,2046,3484
950,950,0,2046,2572
951,951,0,2046,1519
952,952,0,2046,603
953,953,0,2046,64
954,954,0,2047,43
955,955,0,2047,545
956,956,0,2046,1438
957,957,0,2046,2490
958,958,0,2047,3423
959,959,0,2047,3993
960,960,0,2047,4050
961,961,0,2046,3579
962,962,0,2047,2703
963,963,0,2046,1653
964,964,0,2046,705
965,965,0,2046,107
966,966,0,2047,14
967,967,0,2046,453
968,968,0,2047,1308
969,969,0,2046,2353
970,970,0,2046,3316
971,971,0,2047,3946
972,972,0,2047,4074
973,973,0,2046,3667
974,974,0,2046,2832
975,975,0,2047,1790
976,976,0,2047,813
977,977,0,2046,157
978,978,0,2045,0
979,979,0,2046,370
980,980,0,2046,1180
981,981,0,2046,2216
982,982,0,2047,3206
983,983,0,2047,3890
984,984,0,2046,4087
985,985,0,2047,3747
986,986,0,2046,2959
987,987,0,2047,1928
988,988,0,2047,927
989,989,0,2046,218
990,990,0,2046,0
991,991,0,2046,292
992,992,0,2046,1056
993,993,0,2046,2077
994,994,0,2047,3089
995,995,0,2047,3825
996,996,0,2046,4093
997,997,0,2047,3821
998,998,0,2047,3080
999,999,0,2047,2066
1000,1000,0,2046,1046
1001,1001,0,2046,286
1002,1002,0,2047,0
1003,1003,0,2047,224
1004,1004,0,2046,937
1005,1005,0,2047,1940
1006,1006,0,2046,2968
1007,1007,0,2047,3753
1008,1008,0,2046,4088
1009,1009,0,2047,3885
1010,1010,0,2046,3197
1011,1011,0,2047,2204
1012,1012,0,2047,1170
1013,1013,0,2046,362
1014,1014,0,2046,0
1015,1015,0,2046,163
1016,1016,0,2046,823
1017,1017,0,2047,1802
1018,1018,0,2046,2842
1019,1019,0,2046,3673
1020,1020,0,2046,4074
1021,1021,0,2047,3942
1022,1022,0,2046,3308
1023,1023,0,2046,2342
1024,1024,0,2046,1296
1025,1025,0,2046,445
1026,1026,0,2046,13
1027,1027,0,2046,111
