Sample in Buffer,Sample in Window,TRIGGER,adc1_data_a_d0[11:0],adc1_data_b_d0[11:0]
0,0,0,2046,4004
1,1,0,2046,3481
2,2,0,2046,2616
3,3,0,2047,1615
4,4,0,2046,715
5,5,0,2046,127
6,6,0,2047,0
7,7,0,2047,344
8,8,0,2047,1096
9,9,0,2046,2073
10,10,0,2046,3041
11,11,0,2047,3770
12,12,0,2047,4090
13,13,0,2047,3923
14,14,0,2046,3309
15,15,0,2047,2394
16,16,0,2046,1394
17,17,0,2047,549
18,18,0,2046,54
19,19,0,2046,31
20,20,0,2047,484
21,21,0,2046,1305
22,22,0,2046,2299
23,23,0,2046,3233
24,24,0,2046,3882
25,25,0,2046,4095
26,26,0,2046,3820
27,27,0,2046,3123
28,28,0,2046,2168
29,29,0,2046,1183
30,30,0,2046,400
31,31,0,2046,6
32,32,0,2046,93
33,33,0,2046,642
34,34,0,2047,1522
35,35,0,2045,2524
36,36,0,2046,3411
37,37,0,2047,3971
38,38,0,2047,4075
39,39,0,2046,3695
40,40,0,2047,2922
41,41,0,2046,1940
42,42,0,2045,981
43,43,0,2046,272
44,44,0,2046,0
45,45,0,2047,180
46,46,0,2046,818
47,47,0,2046,1744
48,48,0,2047,2742
49,49,0,2046,3572
50,50,0,2046,4038
51,51,0,2047,4031
52,52,0,2046,3550
53,53,0,2046,2712
54,54,0,2046,1713
55,55,0,2046,792
56,56,0,2046,166
57,57,0,2046,0
58,58,0,2046,289
59,59,0,2046,1009
60,60,0,2046,1972
61,61,0,2047,2952
62,62,0,2047,3714
63,63,0,2046,4080
64,64,0,2046,3961
65,65,0,2046,3386
66,66,0,2046,2492
67,67,0,2047,1491
68,68,0,2046,618
69,69,0,2047,83
70,70,0,2046,11
71,71,0,2046,420
72,72,0,2046,1212
73,73,0,2046,2200
74,74,0,2046,3151
75,75,0,2047,3836
76,76,0,2046,4095
77,77,0,2046,3867
78,78,0,2046,3206
79,79,0,2046,2268
80,80,0,2046,1274
81,81,0,2047,463
82,82,0,2047,24
83,83,0,2046,63
84,84,0,2046,570
85,85,0,2046,1426
86,86,0,2046,2426
87,87,0,2047,3335
88,88,0,2046,3936
89,89,0,2047,4087
90,90,0,2047,3752
91,91,0,2046,3012
92,92,0,2046,2040
93,93,0,2047,1068
94,94,0,2046,326
95,95,0,2047,0
96,96,0,2047,139
97,97,0,2047,739
98,98,0,2046,1646
99,99,0,2046,2648
100,100,0,2046,3504
101,101,0,2047,4012
102,102,0,2046,4053
103,103,0,2046,3616
104,104,0,2046,2805
105,105,0,2046,1812
106,106,0,2046,873
107,107,0,2047,210
108,108,0,2046,0
109,109,0,2046,239
110,110,0,2046,924
111,111,0,2047,1873
112,112,0,2047,2861
113,113,0,2046,3654
114,114,0,2047,4064
115,115,0,2046,3994
116,116,0,2046,3460
117,117,0,2046,2589
118,118,0,2046,1588
119,119,0,2046,692
120,120,0,2045,117
121,121,0,2046,0
122,122,0,2046,360
123,123,0,2046,1122
124,124,0,2047,2100
125,125,0,2047,3064
126,126,0,2046,3785
127,127,0,2047,4092
128,128,0,2046,3912
129,129,0,2046,3287
130,130,0,2047,2366
131,131,0,2047,1368
132,132,0,2047,529
133,133,0,2046,48
134,134,0,2046,37
135,135,0,2046,502
136,136,0,2046,1332
137,137,0,2046,2328
138,138,0,2046,3255
139,139,0,2047,3895
140,140,0,2047,4094
141,141,0,2046,3806
142,142,0,2046,3098
143,143,0,2046,2140
144,144,0,2047,1157
145,145,0,2046,383
146,146,0,2046,1
147,147,0,2047,103
148,148,0,2046,663
149,149,0,2046,1549
150,150,0,2047,2551
151,151,0,2046,3431
152,152,0,2047,3981
153,153,0,2047,4071
154,154,0,2046,3678
155,155,0,2046,2897
156,156,0,2046,1912
157,157,0,2046,957
158,158,0,2046,258
159,159,0,2047,0
160,160,0,2046,192
161,161,0,2045,841
162,162,0,2047,1773
163,163,0,2046,2769
164,164,0,2047,3591
165,165,0,2046,4045
166,166,0,2047,4024
167,167,0,2047,3532
168,168,0,2046,2685
169,169,0,2046,1686
170,170,0,2047,770
171,171,0,2046,155
172,172,0,2047,0
173,173,0,2046,304
174,174,0,2046,1033
175,175,0,2047,2000
176,176,0,2047,2977
177,177,0,2047,3730
178,178,0,2047,4083
179,179,0,2046,3951
180,180,0,2046,3365
181,181,0,2047,2465
182,182,0,2046,1463
183,183,0,2047,599
184,184,0,2046,75
185,185,0,2047,16
186,186,0,2046,438
187,187,0,2047,1239
188,188,0,2047,2228
189,189,0,2047,3174
190,190,0,2047,3850
191,191,0,2046,4095
192,192,0,2047,3855
193,193,0,2047,3183
194,194,0,2046,2240
195,195,0,2047,1249
196,196,0,2047,445
197,197,0,2047,19
198,198,0,2046,71
199,199,0,2047,590
200,200,0,2046,1452
201,201,0,2046,2454
202,202,0,2046,3356
203,203,0,2046,3947
204,204,0,2046,4085
205,205,0,2047,3737
206,206,0,2046,2987
207,207,0,2046,2012
208,208,0,2046,1043
209,209,0,2047,311
210,210,0,2046,0
211,211,0,2046,150
212,212,0,2047,761
213,213,0,2047,1675
214,214,0,2046,2674
215,215,0,2047,3523
216,216,0,2047,4020
217,217,0,2047,4047
218,218,0,2046,3599
219,219,0,2046,2779
220,220,0,2047,1785
221,221,0,2047,850
222,222,0,2047,197
223,223,0,2047,0
224,224,0,2046,252
225,225,0,2046,946
226,226,0,2046,1900
227,227,0,2046,2886
228,228,0,2046,3671
229,229,0,2046,4069
230,230,0,2046,3985
231,231,0,2047,3441
232,232,0,2047,2562
233,233,0,2047,1560
234,234,0,2047,671
235,235,0,2046,106
236,236,0,2046,0
237,237,0,2046,375
238,238,0,2047,1146
239,239,0,2046,2128
240,240,0,2046,3088
241,241,0,2046,3800
242,242,0,2046,4093
243,243,0,2046,3899
244,244,0,2047,3265
245,245,0,2046,2339
246,246,0,2047,1342
247,247,0,2046,510
248,248,0,2046,40
249,249,0,2046,44
250,250,0,2046,521
251,251,0,2046,1357
252,252,0,2046,2355
253,253,0,2046,3278
254,254,0,2046,3907
255,255,0,2047,4093
256,256,0,2047,3792
257,257,0,2046,3074
258,258,0,2046,2112
259,259,0,2047,1132
260,260,0,2046,367
261,261,0,2046,0
262,262,0,2047,112
263,263,0,2047,684
264,264,0,2046,1577
265,265,0,2047,2578
266,266,0,2046,3452
267,267,0,2046,3991
268,268,0,2047,4066
269,269,0,2046,3662
270,270,0,2046,2871
271,271,0,2046,1884
272,272,0,2046,933
273,273,0,2047,244
274,274,0,2046,0
275,275,0,2047,205
276,276,0,2046,863
277,277,0,2046,1801
278,278,0,2047,2794
279,279,0,2046,3609
280,280,0,2047,4050
281,281,0,2047,4016
282,282,0,2046,3512
283,283,0,2047,2658
284,284,0,2047,1658
285,285,0,2046,748
286,286,0,2046,144
287,287,0,2046,0
288,288,0,2047,319
289,289,0,2046,1058
290,290,0,2047,2028
291,291,0,2046,3002
292,292,0,2047,3745
293,293,0,2047,4086
294,294,0,2046,3940
295,295,0,2046,3344
296,296,0,2046,2438
297,297,0,2047,1438
298,298,0,2047,579
299,299,0,2046,66
300,300,0,2046,22
301,301,0,2046,456
302,302,0,2046,1264
303,303,0,2046,2256
304,304,0,2046,3197
305,305,0,2047,3862
306,306,0,2047,4095
307,307,0,2046,3842
308,308,0,2046,3160
309,309,0,2046,2212
310,310,0,2046,1223
311,311,0,2046,427
312,312,0,2046,13
313,313,0,2046,80
314,314,0,2047,610
315,315,0,2046,1480
316,316,0,2047,2481
317,317,0,2047,3378
318,318,0,2047,3957
319,319,0,2046,4081
320,320,0,2046,3721
321,321,0,2046,2962
322,322,0,2047,1984
323,323,0,2046,1019
324,324,0,2046,296
325,325,0,2046,0
326,326,0,2046,161
327,327,0,2046,782
328,328,0,2047,1702
329,329,0,2046,2700
330,330,0,2046,3543
331,331,0,2046,4027
332,332,0,2047,4041
333,333,0,2046,3580
334,334,0,2046,2753
335,335,0,2046,1757
336,336,0,2046,828
337,337,0,2046,185
338,338,0,2046,0
339,339,0,2047,266
340,340,0,2046,971
341,341,0,2047,1928
342,342,0,2046,2912
343,343,0,2046,3688
344,344,0,2047,4073
345,345,0,2047,3977
346,346,0,2046,3419
347,347,0,2046,2535
348,348,0,2046,1534
349,349,0,2047,651
350,350,0,2046,97
351,351,0,2046,4
352,352,0,2046,393
353,353,0,2047,1172
354,354,0,2046,2157
355,355,0,2047,3112
356,356,0,2047,3814
357,357,0,2046,4094
358,358,0,2047,3888
359,359,0,2046,3242
360,360,0,2047,2312
361,361,0,2046,1316
362,362,0,2046,491
363,363,0,2046,34
364,364,0,2046,51
365,365,0,2046,540
366,366,0,2046,1384
367,367,0,2046,2383
368,368,0,2046,3300
369,369,0,2047,3918
370,370,0,2047,4091
371,371,0,2046,3777
372,372,0,2046,3050
373,373,0,2046,2084
374,374,0,2046,1107
375,375,0,2046,351
376,376,0,2047,0
377,377,0,2047,123
378,378,0,2047,705
379,379,0,2046,1604
380,380,0,2047,2605
381,381,0,2047,3472
382,382,0,2046,3999
383,383,0,2046,4061
384,384,0,2047,3644
385,385,0,2046,2846
386,386,0,2046,1857
387,387,0,2046,910
388,388,0,2047,231
389,389,0,2046,0
390,390,0,2046,218
391,391,0,2046,887
392,392,0,2046,1828
393,393,0,2047,2820
394,394,0,2046,3626
395,395,0,2046,4056
396,396,0,2047,4008
397,397,0,2047,3492
398,398,0,2047,2632
399,399,0,2046,1631
400,400,0,2046,726
401,401,0,2047,134
402,402,0,2047,0
403,403,0,2046,335
404,404,0,2046,1083
405,405,0,2046,2056
406,406,0,2047,3026
407,407,0,2047,3761
408,408,0,2047,4089
409,409,0,2047,3929
410,410,0,2046,3321
411,411,0,2046,2411
412,412,0,2046,1410
413,413,0,2046,560
414,414,0,2047,58
415,415,0,2047,27
416,416,0,2046,473
417,417,0,2047,1290
418,418,0,2046,2284
419,419,0,2046,3219
420,420,0,2046,3875
421,421,0,2047,4095
422,422,0,2047,3828
423,423,0,2047,3136
424,424,0,2046,2184
425,425,0,2047,1198
426,426,0,2047,410
427,427,0,2046,8
428,428,0,2047,88
429,429,0,2047,631
430,430,0,2046,1507
431,431,0,2047,2508
432,432,0,2047,3399
433,433,0,2047,3967
434,434,0,2047,4078
435,435,0,2046,3705
436,436,0,2046,2937
437,437,0,2046,1956
438,438,0,2046,995
439,439,0,2047,281
440,440,0,2047,0
441,441,0,2046,173
442,442,0,2047,805
443,443,0,2046,1729
444,444,0,2046,2727
445,445,0,2046,3561
446,446,0,2046,4035
447,447,0,2046,4035
448,448,0,2046,3561
449,449,0,2047,2727
450,450,0,2046,1729
451,451,0,2046,805
452,452,0,2047,173
453,453,0,2046,0
454,454,0,2046,281
455,455,0,2046,995
456,456,0,2046,1957
457,457,0,2046,2938
458,458,0,2047,3705
459,459,0,2046,4078
460,460,0,2046,3966
461,461,0,2046,3398
462,462,0,2046,2508
463,463,0,2046,1506
464,464,0,2046,630
465,465,0,2046,88
466,466,0,2047,8
467,467,0,2046,410
468,468,0,2046,1197
469,469,0,2047,2184
470,470,0,2046,3137
471,471,0,2046,3829
472,472,0,2047,4095
473,473,0,2046,3875
474,474,0,2046,3219
475,475,0,2046,2284
476,476,0,2046,1289
477,477,0,2047,473
478,478,0,2046,27
479,479,0,2046,59
480,480,0,2046,560
481,481,0,2047,1410
482,482,0,2047,2410
483,483,0,2046,3322
484,484,0,2046,3930
485,485,0,2046,4089
486,486,0,2046,3761
487,487,0,2046,3026
488,488,0,2046,2056
489,489,0,2046,1082
490,490,0,2046,335
491,491,0,2046,0
492,492,0,2046,134
493,493,0,2046,726
494,494,0,2047,1631
495,495,0,2047,2632
496,496,0,2046,3492
497,497,0,2046,4008
498,498,0,2046,4057
499,499,0,2046,3627
500,500,0,2047,2820
501,501,0,2047,1829
502,502,0,2046,887
503,503,0,2046,217
504,504,0,2047,0
505,505,0,2046,231
506,506,0,2046,910
507,507,0,2047,1857
508,508,0,2047,2847
509,509,0,2046,3644
510,510,0,2047,4061
511,511,0,2046,4000
512,512,0,2046,3472
513,513,0,2046,2604
514,514,0,2046,1603
515,515,0,2046,704
516,516,0,2046,123
517,517,0,2046,0
518,518,0,2047,351
519,519,0,2046,1107
520,520,0,2047,2085
521,521,0,2046,3051
522,522,0,2046,3776
523,523,0,2047,4091
524,524,0,2046,3919
525,525,0,2046,3300
526,526,0,2046,2382
527,527,0,2047,1384
528,528,0,2046,540
529,529,0,2046,51
530,530,0,2046,33
531,531,0,2047,491
532,532,0,2047,1316
533,533,0,2046,2312
534,534,0,2046,3243
535,535,0,2046,3888
536,536,0,2046,4095
537,537,0,2046,3814
538,538,0,2047,3113
539,539,0,2046,2155
540,540,0,2046,1171
541,541,0,2046,393
542,542,0,2046,4
543,543,0,2046,98
544,544,0,2046,651
545,545,0,2046,1534
546,546,0,2047,2535
547,547,0,2047,3419
548,548,0,2046,3976
549,549,0,2046,4074
550,550,0,2047,3688
551,551,0,2046,2911
552,552,0,2046,1928
553,553,0,2046,971
554,554,0,2046,266
555,555,0,2046,0
556,556,0,2046,185
557,557,0,2046,827
558,558,0,2046,1758
559,559,0,2046,2754
560,560,0,2047,3580
561,561,0,2046,4041
562,562,0,2046,4028
563,563,0,2047,3543
564,564,0,2047,2700
565,565,0,2046,1700
566,566,0,2046,783
567,567,0,2046,161
568,568,0,2046,0
569,569,0,2046,296
570,570,0,2047,1019
571,571,0,2047,1984
572,572,0,2046,2962
573,573,0,2046,3721
574,574,0,2046,4081
575,575,0,2047,3956
576,576,0,2046,3377
577,577,0,2046,2480
578,578,0,2047,1479
579,579,0,2046,610
580,580,0,2047,80
581,581,0,2047,14
582,582,0,2046,427
583,583,0,2046,1223
584,584,0,2046,2213
585,585,0,2045,3160
586,586,0,2046,3842
587,587,0,2046,4095
588,588,0,2046,3862
589,589,0,2047,3197
590,590,0,2046,2255
591,591,0,2046,1263
592,592,0,2046,455
593,593,0,2046,21
594,594,0,2046,67
595,595,0,2047,579
596,596,0,2047,1437
597,597,0,2047,2438
598,598,0,2046,3344
599,599,0,2046,3941
600,600,0,2047,4086
601,601,0,2047,3746
602,602,0,2046,3001
603,603,0,2046,2028
604,604,0,2046,1057
605,605,0,2047,319
606,606,0,2047,0
607,607,0,2046,144
608,608,0,2046,748
609,609,0,2047,1658
610,610,0,2046,2659
611,611,0,2047,3512
612,612,0,2046,4015
613,613,0,2046,4051
614,614,0,2047,3609
615,615,0,2046,2794
616,616,0,2046,1801
617,617,0,2046,863
618,618,0,2046,205
619,619,0,2046,0
620,620,0,2046,244
621,621,0,2046,933
622,622,0,2047,1885
623,623,0,2046,2872
624,624,0,2046,3662
625,625,0,2047,4067
626,626,0,2047,3991
627,627,0,2046,3451
628,628,0,2047,2577
629,629,0,2046,1576
630,630,0,2046,683
631,631,0,2047,113
632,632,0,2046,0
633,633,0,2047,367
634,634,0,2047,1132
635,635,0,2046,2112
636,636,0,2047,3075
637,637,0,2047,3792
638,638,0,2046,4093
639,639,0,2047,3907
640,640,0,2046,3278
641,641,0,2046,2355
642,642,0,2046,1357
643,643,0,2047,521
644,644,0,2046,44
645,645,0,2047,40
646,646,0,2046,510
647,647,0,2046,1343
648,648,0,2047,2339
649,649,0,2047,3265
650,650,0,2047,3901
651,651,0,2047,4094
652,652,0,2046,3800
653,653,0,2046,3088
654,654,0,2046,2128
655,655,0,2046,1147
656,656,0,2047,377
657,657,0,2046,0
658,658,0,2046,107
659,659,0,2047,672
660,660,0,2046,1560
661,661,0,2046,2562
662,662,0,2047,3440
663,663,0,2047,3985
664,664,0,2047,4069
665,665,0,2046,3671
666,666,0,2046,2886
667,667,0,2046,1901
668,668,0,2046,947
669,669,0,2046,252
670,670,0,2046,0
671,671,0,2046,197
672,672,0,2046,850
673,673,0,2047,1785
674,674,0,2046,2779
675,675,0,2046,3598
676,676,0,2046,4047
677,677,0,2046,4021
678,678,0,2046,3523
679,679,0,2046,2673
680,680,0,2047,1674
681,681,0,2046,760
682,682,0,2047,150
683,683,0,2047,0
684,684,0,2046,311
685,685,0,2046,1044
686,686,0,2046,2012
687,687,0,2046,2987
688,688,0,2046,3737
689,689,0,2047,4085
690,690,0,2046,3946
691,691,0,2047,3356
692,692,0,2046,2453
693,693,0,2046,1452
694,694,0,2046,590
695,695,0,2047,71
696,696,0,2046,18
697,697,0,2046,445
698,698,0,2046,1249
699,699,0,2046,2241
700,700,0,2047,3183
701,701,0,2047,3855
702,702,0,2046,4095
703,703,0,2046,3849
704,704,0,2046,3174
705,705,0,2046,2228
706,706,0,2046,1238
707,707,0,2046,437
708,708,0,2047,17
709,709,0,2046,75
710,710,0,2047,599
711,711,0,2046,1463
712,712,0,2047,2465
713,713,0,2046,3366
714,714,0,2046,3951
715,715,0,2047,4083
716,716,0,2047,3730
717,717,0,2046,2976
718,718,0,2047,2000
719,719,0,2047,1033
720,720,0,2046,304
721,721,0,2047,0
722,722,0,2047,155
723,723,0,2047,770
724,724,0,2046,1686
725,725,0,2046,2686
726,726,0,2046,3531
727,727,0,2047,4024
728,728,0,2046,4044
729,729,0,2046,3590
730,730,0,2047,2768
731,731,0,2046,1773
732,732,0,2047,841
733,733,0,2047,193
734,734,0,2046,0
735,735,0,2047,258
736,736,0,2047,957
737,737,0,2046,1913
738,738,0,2046,2897
739,739,0,2046,3678
740,740,0,2046,4071
741,741,0,2046,3981
742,742,0,2047,3431
743,743,0,2047,2551
744,744,0,2047,1548
745,745,0,2046,663
746,746,0,2046,103
747,747,0,2046,2
748,748,0,2046,383
749,749,0,2047,1158
750,750,0,2047,2140
751,751,0,2046,3099
752,752,0,2046,3806
753,753,0,2046,4094
754,754,0,2046,3895
755,755,0,2046,3256
756,756,0,2046,2328
757,757,0,2047,1330
758,758,0,2046,502
759,759,0,2047,38
760,760,0,2046,47
761,761,0,2046,529
762,762,0,2047,1368
763,763,0,2047,2367
764,764,0,2046,3287
765,765,0,2046,3912
766,766,0,2047,4092
767,767,0,2046,3785
768,768,0,2046,3065
769,769,0,2047,2100
770,770,0,2047,1121
771,771,0,2047,360
772,772,0,2046,0
773,773,0,2046,117
774,774,0,2047,693
775,775,0,2046,1588
776,776,0,2046,2589
777,777,0,2047,3461
778,778,0,2046,3994
779,779,0,2047,4064
780,780,0,2046,3654
781,781,0,2046,2861
782,782,0,2046,1872
783,783,0,2046,923
784,784,0,2046,239
785,785,0,2046,0
786,786,0,2046,210
787,787,0,2047,873
788,788,0,2046,1813
789,789,0,2046,2805
790,790,0,2046,3616
791,791,0,2046,4053
792,792,0,2047,4012
793,793,0,2046,3503
794,794,0,2046,2647
795,795,0,2046,1646
796,796,0,2047,739
797,797,0,2046,139
798,798,0,2046,0
799,799,0,2046,325
800,800,0,2046,1067
801,801,0,2047,2040
802,802,0,2047,3012
803,803,0,2047,3753
804,804,0,2047,4087
805,805,0,2046,3935
806,806,0,2046,3335
807,807,0,2046,2426
808,808,0,2046,1425
809,809,0,2046,571
810,810,0,2046,64
811,811,0,2047,24
812,812,0,2046,462
813,813,0,2046,1274
814,814,0,2046,2268
815,815,0,2047,3206
816,816,0,2046,3869
817,817,0,2047,4095
818,818,0,2046,3836
819,819,0,2046,3150
820,820,0,2046,2200
821,821,0,2046,1212
822,822,0,2046,421
823,823,0,2046,11
824,824,0,2046,83
825,825,0,2047,619
826,826,0,2046,1490
827,827,0,2047,2493
828,828,0,2046,3387
829,829,0,2046,3961
830,830,0,2047,4079
831,831,0,2046,3714
832,832,0,2047,2951
833,833,0,2047,1972
834,834,0,2047,1009
835,835,0,2046,289
836,836,0,2046,0
837,837,0,2047,166
838,838,0,2046,792
839,839,0,2047,1713
840,840,0,2047,2711
841,841,0,2047,3550
842,842,0,2046,4030
843,843,0,2046,4039
844,844,0,2046,3572
845,845,0,2047,2742
846,846,0,2046,1746
847,847,0,2047,818
848,848,0,2046,180
849,849,0,2046,0
850,850,0,2046,273
851,851,0,2046,981
852,852,0,2047,1940
853,853,0,2046,2923
854,854,0,2046,3695
855,855,0,2047,4075
856,856,0,2047,3973
857,857,0,2047,3410
858,858,0,2045,2524
859,859,0,2047,1522
860,860,0,2046,642
861,861,0,2046,94
862,862,0,2046,6
863,863,0,2046,400
864,864,0,2047,1183
865,865,0,2046,2168
866,866,0,2047,3122
867,867,0,2047,3820
868,868,0,2046,4095
869,869,0,2046,3882
870,870,0,2047,3232
871,871,0,2046,2300
872,872,0,2046,1305
873,873,0,2046,484
874,874,0,2047,32
875,875,0,2046,54
876,876,0,2046,548
877,877,0,2046,1395
878,878,0,2047,2395
879,879,0,2046,3309
880,880,0,2047,3923
881,881,0,2047,4090
882,882,0,2046,3771
883,883,0,2047,3039
884,884,0,2047,2072
885,885,0,2046,1097
886,886,0,2046,344
887,887,0,2047,0
888,888,0,2047,127
889,889,0,2047,714
890,890,0,2046,1615
891,891,0,2046,2617
892,892,0,2046,3481
893,893,0,2047,4003
894,894,0,2046,4059
895,895,0,2046,3637
896,896,0,2047,2835
897,897,0,2046,1844
898,898,0,2046,900
899,899,0,2046,225
900,900,0,2047,0
901,901,0,2046,223
902,902,0,2046,896
903,903,0,2046,1841
904,904,0,2047,2832
905,905,0,2047,3634
906,906,0,2047,4058
907,907,0,2046,4004
908,908,0,2047,3483
909,909,0,2047,2620
910,910,0,2047,1619
911,911,0,2047,717
912,912,0,2046,129
913,913,0,2046,0
914,914,0,2046,341
915,915,0,2046,1092
916,916,0,2047,2068
917,917,0,2047,3036
918,918,0,2047,3768
919,919,0,2046,4089
920,920,0,2047,3925
921,921,0,2046,3312
922,922,0,2046,2398
923,923,0,2047,1399
924,924,0,2046,551
925,925,0,2046,56
926,926,0,2046,31
927,927,0,2046,481
928,928,0,2047,1300
929,929,0,2047,2295
930,930,0,2047,3230
931,931,0,2047,3881
932,932,0,2047,4095
933,933,0,2047,3822
934,934,0,2047,3126
935,935,0,2046,2172
936,936,0,2047,1187
937,937,0,2047,403
938,938,0,2047,7
939,939,0,2046,92
940,940,0,2046,639
941,941,0,2046,1519
942,942,0,2047,2519
943,943,0,2046,3407
944,944,0,2047,3970
945,945,0,2046,4075
946,946,0,2046,3698
947,947,0,2047,2927
948,948,0,2046,1944
949,949,0,2046,985
950,950,0,2047,275
951,951,0,2047,0
952,952,0,2046,179
953,953,0,2046,815
954,954,0,2046,1742
955,955,0,2047,2738
956,956,0,2046,3569
957,957,0,2047,4038
958,958,0,2047,4032
959,959,0,2046,3552
960,960,0,2046,2715
961,961,0,2046,1718
962,962,0,2046,796
963,963,0,2047,168
964,964,0,2047,0
965,965,0,2047,287
966,966,0,2047,1005
967,967,0,2047,1968
968,968,0,2046,2948
969,969,0,2047,3711
970,970,0,2046,4079
971,971,0,2047,3963
972,972,0,2047,3389
973,973,0,2047,2496
974,974,0,2046,1494
975,975,0,2046,622
976,976,0,2046,85
977,977,0,2046,11
978,978,0,2046,418
979,979,0,2047,1208
980,980,0,2046,2196
981,981,0,2046,3146
982,982,0,2047,3834
983,983,0,2047,4095
984,984,0,2047,3870
985,985,0,2047,3209
986,986,0,2046,2272
987,987,0,2046,1278
988,988,0,2046,466
989,989,0,2046,25
990,990,0,2047,62
991,991,0,2047,568
992,992,0,2047,1422
993,993,0,2046,2421
994,994,0,2047,3331
995,995,0,2046,3934
996,996,0,2046,4087
997,997,0,2046,3755
998,998,0,2046,3016
999,999,0,2047,2044
1000,1000,0,2046,1071
1001,1001,0,2046,329
1002,1002,0,2047,0
1003,1003,0,2046,138
1004,1004,0,2046,737
1005,1005,0,2046,1642
1006,1006,0,2046,2643
1007,1007,0,2047,3500
1008,1008,0,2047,4011
1009,1009,0,2046,4054
1010,1010,0,2047,3618
1011,1011,0,2047,2809
1012,1012,0,2047,1817
1013,1013,0,2046,877
1014,1014,0,2046,213
1015,1015,0,2046,0
1016,1016,0,2046,237
1017,1017,0,2047,920
1018,1018,0,2046,1869
1019,1019,0,2046,2857
1020,1020,0,2047,3651
1021,1021,0,2047,4064
1022,1022,0,2047,3996
1023,1023,0,2046,3464
1024,1024,0,2046,2593
1025,1025,0,2047,1592
1026,1026,0,2047,696
1027,1027,0,2047,119
1028,1028,0,2046,0
