Sample in Buffer,Sample in Window,TRIGGER,adc1_data_a_d0[11:0],adc1_data_b_d0[11:0]
0,0,0,2047,173
1,1,0,2046,755
2,2,0,2047,1599
3,3,0,2047,2534
4,4,0,2047,3368
5,5,0,2047,3928
6,6,0,2046,4095
7,7,0,2047,3849
8,8,0,2046,3225
9,9,0,2046,2358
10,10,0,2046,1425
11,11,0,2046,619
12,12,0,2046,104
13,13,0,2046,0
14,14,0,2047,289
15,15,0,2046,952
16,16,0,2047,1839
17,17,0,2047,2765
18,18,0,2046,3543
19,19,0,2046,4012
20,20,0,2046,4075
21,21,0,2047,3720
22,22,0,2046,3020
23,23,0,2046,2118
24,24,0,2047,1200
25,25,0,2046,454
26,26,0,2046,33
27,27,0,2047,24
28,28,0,2046,429
29,29,0,2047,1164
30,30,0,2046,2079
31,31,0,2047,2986
32,32,0,2047,3698
33,33,0,2047,4069
34,34,0,2046,4023
35,35,0,2046,3569
36,36,0,2046,2802
37,37,0,2047,1876
38,38,0,2047,985
39,39,0,2047,310
40,40,0,2047,0
41,41,0,2046,91
42,42,0,2046,591
43,43,0,2047,1388
44,44,0,2047,2320
45,45,0,2046,3194
46,46,0,2046,3829
47,47,0,2047,4095
48,48,0,2047,3943
49,49,0,2046,3398
50,50,0,2046,2572
51,51,0,2046,1637
52,52,0,2046,785
53,53,0,2047,190
54,54,0,2047,0
55,55,0,2046,183
56,56,0,2046,773
57,57,0,2046,1622
58,58,0,2046,2557
59,59,0,2046,3385
60,60,0,2046,3937
61,61,0,2045,4095
62,62,0,2046,3838
63,63,0,2046,3207
64,64,0,2047,2336
65,65,0,2047,1404
66,66,0,2046,602
67,67,0,2046,96
68,68,0,2046,0
69,69,0,2047,302
70,70,0,2047,972
71,71,0,2046,1861
72,72,0,2046,2786
73,73,0,2046,3558
74,74,0,2046,4019
75,75,0,2046,4072
76,76,0,2047,3707
77,77,0,2046,2999
78,78,0,2046,2095
79,79,0,2046,1178
80,80,0,2046,439
81,81,0,2046,28
82,82,0,2047,30
83,83,0,2046,444
84,84,0,2046,1186
85,85,0,2046,2103
86,86,0,2047,3006
87,87,0,2046,3711
88,88,0,2046,4073
89,89,0,2046,4016
90,90,0,2046,3554
91,91,0,2046,2780
92,92,0,2047,1853
93,93,0,2047,965
94,94,0,2046,297
95,95,0,2046,0
96,96,0,2045,99
97,97,0,2046,607
98,98,0,2047,1410
99,99,0,2046,2342
100,100,0,2046,3212
101,101,0,2047,3841
102,102,0,2046,4095
103,103,0,2046,3935
104,104,0,2046,3380
105,105,0,2047,2549
106,106,0,2046,1615
107,107,0,2046,767
108,108,0,2047,180
109,109,0,2046,0
110,110,0,2046,193
111,111,0,2047,791
112,112,0,2047,1645
113,113,0,2046,2579
114,114,0,2046,3403
115,115,0,2046,3946
116,116,0,2046,4095
117,117,0,2046,3826
118,118,0,2047,3187
119,119,0,2047,2313
120,120,0,2047,1382
121,121,0,2046,586
122,122,0,2046,88
123,123,0,2046,0
124,124,0,2046,313
125,125,0,2047,992
126,126,0,2047,1884
127,127,0,2046,2807
128,128,0,2047,3575
129,129,0,2046,4025
130,130,0,2046,4068
131,131,0,2046,3694
132,132,0,2046,2979
133,133,0,2046,2072
134,134,0,2047,1158
135,135,0,2046,424
136,136,0,2046,23
137,137,0,2046,34
138,138,0,2046,459
139,139,0,2046,1207
140,140,0,2046,2125
141,141,0,2046,3026
142,142,0,2047,3724
143,143,0,2046,4076
144,144,0,2046,4010
145,145,0,2046,3539
146,146,0,2046,2758
147,147,0,2046,1831
148,148,0,2046,945
149,149,0,2046,285
150,150,0,2046,0
151,151,0,2046,107
152,152,0,2046,624
153,153,0,2046,1433
154,154,0,2046,2366
155,155,0,2046,3231
156,156,0,2046,3852
157,157,0,2046,4095
158,158,0,2046,3925
159,159,0,2046,3361
160,160,0,2046,2527
161,161,0,2046,1592
162,162,0,2047,748
163,163,0,2047,170
164,164,0,2046,0
165,165,0,2046,203
166,166,0,2046,809
167,167,0,2046,1667
168,168,0,2047,2602
169,169,0,2046,3420
170,170,0,2046,3954
171,171,0,2046,4095
172,172,0,2046,3814
173,173,0,2046,3167
174,174,0,2046,2290
175,175,0,2047,1360
176,176,0,2046,570
177,177,0,2047,80
178,178,0,2046,0
179,179,0,2046,327
180,180,0,2047,1012
181,181,0,2046,1908
182,182,0,2047,2830
183,183,0,2047,3590
184,184,0,2046,4031
185,185,0,2046,4063
186,186,0,2046,3680
187,187,0,2046,2959
188,188,0,2047,2049
189,189,0,2046,1137
190,190,0,2046,410
191,191,0,2047,18
192,192,0,2046,40
193,193,0,2047,474
194,194,0,2047,1228
195,195,0,2047,2149
196,196,0,2046,3047
197,197,0,2047,3738
198,198,0,2046,4081
199,199,0,2046,4003
200,200,0,2047,3522
201,201,0,2046,2737
202,202,0,2046,1808
203,203,0,2047,926
204,204,0,2047,272
205,205,0,2047,0
206,206,0,2046,114
207,207,0,2046,641
208,208,0,2047,1455
209,209,0,2047,2388
210,210,0,2047,3250
211,211,0,2046,3864
212,212,0,2046,4095
213,213,0,2047,3916
214,214,0,2047,3344
215,215,0,2047,2505
216,216,0,2046,1570
217,217,0,2047,730
218,218,0,2046,160
219,219,0,2047,0
220,220,0,2046,215
221,221,0,2046,828
222,222,0,2046,1690
223,223,0,2047,2624
224,224,0,2046,3437
225,225,0,2047,3963
226,226,0,2047,4094
227,227,0,2047,3803
228,228,0,2046,3149
229,229,0,2047,2266
230,230,0,2046,1338
231,231,0,2046,553
232,232,0,2046,73
233,233,0,2047,0
234,234,0,2046,341
235,235,0,2046,1031
236,236,0,2046,1931
237,237,0,2046,2851
238,238,0,2046,3604
239,239,0,2047,4037
240,240,0,2046,4059
241,241,0,2046,3666
242,242,0,2047,2938
243,243,0,2046,2025
244,244,0,2046,1116
245,245,0,2046,396
246,246,0,2047,13
247,247,0,2047,46
248,248,0,2046,488
249,249,0,2047,1248
250,250,0,2046,2171
251,251,0,2047,3066
252,252,0,2047,3751
253,253,0,2047,4083
254,254,0,2047,3996
255,255,0,2046,3506
256,256,0,2046,2715
257,257,0,2046,1784
258,258,0,2047,907
259,259,0,2047,261
260,260,0,2047,0
261,261,0,2046,123
262,262,0,2046,658
263,263,0,2047,1477
264,264,0,2046,2411
265,265,0,2046,3269
266,266,0,2047,3873
267,267,0,2046,4095
268,268,0,2047,3906
269,269,0,2047,3326
270,270,0,2046,2482
271,271,0,2047,1547
272,272,0,2045,713
273,273,0,2046,151
274,274,0,2046,0
275,275,0,2046,226
276,276,0,2046,847
277,277,0,2047,1712
278,278,0,2046,2646
279,279,0,2047,3454
280,280,0,2047,3971
281,281,0,2047,4092
282,282,0,2047,3790
283,283,0,2046,3129
284,284,0,2046,2243
285,285,0,2047,1316
286,286,0,2047,537
287,287,0,2046,66
288,288,0,2047,1
289,289,0,2046,353
290,290,0,2046,1052
291,291,0,2046,1953
292,292,0,2046,2872
293,293,0,2047,3619
294,294,0,2047,4043
295,295,0,2046,4054
296,296,0,2046,3651
297,297,0,2047,2917
298,298,0,2047,2002
299,299,0,2047,1095
300,300,0,2047,382
301,301,0,2047,9
302,302,0,2046,53
303,303,0,2047,503
304,304,0,2047,1270
305,305,0,2047,2195
306,306,0,2046,3087
307,307,0,2045,3764
308,308,0,2046,4086
309,309,0,2047,3988
310,310,0,2046,3489
311,311,0,2047,2693
312,312,0,2046,1761
313,313,0,2047,888
314,314,0,2046,250
315,315,0,2047,0
316,316,0,2047,132
317,317,0,2046,676
318,318,0,2046,1499
319,319,0,2047,2434
320,320,0,2047,3287
321,321,0,2047,3884
322,322,0,2046,4095
323,323,0,2046,3896
324,324,0,2046,3308
325,325,0,2047,2459
326,326,0,2046,1524
327,327,0,2046,695
328,328,0,2047,141
329,329,0,2047,0
330,330,0,2046,236
331,331,0,2047,865
332,332,0,2047,1735
333,333,0,2046,2668
334,334,0,2046,3471
335,335,0,2046,3979
336,336,0,2047,4089
337,337,0,2047,3779
338,338,0,2047,3110
339,339,0,2046,2220
340,340,0,2046,1295
341,341,0,2047,522
342,342,0,2046,60
343,343,0,2046,3
344,344,0,2046,367
345,345,0,2047,1072
346,346,0,2046,1976
347,347,0,2046,2893
348,348,0,2046,3634
349,349,0,2046,4048
350,350,0,2046,4049
351,351,0,2046,3637
352,352,0,2046,2896
353,353,0,2046,1979
354,354,0,2047,1075
355,355,0,2046,368
356,356,0,2047,5
357,357,0,2047,59
358,358,0,2046,519
359,359,0,2046,1292
360,360,0,2047,2218
361,361,0,2046,3106
362,362,0,2046,3776
363,363,0,2047,4090
364,364,0,2047,3981
365,365,0,2046,3473
366,366,0,2046,2670
367,367,0,2046,1738
368,368,0,2047,869
369,369,0,2046,238
370,370,0,2046,0
371,371,0,2047,140
372,372,0,2047,692
373,373,0,2046,1522
374,374,0,2046,2457
375,375,0,2047,3306
376,376,0,2047,3894
377,377,0,2046,4095
378,378,0,2046,3886
379,379,0,2046,3289
380,380,0,2047,2437
381,381,0,2047,1502
382,382,0,2047,678
383,383,0,2046,132
384,384,0,2046,0
385,385,0,2046,248
386,386,0,2046,885
387,387,0,2046,1759
388,388,0,2047,2690
389,389,0,2047,3487
390,390,0,2046,3988
391,391,0,2046,4087
392,392,0,2046,3766
393,393,0,2046,3090
394,394,0,2046,2198
395,395,0,2046,1274
396,396,0,2046,506
397,397,0,2047,53
398,398,0,2046,8
399,399,0,2047,380
400,400,0,2047,1093
401,401,0,2046,2000
402,402,0,2046,2914
403,403,0,2046,3649
404,404,0,2047,4053
405,405,0,2047,4044
406,406,0,2046,3622
407,407,0,2046,2875
408,408,0,2047,1956
409,409,0,2047,1055
410,410,0,2046,355
411,411,0,2046,1
412,412,0,2046,66
413,413,0,2046,535
414,414,0,2047,1313
415,415,0,2047,2241
416,416,0,2046,3127
417,417,0,2046,3789
418,418,0,2046,4092
419,419,0,2047,3972
420,420,0,2046,3456
421,421,0,2046,2648
422,422,0,2046,1716
423,423,0,2046,850
424,424,0,2047,227
425,425,0,2047,0
426,426,0,2046,150
427,427,0,2046,711
428,428,0,2047,1545
429,429,0,2047,2480
430,430,0,2046,3324
431,431,0,2046,3904
432,432,0,2047,4095
433,433,0,2047,3876
434,434,0,2047,3271
435,435,0,2047,2415
436,436,0,2047,1479
437,437,0,2047,661
438,438,0,2046,124
439,439,0,2046,0
440,440,0,2047,261
441,441,0,2046,904
442,442,0,2047,1781
443,443,0,2046,2712
444,444,0,2046,3503
445,445,0,2046,3995
446,446,0,2046,4083
447,447,0,2046,3753
448,448,0,2046,3069
449,449,0,2046,2175
450,450,0,2047,1252
451,451,0,2046,490
452,452,0,2046,47
453,453,0,2046,12
454,454,0,2047,395
455,455,0,2047,1113
456,456,0,2046,2023
457,457,0,2046,2935
458,458,0,2046,3664
459,459,0,2046,4058
460,460,0,2046,4039
461,461,0,2046,3607
462,462,0,2047,2853
463,463,0,2047,1933
464,464,0,2046,1034
465,465,0,2047,341
466,466,0,2046,0
467,467,0,2046,72
468,468,0,2047,551
469,469,0,2046,1335
470,470,0,2047,2263
471,471,0,2046,3146
472,472,0,2047,3801
473,473,0,2046,4095
474,474,0,2046,3964
475,475,0,2047,3439
476,476,0,2046,2626
477,477,0,2046,1693
478,478,0,2046,831
479,479,0,2046,215
480,480,0,2046,0
481,481,0,2047,159
482,482,0,2046,728
483,483,0,2046,1567
484,484,0,2046,2502
485,485,0,2046,3342
486,486,0,2047,3914
487,487,0,2047,4095
488,488,0,2047,3864
489,489,0,2047,3253
490,490,0,2046,2392
491,491,0,2047,1457
492,492,0,2046,644
493,493,0,2047,116
494,494,0,2047,0
495,495,0,2047,272
496,496,0,2046,924
497,497,0,2047,1804
498,498,0,2046,2733
499,499,0,2047,3520
500,500,0,2046,4002
501,501,0,2046,4081
502,502,0,2047,3739
503,503,0,2046,3049
504,504,0,2046,2151
505,505,0,2046,1230
506,506,0,2047,475
507,507,0,2047,41
508,508,0,2046,17
509,509,0,2047,408
510,510,0,2046,1134
511,511,0,2046,2046
512,512,0,2046,2956
513,513,0,2046,3677
514,514,0,2046,4062
515,515,0,2047,4032
516,516,0,2046,3592
517,517,0,2046,2832
518,518,0,2046,1910
519,519,0,2046,1013
520,520,0,2046,328
521,521,0,2047,0
522,522,0,2046,80
523,523,0,2047,567
524,524,0,2046,1357
525,525,0,2046,2287
526,526,0,2047,3165
527,527,0,2047,3813
528,528,0,2047,4095
529,529,0,2046,3956
530,530,0,2046,3422
531,531,0,2047,2603
532,532,0,2046,1669
533,533,0,2046,812
534,534,0,2046,205
535,535,0,2046,0
536,536,0,2046,169
537,537,0,2046,746
538,538,0,2046,1590
539,539,0,2046,2524
540,540,0,2047,3360
541,541,0,2047,3924
542,542,0,2046,4095
543,543,0,2046,3853
544,544,0,2047,3234
545,545,0,2047,2369
546,546,0,2046,1435
547,547,0,2046,626
548,548,0,2046,107
549,549,0,2046,0
550,550,0,2047,283
551,551,0,2046,943
552,552,0,2047,1828
553,553,0,2045,2755
554,554,0,2046,3536
555,555,0,2046,4009
556,556,0,2046,4078
557,557,0,2047,3727
558,558,0,2046,3029
559,559,0,2046,2128
560,560,0,2046,1209
561,561,0,2047,460
562,562,0,2047,36
563,563,0,2046,21
564,564,0,2046,422
565,565,0,2046,1155
566,566,0,2047,2069
567,567,0,2046,2976
568,568,0,2046,3692
569,569,0,2046,4066
570,570,0,2046,4026
571,571,0,2047,3576
572,572,0,2047,2811
573,573,0,2046,1887
574,574,0,2046,994
575,575,0,2046,315
576,576,0,2046,0
577,577,0,2046,86
578,578,0,2047,582
579,579,0,2046,1379
580,580,0,2046,2309
581,581,0,2046,3184
582,582,0,2047,3824
583,583,0,2047,4095
584,584,0,2046,3947
585,585,0,2046,3404
586,586,0,2047,2582
587,587,0,2046,1647
588,588,0,2047,794
589,589,0,2046,194
590,590,0,2047,0
591,591,0,2047,178
592,592,0,2046,764
593,593,0,2047,1611
594,594,0,2046,2547
595,595,0,2046,3378
596,596,0,2047,3933
597,597,0,2046,4095
598,598,0,2046,3843
599,599,0,2046,3215
600,600,0,2046,2346
601,601,0,2046,1413
602,602,0,2046,610
603,603,0,2047,99
604,604,0,2046,0
605,605,0,2047,295
606,606,0,2046,963
607,607,0,2046,1851
608,608,0,2047,2777
609,609,0,2046,3551
610,610,0,2046,4015
611,611,0,2046,4073
612,612,0,2047,3713
613,613,0,2046,3009
614,614,0,2046,2105
615,615,0,2046,1188
616,616,0,2046,446
617,617,0,2046,30
618,618,0,2046,26
619,619,0,2047,437
620,620,0,2046,1176
621,621,0,2046,2092
622,622,0,2047,2997
623,623,0,2047,3705
624,624,0,2046,4071
625,625,0,2046,4020
626,626,0,2046,3561
627,627,0,2046,2790
628,628,0,2046,1864
629,629,0,2046,974
630,630,0,2046,303
631,631,0,2046,0
632,632,0,2046,94
633,633,0,2047,600
634,634,0,2047,1401
635,635,0,2046,2332
636,636,0,2046,3204
637,637,0,2046,3836
638,638,0,2046,4095
639,639,0,2046,3938
640,640,0,2047,3387
641,641,0,2047,2560
642,642,0,2046,1625
643,643,0,2047,775
644,644,0,2047,185
645,645,0,2046,0
646,646,0,2046,189
647,647,0,2047,782
648,648,0,2046,1635
649,649,0,2046,2569
650,650,0,2046,3394
651,651,0,2046,3941
652,652,0,2046,4095
653,653,0,2046,3832
654,654,0,2047,3197
655,655,0,2047,2323
656,656,0,2046,1392
657,657,0,2046,594
658,658,0,2047,91
659,659,0,2047,0
660,660,0,2047,309
661,661,0,2046,983
662,662,0,2047,1873
663,663,0,2046,2798
664,664,0,2046,3567
665,665,0,2047,4022
666,666,0,2047,4070
667,667,0,2047,3700
668,668,0,2046,2988
669,669,0,2047,2083
670,670,0,2046,1167
671,671,0,2046,431
672,672,0,2046,25
673,673,0,2047,32
674,674,0,2047,452
675,675,0,2046,1197
676,676,0,2047,2115
677,677,0,2047,3017
678,678,0,2047,3719
679,679,0,2046,4075
680,680,0,2047,4013
681,681,0,2046,3545
682,682,0,2047,2768
683,683,0,2047,1841
684,684,0,2045,955
685,685,0,2046,291
686,686,0,2047,0
687,687,0,2047,103
688,688,0,2047,617
689,689,0,2046,1423
690,690,0,2046,2356
691,691,0,2046,3222
692,692,0,2047,3847
693,693,0,2046,4095
694,694,0,2047,3930
695,695,0,2047,3370
696,696,0,2046,2537
697,697,0,2046,1602
698,698,0,2046,757
699,699,0,2046,175
700,700,0,2047,0
701,701,0,2047,199
702,702,0,2046,801
703,703,0,2046,1657
704,704,0,2046,2591
705,705,0,2046,3412
706,706,0,2046,3951
707,707,0,2046,4095
708,708,0,2047,3819
709,709,0,2047,3176
710,710,0,2047,2300
711,711,0,2047,1370
712,712,0,2047,576
713,713,0,2046,84
714,714,0,2047,0
715,715,0,2047,321
716,716,0,2047,1003
717,717,0,2047,1897
718,718,0,2047,2820
719,719,0,2046,3582
720,720,0,2046,4029
721,721,0,2047,4065
722,722,0,2046,3686
723,723,0,2047,2968
724,724,0,2047,2059
725,725,0,2046,1146
726,726,0,2047,417
727,727,0,2046,20
728,728,0,2046,38
729,729,0,2046,467
730,730,0,2046,1218
731,731,0,2047,2139
732,732,0,2047,3037
733,733,0,2046,3732
734,734,0,2046,4079
735,735,0,2046,4006
736,736,0,2046,3530
737,737,0,2046,2746
738,738,0,2047,1819
739,739,0,2046,934
740,740,0,2047,279
741,741,0,2046,0
742,742,0,2046,111
743,743,0,2046,633
744,744,0,2046,1446
745,745,0,2047,2378
746,746,0,2047,3242
747,747,0,2047,3858
748,748,0,2047,4095
749,749,0,2047,3920
750,750,0,2047,3352
751,751,0,2046,2515
752,752,0,2046,1580
753,753,0,2047,739
754,754,0,2047,165
755,755,0,2046,0
756,756,0,2047,210
757,757,0,2046,820
758,758,0,2046,1680
759,759,0,2046,2613
760,760,0,2047,3429
761,761,0,2046,3959
762,762,0,2047,4095
763,763,0,2046,3809
764,764,0,2047,3158
765,765,0,2046,2277
766,766,0,2047,1348
767,767,0,2047,560
768,768,0,2046,76
769,769,0,2047,0
770,770,0,2046,334
771,771,0,2047,1023
772,772,0,2047,1920
773,773,0,2047,2841
774,774,0,2046,3597
775,775,0,2046,4034
776,776,0,2046,4061
777,777,0,2046,3672
778,778,0,2047,2947
779,779,0,2046,2036
780,780,0,2046,1126
781,781,0,2046,402
782,782,0,2046,15
783,783,0,2046,44
784,784,0,2046,481
785,785,0,2047,1239
786,786,0,2047,2161
787,787,0,2046,3057
788,788,0,2046,3745
789,789,0,2046,4082
790,790,0,2047,3999
791,791,0,2046,3513
792,792,0,2046,2724
793,793,0,2047,1795
794,794,0,2047,916
795,795,0,2046,266
796,796,0,2046,0
797,797,0,2046,119
798,798,0,2046,650
799,799,0,2046,1467
800,800,0,2046,2401
801,801,0,2046,3261
802,802,0,2046,3869
803,803,0,2046,4095
804,804,0,2047,3910
805,805,0,2046,3334
806,806,0,2046,2492
807,807,0,2047,1557
808,808,0,2046,721
809,809,0,2046,156
810,810,0,2047,0
811,811,0,2047,220
812,812,0,2046,838
813,813,0,2046,1702
814,814,0,2046,2636
815,815,0,2047,3446
816,816,0,2046,3968
817,817,0,2045,4093
818,818,0,2047,3796
819,819,0,2046,3138
820,820,0,2046,2254
821,821,0,2047,1326
822,822,0,2046,544
823,823,0,2047,69
824,824,0,2046,0
825,825,0,2046,347
826,826,0,2046,1043
827,827,0,2046,1943
828,828,0,2047,2863
829,829,0,2046,3613
830,830,0,2047,4040
831,831,0,2046,4057
832,832,0,2046,3658
833,833,0,2046,2926
834,834,0,2047,2013
835,835,0,2046,1105
836,836,0,2046,388
837,837,0,2046,11
838,838,0,2046,50
839,839,0,2046,497
840,840,0,2047,1260
841,841,0,2046,2184
842,842,0,2047,3078
843,843,0,2046,3758
844,844,0,2046,4085
845,845,0,2047,3991
846,846,0,2047,3497
847,847,0,2046,2703
848,848,0,2046,1771
849,849,0,2047,897
850,850,0,2046,255
851,851,0,2046,0
852,852,0,2047,128
853,853,0,2046,668
854,854,0,2047,1490
855,855,0,2046,2423
856,856,0,2047,3279
857,857,0,2046,3879
858,858,0,2047,4095
859,859,0,2047,3901
860,860,0,2047,3316
861,861,0,2046,2470
862,862,0,2046,1534
863,863,0,2046,703
864,864,0,2046,145
865,865,0,2046,0
866,866,0,2046,232
867,867,0,2047,857
868,868,0,2046,1725
869,869,0,2046,2658
870,870,0,2046,3463
871,871,0,2046,3976
872,872,0,2046,4090
873,873,0,2046,3784
874,874,0,2047,3118
875,875,0,2046,2231
876,876,0,2046,1304
877,877,0,2046,529
878,878,0,2046,62
879,879,0,2046,2
880,880,0,2046,361
881,881,0,2046,1064
882,882,0,2046,1966
883,883,0,2046,2883
884,884,0,2047,3628
885,885,0,2047,4046
886,886,0,2047,4051
887,887,0,2047,3643
888,888,0,2046,2906
889,889,0,2046,1990
890,890,0,2046,1084
891,891,0,2046,374
892,892,0,2047,7
893,893,0,2047,56
894,894,0,2046,512
895,895,0,2047,1282
896,896,0,2046,2207
897,897,0,2047,3098
898,898,0,2047,3771
899,899,0,2046,4088
900,900,0,2046,3984
901,901,0,2046,3480
902,902,0,2046,2680
903,903,0,2046,1749
904,904,0,2047,877
905,905,0,2048,243
906,906,0,2047,0
907,907,0,2046,137
908,908,0,2046,685
909,909,0,2046,1512
910,910,0,2046,2446
911,911,0,2047,3298
912,912,0,2046,3889
913,913,0,2046,4095
914,914,0,2046,3891
915,915,0,2046,3297
916,916,0,2047,2448
917,917,0,2047,1512
918,918,0,2047,685
919,919,0,2047,136
920,920,0,2046,0
921,921,0,2046,243
922,922,0,2046,876
923,923,0,2046,1748
924,924,0,2046,2681
925,925,0,2047,3480
926,926,0,2047,3984
927,927,0,2047,4088
928,928,0,2047,3771
929,929,0,2047,3098
930,930,0,2047,2208
931,931,0,2046,1283
932,932,0,2046,513
933,933,0,2046,56
934,934,0,2047,6
935,935,0,2046,374
936,936,0,2046,1084
937,937,0,2046,1989
938,938,0,2046,2905
939,939,0,2046,3642
940,940,0,2046,4051
941,941,0,2047,4046
942,942,0,2046,3629
943,943,0,2046,2885
944,944,0,2047,1966
945,945,0,2047,1064
946,946,0,2046,360
947,947,0,2046,3
948,948,0,2046,63
949,949,0,2047,529
950,950,0,2047,1304
951,951,0,2047,2231
952,952,0,2047,3118
953,953,0,2046,3783
954,954,0,2046,4090
955,955,0,2047,3976
956,956,0,2047,3463
957,957,0,2047,2658
958,958,0,2047,1726
959,959,0,2046,857
960,960,0,2047,232
961,961,0,2047,0
962,962,0,2046,146
963,963,0,2046,703
964,964,0,2047,1535
965,965,0,2046,2470
966,966,0,2047,3316
967,967,0,2046,3900
968,968,0,2047,4095
969,969,0,2046,3881
970,970,0,2046,3279
971,971,0,2046,2424
972,972,0,2047,1490
973,973,0,2046,668
974,974,0,2046,127
975,975,0,2047,0
976,976,0,2047,255
977,977,0,2046,895
978,978,0,2046,1772
979,979,0,2047,2702
980,980,0,2046,3496
981,981,0,2046,3992
982,982,0,2046,4085
983,983,0,2046,3758
984,984,0,2046,3079
985,985,0,2046,2185
986,986,0,2047,1261
987,987,0,2046,498
988,988,0,2046,50
989,989,0,2047,11
990,990,0,2046,388
991,991,0,2046,1104
992,992,0,2046,2012
993,993,0,2047,2926
994,994,0,2046,3656
995,995,0,2047,4056
996,996,0,2047,4040
997,997,0,2047,3613
998,998,0,2046,2863
999,999,0,2047,1943
1000,1000,0,2046,1044
1001,1001,0,2046,347
1002,1002,0,2046,0
1003,1003,0,2047,70
1004,1004,0,2046,544
1005,1005,0,2047,1325
1006,1006,0,2046,2253
1007,1007,0,2047,3137
1008,1008,0,2047,3795
1009,1009,0,2046,4093
1010,1010,0,2047,3968
1011,1011,0,2047,3447
1012,1012,0,2046,2636
1013,1013,0,2047,1703
1014,1014,0,2046,838
1015,1015,0,2046,221
1016,1016,0,2047,0
1017,1017,0,2046,155
1018,1018,0,2046,721
1019,1019,0,2046,1557
1020,1020,0,2046,2491
1021,1021,0,2046,3334
1022,1022,0,2046,3909
1023,1023,0,2046,4095
1024,1024,0,2046,3870
1025,1025,0,2047,3261
1026,1026,0,2046,2401
1027,1027,0,2046,1467
1028,1028,0,2046,650
