Sample in Buffer,Sample in Window,TRIGGER,adc1_data_a_d0[11:0],adc1_data_b_d0[11:0]
0,0,0,2046,2896
1,1,0,2047,3373
2,2,0,2047,3753
3,3,0,2046,4010
4,4,0,2046,4095
5,5,0,2046,4089
6,6,0,2047,3905
7,7,0,2046,3585
8,8,0,2046,3156
9,9,0,2047,2645
10,10,0,2046,2090
11,11,0,2047,1532
12,12,0,2046,1010
13,13,0,2047,562
14,14,0,2046,222
15,15,0,2047,11
16,16,0,2047,0
17,17,0,2046,34
18,18,0,2046,266
19,19,0,2047,626
20,20,0,2046,1086
21,21,0,2047,1617
22,22,0,2046,2178
23,23,0,2046,2728
24,24,0,2047,3229
25,25,0,2046,3644
26,26,0,2047,3942
27,27,0,2047,4095
28,28,0,2046,4095
29,29,0,2046,3979
30,30,0,2046,3702
31,31,0,2047,3305
32,32,0,2046,2816
33,33,0,2046,2271
34,34,0,2047,1710
35,35,0,2046,1171
36,36,0,2046,696
37,37,0,2046,318
38,38,0,2046,63
39,39,0,2046,0
40,40,0,2046,0
41,41,0,2047,176
42,42,0,2046,497
43,43,0,2046,929
44,44,0,2046,1442
45,45,0,2046,1996
46,46,0,2047,2555
47,47,0,2046,3076
48,48,0,2047,3521
49,49,0,2046,3861
50,50,0,2046,4068
51,51,0,2047,4095
52,52,0,2046,4040
53,53,0,2046,3806
54,54,0,2047,3444
55,55,0,2046,2981
56,56,0,2046,2449
57,57,0,2047,1888
58,58,0,2047,1338
59,59,0,2047,839
60,60,0,2046,426
61,61,0,2047,130
62,62,0,2047,0
63,63,0,2047,0
64,64,0,2046,101
65,65,0,2047,380
66,66,0,2046,780
67,67,0,2046,1271
68,68,0,2046,1816
69,69,0,2046,2377
70,70,0,2046,2914
71,71,0,2047,3389
72,72,0,2047,3765
73,73,0,2046,4017
74,74,0,2046,4095
75,75,0,2046,4085
76,76,0,2046,3895
77,77,0,2047,3572
78,78,0,2047,3138
79,79,0,2046,2625
80,80,0,2046,2069
81,81,0,2047,1512
82,82,0,2047,992
83,83,0,2046,548
84,84,0,2046,211
85,85,0,2046,6
86,86,0,2047,0
87,87,0,2046,40
88,88,0,2046,277
89,89,0,2046,641
90,90,0,2046,1105
91,91,0,2047,1636
92,92,0,2046,2198
93,93,0,2046,2747
94,94,0,2046,3246
95,95,0,2046,3657
96,96,0,2046,3951
97,97,0,2046,4095
98,98,0,2046,4095
99,99,0,2046,3971
100,100,0,2046,3689
101,101,0,2046,3287
102,102,0,2046,2796
103,103,0,2046,2250
104,104,0,2046,1688
105,105,0,2046,1152
106,106,0,2046,680
107,107,0,2046,306
108,108,0,2046,56
109,109,0,2046,0
110,110,0,2046,0
111,111,0,2046,186
112,112,0,2046,511
113,113,0,2046,946
114,114,0,2046,1461
115,115,0,2046,2017
116,116,0,2046,2575
117,117,0,2046,3093
118,118,0,2046,3536
119,119,0,2046,3871
120,120,0,2047,4073
121,121,0,2046,4095
122,122,0,2046,4033
123,123,0,2047,3794
124,124,0,2046,3427
125,125,0,2047,2962
126,126,0,2047,2429
127,127,0,2046,1868
128,128,0,2046,1320
129,129,0,2046,822
130,130,0,2046,413
131,131,0,2046,121
132,132,0,2047,0
133,133,0,2047,0
134,134,0,2047,108
135,135,0,2046,394
136,136,0,2046,798
137,137,0,2046,1289
138,138,0,2047,1837
139,139,0,2047,2398
140,140,0,2046,2933
141,141,0,2047,3404
142,142,0,2047,3777
143,143,0,2046,4024
144,144,0,2047,4095
145,145,0,2046,4081
146,146,0,2046,3886
147,147,0,2047,3557
148,148,0,2047,3121
149,149,0,2046,2605
150,150,0,2046,2049
151,151,0,2047,1491
152,152,0,2047,974
153,153,0,2046,534
154,154,0,2047,201
155,155,0,2046,1
156,156,0,2046,0
157,157,0,2046,46
158,158,0,2047,288
159,159,0,2047,656
160,160,0,2046,1124
161,161,0,2047,1657
162,162,0,2046,2219
163,163,0,2047,2767
164,164,0,2047,3263
165,165,0,2046,3670
166,166,0,2047,3960
167,167,0,2046,4095
168,168,0,2046,4095
169,169,0,2046,3963
170,170,0,2046,3676
171,171,0,2046,3271
172,172,0,2046,2777
173,173,0,2046,2229
174,174,0,2046,1668
175,175,0,2046,1134
176,176,0,2046,664
177,177,0,2047,294
178,178,0,2047,51
179,179,0,2047,0
180,180,0,2046,0
181,181,0,2046,196
182,182,0,2047,526
183,183,0,2047,965
184,184,0,2046,1481
185,185,0,2046,2038
186,186,0,2046,2595
187,187,0,2046,3111
188,188,0,2046,3550
189,189,0,2045,3881
190,190,0,2046,4078
191,191,0,2046,4095
192,192,0,2046,4027
193,193,0,2046,3782
194,194,0,2047,3412
195,195,0,2046,2943
196,196,0,2046,2408
197,197,0,2046,1847
198,198,0,2046,1300
199,199,0,2046,805
200,200,0,2046,400
201,201,0,2046,113
202,202,0,2047,0
203,203,0,2046,0
204,204,0,2046,117
205,205,0,2046,407
206,206,0,2047,814
207,207,0,2046,1309
208,208,0,2047,1857
209,209,0,2046,2418
210,210,0,2046,2953
211,211,0,2046,3420
212,212,0,2046,3788
213,213,0,2046,4030
214,214,0,2046,4095
215,215,0,2046,4075
216,216,0,2046,3876
217,217,0,2046,3543
218,218,0,2047,3103
219,219,0,2046,2585
220,220,0,2047,2028
221,221,0,2047,1471
222,222,0,2046,956
223,223,0,2047,519
224,224,0,2047,190
225,225,0,2046,0
226,226,0,2046,0
227,227,0,2046,52
228,228,0,2047,300
229,229,0,2047,672
230,230,0,2047,1143
231,231,0,2046,1678
232,232,0,2047,2239
233,233,0,2046,2786
234,234,0,2046,3279
235,235,0,2046,3683
236,236,0,2046,3967
237,237,0,2046,4095
238,238,0,2047,4095
239,239,0,2046,3955
240,240,0,2046,3663
241,241,0,2046,3253
242,242,0,2046,2757
243,243,0,2046,2208
244,244,0,2047,1648
245,245,0,2046,1115
246,246,0,2047,648
247,247,0,2047,283
248,248,0,2047,44
249,249,0,2046,0
250,250,0,2047,3
251,251,0,2046,206
252,252,0,2046,540
253,253,0,2047,982
254,254,0,2046,1501
255,255,0,2046,2059
256,256,0,2047,2615
257,257,0,2046,3129
258,258,0,2046,3565
259,259,0,2047,3891
260,260,0,2046,4082
261,261,0,2046,4095
262,262,0,2047,4021
263,263,0,2046,3771
264,264,0,2046,3396
265,265,0,2046,2925
266,266,0,2047,2387
267,267,0,2047,1826
268,268,0,2047,1280
269,269,0,2046,789
270,270,0,2046,387
271,271,0,2046,106
272,272,0,2047,0
273,273,0,2047,0
274,274,0,2046,126
275,275,0,2046,420
276,276,0,2046,830
277,277,0,2046,1329
278,278,0,2046,1878
279,279,0,2046,2439
280,280,0,2046,2971
281,281,0,2046,3436
282,282,0,2046,3799
283,283,0,2046,4036
284,284,0,2046,4095
285,285,0,2046,4072
286,286,0,2047,3866
287,287,0,2047,3529
288,288,0,2046,3085
289,289,0,2046,2565
290,290,0,2046,2007
291,291,0,2046,1451
292,292,0,2047,938
293,293,0,2046,505
294,294,0,2047,181
295,295,0,2046,0
296,296,0,2046,0
297,297,0,2047,59
298,298,0,2046,312
299,299,0,2047,688
300,300,0,2047,1162
301,301,0,2046,1699
302,302,0,2046,2261
303,303,0,2047,2806
304,304,0,2046,3296
305,305,0,2046,3696
306,306,0,2047,3975
307,307,0,2046,4095
308,308,0,2047,4095
309,309,0,2047,3946
310,310,0,2046,3650
311,311,0,2046,3237
312,312,0,2047,2738
313,313,0,2046,2187
314,314,0,2046,1627
315,315,0,2046,1096
316,316,0,2046,633
317,317,0,2047,272
318,318,0,2046,38
319,319,0,2047,0
320,320,0,2046,8
321,321,0,2046,216
322,322,0,2047,555
323,323,0,2046,1001
324,324,0,2047,1521
325,325,0,2046,2080
326,326,0,2046,2635
327,327,0,2046,3147
328,328,0,2046,3579
329,329,0,2047,3900
330,330,0,2046,4087
331,331,0,2046,4095
332,332,0,2046,4013
333,333,0,2047,3759
334,334,0,2046,3380
335,335,0,2046,2905
336,336,0,2047,2367
337,337,0,2046,1805
338,338,0,2046,1260
339,339,0,2046,772
340,340,0,2046,375
341,341,0,2047,97
342,342,0,2046,0
343,343,0,2047,0
344,344,0,2046,134
345,345,0,2046,433
346,346,0,2047,848
347,347,0,2047,1348
348,348,0,2046,1899
349,349,0,2046,2460
350,350,0,2047,2990
351,351,0,2046,3452
352,352,0,2046,3811
353,353,0,2046,4043
354,354,0,2046,4095
355,355,0,2046,4066
356,356,0,2047,3855
357,357,0,2046,3514
358,358,0,2047,3066
359,359,0,2046,2544
360,360,0,2046,1986
361,361,0,2046,1432
362,362,0,2047,921
363,363,0,2047,490
364,364,0,2046,172
365,365,0,2046,0
366,366,0,2046,0
367,367,0,2046,66
368,368,0,2046,323
369,369,0,2047,703
370,370,0,2046,1181
371,371,0,2047,1719
372,372,0,2047,2282
373,373,0,2047,2825
374,374,0,2046,3313
375,375,0,2046,3709
376,376,0,2046,3983
377,377,0,2047,4095
378,378,0,2046,4095
379,379,0,2047,3938
380,380,0,2046,3636
381,381,0,2046,3220
382,382,0,2047,2718
383,383,0,2047,2166
384,384,0,2046,1606
385,385,0,2046,1077
386,386,0,2046,618
387,387,0,2047,260
388,388,0,2047,32
389,389,0,2046,0
390,390,0,2046,13
391,391,0,2046,226
392,392,0,2047,570
393,393,0,2046,1020
394,394,0,2046,1542
395,395,0,2046,2101
396,396,0,2046,2655
397,397,0,2047,3165
398,398,0,2047,3593
399,399,0,2046,3909
400,400,0,2046,4091
401,401,0,2046,4095
402,402,0,2047,4006
403,403,0,2046,3747
404,404,0,2047,3364
405,405,0,2047,2887
406,406,0,2046,2346
407,407,0,2046,1784
408,408,0,2046,1241
409,409,0,2047,756
410,410,0,2046,362
411,411,0,2047,89
412,412,0,2046,0
413,413,0,2046,0
414,414,0,2046,142
415,415,0,2046,446
416,416,0,2046,865
417,417,0,2046,1368
418,418,0,2047,1919
419,419,0,2047,2480
420,420,0,2046,3008
421,421,0,2047,3467
422,422,0,2047,3822
423,423,0,2046,4048
424,424,0,2046,4095
425,425,0,2046,4061
426,426,0,2046,3844
427,427,0,2046,3499
428,428,0,2046,3048
429,429,0,2047,2523
430,430,0,2047,1965
431,431,0,2047,1411
432,432,0,2046,903
433,433,0,2046,476
434,434,0,2046,163
435,435,0,2047,0
436,436,0,2047,0
437,437,0,2047,73
438,438,0,2047,335
439,439,0,2046,720
440,440,0,2047,1200
441,441,0,2047,1740
442,442,0,2046,2301
443,443,0,2046,2845
444,444,0,2047,3329
445,445,0,2046,3721
446,446,0,2046,3991
447,447,0,2046,4095
448,448,0,2046,4095
449,449,0,2047,3930
450,450,0,2047,3623
451,451,0,2047,3203
452,452,0,2046,2698
453,453,0,2046,2146
454,454,0,2046,1586
455,455,0,2046,1059
456,456,0,2047,602
457,457,0,2047,249
458,458,0,2046,25
459,459,0,2047,0
460,460,0,2046,18
461,461,0,2047,237
462,462,0,2047,586
463,463,0,2047,1037
464,464,0,2047,1562
465,465,0,2046,2122
466,466,0,2046,2675
467,467,0,2046,3183
468,468,0,2047,3607
469,469,0,2047,3919
470,470,0,2046,4095
471,471,0,2046,4095
472,472,0,2047,3999
473,473,0,2046,3734
474,474,0,2046,3348
475,475,0,2046,2866
476,476,0,2046,2326
477,477,0,2046,1763
478,478,0,2046,1222
479,479,0,2047,739
480,480,0,2046,350
481,481,0,2046,82
482,482,0,2047,0
483,483,0,2046,0
484,484,0,2046,152
485,485,0,2047,460
486,486,0,2047,883
487,487,0,2047,1389
488,488,0,2046,1942
489,489,0,2047,2500
490,490,0,2046,3027
491,491,0,2046,3482
492,492,0,2047,3832
493,493,0,2047,4054
494,494,0,2046,4095
495,495,0,2047,4055
496,496,0,2046,3834
497,497,0,2046,3484
498,498,0,2047,3029
499,499,0,2046,2504
500,500,0,2046,1945
501,501,0,2047,1392
502,502,0,2046,885
503,503,0,2047,463
504,504,0,2047,154
505,505,0,2046,0
506,506,0,2046,0
507,507,0,2047,81
508,508,0,2046,348
509,509,0,2047,737
510,510,0,2047,1219
511,511,0,2046,1761
512,512,0,2046,2323
513,513,0,2047,2864
514,514,0,2046,3346
515,515,0,2046,3733
516,516,0,2046,3998
517,517,0,2047,4095
518,518,0,2046,4095
519,519,0,2046,3921
520,520,0,2046,3609
521,521,0,2046,3184
522,522,0,2047,2678
523,523,0,2047,2125
524,524,0,2047,1565
525,525,0,2046,1040
526,526,0,2046,587
527,527,0,2047,238
528,528,0,2047,20
529,529,0,2046,0
530,530,0,2046,24
531,531,0,2047,247
532,532,0,2046,600
533,533,0,2047,1056
534,534,0,2047,1583
535,535,0,2047,2142
536,536,0,2046,2695
537,537,0,2046,3199
538,538,0,2046,3621
539,539,0,2046,3928
540,540,0,2046,4095
541,541,0,2045,4095
542,542,0,2046,3992
543,543,0,2046,3723
544,544,0,2047,3332
545,545,0,2046,2848
546,546,0,2046,2305
547,547,0,2047,1744
548,548,0,2047,1203
549,549,0,2047,722
550,550,0,2047,337
551,551,0,2046,74
552,552,0,2046,0
553,553,0,2046,0
554,554,0,2047,161
555,555,0,2047,474
556,556,0,2046,900
557,557,0,2046,1408
558,558,0,2046,1963
559,559,0,2047,2521
560,560,0,2047,3045
561,561,0,2047,3497
562,562,0,2047,3843
563,563,0,2047,4060
564,564,0,2046,4095
565,565,0,2046,4050
566,566,0,2047,3823
567,567,0,2046,3469
568,568,0,2047,3011
569,569,0,2047,2484
570,570,0,2046,1924
571,571,0,2047,1372
572,572,0,2046,869
573,573,0,2047,449
574,574,0,2046,144
575,575,0,2046,0
576,576,0,2046,0
577,577,0,2046,88
578,578,0,2047,360
579,579,0,2047,753
580,580,0,2046,1238
581,581,0,2047,1782
582,582,0,2046,2344
583,583,0,2046,2883
584,584,0,2047,3362
585,585,0,2046,3745
586,586,0,2046,4005
587,587,0,2046,4095
588,588,0,2046,4092
589,589,0,2046,3911
590,590,0,2046,3595
591,591,0,2046,3167
592,592,0,2046,2658
593,593,0,2047,2104
594,594,0,2046,1545
595,595,0,2046,1022
596,596,0,2046,572
597,597,0,2046,228
598,598,0,2046,14
599,599,0,2046,0
600,600,0,2046,30
601,601,0,2047,258
602,602,0,2046,615
603,603,0,2046,1074
604,604,0,2047,1603
605,605,0,2046,2163
606,606,0,2047,2715
607,607,0,2047,3217
608,608,0,2046,3634
609,609,0,2046,3937
610,610,0,2046,4095
611,611,0,2046,4095
612,612,0,2046,3984
613,613,0,2046,3710
614,614,0,2046,3315
615,615,0,2046,2828
616,616,0,2047,2284
617,617,0,2047,1723
618,618,0,2046,1183
619,619,0,2047,706
620,620,0,2046,325
621,621,0,2046,67
622,622,0,2047,0
623,623,0,2046,0
624,624,0,2047,170
625,625,0,2046,488
626,626,0,2047,917
627,627,0,2046,1428
628,628,0,2046,1982
629,629,0,2046,2541
630,630,0,2047,3063
631,631,0,2047,3512
632,632,0,2046,3854
633,633,0,2046,4065
634,634,0,2047,4095
635,635,0,2046,4044
636,636,0,2046,3813
637,637,0,2046,3454
638,638,0,2046,2992
639,639,0,2046,2463
640,640,0,2046,1903
641,641,0,2047,1352
642,642,0,2047,851
643,643,0,2046,436
644,644,0,2046,136
645,645,0,2046,0
646,646,0,2047,0
647,647,0,2046,96
648,648,0,2047,373
649,649,0,2046,769
650,650,0,2046,1257
651,651,0,2046,1802
652,652,0,2047,2364
653,653,0,2047,2902
654,654,0,2046,3378
655,655,0,2046,3757
656,656,0,2047,4012
657,657,0,2047,4095
658,658,0,2047,4087
659,659,0,2047,3901
660,660,0,2046,3581
661,661,0,2046,3150
662,662,0,2047,2637
663,663,0,2046,2083
664,664,0,2047,1525
665,665,0,2046,1004
666,666,0,2046,557
667,667,0,2047,218
668,668,0,2046,10
669,669,0,2047,0
670,670,0,2047,36
671,671,0,2047,270
672,672,0,2046,630
673,673,0,2047,1092
674,674,0,2046,1624
675,675,0,2046,2184
676,676,0,2046,2734
677,677,0,2046,3234
678,678,0,2047,3648
679,679,0,2047,3946
680,680,0,2047,4095
681,681,0,2047,4095
682,682,0,2046,3976
683,683,0,2047,3697
684,684,0,2047,3298
685,685,0,2047,2809
686,686,0,2046,2263
687,687,0,2047,1702
688,688,0,2047,1165
689,689,0,2046,691
690,690,0,2047,314
691,691,0,2046,61
692,692,0,2047,0
693,693,0,2047,0
694,694,0,2047,180
695,695,0,2047,502
696,696,0,2046,935
697,697,0,2047,1448
698,698,0,2046,2004
699,699,0,2047,2562
700,700,0,2047,3081
701,701,0,2047,3526
702,702,0,2047,3864
703,703,0,2046,4071
704,704,0,2047,4095
705,705,0,2046,4037
706,706,0,2047,3801
707,707,0,2046,3438
708,708,0,2046,2973
709,709,0,2047,2442
710,710,0,2046,1881
711,711,0,2046,1332
712,712,0,2046,833
713,713,0,2047,422
714,714,0,2047,127
715,715,0,2046,0
716,716,0,2046,0
717,717,0,2047,104
718,718,0,2046,385
719,719,0,2046,786
720,720,0,2046,1277
721,721,0,2047,1823
722,722,0,2046,2385
723,723,0,2046,2922
724,724,0,2047,3394
725,725,0,2046,3769
726,726,0,2047,4019
727,727,0,2046,4095
728,728,0,2047,4083
729,729,0,2047,3892
730,730,0,2047,3567
731,731,0,2046,3131
732,732,0,2047,2618
733,733,0,2047,2062
734,734,0,2047,1505
735,735,0,2046,985
736,736,0,2047,544
737,737,0,2047,207
738,738,0,2046,4
739,739,0,2047,0
740,740,0,2046,42
741,741,0,2047,281
742,742,0,2047,646
743,743,0,2046,1112
744,744,0,2046,1644
745,745,0,2046,2205
746,746,0,2046,2754
747,747,0,2046,3251
748,748,0,2046,3662
749,749,0,2046,3954
750,750,0,2047,4095
751,751,0,2046,4095
752,752,0,2046,3968
753,753,0,2046,3685
754,754,0,2047,3281
755,755,0,2046,2790
756,756,0,2047,2242
757,757,0,2046,1681
758,758,0,2046,1146
759,759,0,2046,674
760,760,0,2046,302
761,761,0,2046,54
762,762,0,2046,0
763,763,0,2047,0
764,764,0,2047,190
765,765,0,2046,516
766,766,0,2047,953
767,767,0,2046,1468
768,768,0,2047,2024
769,769,0,2046,2582
770,770,0,2047,3100
771,771,0,2047,3540
772,772,0,2046,3874
773,773,0,2047,4075
774,774,0,2047,4095
775,775,0,2046,4031
776,776,0,2046,3789
777,777,0,2046,3423
778,778,0,2046,2954
779,779,0,2046,2422
780,780,0,2046,1861
781,781,0,2046,1313
782,782,0,2046,816
783,783,0,2046,409
784,784,0,2046,118
785,785,0,2046,0
786,786,0,2047,0
787,787,0,2046,112
788,788,0,2046,398
789,789,0,2046,803
790,790,0,2046,1296
791,791,0,2047,1844
792,792,0,2047,2405
793,793,0,2046,2940
794,794,0,2047,3410
795,795,0,2046,3781
796,796,0,2047,4026
797,797,0,2046,4095
798,798,0,2047,4079
799,799,0,2046,3882
800,800,0,2046,3553
801,801,0,2046,3114
802,802,0,2047,2598
803,803,0,2047,2041
804,804,0,2046,1485
805,805,0,2047,967
806,806,0,2046,528
807,807,0,2047,198
808,808,0,2047,0
809,809,0,2047,0
810,810,0,2046,48
811,811,0,2047,291
812,812,0,2047,662
813,813,0,2046,1130
814,814,0,2046,1665
815,815,0,2047,2226
816,816,0,2046,2773
817,817,0,2046,3268
818,818,0,2047,3675
819,819,0,2046,3963
820,820,0,2046,4095
821,821,0,2047,4095
822,822,0,2047,3961
823,823,0,2046,3671
824,824,0,2047,3265
825,825,0,2047,2770
826,826,0,2047,2222
827,827,0,2046,1661
828,828,0,2047,1128
829,829,0,2047,659
830,830,0,2046,290
831,831,0,2046,47
832,832,0,2047,0
833,833,0,2047,1
834,834,0,2047,199
835,835,0,2047,531
836,836,0,2046,971
837,837,0,2047,1488
838,838,0,2047,2045
839,839,0,2046,2602
840,840,0,2047,3118
841,841,0,2046,3555
842,842,0,2046,3884
843,843,0,2046,4079
844,844,0,2047,4095
845,845,0,2046,4025
846,846,0,2047,3778
847,847,0,2046,3407
848,848,0,2047,2936
849,849,0,2046,2400
850,850,0,2047,1839
851,851,0,2047,1292
852,852,0,2046,800
853,853,0,2047,395
854,854,0,2047,110
855,855,0,2046,0
856,856,0,2046,0
857,857,0,2046,120
858,858,0,2047,411
859,859,0,2047,820
860,860,0,2046,1316
861,861,0,2046,1864
862,862,0,2046,2426
863,863,0,2046,2959
864,864,0,2046,3426
865,865,0,2047,3792
866,866,0,2046,4033
867,867,0,2046,4095
868,868,0,2047,4074
869,869,0,2046,3872
870,870,0,2046,3538
871,871,0,2046,3097
872,872,0,2046,2578
873,873,0,2047,2020
874,874,0,2047,1464
875,875,0,2046,949
876,876,0,2046,514
877,877,0,2047,188
878,878,0,2046,0
879,879,0,2047,0
880,880,0,2046,55
881,881,0,2046,303
882,882,0,2046,677
883,883,0,2047,1150
884,884,0,2046,1685
885,885,0,2046,2247
886,886,0,2046,2793
887,887,0,2046,3285
888,888,0,2047,3688
889,889,0,2046,3970
890,890,0,2046,4095
891,891,0,2047,4095
892,892,0,2046,3952
893,893,0,2047,3659
894,894,0,2046,3247
895,895,0,2047,2751
896,896,0,2047,2201
897,897,0,2046,1640
898,898,0,2047,1108
899,899,0,2046,643
900,900,0,2047,279
901,901,0,2047,41
902,902,0,2047,0
903,903,0,2047,5
904,904,0,2046,210
905,905,0,2046,546
906,906,0,2046,989
907,907,0,2047,1509
908,908,0,2047,2066
909,909,0,2047,2622
910,910,0,2046,3136
911,911,0,2046,3569
912,912,0,2046,3894
913,913,0,2047,4084
914,914,0,2046,4095
915,915,0,2046,4018
916,916,0,2047,3767
917,917,0,2047,3391
918,918,0,2046,2917
919,919,0,2046,2381
920,920,0,2047,1818
921,921,0,2046,1272
922,922,0,2046,783
923,923,0,2047,383
924,924,0,2046,103
925,925,0,2046,0
926,926,0,2046,0
927,927,0,2046,128
928,928,0,2047,424
929,929,0,2047,837
930,930,0,2046,1336
931,931,0,2046,1885
932,932,0,2047,2447
933,933,0,2046,2978
934,934,0,2047,3442
935,935,0,2046,3803
936,936,0,2046,4038
937,937,0,2047,4095
938,938,0,2047,4069
939,939,0,2046,3862
940,940,0,2046,3523
941,941,0,2047,3078
942,942,0,2046,2558
943,943,0,2046,1999
944,944,0,2046,1444
945,945,0,2046,932
946,946,0,2046,500
947,947,0,2046,178
948,948,0,2046,0
949,949,0,2047,0
950,950,0,2046,62
951,951,0,2046,316
952,952,0,2047,693
953,953,0,2047,1168
954,954,0,2047,1707
955,955,0,2046,2268
956,956,0,2046,2813
957,957,0,2046,3302
958,958,0,2046,3701
959,959,0,2047,3978
960,960,0,2046,4095
961,961,0,2047,4095
962,962,0,2046,3944
963,963,0,2046,3645
964,964,0,2047,3230
965,965,0,2046,2731
966,966,0,2047,2180
967,967,0,2047,1620
968,968,0,2047,1089
969,969,0,2046,627
970,970,0,2046,268
971,971,0,2046,35
972,972,0,2046,0
973,973,0,2046,10
974,974,0,2047,220
975,975,0,2046,560
976,976,0,2046,1007
977,977,0,2046,1528
978,978,0,2046,2087
979,979,0,2046,2642
980,980,0,2047,3153
981,981,0,2047,3585
982,982,0,2047,3904
983,983,0,2047,4088
984,984,0,2046,4095
985,985,0,2045,4011
986,986,0,2047,3754
987,987,0,2046,3375
988,988,0,2046,2898
989,989,0,2046,2360
990,990,0,2046,1798
991,991,0,2047,1254
992,992,0,2046,766
993,993,0,2046,370
994,994,0,2047,95
995,995,0,2046,0
996,996,0,2047,0
997,997,0,2046,136
998,998,0,2047,439
999,999,0,2046,854
1000,1000,0,2047,1355
1001,1001,0,2047,1906
1002,1002,0,2046,2467
1003,1003,0,2047,2997
1004,1004,0,2046,3457
1005,1005,0,2046,3815
1006,1006,0,2046,4045
1007,1007,0,2046,4095
1008,1008,0,2046,4064
1009,1009,0,2046,3852
1010,1010,0,2046,3508
1011,1011,0,2046,3059
1012,1012,0,2046,2537
1013,1013,0,2047,1979
1014,1014,0,2046,1424
1015,1015,0,2047,914
1016,1016,0,2046,487
1017,1017,0,2046,168
1018,1018,0,2046,0
1019,1019,0,2046,0
1020,1020,0,2047,69
1021,1021,0,2047,327
1022,1022,0,2046,709
1023,1023,0,2047,1188
1024,1024,0,2047,1727
1025,1025,0,2047,2289
1026,1026,0,2047,2832
1027,1027,0,2046,3318
1028,1028,0,2047,3713
1029,1029,0,2046,3986
1030,1030,0,2047,4095
