Sample in Buffer,Sample in Window,TRIGGER,adc1_data_a_d0[11:0],adc1_data_b_d0[11:0]
0,0,0,2046,1487
1,1,0,2047,603
2,2,0,2046,71
3,3,0,2046,20
4,4,0,2046,463
5,5,0,2046,1293
6,6,0,2047,2305
7,7,0,2047,3251
8,8,0,2046,3901
9,9,0,2046,4094
10,10,0,2046,3783
11,11,0,2047,3045
12,12,0,2046,2060
13,13,0,2046,1070
14,14,0,2046,317
15,15,0,2047,0
16,16,0,2046,156
17,17,0,2047,789
18,18,0,2047,1727
19,19,0,2046,2742
20,20,0,2046,3583
21,21,0,2046,4047
22,22,0,2046,4018
23,23,0,2046,3504
24,24,0,2047,2631
25,25,0,2047,1613
26,26,0,2046,699
27,27,0,2046,113
28,28,0,2046,0
29,29,0,2046,384
30,30,0,2046,1174
31,31,0,2046,2176
32,32,0,2046,3144
33,33,0,2046,3841
34,34,0,2046,4095
35,35,0,2046,3848
36,36,0,2046,3155
37,37,0,2046,2189
38,38,0,2046,1186
39,39,0,2047,392
40,40,0,2046,0
41,41,0,2046,107
42,42,0,2046,689
43,43,0,2047,1600
44,44,0,2046,2618
45,45,0,2046,3495
46,46,0,2047,4014
47,47,0,2046,4050
48,48,0,2046,3592
49,49,0,2046,2754
50,50,0,2046,1740
51,51,0,2047,800
52,52,0,2046,162
53,53,0,2046,0
54,54,0,2046,309
55,55,0,2047,1058
56,56,0,2046,2046
57,57,0,2046,3033
58,58,0,2046,3776
59,59,0,2046,4093
60,60,0,2046,3906
61,61,0,2046,3262
62,62,0,2046,2319
63,63,0,2046,1306
64,64,0,2046,472
65,65,0,2046,23
66,66,0,2046,67
67,67,0,2046,594
68,68,0,2046,1474
69,69,0,2046,2493
70,70,0,2047,3401
71,71,0,2047,3974
72,72,0,2047,4073
73,73,0,2047,3674
74,74,0,2047,2874
75,75,0,2046,1870
76,76,0,2046,906
77,77,0,2046,220
78,78,0,2047,0
79,79,0,2046,243
80,80,0,2046,946
81,81,0,2047,1917
82,82,0,2046,2918
83,83,0,2047,3704
84,84,0,2046,4080
85,85,0,2046,3957
86,86,0,2046,3364
87,87,0,2046,2446
88,88,0,2047,1428
89,89,0,2047,560
90,90,0,2046,53
91,91,0,2046,33
92,92,0,2046,504
93,93,0,2047,1351
94,94,0,2046,2366
95,95,0,2046,3301
96,96,0,2046,3926
97,97,0,2047,4090
98,98,0,2046,3750
99,99,0,2046,2990
100,100,0,2047,1998
101,101,0,2047,1016
102,102,0,2046,284
103,103,0,2046,0
104,104,0,2046,183
105,105,0,2046,838
106,106,0,2047,1788
107,107,0,2047,2800
108,108,0,2047,3624
109,109,0,2046,4060
110,110,0,2046,4000
111,111,0,2046,3460
112,112,0,2047,2572
113,113,0,2046,1553
114,114,0,2045,653
115,115,0,2046,92
116,116,0,2046,8
117,117,0,2046,421
118,118,0,2046,1230
119,119,0,2046,2238
120,120,0,2046,3196
121,121,0,2046,3870
122,122,0,2047,4095
123,123,0,2046,3818
124,124,0,2046,3104
125,125,0,2046,2127
126,126,0,2046,1130
127,127,0,2047,355
128,128,0,2046,0
129,129,0,2046,130
130,130,0,2046,736
131,131,0,2047,1660
132,132,0,2046,2678
133,133,0,2047,3538
134,134,0,2046,4030
135,135,0,2046,4036
136,136,0,2047,3552
137,137,0,2046,2696
138,138,0,2046,1679
139,139,0,2047,751
140,140,0,2046,138
141,141,0,2046,0
142,142,0,2046,343
143,143,0,2046,1113
144,144,0,2047,2108
145,145,0,2046,3086
146,146,0,2047,3808
147,147,0,2047,4095
148,148,0,2046,3879
149,149,0,2047,3212
150,150,0,2046,2257
151,151,0,2047,1249
152,152,0,2046,433
153,153,0,2046,11
154,154,0,2046,85
155,155,0,2047,638
156,156,0,2047,1534
157,157,0,2047,2553
158,158,0,2046,3447
159,159,0,2045,3995
160,160,0,2047,4063
161,161,0,2046,3636
162,162,0,2046,2817
163,163,0,2045,1808
164,164,0,2046,855
165,165,0,2046,191
166,166,0,2046,0
167,167,0,2046,274
168,168,0,2046,999
169,169,0,2046,1979
170,170,0,2046,2973
171,171,0,2047,3739
172,172,0,2047,4087
173,173,0,2047,3934
174,174,0,2046,3316
175,175,0,2047,2385
176,176,0,2046,1370
177,177,0,2047,517
178,178,0,2047,38
179,179,0,2047,48
180,180,0,2046,546
181,181,0,2047,1410
182,182,0,2046,2426
183,183,0,2047,3349
184,184,0,2046,3951
185,185,0,2047,4083
186,186,0,2046,3714
187,187,0,2046,2936
188,188,0,2046,1937
189,189,0,2046,963
190,190,0,2047,252
191,191,0,2046,0
192,192,0,2046,211
193,193,0,2046,889
194,194,0,2046,1849
195,195,0,2046,2856
196,196,0,2046,3662
197,197,0,2047,4071
198,198,0,2046,3981
199,199,0,2046,3416
200,200,0,2046,2512
201,201,0,2046,1494
202,202,0,2046,608
203,203,0,2047,72
204,204,0,2046,19
205,205,0,2047,459
206,206,0,2046,1288
207,207,0,2046,2299
208,208,0,2046,3246
209,209,0,2046,3899
210,210,0,2046,4095
211,211,0,2046,3786
212,212,0,2046,3051
213,213,0,2046,2067
214,214,0,2046,1076
215,215,0,2046,320
216,216,0,2047,0
217,217,0,2046,155
218,218,0,2046,784
219,219,0,2046,1721
220,220,0,2047,2736
221,221,0,2047,3580
222,222,0,2046,4045
223,223,0,2046,4021
224,224,0,2046,3508
225,225,0,2046,2637
226,226,0,2046,1619
227,227,0,2047,704
228,228,0,2046,115
229,229,0,2046,0
230,230,0,2046,379
231,231,0,2046,1168
232,232,0,2046,2170
233,233,0,2046,3139
234,234,0,2046,3839
235,235,0,2047,4095
236,236,0,2047,3851
237,237,0,2046,3161
238,238,0,2046,2195
239,239,0,2047,1192
240,240,0,2046,396
241,241,0,2047,1
242,242,0,2046,106
243,243,0,2047,685
244,244,0,2046,1594
245,245,0,2046,2613
246,246,0,2046,3491
247,247,0,2047,4013
248,248,0,2046,4051
249,249,0,2046,3596
250,250,0,2046,2759
251,251,0,2046,1747
252,252,0,2047,805
253,253,0,2046,166
254,254,0,2047,0
255,255,0,2046,306
256,256,0,2046,1052
257,257,0,2046,2041
258,258,0,2046,3028
259,259,0,2046,3772
260,260,0,2046,4092
261,261,0,2046,3909
262,262,0,2047,3267
263,263,0,2047,2325
264,264,0,2046,1311
265,265,0,2046,476
266,266,0,2047,24
267,267,0,2046,65
268,268,0,2047,590
269,269,0,2046,1469
270,270,0,2047,2487
271,271,0,2046,3396
272,272,0,2046,3972
273,273,0,2046,4075
274,274,0,2046,3678
275,275,0,2047,2879
276,276,0,2046,1875
277,277,0,2046,911
278,278,0,2046,223
279,279,0,2047,0
280,280,0,2046,240
281,281,0,2046,941
282,282,0,2046,1912
283,283,0,2046,2912
284,284,0,2047,3700
285,285,0,2046,4079
286,286,0,2046,3960
287,287,0,2046,3368
288,288,0,2046,2452
289,289,0,2047,1434
290,290,0,2046,564
291,291,0,2047,55
292,292,0,2046,32
293,293,0,2046,500
294,294,0,2046,1346
295,295,0,2046,2361
296,296,0,2046,3296
297,297,0,2046,3923
298,298,0,2046,4090
299,299,0,2046,3752
300,300,0,2046,2996
301,301,0,2047,2005
302,302,0,2046,1021
303,303,0,2047,287
304,304,0,2046,0
305,305,0,2046,180
306,306,0,2046,834
307,307,0,2046,1782
308,308,0,2046,2793
309,309,0,2046,3619
310,310,0,2046,4058
311,311,0,2046,4002
312,312,0,2046,3465
313,313,0,2046,2577
314,314,0,2046,1559
315,315,0,2046,657
316,316,0,2047,94
317,317,0,2046,6
318,318,0,2046,417
319,319,0,2046,1225
320,320,0,2047,2232
321,321,0,2047,3191
322,322,0,2046,3869
323,323,0,2046,4095
324,324,0,2046,3821
325,325,0,2046,3109
326,326,0,2046,2134
327,327,0,2046,1136
328,328,0,2046,359
329,329,0,2046,0
330,330,0,2046,127
331,331,0,2047,731
332,332,0,2047,1655
333,333,0,2046,2672
334,334,0,2046,3534
335,335,0,2047,4029
336,336,0,2046,4037
337,337,0,2046,3555
338,338,0,2046,2701
339,339,0,2046,1685
340,340,0,2046,756
341,341,0,2047,140
342,342,0,2046,0
343,343,0,2046,341
344,344,0,2046,1107
345,345,0,2046,2102
346,346,0,2046,3082
347,347,0,2046,3806
348,348,0,2047,4095
349,349,0,2046,3882
350,350,0,2046,3217
351,351,0,2046,2262
352,352,0,2046,1254
353,353,0,2046,437
354,354,0,2046,11
355,355,0,2046,84
356,356,0,2046,634
357,357,0,2047,1529
358,358,0,2046,2547
359,359,0,2046,3442
360,360,0,2047,3992
361,361,0,2047,4063
362,362,0,2047,3640
363,363,0,2046,2822
364,364,0,2046,1814
365,365,0,2046,859
366,366,0,2046,194
367,367,0,2046,0
368,368,0,2046,270
369,369,0,2047,994
370,370,0,2046,1973
371,371,0,2046,2968
372,372,0,2046,3735
373,373,0,2046,4087
374,374,0,2045,3936
375,375,0,2047,3320
376,376,0,2046,2391
377,377,0,2046,1375
378,378,0,2046,521
379,379,0,2047,40
380,380,0,2047,47
381,381,0,2046,542
382,382,0,2046,1404
383,383,0,2046,2421
384,384,0,2046,3345
385,385,0,2046,3948
386,386,0,2047,4083
387,387,0,2046,3717
388,388,0,2046,2941
389,389,0,2045,1942
390,390,0,2046,968
391,391,0,2047,256
392,392,0,2047,0
393,393,0,2046,208
394,394,0,2047,885
395,395,0,2046,1844
396,396,0,2046,2850
397,397,0,2046,3659
398,398,0,2046,4069
399,399,0,2047,3983
400,400,0,2046,3419
401,401,0,2046,2518
402,402,0,2046,1498
403,403,0,2046,612
404,404,0,2046,74
405,405,0,2046,18
406,406,0,2046,456
407,407,0,2047,1282
408,408,0,2047,2294
409,409,0,2047,3242
410,410,0,2047,3896
411,411,0,2047,4094
412,412,0,2047,3790
413,413,0,2046,3055
414,414,0,2046,2071
415,415,0,2046,1080
416,416,0,2046,323
417,417,0,2046,0
418,418,0,2046,152
419,419,0,2046,779
420,420,0,2046,1715
421,421,0,2046,2730
422,422,0,2046,3575
423,423,0,2047,4044
424,424,0,2046,4022
425,425,0,2046,3513
426,426,0,2046,2643
427,427,0,2046,1624
428,428,0,2046,708
429,429,0,2047,117
430,430,0,2047,0
431,431,0,2046,376
432,432,0,2046,1163
433,433,0,2047,2165
434,434,0,2046,3135
435,435,0,2046,3836
436,436,0,2046,4095
437,437,0,2046,3853
438,438,0,2047,3166
439,439,0,2047,2201
440,440,0,2046,1197
441,441,0,2046,398
442,442,0,2046,1
443,443,0,2046,104
444,444,0,2046,680
445,445,0,2046,1588
446,446,0,2046,2607
447,447,0,2046,3486
448,448,0,2046,4010
449,449,0,2046,4052
450,450,0,2046,3600
451,451,0,2046,2765
452,452,0,2046,1752
453,453,0,2046,810
454,454,0,2046,167
455,455,0,2046,0
456,456,0,2046,304
457,457,0,2046,1049
458,458,0,2046,2035
459,459,0,2047,3023
460,460,0,2046,3769
461,461,0,2046,4092
462,462,0,2047,3911
463,463,0,2046,3272
464,464,0,2046,2330
465,465,0,2047,1317
466,466,0,2046,480
467,467,0,2047,25
468,468,0,2046,63
469,469,0,2046,585
470,470,0,2046,1463
471,471,0,2046,2482
472,472,0,2046,3392
473,473,0,2046,3970
474,474,0,2046,4075
475,475,0,2046,3681
476,476,0,2047,2885
477,477,0,2046,1880
478,478,0,2046,915
479,479,0,2047,225
480,480,0,2046,0
481,481,0,2047,238
482,482,0,2046,935
483,483,0,2047,1906
484,484,0,2047,2907
485,485,0,2046,3696
486,486,0,2046,4078
487,487,0,2047,3961
488,488,0,2046,3372
489,489,0,2047,2457
490,490,0,2046,1440
491,491,0,2047,568
492,492,0,2046,56
493,493,0,2047,31
494,494,0,2047,497
495,495,0,2046,1340
496,496,0,2046,2354
497,497,0,2046,3291
498,498,0,2046,3921
499,499,0,2047,4091
500,500,0,2047,3756
501,501,0,2046,3000
502,502,0,2046,2010
503,503,0,2046,1026
504,504,0,2046,290
505,505,0,2046,0
506,506,0,2045,179
507,507,0,2047,829
508,508,0,2046,1777
509,509,0,2046,2789
510,510,0,2046,3616
511,511,0,2047,4057
512,512,0,2046,4004
513,513,0,2046,3468
514,514,0,2046,2583
515,515,0,2046,1564
516,516,0,2046,662
517,517,0,2046,96
518,518,0,2046,6
519,519,0,2046,413
520,520,0,2046,1220
521,521,0,2046,2226
522,522,0,2046,3187
523,523,0,2046,3865
524,524,0,2046,4095
525,525,0,2046,3823
526,526,0,2046,3113
527,527,0,2047,2139
528,528,0,2047,1141
529,529,0,2046,362
530,530,0,2046,0
531,531,0,2046,126
532,532,0,2046,727
533,533,0,2046,1649
534,534,0,2046,2666
535,535,0,2046,3530
536,536,0,2047,4028
537,537,0,2046,4039
538,538,0,2046,3559
539,539,0,2046,2706
540,540,0,2046,1691
541,541,0,2047,760
542,542,0,2046,143
543,543,0,2046,0
544,544,0,2047,338
545,545,0,2047,1102
546,546,0,2046,2097
547,547,0,2047,3077
548,548,0,2046,3802
549,549,0,2046,4095
550,550,0,2046,3884
551,551,0,2046,3221
552,552,0,2047,2269
553,553,0,2046,1259
554,554,0,2045,440
555,555,0,2046,13
556,556,0,2047,82
557,557,0,2046,630
558,558,0,2046,1523
559,559,0,2046,2542
560,560,0,2046,3438
561,561,0,2047,3991
562,562,0,2046,4065
563,563,0,2047,3643
564,564,0,2046,2828
565,565,0,2046,1819
566,566,0,2046,864
567,567,0,2045,197
568,568,0,2046,0
569,569,0,2046,268
570,570,0,2046,989
571,571,0,2047,1967
572,572,0,2046,2963
573,573,0,2046,3733
574,574,0,2046,4086
575,575,0,2047,3939
576,576,0,2046,3325
577,577,0,2046,2397
578,578,0,2046,1380
579,579,0,2046,525
580,580,0,2046,41
581,581,0,2046,46
582,582,0,2047,538
583,583,0,2046,1398
584,584,0,2046,2416
585,585,0,2046,3340
586,586,0,2046,3945
587,587,0,2046,4084
588,588,0,2046,3721
589,589,0,2046,2946
590,590,0,2046,1948
591,591,0,2046,973
592,592,0,2046,259
593,593,0,2046,0
594,594,0,2046,205
595,595,0,2046,880
596,596,0,2046,1838
597,597,0,2046,2846
598,598,0,2046,3655
599,599,0,2047,4068
600,600,0,2047,3984
601,601,0,2047,3423
602,602,0,2047,2523
603,603,0,2047,1504
604,604,0,2046,616
605,605,0,2046,76
606,606,0,2046,17
607,607,0,2046,452
608,608,0,2047,1277
609,609,0,2046,2288
610,610,0,2046,3237
611,611,0,2047,3893
612,612,0,2046,4094
613,613,0,2046,3793
614,614,0,2046,3059
615,615,0,2046,2077
616,616,0,2046,1086
617,617,0,2046,327
618,618,0,2047,0
619,619,0,2046,150
620,620,0,2046,775
621,621,0,2046,1710
622,622,0,2046,2725
623,623,0,2046,3572
624,624,0,2046,4043
625,625,0,2046,4023
626,626,0,2046,3517
627,627,0,2046,2648
628,628,0,2046,1630
629,629,0,2046,712
630,630,0,2047,120
631,631,0,2046,0
632,632,0,2047,373
633,633,0,2047,1159
634,634,0,2047,2159
635,635,0,2046,3130
636,636,0,2046,3833
637,637,0,2046,4095
638,638,0,2046,3856
639,639,0,2046,3170
640,640,0,2046,2207
641,641,0,2046,1202
642,642,0,2046,402
643,643,0,2046,3
644,644,0,2046,102
645,645,0,2046,676
646,646,0,2046,1583
647,647,0,2046,2602
648,648,0,2046,3483
649,649,0,2046,4009
650,650,0,2046,4053
651,651,0,2046,3603
652,652,0,2046,2770
653,653,0,2046,1758
654,654,0,2046,814
655,655,0,2046,170
656,656,0,2046,0
657,657,0,2046,300
658,658,0,2046,1043
659,659,0,2046,2030
660,660,0,2046,3019
661,661,0,2047,3767
662,662,0,2046,4091
663,663,0,2047,3913
664,664,0,2047,3276
665,665,0,2046,2336
666,666,0,2046,1322
667,667,0,2046,484
668,668,0,2046,26
669,669,0,2047,62
670,670,0,2046,581
671,671,0,2046,1458
672,672,0,2046,2477
673,673,0,2046,3388
674,674,0,2047,3968
675,675,0,2047,4076
676,676,0,2047,3685
677,677,0,2047,2889
678,678,0,2046,1886
679,679,0,2046,920
680,680,0,2046,228
681,681,0,2046,0
682,682,0,2046,234
683,683,0,2046,932
684,684,0,2046,1900
685,685,0,2046,2902
686,686,0,2046,3693
687,687,0,2046,4078
688,688,0,2046,3963
689,689,0,2046,3377
690,690,0,2046,2462
691,691,0,2047,1444
692,692,0,2047,572
693,693,0,2046,59
694,694,0,2046,30
695,695,0,2046,493
696,696,0,2047,1334
697,697,0,2046,2349
698,698,0,2047,3287
699,699,0,2047,3919
700,700,0,2046,4090
701,701,0,2047,3759
702,702,0,2046,3005
703,703,0,2046,2016
704,704,0,2046,1031
705,705,0,2046,293
706,706,0,2046,0
707,707,0,2046,175
708,708,0,2046,825
709,709,0,2046,1771
710,710,0,2046,2783
711,711,0,2047,3613
712,712,0,2046,4056
713,713,0,2046,4005
714,714,0,2047,3473
715,715,0,2046,2588
716,716,0,2046,1569
717,717,0,2046,665
718,718,0,2046,97
719,719,0,2046,4
720,720,0,2047,410
721,721,0,2047,1215
722,722,0,2047,2221
723,723,0,2046,3182
724,724,0,2046,3863
725,725,0,2047,4095
726,726,0,2046,3826
727,727,0,2046,3118
728,728,0,2046,2145
729,729,0,2046,1146
730,730,0,2047,366
731,731,0,2046,0
732,732,0,2046,124
733,733,0,2047,723
734,734,0,2047,1644
735,735,0,2046,2661
736,736,0,2046,3526
737,737,0,2046,4026
738,738,0,2047,4040
739,739,0,2047,3563
740,740,0,2046,2712
741,741,0,2047,1696
742,742,0,2046,765
743,743,0,2046,145
744,744,0,2046,0
745,745,0,2046,334
746,746,0,2046,1097
747,747,0,2047,2091
748,748,0,2046,3072
749,749,0,2047,3799
750,750,0,2046,4095
751,751,0,2047,3887
752,752,0,2046,3226
753,753,0,2046,2275
754,754,0,2047,1265
755,755,0,2046,444
756,756,0,2046,14
757,757,0,2046,80
758,758,0,2046,626
759,759,0,2046,1518
760,760,0,2046,2537
761,761,0,2047,3433
762,762,0,2047,3989
763,763,0,2046,4066
764,764,0,2046,3647
765,765,0,2046,2832
766,766,0,2047,1824
767,767,0,2046,869
768,768,0,2046,199
769,769,0,2046,0
770,770,0,2047,265
771,771,0,2047,984
772,772,0,2046,1962
773,773,0,2047,2958
774,774,0,2047,3728
775,775,0,2046,4085
776,776,0,2046,3941
777,777,0,2046,3330
778,778,0,2046,2402
779,779,0,2046,1386
780,780,0,2046,529
781,781,0,2047,42
782,782,0,2046,44
783,783,0,2047,534
784,784,0,2046,1393
785,785,0,2046,2410
786,786,0,2046,3336
787,787,0,2046,3943
788,788,0,2046,4085
789,789,0,2046,3724
790,790,0,2046,2951
791,791,0,2046,1954
792,792,0,2046,977
793,793,0,2046,261
794,794,0,2046,0
795,795,0,2047,203
796,796,0,2046,875
797,797,0,2046,1833
798,798,0,2047,2840
799,799,0,2047,3652
800,800,0,2046,4067
801,801,0,2046,3986
802,802,0,2046,3427
803,803,0,2045,2529
804,804,0,2046,1510
805,805,0,2046,620
806,806,0,2046,78
807,807,0,2046,15
808,808,0,2046,449
809,809,0,2047,1272
810,810,0,2046,2282
811,811,0,2047,3232
812,812,0,2046,3891
813,813,0,2046,4095
814,814,0,2046,3796
815,815,0,2046,3065
816,816,0,2046,2083
817,817,0,2046,1091
818,818,0,2046,330
819,819,0,2046,0
820,820,0,2046,147
821,821,0,2046,771
822,822,0,2047,1704
823,823,0,2046,2720
824,824,0,2047,3568
825,825,0,2046,4042
826,826,0,2047,4023
827,827,0,2046,3521
828,828,0,2046,2653
829,829,0,2046,1636
830,830,0,2046,717
831,831,0,2047,121
832,832,0,2047,0
833,833,0,2047,370
834,834,0,2046,1154
835,835,0,2047,2154
836,836,0,2046,3125
837,837,0,2046,3830
838,838,0,2046,4095
839,839,0,2046,3859
840,840,0,2046,3176
841,841,0,2047,2213
842,842,0,2046,1208
843,843,0,2046,405
844,844,0,2046,3
845,845,0,2046,100
846,846,0,2046,671
847,847,0,2047,1577
848,848,0,2047,2596
849,849,0,2046,3479
850,850,0,2046,4008
851,851,0,2047,4055
852,852,0,2046,3607
853,853,0,2046,2775
854,854,0,2046,1764
855,855,0,2047,818
856,856,0,2046,173
857,857,0,2047,0
858,858,0,2046,298
859,859,0,2046,1038
860,860,0,2046,2024
861,861,0,2047,3013
862,862,0,2047,3764
863,863,0,2047,4091
864,864,0,2046,3916
865,865,0,2046,3281
866,866,0,2046,2341
867,867,0,2046,1327
868,868,0,2047,488
869,869,0,2046,28
870,870,0,2046,60
871,871,0,2047,577
872,872,0,2047,1452
873,873,0,2046,2470
874,874,0,2047,3384
875,875,0,2047,3966
876,876,0,2046,4077
877,877,0,2046,3687
878,878,0,2046,2895
879,879,0,2046,1892
880,880,0,2047,925
881,881,0,2047,231
882,882,0,2046,0
883,883,0,2046,231
884,884,0,2046,927
885,885,0,2046,1894
886,886,0,2046,2897
887,887,0,2046,3689
888,888,0,2046,4077
889,889,0,2046,3965
890,890,0,2046,3381
891,891,0,2047,2469
892,892,0,2046,1450
893,893,0,2046,576
894,894,0,2046,59
895,895,0,2047,28
896,896,0,2046,489
897,897,0,2046,1330
898,898,0,2047,2343
899,899,0,2046,3282
900,900,0,2046,3917
901,901,0,2047,4091
902,902,0,2047,3762
903,903,0,2046,3010
904,904,0,2046,2021
905,905,0,2046,1036
906,906,0,2046,296
907,907,0,2047,0
908,908,0,2046,172
909,909,0,2047,821
910,910,0,2046,1766
911,911,0,2046,2777
912,912,0,2046,3609
913,913,0,2046,4055
914,914,0,2046,4007
915,915,0,2046,3476
916,916,0,2046,2594
917,917,0,2046,1575
918,918,0,2046,670
919,919,0,2046,100
920,920,0,2046,4
921,921,0,2047,406
922,922,0,2046,1209
923,923,0,2047,2214
924,924,0,2046,3177
925,925,0,2046,3860
926,926,0,2046,4095
927,927,0,2046,3829
928,928,0,2046,3123
929,929,0,2046,2151
930,930,0,2046,1151
931,931,0,2046,369
932,932,0,2046,0
933,933,0,2046,122
934,934,0,2047,718
935,935,0,2046,1638
936,936,0,2046,2655
937,937,0,2046,3522
938,938,0,2046,4025
939,939,0,2046,4041
940,940,0,2045,3566
941,941,0,2046,2718
942,942,0,2046,1702
943,943,0,2046,769
944,944,0,2047,147
945,945,0,2046,0
946,946,0,2046,331
947,947,0,2047,1093
948,948,0,2046,2085
949,949,0,2046,3067
950,950,0,2046,3796
951,951,0,2047,4095
952,952,0,2046,3890
953,953,0,2046,3230
954,954,0,2046,2279
955,955,0,2046,1270
956,956,0,2046,447
957,957,0,2046,15
958,958,0,2047,78
959,959,0,2046,622
960,960,0,2046,1512
961,961,0,2047,2531
962,962,0,2046,3430
963,963,0,2046,3987
964,964,0,2046,4067
965,965,0,2046,3651
966,966,0,2047,2839
967,967,0,2046,1831
968,968,0,2046,874
969,969,0,2047,202
970,970,0,2046,0
971,971,0,2047,262
972,972,0,2046,979
973,973,0,2046,1956
974,974,0,2046,2952
975,975,0,2046,3725
976,976,0,2046,4085
977,977,0,2047,3942
978,978,0,2046,3334
979,979,0,2047,2408
980,980,0,2046,1391
981,981,0,2046,533
982,982,0,2047,43
983,983,0,2047,42
984,984,0,2046,531
985,985,0,2047,1388
986,986,0,2046,2404
987,987,0,2046,3331
988,988,0,2047,3941
989,989,0,2046,4085
990,990,0,2047,3727
991,991,0,2046,2956
992,992,0,2046,1959
993,993,0,2046,983
994,994,0,2046,264
995,995,0,2046,0
996,996,0,2047,200
997,997,0,2046,871
998,998,0,2046,1827
999,999,0,2047,2835
1000,1000,0,2046,3648
1001,1001,0,2046,4066
1002,1002,0,2046,3988
1003,1003,0,2047,3432
1004,1004,0,2046,2535
1005,1005,0,2047,1515
1006,1006,0,2046,624
1007,1007,0,2047,79
1008,1008,0,2045,14
1009,1009,0,2046,445
1010,1010,0,2046,1266
1011,1011,0,2046,2277
1012,1012,0,2046,3228
1013,1013,0,2046,3888
1014,1014,0,2046,4095
1015,1015,0,2046,3798
1016,1016,0,2046,3070
1017,1017,0,2047,2089
1018,1018,0,2046,1096
1019,1019,0,2047,333
1020,1020,0,2046,0
1021,1021,0,2046,145
1022,1022,0,2046,766
1023,1023,0,2046,1699
1024,1024,0,2046,2715
1025,1025,0,2046,3564
1026,1026,0,2046,4041
1027,1027,0,2047,4026
1028,1028,0,2046,3524
