Sample in Buffer,Sample in Window,TRIGGER,adc1_data_a_d0[11:0],adc1_data_b_d0[11:0]
0,0,0,2046,3688
1,1,0,2046,3216
2,2,0,2046,2630
3,3,0,2046,1986
4,4,0,2047,1347
5,5,0,2047,776
6,6,0,2046,327
7,7,0,2046,45
8,8,0,2047,0
9,9,0,2046,72
10,10,0,2046,378
11,11,0,2046,847
12,12,0,2046,1431
13,13,0,2047,2074
14,14,0,2046,2714
15,15,0,2046,3288
16,16,0,2047,3740
17,17,0,2047,4027
18,18,0,2046,4095
19,19,0,2046,4010
20,20,0,2046,3708
21,21,0,2047,3243
22,22,0,2046,2661
23,23,0,2046,2017
24,24,0,2047,1377
25,25,0,2047,801
26,26,0,2046,345
27,27,0,2046,54
28,28,0,2046,0
29,29,0,2046,62
30,30,0,2046,360
31,31,0,2046,821
32,32,0,2047,1400
33,33,0,2047,2043
34,34,0,2046,2685
35,35,0,2046,3263
36,36,0,2046,3722
37,37,0,2047,4018
38,38,0,2046,4095
39,39,0,2047,4020
40,40,0,2046,3726
41,41,0,2046,3267
42,42,0,2046,2690
43,43,0,2047,2049
44,44,0,2046,1407
45,45,0,2047,826
46,46,0,2046,364
47,47,0,2046,63
48,48,0,2047,0
49,49,0,2047,52
50,50,0,2046,341
51,51,0,2046,796
52,52,0,2046,1371
53,53,0,2047,2011
54,54,0,2046,2653
55,55,0,2046,3237
56,56,0,2047,3703
57,57,0,2047,4008
58,58,0,2046,4095
59,59,0,2046,4028
60,60,0,2047,3744
61,61,0,2047,3293
62,62,0,2046,2720
63,63,0,2046,2081
64,64,0,2046,1437
65,65,0,2047,852
66,66,0,2047,382
67,67,0,2047,75
68,68,0,2046,0
69,69,0,2047,43
70,70,0,2046,324
71,71,0,2046,770
72,72,0,2046,1341
73,73,0,2047,1980
74,74,0,2046,2625
75,75,0,2046,3211
76,76,0,2046,3684
77,77,0,2046,3997
78,78,0,2046,4095
79,79,0,2047,4038
80,80,0,2046,3762
81,81,0,2046,3318
82,82,0,2046,2749
83,83,0,2046,2112
84,84,0,2047,1467
85,85,0,2046,878
86,86,0,2046,402
87,87,0,2047,86
88,88,0,2046,0
89,89,0,2047,34
90,90,0,2046,305
91,91,0,2046,745
92,92,0,2047,1311
93,93,0,2046,1948
94,94,0,2046,2594
95,95,0,2047,3185
96,96,0,2046,3665
97,97,0,2046,3986
98,98,0,2046,4095
99,99,0,2046,4046
100,100,0,2046,3780
101,101,0,2046,3343
102,102,0,2046,2779
103,103,0,2047,2144
104,104,0,2046,1497
105,105,0,2046,905
106,106,0,2047,421
107,107,0,2047,96
108,108,0,2046,0
109,109,0,2047,26
110,110,0,2046,288
111,111,0,2046,721
112,112,0,2047,1282
113,113,0,2046,1918
114,114,0,2046,2564
115,115,0,2047,3159
116,116,0,2047,3644
117,117,0,2047,3975
118,118,0,2046,4095
119,119,0,2047,4055
120,120,0,2046,3797
121,121,0,2046,3367
122,122,0,2046,2808
123,123,0,2046,2176
124,124,0,2047,1528
125,125,0,2046,931
126,126,0,2047,441
127,127,0,2046,108
128,128,0,2047,0
129,129,0,2047,18
130,130,0,2047,271
131,131,0,2047,697
132,132,0,2047,1253
133,133,0,2046,1885
134,134,0,2047,2533
135,135,0,2046,3132
136,136,0,2047,3626
137,137,0,2047,3963
138,138,0,2047,4095
139,139,0,2047,4063
140,140,0,2046,3814
141,141,0,2046,3391
142,142,0,2046,2837
143,143,0,2046,2206
144,144,0,2046,1558
145,145,0,2047,957
146,146,0,2046,462
147,147,0,2046,119
148,148,0,2047,0
149,149,0,2047,11
150,150,0,2047,255
151,151,0,2047,673
152,152,0,2047,1224
153,153,0,2046,1854
154,154,0,2047,2502
155,155,0,2047,3106
156,156,0,2046,3605
157,157,0,2047,3951
158,158,0,2046,4095
159,159,0,2046,4070
160,160,0,2046,3830
161,161,0,2047,3415
162,162,0,2047,2866
163,163,0,2046,2237
164,164,0,2047,1589
165,165,0,2047,984
166,166,0,2046,483
167,167,0,2047,131
168,168,0,2046,0
169,169,0,2046,4
170,170,0,2047,239
171,171,0,2047,650
172,172,0,2047,1195
173,173,0,2047,1824
174,174,0,2046,2472
175,175,0,2046,3078
176,176,0,2046,3583
177,177,0,2046,3939
178,178,0,2046,4095
179,179,0,2046,4076
180,180,0,2046,3845
181,181,0,2046,3438
182,182,0,2046,2895
183,183,0,2047,2269
184,184,0,2046,1620
185,185,0,2046,1012
186,186,0,2046,503
187,187,0,2046,145
188,188,0,2046,0
189,189,0,2047,0
190,190,0,2047,223
191,191,0,2046,626
192,192,0,2047,1167
193,193,0,2047,1792
194,194,0,2046,2441
195,195,0,2047,3051
196,196,0,2046,3563
197,197,0,2046,3925
198,198,0,2047,4095
199,199,0,2046,4082
200,200,0,2046,3861
201,201,0,2047,3462
202,202,0,2046,2924
203,203,0,2047,2300
204,204,0,2047,1650
205,205,0,2046,1039
206,206,0,2046,524
207,207,0,2047,158
208,208,0,2047,0
209,209,0,2046,0
210,210,0,2046,208
211,211,0,2046,603
212,212,0,2046,1138
213,213,0,2047,1760
214,214,0,2047,2410
215,215,0,2046,3023
216,216,0,2046,3541
217,217,0,2046,3912
218,218,0,2046,4095
219,219,0,2046,4087
220,220,0,2046,3875
221,221,0,2047,3484
222,222,0,2046,2952
223,223,0,2046,2331
224,224,0,2046,1681
225,225,0,2046,1067
226,226,0,2047,546
227,227,0,2047,171
228,228,0,2046,0
229,229,0,2047,0
230,230,0,2046,193
231,231,0,2046,581
232,232,0,2046,1110
233,233,0,2047,1729
234,234,0,2047,2379
235,235,0,2045,2996
236,236,0,2046,3519
237,237,0,2047,3898
238,238,0,2046,4095
239,239,0,2046,4094
240,240,0,2046,3890
241,241,0,2047,3507
242,242,0,2046,2980
243,243,0,2047,2362
244,244,0,2047,1713
245,245,0,2046,1095
246,246,0,2046,568
247,247,0,2046,185
248,248,0,2046,0
249,249,0,2047,0
250,250,0,2046,179
251,251,0,2047,559
252,252,0,2047,1082
253,253,0,2047,1698
254,254,0,2046,2348
255,255,0,2047,2968
256,256,0,2046,3497
257,257,0,2046,3885
258,258,0,2046,4091
259,259,0,2046,4095
260,260,0,2046,3904
261,261,0,2047,3529
262,262,0,2046,3009
263,263,0,2046,2394
264,264,0,2046,1743
265,265,0,2046,1123
266,266,0,2046,591
267,267,0,2047,200
268,268,0,2047,0
269,269,0,2046,0
270,270,0,2046,165
271,271,0,2047,537
272,272,0,2046,1054
273,273,0,2047,1667
274,274,0,2046,2317
275,275,0,2046,2939
276,276,0,2046,3475
277,277,0,2046,3869
278,278,0,2047,4086
279,279,0,2046,4095
280,280,0,2046,3918
281,281,0,2046,3550
282,282,0,2046,3036
283,283,0,2046,2424
284,284,0,2047,1775
285,285,0,2047,1152
286,286,0,2047,615
287,287,0,2047,215
288,288,0,2046,0
289,289,0,2046,0
290,290,0,2046,151
291,291,0,2046,515
292,292,0,2046,1026
293,293,0,2045,1637
294,294,0,2046,2286
295,295,0,2046,2911
296,296,0,2047,3451
297,297,0,2046,3854
298,298,0,2047,4079
299,299,0,2046,4095
300,300,0,2046,3931
301,301,0,2046,3571
302,302,0,2047,3063
303,303,0,2046,2455
304,304,0,2046,1806
305,305,0,2046,1180
306,306,0,2046,636
307,307,0,2046,231
308,308,0,2047,1
309,309,0,2046,0
310,310,0,2046,139
311,311,0,2047,494
312,312,0,2047,999
313,313,0,2046,1606
314,314,0,2047,2254
315,315,0,2046,2883
316,316,0,2047,3428
317,317,0,2046,3838
318,318,0,2046,4073
319,319,0,2046,4095
320,320,0,2047,3944
321,321,0,2046,3593
322,322,0,2047,3090
323,323,0,2047,2486
324,324,0,2046,1838
325,325,0,2046,1208
326,326,0,2046,660
327,327,0,2046,246
328,328,0,2047,7
329,329,0,2046,0
330,330,0,2046,126
331,331,0,2046,473
332,332,0,2046,972
333,333,0,2046,1575
334,334,0,2046,2223
335,335,0,2047,2853
336,336,0,2046,3404
337,337,0,2046,3822
338,338,0,2046,4066
339,339,0,2046,4095
340,340,0,2046,3957
341,341,0,2047,3613
342,342,0,2046,3117
343,343,0,2046,2517
344,344,0,2046,1869
345,345,0,2046,1237
346,346,0,2047,684
347,347,0,2046,263
348,348,0,2047,14
349,349,0,2046,0
350,350,0,2046,114
351,351,0,2047,453
352,352,0,2046,946
353,353,0,2047,1545
354,354,0,2046,2192
355,355,0,2046,2825
356,356,0,2046,3380
357,357,0,2046,3806
358,358,0,2046,4059
359,359,0,2047,4095
360,360,0,2046,3969
361,361,0,2046,3634
362,362,0,2046,3144
363,363,0,2047,2547
364,364,0,2046,1900
365,365,0,2046,1267
366,366,0,2046,708
367,367,0,2046,280
368,368,0,2047,22
369,369,0,2047,0
370,370,0,2046,102
371,371,0,2047,432
372,372,0,2046,919
373,373,0,2046,1513
374,374,0,2046,2161
375,375,0,2047,2795
376,376,0,2047,3357
377,377,0,2046,3789
378,378,0,2046,4051
379,379,0,2047,4095
380,380,0,2046,3980
381,381,0,2046,3654
382,382,0,2046,3171
383,383,0,2046,2578
384,384,0,2046,1932
385,385,0,2047,1296
386,386,0,2046,732
387,387,0,2047,297
388,388,0,2047,30
389,389,0,2046,0
390,390,0,2046,90
391,391,0,2047,412
392,392,0,2047,892
393,393,0,2047,1484
394,394,0,2046,2129
395,395,0,2047,2766
396,396,0,2046,3332
397,397,0,2047,3771
398,398,0,2046,4043
399,399,0,2047,4095
400,400,0,2046,3991
401,401,0,2046,3674
402,402,0,2047,3197
403,403,0,2046,2608
404,404,0,2046,1963
405,405,0,2047,1325
406,406,0,2046,757
407,407,0,2046,314
408,408,0,2047,38
409,409,0,2046,0
410,410,0,2047,80
411,411,0,2047,392
412,412,0,2046,866
413,413,0,2046,1453
414,414,0,2046,2097
415,415,0,2046,2737
416,416,0,2047,3307
417,417,0,2046,3754
418,418,0,2046,4035
419,419,0,2046,4095
420,420,0,2046,4002
421,421,0,2046,3693
422,422,0,2046,3223
423,423,0,2046,2638
424,424,0,2046,1994
425,425,0,2046,1355
426,426,0,2046,782
427,427,0,2046,331
428,428,0,2046,47
429,429,0,2046,0
430,430,0,2046,70
431,431,0,2047,373
432,432,0,2047,840
433,433,0,2047,1424
434,434,0,2046,2066
435,435,0,2046,2706
436,436,0,2046,3282
437,437,0,2046,3736
438,438,0,2046,4026
439,439,0,2046,4095
440,440,0,2046,4013
441,441,0,2047,3712
442,442,0,2046,3249
443,443,0,2046,2668
444,444,0,2046,2025
445,445,0,2046,1385
446,446,0,2046,807
447,447,0,2046,350
448,448,0,2046,57
449,449,0,2046,0
450,450,0,2046,59
451,451,0,2047,355
452,452,0,2047,815
453,453,0,2047,1393
454,454,0,2046,2035
455,455,0,2046,2677
456,456,0,2047,3257
457,457,0,2046,3718
458,458,0,2046,4015
459,459,0,2046,4095
460,460,0,2046,4022
461,461,0,2046,3731
462,462,0,2046,3274
463,463,0,2047,2698
464,464,0,2047,2057
465,465,0,2046,1414
466,466,0,2046,833
467,467,0,2047,368
468,468,0,2047,67
469,469,0,2046,0
470,470,0,2046,50
471,471,0,2046,336
472,472,0,2046,789
473,473,0,2046,1363
474,474,0,2047,2003
475,475,0,2046,2647
476,476,0,2046,3231
477,477,0,2046,3698
478,478,0,2047,4005
479,479,0,2046,4095
480,480,0,2046,4031
481,481,0,2047,3749
482,482,0,2046,3300
483,483,0,2046,2728
484,484,0,2047,2088
485,485,0,2046,1444
486,486,0,2046,858
487,487,0,2046,388
488,488,0,2046,77
489,489,0,2046,0
490,490,0,2047,41
491,491,0,2046,319
492,492,0,2046,764
493,493,0,2048,1334
494,494,0,2047,1972
495,495,0,2046,2617
496,496,0,2046,3205
497,497,0,2047,3680
498,498,0,2046,3995
499,499,0,2046,4095
500,500,0,2046,4040
501,501,0,2046,3767
502,502,0,2046,3324
503,503,0,2046,2757
504,504,0,2046,2120
505,505,0,2046,1474
506,506,0,2046,886
507,507,0,2046,407
508,508,0,2046,88
509,509,0,2046,0
510,510,0,2047,33
511,511,0,2046,301
512,512,0,2046,739
513,513,0,2046,1305
514,514,0,2047,1941
515,515,0,2047,2587
516,516,0,2047,3178
517,517,0,2046,3660
518,518,0,2046,3984
519,519,0,2047,4095
520,520,0,2046,4049
521,521,0,2046,3784
522,522,0,2047,3349
523,523,0,2046,2787
524,524,0,2047,2152
525,525,0,2047,1505
526,526,0,2047,911
527,527,0,2046,427
528,528,0,2047,99
529,529,0,2046,0
530,530,0,2046,24
531,531,0,2046,284
532,532,0,2046,715
533,533,0,2046,1275
534,534,0,2046,1909
535,535,0,2046,2555
536,536,0,2046,3153
537,537,0,2047,3640
538,538,0,2047,3973
539,539,0,2046,4095
540,540,0,2047,4057
541,541,0,2047,3801
542,542,0,2046,3373
543,543,0,2046,2816
544,544,0,2046,2183
545,545,0,2046,1535
546,546,0,2046,937
547,547,0,2046,447
548,548,0,2046,111
549,549,0,2047,0
550,550,0,2046,17
551,551,0,2046,267
552,552,0,2046,691
553,553,0,2046,1246
554,554,0,2046,1877
555,555,0,2047,2526
556,556,0,2047,3126
557,557,0,2046,3620
558,558,0,2046,3960
559,559,0,2046,4095
560,560,0,2047,4064
561,561,0,2046,3818
562,562,0,2046,3397
563,563,0,2046,2845
564,564,0,2047,2214
565,565,0,2047,1566
566,566,0,2046,964
567,567,0,2046,466
568,568,0,2046,123
569,569,0,2046,0
570,570,0,2046,9
571,571,0,2047,251
572,572,0,2047,667
573,573,0,2047,1218
574,574,0,2046,1846
575,575,0,2046,2495
576,576,0,2046,3098
577,577,0,2046,3600
578,578,0,2047,3948
579,579,0,2046,4095
580,580,0,2046,4071
581,581,0,2046,3833
582,582,0,2046,3420
583,583,0,2046,2874
584,584,0,2046,2245
585,585,0,2047,1597
586,586,0,2047,991
587,587,0,2047,488
588,588,0,2046,135
589,589,0,2046,0
590,590,0,2046,2
591,591,0,2047,234
592,592,0,2046,644
593,593,0,2046,1188
594,594,0,2046,1815
595,595,0,2047,2464
596,596,0,2047,3072
597,597,0,2046,3579
598,598,0,2046,3935
599,599,0,2046,4095
600,600,0,2046,4078
601,601,0,2047,3850
602,602,0,2046,3444
603,603,0,2047,2902
604,604,0,2046,2276
605,605,0,2047,1628
606,606,0,2046,1019
607,607,0,2046,509
608,608,0,2046,148
609,609,0,2047,0
610,610,0,2047,0
611,611,0,2046,220
612,612,0,2046,620
613,613,0,2046,1160
614,614,0,2047,1784
615,615,0,2046,2433
616,616,0,2046,3044
617,617,0,2046,3557
618,618,0,2046,3922
619,619,0,2046,4095
620,620,0,2046,4084
621,621,0,2046,3865
622,622,0,2047,3467
623,623,0,2046,2930
624,624,0,2046,2308
625,625,0,2046,1658
626,626,0,2046,1047
627,627,0,2047,530
628,628,0,2046,162
629,629,0,2046,0
630,630,0,2046,0
631,631,0,2046,204
632,632,0,2046,597
633,633,0,2047,1131
634,634,0,2046,1753
635,635,0,2047,2402
636,636,0,2047,3017
637,637,0,2047,3536
638,638,0,2046,3909
639,639,0,2046,4095
640,640,0,2046,4089
641,641,0,2046,3880
642,642,0,2046,3490
643,643,0,2046,2959
644,644,0,2046,2338
645,645,0,2046,1689
646,646,0,2046,1074
647,647,0,2046,552
648,648,0,2046,175
649,649,0,2046,0
650,650,0,2047,0
651,651,0,2046,189
652,652,0,2047,575
653,653,0,2046,1103
654,654,0,2046,1721
655,655,0,2047,2371
656,656,0,2047,2989
657,657,0,2047,3513
658,658,0,2046,3894
659,659,0,2047,4095
660,660,0,2046,4095
661,661,0,2046,3894
662,662,0,2047,3512
663,663,0,2047,2988
664,664,0,2047,2370
665,665,0,2046,1721
666,666,0,2047,1102
667,667,0,2047,574
668,668,0,2047,190
669,669,0,2046,0
670,670,0,2047,0
671,671,0,2046,175
672,672,0,2046,553
673,673,0,2047,1075
674,674,0,2047,1690
675,675,0,2046,2340
676,676,0,2046,2960
677,677,0,2046,3490
678,678,0,2047,3880
679,679,0,2046,4090
680,680,0,2046,4095
681,681,0,2047,3908
682,682,0,2046,3535
683,683,0,2047,3016
684,684,0,2047,2401
685,685,0,2046,1751
686,686,0,2046,1130
687,687,0,2047,596
688,688,0,2047,204
689,689,0,2047,0
690,690,0,2046,0
691,691,0,2046,161
692,692,0,2047,531
693,693,0,2046,1047
694,694,0,2047,1659
695,695,0,2047,2309
696,696,0,2046,2932
697,697,0,2046,3468
698,698,0,2046,3866
699,699,0,2046,4084
700,700,0,2046,4095
701,701,0,2047,3922
702,702,0,2045,3556
703,703,0,2046,3043
704,704,0,2047,2433
705,705,0,2046,1783
706,706,0,2046,1159
707,707,0,2046,620
708,708,0,2046,220
709,709,0,2047,0
710,710,0,2046,0
711,711,0,2047,148
712,712,0,2047,510
713,713,0,2046,1019
714,714,0,2046,1628
715,715,0,2046,2277
716,716,0,2046,2903
717,717,0,2047,3446
718,718,0,2047,3849
719,719,0,2046,4078
720,720,0,2046,4095
721,721,0,2046,3935
722,722,0,2046,3577
723,723,0,2046,3070
724,724,0,2046,2462
725,725,0,2046,1814
726,726,0,2047,1187
727,727,0,2046,643
728,728,0,2046,235
729,729,0,2046,2
730,730,0,2047,0
731,731,0,2046,135
732,732,0,2046,488
733,733,0,2046,992
734,734,0,2047,1598
735,735,0,2046,2246
736,736,0,2047,2874
737,737,0,2046,3421
738,738,0,2046,3834
739,739,0,2046,4071
740,740,0,2047,4095
741,741,0,2046,3948
742,742,0,2047,3599
743,743,0,2046,3097
744,744,0,2046,2493
745,745,0,2046,1845
746,746,0,2047,1216
747,747,0,2046,666
748,748,0,2046,251
749,749,0,2047,9
750,750,0,2047,0
751,751,0,2046,123
752,752,0,2047,468
753,753,0,2047,965
754,754,0,2046,1567
755,755,0,2046,2215
756,756,0,2046,2846
757,757,0,2046,3398
758,758,0,2046,3818
759,759,0,2046,4064
760,760,0,2047,4095
761,761,0,2047,3960
762,762,0,2046,3619
763,763,0,2047,3124
764,764,0,2046,2524
765,765,0,2046,1877
766,766,0,2046,1244
767,767,0,2047,691
768,768,0,2047,268
769,769,0,2046,15
770,770,0,2046,0
771,771,0,2047,110
772,772,0,2047,448
773,773,0,2047,938
774,774,0,2046,1536
775,775,0,2046,2184
776,776,0,2046,2817
777,777,0,2046,3374
778,778,0,2046,3801
779,779,0,2046,4057
780,780,0,2046,4095
781,781,0,2047,3972
782,782,0,2046,3639
783,783,0,2046,3151
784,784,0,2047,2554
785,785,0,2046,1907
786,786,0,2046,1274
787,787,0,2047,714
788,788,0,2046,283
789,789,0,2047,23
790,790,0,2046,0
791,791,0,2046,99
792,792,0,2047,427
793,793,0,2046,912
794,794,0,2046,1506
795,795,0,2047,2152
796,796,0,2046,2788
797,797,0,2047,3350
798,798,0,2046,3784
799,799,0,2047,4049
800,800,0,2046,4095
801,801,0,2047,3983
802,802,0,2046,3659
803,803,0,2046,3177
804,804,0,2047,2585
805,805,0,2046,1939
806,806,0,2046,1304
807,807,0,2046,739
808,808,0,2046,301
809,809,0,2046,32
810,810,0,2046,0
811,811,0,2046,87
812,812,0,2046,406
813,813,0,2047,885
814,814,0,2047,1476
815,815,0,2047,2121
816,816,0,2046,2758
817,817,0,2046,3325
818,818,0,2047,3767
819,819,0,2046,4041
820,820,0,2046,4095
821,821,0,2046,3995
822,822,0,2047,3677
823,823,0,2046,3204
824,824,0,2047,2616
825,825,0,2047,1970
826,826,0,2046,1332
827,827,0,2047,763
828,828,0,2046,318
829,829,0,2047,41
830,830,0,2047,0
831,831,0,2047,77
832,832,0,2047,388
833,833,0,2046,859
834,834,0,2046,1446
835,835,0,2046,2090
836,836,0,2046,2729
837,837,0,2047,3301
838,838,0,2047,3750
839,839,0,2046,4032
840,840,0,2047,4095
841,841,0,2046,4005
842,842,0,2046,3698
843,843,0,2046,3229
844,844,0,2046,2645
845,845,0,2046,2003
846,846,0,2047,1362
847,847,0,2047,789
848,848,0,2046,337
849,849,0,2046,49
850,850,0,2046,0
851,851,0,2046,66
852,852,0,2047,369
853,853,0,2046,833
854,854,0,2046,1415
855,855,0,2046,2058
856,856,0,2046,2699
857,857,0,2046,3275
858,858,0,2047,3732
859,859,0,2046,4022
860,860,0,2046,4095
861,861,0,2046,4015
862,862,0,2047,3718
863,863,0,2046,3255
864,864,0,2046,2675
865,865,0,2046,2034
866,866,0,2046,1392
867,867,0,2047,814
868,868,0,2047,354
869,869,0,2046,59
870,870,0,2047,0
871,871,0,2046,57
872,872,0,2046,350
873,873,0,2046,808
874,874,0,2046,1386
875,875,0,2047,2027
876,876,0,2047,2669
877,877,0,2046,3249
878,878,0,2046,3713
879,879,0,2046,4012
880,880,0,2046,4095
881,881,0,2046,4024
882,882,0,2047,3736
883,883,0,2046,3281
884,884,0,2046,2706
885,885,0,2046,2065
886,886,0,2046,1422
887,887,0,2047,839
888,888,0,2046,374
889,889,0,2046,70
890,890,0,2047,0
891,891,0,2047,48
892,892,0,2046,332
893,893,0,2047,783
894,894,0,2046,1355
895,895,0,2046,1995
896,896,0,2046,2639
897,897,0,2047,3224
898,898,0,2047,3694
899,899,0,2046,4002
900,900,0,2046,4095
901,901,0,2046,4034
902,902,0,2047,3754
903,903,0,2046,3306
904,904,0,2046,2735
905,905,0,2047,2096
906,906,0,2047,1453
907,907,0,2047,865
908,908,0,2046,392
909,909,0,2046,80
910,910,0,2046,0
911,911,0,2047,38
912,912,0,2046,314
913,913,0,2046,757
914,914,0,2046,1326
915,915,0,2046,1964
916,916,0,2047,2608
917,917,0,2047,3198
918,918,0,2047,3675
919,919,0,2047,3992
920,920,0,2047,4095
921,921,0,2046,4043
922,922,0,2046,3771
923,923,0,2047,3332
924,924,0,2046,2765
925,925,0,2046,2128
926,926,0,2047,1482
927,927,0,2047,891
928,928,0,2046,412
929,929,0,2047,91
930,930,0,2047,0
931,931,0,2047,30
932,932,0,2046,296
933,933,0,2046,733
934,934,0,2047,1296
935,935,0,2047,1932
936,936,0,2047,2578
937,937,0,2046,3172
938,938,0,2046,3655
939,939,0,2047,3981
940,940,0,2046,4095
941,941,0,2048,4052
942,942,0,2047,3788
943,943,0,2046,3355
944,944,0,2046,2794
945,945,0,2047,2160
946,946,0,2046,1513
947,947,0,2047,918
948,948,0,2046,432
949,949,0,2046,102
950,950,0,2047,0
951,951,0,2046,21
952,952,0,2047,279
953,953,0,2046,709
954,954,0,2046,1267
955,955,0,2047,1901
956,956,0,2046,2548
957,957,0,2047,3146
958,958,0,2047,3635
959,959,0,2047,3970
960,960,0,2046,4095
961,961,0,2046,4058
962,962,0,2047,3805
963,963,0,2047,3380
964,964,0,2046,2823
965,965,0,2046,2191
966,966,0,2047,1543
967,967,0,2046,944
968,968,0,2047,452
969,969,0,2046,114
970,970,0,2046,0
971,971,0,2047,15
972,972,0,2046,263
973,973,0,2046,685
974,974,0,2047,1238
975,975,0,2047,1870
976,976,0,2046,2517
977,977,0,2046,3119
978,978,0,2047,3615
979,979,0,2047,3957
980,980,0,2047,4095
981,981,0,2047,4066
982,982,0,2046,3821
983,983,0,2047,3403
984,984,0,2046,2852
985,985,0,2047,2222
986,986,0,2047,1574
987,987,0,2046,972
988,988,0,2046,473
989,989,0,2046,126
990,990,0,2047,0
991,991,0,2046,8
992,992,0,2046,247
993,993,0,2047,661
994,994,0,2047,1210
995,995,0,2047,1838
996,996,0,2046,2486
997,997,0,2047,3092
998,998,0,2046,3594
999,999,0,2047,3945
1000,1000,0,2046,4095
1001,1001,0,2046,4073
1002,1002,0,2046,3838
1003,1003,0,2047,3427
1004,1004,0,2046,2881
1005,1005,0,2046,2254
1006,1006,0,2046,1605
1007,1007,0,2047,999
1008,1008,0,2047,493
1009,1009,0,2046,139
1010,1010,0,2047,0
1011,1011,0,2047,0
1012,1012,0,2046,230
1013,1013,0,2046,637
1014,1014,0,2046,1181
1015,1015,0,2047,1807
1016,1016,0,2047,2456
1017,1017,0,2046,3065
1018,1018,0,2047,3573
1019,1019,0,2046,3932
1020,1020,0,2047,4095
1021,1021,0,2047,4079
1022,1022,0,2046,3853
1023,1023,0,2046,3450
1024,1024,0,2046,2909
1025,1025,0,2047,2284
1026,1026,0,2046,1636
1027,1027,0,2046,1025
1028,1028,0,2046,515
1029,1029,0,2046,151
1030,1030,0,2046,0
