Sample in Buffer,Sample in Window,TRIGGER,adc1_data_a_d0[11:0],adc1_data_b_d0[11:0]
0,0,0,2046,129
1,1,0,2047,26
2,2,0,2047,0
3,3,0,2046,0
4,4,0,2047,30
5,5,0,2047,137
6,6,0,2047,292
7,7,0,2047,492
8,8,0,2047,733
9,9,0,2047,1007
10,10,0,2047,1308
11,11,0,2047,1627
12,12,0,2047,1958
13,13,0,2047,2290
14,14,0,2046,2615
15,15,0,2046,2925
16,16,0,2046,3213
17,17,0,2047,3469
18,18,0,2046,3689
19,19,0,2046,3867
20,20,0,2047,3997
21,21,0,2047,4078
22,22,0,2046,4095
23,23,0,2047,4080
24,24,0,2046,4002
25,25,0,2046,3874
26,26,0,2046,3699
27,27,0,2046,3481
28,28,0,2046,3227
29,29,0,2046,2941
30,30,0,2046,2633
31,31,0,2046,2309
32,32,0,2046,1978
33,33,0,2046,1649
34,34,0,2047,1329
35,35,0,2047,1028
36,36,0,2046,751
37,37,0,2046,509
38,38,0,2046,305
39,39,0,2046,146
40,40,0,2046,36
41,41,0,2047,0
42,42,0,2047,0
43,43,0,2046,20
44,44,0,2047,120
45,45,0,2047,270
46,46,0,2046,465
47,47,0,2047,701
48,48,0,2047,972
49,49,0,2047,1270
50,50,0,2047,1588
51,51,0,2046,1916
52,52,0,2046,2249
53,53,0,2046,2576
54,54,0,2047,2888
55,55,0,2047,3179
56,56,0,2046,3439
57,57,0,2047,3665
58,58,0,2047,3848
59,59,0,2047,3984
60,60,0,2047,4070
61,61,0,2046,4095
62,62,0,2046,4086
63,63,0,2047,4015
64,64,0,2047,3892
65,65,0,2047,3724
66,66,0,2046,3510
67,67,0,2047,3259
68,68,0,2046,2978
69,69,0,2047,2672
70,70,0,2046,2349
71,71,0,2046,2019
72,72,0,2046,1689
73,73,0,2047,1368
74,74,0,2046,1063
75,75,0,2046,784
76,76,0,2046,537
77,77,0,2047,328
78,78,0,2047,163
79,79,0,2047,46
80,80,0,2046,0
81,81,0,2046,0
82,82,0,2047,11
83,83,0,2047,104
84,84,0,2046,249
85,85,0,2047,439
86,86,0,2047,670
87,87,0,2047,937
88,88,0,2047,1232
89,89,0,2046,1547
90,90,0,2047,1875
91,91,0,2047,2208
92,92,0,2046,2535
93,93,0,2047,2851
94,94,0,2046,3143
95,95,0,2046,3410
96,96,0,2046,3639
97,97,0,2047,3827
98,98,0,2046,3970
99,99,0,2046,4062
100,100,0,2046,4095
101,101,0,2047,4091
102,102,0,2047,4026
103,103,0,2046,3911
104,104,0,2046,3747
105,105,0,2047,3539
106,106,0,2047,3293
107,107,0,2046,3014
108,108,0,2046,2711
109,109,0,2046,2390
110,110,0,2047,2060
111,111,0,2046,1730
112,112,0,2047,1407
113,113,0,2046,1100
114,114,0,2046,817
115,115,0,2046,565
116,116,0,2046,352
117,117,0,2046,181
118,118,0,2046,58
119,119,0,2047,0
120,120,0,2046,0
121,121,0,2046,3
122,122,0,2046,90
123,123,0,2047,229
124,124,0,2047,412
125,125,0,2046,639
126,126,0,2047,902
127,127,0,2047,1193
128,128,0,2046,1508
129,129,0,2046,1834
130,130,0,2046,2167
131,131,0,2046,2495
132,132,0,2047,2812
133,133,0,2047,3108
134,134,0,2046,3378
135,135,0,2046,3613
136,136,0,2046,3807
137,137,0,2046,3955
138,138,0,2046,4054
139,139,0,2047,4095
140,140,0,2047,4095
141,141,0,2046,4037
142,142,0,2047,3927
143,143,0,2046,3769
144,144,0,2046,3567
145,145,0,2047,3325
146,146,0,2047,3050
147,147,0,2047,2750
148,148,0,2046,2431
149,149,0,2046,2101
150,150,0,2047,1770
151,151,0,2046,1446
152,152,0,2046,1137
153,153,0,2046,850
154,154,0,2047,594
155,155,0,2046,376
156,156,0,2047,200
157,157,0,2047,71
158,158,0,2046,0
159,159,0,2046,0
160,160,0,2046,0
161,161,0,2047,77
162,162,0,2046,208
163,163,0,2046,388
164,164,0,2047,609
165,165,0,2046,868
166,166,0,2047,1156
167,167,0,2047,1468
168,168,0,2046,1794
169,169,0,2047,2126
170,170,0,2046,2455
171,171,0,2046,2774
172,172,0,2046,3074
173,173,0,2047,3347
174,174,0,2046,3586
175,175,0,2047,3785
176,176,0,2046,3940
177,177,0,2046,4044
178,178,0,2046,4095
179,179,0,2047,4095
180,180,0,2046,4047
181,181,0,2046,3943
182,182,0,2046,3792
183,183,0,2046,3594
184,184,0,2046,3357
185,185,0,2046,3086
186,186,0,2047,2788
187,187,0,2047,2470
188,188,0,2047,2142
189,189,0,2046,1811
190,190,0,2046,1484
191,191,0,2046,1174
192,192,0,2046,885
193,193,0,2047,624
194,194,0,2047,400
195,195,0,2047,219
196,196,0,2046,83
197,197,0,2046,0
198,198,0,2046,0
199,199,0,2046,0
200,200,0,2047,64
201,201,0,2047,190
202,202,0,2046,362
203,203,0,2047,578
204,204,0,2046,834
205,205,0,2047,1119
206,206,0,2046,1429
207,207,0,2047,1753
208,208,0,2046,2085
209,209,0,2047,2415
210,210,0,2046,2736
211,211,0,2046,3038
212,212,0,2046,3315
213,213,0,2046,3559
214,214,0,2046,3763
215,215,0,2046,3923
216,216,0,2046,4034
217,217,0,2047,4094
218,218,0,2047,4095
219,219,0,2046,4056
220,220,0,2046,3960
221,221,0,2046,3813
222,222,0,2046,3621
223,223,0,2046,3388
224,224,0,2046,3121
225,225,0,2046,2826
226,226,0,2046,2511
227,227,0,2046,2183
228,228,0,2046,1852
229,229,0,2046,1525
230,230,0,2047,1211
231,231,0,2047,919
232,232,0,2047,654
233,233,0,2047,425
234,234,0,2046,239
235,235,0,2046,98
236,236,0,2047,7
237,237,0,2047,0
238,238,0,2047,0
239,239,0,2047,52
240,240,0,2047,172
241,241,0,2047,339
242,242,0,2047,550
243,243,0,2047,800
244,244,0,2047,1082
245,245,0,2046,1389
246,246,0,2047,1712
247,247,0,2046,2044
248,248,0,2046,2375
249,249,0,2047,2697
250,250,0,2047,3001
251,251,0,2046,3282
252,252,0,2047,3530
253,253,0,2046,3740
254,254,0,2046,3906
255,255,0,2046,4023
256,256,0,2046,4089
257,257,0,2046,4095
258,258,0,2046,4065
259,259,0,2047,3975
260,260,0,2046,3834
261,261,0,2047,3647
262,262,0,2046,3418
263,263,0,2046,3157
264,264,0,2045,2864
265,265,0,2047,2551
266,266,0,2046,2224
267,267,0,2046,1893
268,268,0,2047,1564
269,269,0,2046,1249
270,270,0,2046,953
271,271,0,2046,685
272,272,0,2046,452
273,273,0,2046,259
274,274,0,2047,113
275,275,0,2047,15
276,276,0,2046,0
277,277,0,2046,0
278,278,0,2046,41
279,279,0,2046,154
280,280,0,2047,316
281,281,0,2046,522
282,282,0,2046,768
283,283,0,2047,1046
284,284,0,2046,1350
285,285,0,2046,1671
286,286,0,2046,2002
287,287,0,2047,2334
288,288,0,2046,2658
289,289,0,2046,2965
290,290,0,2047,3249
291,291,0,2046,3501
292,292,0,2046,3716
293,293,0,2046,3887
294,294,0,2047,4012
295,295,0,2046,4085
296,296,0,2046,4095
297,297,0,2046,4073
298,298,0,2046,3988
299,299,0,2046,3853
300,300,0,2046,3672
301,301,0,2046,3449
302,302,0,2046,3190
303,303,0,2046,2901
304,304,0,2047,2591
305,305,0,2046,2264
306,306,0,2046,1934
307,307,0,2046,1605
308,308,0,2046,1287
309,309,0,2047,988
310,310,0,2047,717
311,311,0,2046,478
312,312,0,2047,281
313,313,0,2046,128
314,314,0,2046,25
315,315,0,2046,0
316,316,0,2046,0
317,317,0,2047,31
318,318,0,2047,138
319,319,0,2046,294
320,320,0,2046,494
321,321,0,2047,736
322,322,0,2046,1010
323,323,0,2046,1312
324,324,0,2047,1630
325,325,0,2046,1961
326,326,0,2046,2293
327,327,0,2046,2619
328,328,0,2047,2928
329,329,0,2046,3215
330,330,0,2047,3472
331,331,0,2046,3691
332,332,0,2047,3869
333,333,0,2047,3998
334,334,0,2047,4079
335,335,0,2047,4095
336,336,0,2046,4079
337,337,0,2046,4002
338,338,0,2046,3872
339,339,0,2047,3697
340,340,0,2046,3479
341,341,0,2046,3224
342,342,0,2046,2938
343,343,0,2047,2630
344,344,0,2046,2306
345,345,0,2046,1975
346,346,0,2046,1645
347,347,0,2047,1325
348,348,0,2046,1024
349,349,0,2046,748
350,350,0,2046,506
351,351,0,2047,303
352,352,0,2047,144
353,353,0,2046,35
354,354,0,2046,0
355,355,0,2047,0
356,356,0,2046,21
357,357,0,2046,121
358,358,0,2046,272
359,359,0,2046,467
360,360,0,2047,703
361,361,0,2046,975
362,362,0,2046,1273
363,363,0,2046,1590
364,364,0,2046,1920
365,365,0,2046,2252
366,366,0,2046,2578
367,367,0,2046,2891
368,368,0,2046,3182
369,369,0,2047,3442
370,370,0,2046,3666
371,371,0,2046,3850
372,372,0,2046,3986
373,373,0,2046,4071
374,374,0,2047,4095
375,375,0,2046,4086
376,376,0,2046,4014
377,377,0,2046,3891
378,378,0,2046,3721
379,379,0,2046,3508
380,380,0,2046,3257
381,381,0,2047,2974
382,382,0,2046,2669
383,383,0,2046,2346
384,384,0,2046,2015
385,385,0,2046,1686
386,386,0,2046,1365
387,387,0,2047,1061
388,388,0,2046,781
389,389,0,2046,534
390,390,0,2046,326
391,391,0,2047,161
392,392,0,2047,46
393,393,0,2046,0
394,394,0,2046,0
395,395,0,2046,12
396,396,0,2046,106
397,397,0,2046,251
398,398,0,2046,441
399,399,0,2046,673
400,400,0,2046,939
401,401,0,2047,1235
402,402,0,2046,1551
403,403,0,2047,1878
404,404,0,2046,2211
405,405,0,2046,2540
406,406,0,2046,2853
407,407,0,2046,3148
408,408,0,2047,3412
409,409,0,2046,3641
410,410,0,2046,3829
411,411,0,2046,3971
412,412,0,2047,4063
413,413,0,2046,4095
414,414,0,2046,4091
415,415,0,2046,4025
416,416,0,2046,3909
417,417,0,2046,3744
418,418,0,2046,3537
419,419,0,2047,3290
420,420,0,2047,3012
421,421,0,2046,2708
422,422,0,2046,2387
423,423,0,2046,2057
424,424,0,2046,1726
425,425,0,2046,1404
426,426,0,2046,1097
427,427,0,2047,814
428,428,0,2046,562
429,429,0,2046,349
430,430,0,2046,180
431,431,0,2046,57
432,432,0,2046,0
433,433,0,2046,0
434,434,0,2046,4
435,435,0,2046,92
436,436,0,2046,230
437,437,0,2046,415
438,438,0,2046,642
439,439,0,2047,906
440,440,0,2047,1197
441,441,0,2047,1511
442,442,0,2046,1838
443,443,0,2046,2170
444,444,0,2046,2499
445,445,0,2046,2816
446,446,0,2047,3112
447,447,0,2047,3381
448,448,0,2046,3615
449,449,0,2046,3808
450,450,0,2046,3957
451,451,0,2046,4054
452,452,0,2047,4095
453,453,0,2047,4095
454,454,0,2045,4037
455,455,0,2046,3927
456,456,0,2046,3767
457,457,0,2046,3565
458,458,0,2046,3323
459,459,0,2046,3047
460,460,0,2047,2747
461,461,0,2046,2428
462,462,0,2046,2098
463,463,0,2046,1767
464,464,0,2046,1442
465,465,0,2046,1134
466,466,0,2046,848
467,467,0,2047,592
468,468,0,2046,374
469,469,0,2046,198
470,470,0,2046,70
471,471,0,2047,0
472,472,0,2046,0
473,473,0,2046,0
474,474,0,2046,77
475,475,0,2046,209
476,476,0,2046,390
477,477,0,2047,612
478,478,0,2047,871
479,479,0,2046,1159
480,480,0,2046,1471
481,481,0,2047,1797
482,482,0,2047,2129
483,483,0,2047,2459
484,484,0,2047,2778
485,485,0,2046,3076
486,486,0,2047,3350
487,487,0,2046,3589
488,488,0,2046,3787
489,489,0,2047,3941
490,490,0,2046,4045
491,491,0,2047,4095
492,492,0,2046,4095
493,493,0,2046,4047
494,494,0,2047,3943
495,495,0,2046,3790
496,496,0,2046,3592
497,497,0,2046,3355
498,498,0,2046,3083
499,499,0,2047,2785
500,500,0,2046,2468
501,501,0,2046,2140
502,502,0,2047,1808
503,503,0,2047,1483
504,504,0,2047,1171
505,505,0,2046,881
506,506,0,2046,622
507,507,0,2046,399
508,508,0,2046,218
509,509,0,2046,82
510,510,0,2046,0
511,511,0,2047,0
512,512,0,2046,0
513,513,0,2046,65
514,514,0,2047,191
515,515,0,2047,365
516,516,0,2046,582
517,517,0,2047,836
518,518,0,2046,1122
519,519,0,2046,1432
520,520,0,2047,1756
521,521,0,2046,2088
522,522,0,2046,2418
523,523,0,2046,2738
524,524,0,2047,3040
525,525,0,2046,3317
526,526,0,2046,3561
527,527,0,2046,3765
528,528,0,2046,3925
529,529,0,2047,4036
530,530,0,2047,4095
531,531,0,2047,4095
532,532,0,2046,4055
533,533,0,2046,3958
534,534,0,2047,3811
535,535,0,2047,3619
536,536,0,2047,3387
537,537,0,2046,3119
538,538,0,2046,2824
539,539,0,2046,2508
540,540,0,2046,2180
541,541,0,2047,1849
542,542,0,2047,1522
543,543,0,2047,1208
544,544,0,2047,916
545,545,0,2046,652
546,546,0,2047,423
547,547,0,2046,237
548,548,0,2046,96
549,549,0,2046,6
550,550,0,2046,0
551,551,0,2047,0
552,552,0,2046,53
553,553,0,2047,173
554,554,0,2046,341
555,555,0,2046,553
556,556,0,2046,803
557,557,0,2047,1085
558,558,0,2047,1392
559,559,0,2047,1716
560,560,0,2046,2047
561,561,0,2046,2378
562,562,0,2047,2700
563,563,0,2046,3004
564,564,0,2046,3284
565,565,0,2047,3533
566,566,0,2047,3742
567,567,0,2047,3907
568,568,0,2047,4024
569,569,0,2046,4091
570,570,0,2046,4095
571,571,0,2047,4065
572,572,0,2047,3973
573,573,0,2046,3832
574,574,0,2047,3645
575,575,0,2046,3417
576,576,0,2046,3153
577,577,0,2047,2861
578,578,0,2046,2548
579,579,0,2047,2220
580,580,0,2047,1890
581,581,0,2046,1561
582,582,0,2046,1246
583,583,0,2047,950
584,584,0,2046,684
585,585,0,2046,450
586,586,0,2046,258
587,587,0,2046,111
588,588,0,2046,16
589,589,0,2047,0
590,590,0,2047,0
591,591,0,2047,42
592,592,0,2046,156
593,593,0,2046,318
594,594,0,2046,525
595,595,0,2047,770
596,596,0,2047,1049
597,597,0,2046,1353
598,598,0,2046,1675
599,599,0,2046,2005
600,600,0,2046,2337
601,601,0,2046,2661
602,602,0,2046,2968
603,603,0,2046,3252
604,604,0,2047,3504
605,605,0,2047,3719
606,606,0,2047,3890
607,607,0,2047,4013
608,608,0,2047,4085
609,609,0,2046,4095
610,610,0,2046,4071
611,611,0,2047,3987
612,612,0,2046,3852
613,613,0,2046,3670
614,614,0,2046,3447
615,615,0,2046,3187
616,616,0,2047,2898
617,617,0,2047,2587
618,618,0,2046,2261
619,619,0,2047,1931
620,620,0,2047,1602
621,621,0,2047,1284
622,622,0,2047,985
623,623,0,2046,714
624,624,0,2046,476
625,625,0,2047,279
626,626,0,2047,127
627,627,0,2047,24
628,628,0,2047,0
629,629,0,2046,0
630,630,0,2046,31
631,631,0,2047,138
632,632,0,2046,295
633,633,0,2046,496
634,634,0,2047,738
635,635,0,2046,1013
636,636,0,2046,1314
637,637,0,2047,1634
638,638,0,2046,1964
639,639,0,2046,2297
640,640,0,2047,2621
641,641,0,2047,2931
642,642,0,2047,3218
643,643,0,2047,3474
644,644,0,2046,3694
645,645,0,2046,3871
646,646,0,2046,4000
647,647,0,2046,4079
648,648,0,2046,4095
649,649,0,2047,4079
650,650,0,2046,4000
651,651,0,2047,3871
652,652,0,2046,3695
653,653,0,2046,3476
654,654,0,2046,3221
655,655,0,2046,2936
656,656,0,2046,2626
657,657,0,2046,2302
658,658,0,2046,1971
659,659,0,2047,1642
660,660,0,2046,1322
661,661,0,2046,1021
662,662,0,2046,746
663,663,0,2046,504
664,664,0,2046,301
665,665,0,2047,143
666,666,0,2047,34
667,667,0,2046,0
668,668,0,2046,0
669,669,0,2046,21
670,670,0,2047,123
671,671,0,2047,273
672,672,0,2046,469
673,673,0,2046,707
674,674,0,2046,978
675,675,0,2046,1276
676,676,0,2046,1594
677,677,0,2046,1923
678,678,0,2046,2256
679,679,0,2047,2581
680,680,0,2046,2895
681,681,0,2047,3185
682,682,0,2046,3444
683,683,0,2046,3669
684,684,0,2046,3851
685,685,0,2046,3987
686,686,0,2047,4072
687,687,0,2047,4095
688,688,0,2047,4085
689,689,0,2046,4013
690,690,0,2046,3890
691,691,0,2047,3719
692,692,0,2046,3506
693,693,0,2046,3254
694,694,0,2047,2973
695,695,0,2047,2666
696,696,0,2046,2343
697,697,0,2046,2013
698,698,0,2046,1682
699,699,0,2046,1361
700,700,0,2047,1057
701,701,0,2046,778
702,702,0,2047,532
703,703,0,2046,324
704,704,0,2046,159
705,705,0,2047,44
706,706,0,2047,0
707,707,0,2046,0
708,708,0,2046,12
709,709,0,2046,107
710,710,0,2047,252
711,711,0,2046,443
712,712,0,2046,675
713,713,0,2047,942
714,714,0,2046,1238
715,715,0,2045,1554
716,716,0,2046,1882
717,717,0,2046,2215
718,718,0,2047,2542
719,719,0,2047,2857
720,720,0,2046,3150
721,721,0,2047,3415
722,722,0,2046,3643
723,723,0,2046,3831
724,724,0,2047,3972
725,725,0,2047,4064
726,726,0,2047,4095
727,727,0,2047,4090
728,728,0,2047,4024
729,729,0,2046,3908
730,730,0,2047,3742
731,731,0,2046,3534
732,732,0,2047,3287
733,733,0,2046,3009
734,734,0,2046,2705
735,735,0,2046,2383
736,736,0,2047,2053
737,737,0,2047,1722
738,738,0,2046,1400
739,739,0,2046,1094
740,740,0,2046,811
741,741,0,2046,560
742,742,0,2047,348
743,743,0,2047,178
744,744,0,2046,56
745,745,0,2046,0
746,746,0,2046,0
747,747,0,2046,5
748,748,0,2047,93
749,749,0,2046,231
750,750,0,2046,417
751,751,0,2047,645
752,752,0,2047,908
753,753,0,2046,1201
754,754,0,2046,1513
755,755,0,2046,1842
756,756,0,2047,2173
757,757,0,2046,2503
758,758,0,2046,2819
759,759,0,2047,3114
760,760,0,2047,3384
761,761,0,2046,3617
762,762,0,2046,3810
763,763,0,2046,3957
764,764,0,2046,4056
765,765,0,2046,4095
766,766,0,2046,4095
767,767,0,2046,4035
768,768,0,2046,3925
769,769,0,2046,3766
770,770,0,2047,3562
771,771,0,2047,3320
772,772,0,2046,3045
773,773,0,2046,2743
774,774,0,2047,2425
775,775,0,2046,2094
776,776,0,2046,1763
777,777,0,2046,1440
778,778,0,2046,1130
779,779,0,2047,844
780,780,0,2046,589
781,781,0,2047,371
782,782,0,2046,196
783,783,0,2047,69
784,784,0,2046,0
785,785,0,2047,0
786,786,0,2046,0
787,787,0,2047,79
788,788,0,2046,212
789,789,0,2047,392
790,790,0,2046,615
791,791,0,2046,874
792,792,0,2046,1162
793,793,0,2047,1475
794,794,0,2046,1800
795,795,0,2047,2133
796,796,0,2047,2462
797,797,0,2046,2781
798,798,0,2046,3080
799,799,0,2046,3352
800,800,0,2046,3590
801,801,0,2047,3788
802,802,0,2046,3942
803,803,0,2046,4046
804,804,0,2046,4095
805,805,0,2046,4095
806,806,0,2047,4045
807,807,0,2046,3941
808,808,0,2046,3787
809,809,0,2046,3589
810,810,0,2046,3352
811,811,0,2046,3080
812,812,0,2046,2781
813,813,0,2046,2465
814,814,0,2047,2135
815,815,0,2047,1804
816,816,0,2046,1478
817,817,0,2047,1168
818,818,0,2046,879
819,819,0,2047,619
820,820,0,2045,396
821,821,0,2046,215
822,822,0,2047,82
823,823,0,2046,0
824,824,0,2046,0
825,825,0,2047,0
826,826,0,2047,66
827,827,0,2046,193
828,828,0,2046,368
829,829,0,2046,584
830,830,0,2047,839
831,831,0,2046,1126
832,832,0,2047,1435
833,833,0,2046,1760
834,834,0,2046,2091
835,835,0,2047,2422
836,836,0,2046,2742
837,837,0,2046,3044
838,838,0,2046,3320
839,839,0,2046,3563
840,840,0,2046,3766
841,841,0,2047,3925
842,842,0,2046,4036
843,843,0,2046,4095
844,844,0,2046,4095
845,845,0,2047,4055
846,846,0,2047,3956
847,847,0,2046,3808
848,848,0,2046,3617
849,849,0,2047,3383
850,850,0,2046,3115
851,851,0,2046,2820
852,852,0,2046,2504
853,853,0,2046,2176
854,854,0,2047,1845
855,855,0,2047,1518
856,856,0,2047,1205
857,857,0,2047,913
858,858,0,2046,650
859,859,0,2046,422
860,860,0,2046,235
861,861,0,2047,95
862,862,0,2047,5
863,863,0,2046,0
864,864,0,2047,0
865,865,0,2047,54
866,866,0,2047,175
867,867,0,2047,343
868,868,0,2046,556
869,869,0,2047,806
870,870,0,2046,1088
871,871,0,2047,1395
872,872,0,2047,1718
873,873,0,2046,2051
874,874,0,2046,2381
875,875,0,2047,2703
876,876,0,2047,3008
877,877,0,2047,3288
878,878,0,2046,3535
879,879,0,2047,3744
880,880,0,2047,3908
881,881,0,2047,4025
882,882,0,2047,4091
883,883,0,2047,4095
884,884,0,2046,4063
885,885,0,2046,3971
886,886,0,2046,3829
887,887,0,2046,3643
888,888,0,2047,3414
889,889,0,2047,3150
890,890,0,2046,2858
891,891,0,2047,2545
892,892,0,2046,2217
893,893,0,2046,1887
894,894,0,2047,1558
895,895,0,2046,1243
896,896,0,2046,947
897,897,0,2047,681
898,898,0,2047,448
899,899,0,2046,256
900,900,0,2047,110
901,901,0,2047,14
902,902,0,2046,0
903,903,0,2046,0
904,904,0,2046,43
905,905,0,2046,157
906,906,0,2046,320
907,907,0,2046,527
908,908,0,2046,774
909,909,0,2047,1052
910,910,0,2047,1357
911,911,0,2046,1678
912,912,0,2046,2009
913,913,0,2046,2340
914,914,0,2046,2664
915,915,0,2047,2971
916,916,0,2046,3254
917,917,0,2046,3506
918,918,0,2046,3720
919,919,0,2047,3890
920,920,0,2047,4013
921,921,0,2046,4085
922,922,0,2046,4095
923,923,0,2046,4071
924,924,0,2047,3985
925,925,0,2047,3851
926,926,0,2046,3668
927,927,0,2046,3444
928,928,0,2046,3184
929,929,0,2046,2896
930,930,0,2046,2584
931,931,0,2047,2259
932,932,0,2046,1928
933,933,0,2047,1599
934,934,0,2046,1281
935,935,0,2047,982
936,936,0,2047,711
937,937,0,2046,474
938,938,0,2046,277
939,939,0,2047,126
940,940,0,2047,22
941,941,0,2047,0
942,942,0,2046,0
943,943,0,2047,33
944,944,0,2046,140
945,945,0,2046,297
946,946,0,2046,499
947,947,0,2046,741
948,948,0,2047,1016
949,949,0,2046,1318
950,950,0,2046,1638
951,951,0,2046,1968
952,952,0,2046,2300
953,953,0,2047,2624
954,954,0,2046,2934
955,955,0,2046,3221
956,956,0,2046,3477
957,957,0,2047,3696
958,958,0,2047,3872
959,959,0,2046,4001
960,960,0,2047,4080
961,961,0,2046,4095
962,962,0,2046,4078
963,963,0,2047,3999
964,964,0,2046,3869
965,965,0,2046,3693
966,966,0,2046,3474
967,967,0,2046,3218
968,968,0,2046,2932
969,969,0,2047,2623
970,970,0,2046,2298
971,971,0,2047,1968
972,972,0,2047,1639
973,973,0,2047,1320
974,974,0,2047,1018
975,975,0,2047,743
976,976,0,2046,501
977,977,0,2046,299
978,978,0,2046,142
979,979,0,2046,33
980,980,0,2047,0
981,981,0,2047,0
982,982,0,2046,21
983,983,0,2047,123
984,984,0,2046,275
985,985,0,2046,472
986,986,0,2046,709
987,987,0,2046,981
988,988,0,2046,1279
989,989,0,2046,1597
990,990,0,2046,1927
991,991,0,2047,2260
992,992,0,2046,2585
993,993,0,2046,2897
994,994,0,2046,3187
995,995,0,2047,3447
996,996,0,2046,3670
997,997,0,2047,3853
998,998,0,2046,3988
999,999,0,2047,4072
1000,1000,0,2047,4095
1001,1001,0,2047,4085
1002,1002,0,2047,4012
1003,1003,0,2046,3889
1004,1004,0,2047,3717
1005,1005,0,2046,3503
1006,1006,0,2046,3252
1007,1007,0,2046,2969
1008,1008,0,2046,2663
1009,1009,0,2046,2340
1010,1010,0,2046,2009
1011,1011,0,2046,1679
1012,1012,0,2046,1358
1013,1013,0,2047,1054
1014,1014,0,2046,776
1015,1015,0,2046,530
1016,1016,0,2047,322
1017,1017,0,2047,159
1018,1018,0,2047,44
1019,1019,0,2046,0
1020,1020,0,2047,0
1021,1021,0,2046,13
1022,1022,0,2046,109
1023,1023,0,2046,254
1024,1024,0,2046,445
1025,1025,0,2046,678
1026,1026,0,2046,945
1027,1027,0,2046,1241
1028,1028,0,2046,1557
1029,1029,0,2046,1886
