Sample in Buffer,Sample in Window,TRIGGER,adc1_data_a_d0[11:0],adc1_data_b_d0[11:0]
0,0,0,2046,1055
1,1,0,2046,1465
2,2,0,2046,1901
3,3,0,2047,2343
4,4,0,2047,2773
5,5,0,2047,3169
6,6,0,2047,3515
7,7,0,2046,3795
8,8,0,2047,3996
9,9,0,2047,4095
10,10,0,2047,4095
11,11,0,2046,4054
12,12,0,2046,3889
13,13,0,2047,3641
14,14,0,2047,3321
15,15,0,2047,2944
16,16,0,2047,2527
17,17,0,2047,2087
18,18,0,2047,1646
19,19,0,2046,1223
20,20,0,2047,837
21,21,0,2047,504
22,22,0,2046,241
23,23,0,2046,57
24,24,0,2046,0
25,25,0,2047,0
26,26,0,2047,52
27,27,0,2047,231
28,28,0,2047,491
29,29,0,2047,821
30,30,0,2047,1206
31,31,0,2046,1628
32,32,0,2046,2069
33,33,0,2046,2508
34,34,0,2046,2927
35,35,0,2046,3307
36,36,0,2046,3629
37,37,0,2047,3880
38,38,0,2047,4048
39,39,0,2047,4095
40,40,0,2047,4095
41,41,0,2047,4002
42,42,0,2046,3804
43,43,0,2046,3528
44,44,0,2046,3185
45,45,0,2046,2790
46,46,0,2047,2361
47,47,0,2046,1919
48,48,0,2047,1483
49,49,0,2046,1071
50,50,0,2047,704
51,51,0,2047,396
52,52,0,2047,161
53,53,0,2046,10
54,54,0,2047,0
55,55,0,2046,0
56,56,0,2047,110
57,57,0,2047,321
58,58,0,2046,609
59,59,0,2047,961
60,60,0,2047,1362
61,61,0,2046,1794
62,62,0,2047,2236
63,63,0,2047,2670
64,64,0,2047,3077
65,65,0,2046,3437
66,66,0,2046,3733
67,67,0,2047,3954
68,68,0,2046,4089
69,69,0,2047,4095
70,70,0,2046,4081
71,71,0,2046,3937
72,72,0,2046,3708
73,73,0,2047,3405
74,74,0,2046,3040
75,75,0,2047,2631
76,76,0,2046,2194
77,77,0,2046,1752
78,78,0,2047,1324
79,79,0,2047,926
80,80,0,2046,579
81,81,0,2047,297
82,82,0,2047,94
83,83,0,2047,0
84,84,0,2046,0
85,85,0,2047,20
86,86,0,2047,180
87,87,0,2047,422
88,88,0,2047,736
89,89,0,2047,1108
90,90,0,2047,1523
91,91,0,2046,1961
92,92,0,2047,2403
93,93,0,2047,2829
94,94,0,2046,3219
95,95,0,2047,3558
96,96,0,2046,3827
97,97,0,2046,4016
98,98,0,2046,4095
99,99,0,2046,4095
100,100,0,2046,4036
101,101,0,2046,3860
102,102,0,2046,3601
103,103,0,2047,3272
104,104,0,2047,2888
105,105,0,2046,2467
106,106,0,2047,2027
107,107,0,2046,1587
108,108,0,2047,1168
109,109,0,2046,788
110,110,0,2046,464
111,111,0,2046,211
112,112,0,2046,38
113,113,0,2047,0
114,114,0,2046,0
115,115,0,2047,71
116,116,0,2046,261
117,117,0,2046,533
118,118,0,2047,871
119,119,0,2047,1262
120,120,0,2046,1688
121,121,0,2046,2130
122,122,0,2046,2568
123,123,0,2046,2982
124,124,0,2046,3355
125,125,0,2046,3668
126,126,0,2046,3909
127,127,0,2047,4065
128,128,0,2047,4095
129,129,0,2046,4095
130,130,0,2047,3979
131,131,0,2046,3771
132,132,0,2047,3484
133,133,0,2047,3133
134,134,0,2047,2733
135,135,0,2045,2302
136,136,0,2046,1859
137,137,0,2047,1424
138,138,0,2046,1018
139,139,0,2046,658
140,140,0,2046,359
141,141,0,2047,135
142,142,0,2047,0
143,143,0,2047,0
144,144,0,2047,0
145,145,0,2047,133
146,146,0,2047,356
147,147,0,2047,654
148,148,0,2046,1014
149,149,0,2046,1420
150,150,0,2047,1855
151,151,0,2046,2297
152,152,0,2047,2728
153,153,0,2046,3129
154,154,0,2046,3481
155,155,0,2047,3768
156,156,0,2046,3978
157,157,0,2047,4095
158,158,0,2047,4095
159,159,0,2047,4066
160,160,0,2046,3911
161,161,0,2047,3671
162,162,0,2046,3358
163,163,0,2046,2985
164,164,0,2046,2572
165,165,0,2047,2134
166,166,0,2047,1692
167,167,0,2047,1266
168,168,0,2046,875
169,169,0,2047,536
170,170,0,2046,265
171,171,0,2047,73
172,172,0,2046,0
173,173,0,2046,0
174,174,0,2046,38
175,175,0,2047,208
176,176,0,2046,460
177,177,0,2047,784
178,178,0,2047,1163
179,179,0,2047,1583
180,180,0,2046,2022
181,181,0,2047,2463
182,182,0,2046,2885
183,183,0,2047,3270
184,184,0,2047,3598
185,185,0,2046,3857
186,186,0,2046,4035
187,187,0,2047,4095
188,188,0,2047,4095
189,189,0,2047,4018
190,190,0,2046,3829
191,191,0,2047,3560
192,192,0,2047,3223
193,193,0,2047,2833
194,194,0,2047,2407
195,195,0,2046,1965
196,196,0,2046,1527
197,197,0,2047,1113
198,198,0,2046,739
199,199,0,2046,424
200,200,0,2046,182
201,201,0,2046,22
202,202,0,2046,0
203,203,0,2047,0
204,204,0,2047,92
205,205,0,2046,294
206,206,0,2046,576
207,207,0,2046,922
208,208,0,2046,1319
209,209,0,2047,1747
210,210,0,2046,2190
211,211,0,2047,2626
212,212,0,2046,3036
213,213,0,2047,3402
214,214,0,2047,3706
215,215,0,2047,3935
216,216,0,2047,4080
217,217,0,2047,4095
218,218,0,2047,4090
219,219,0,2046,3957
220,220,0,2047,3736
221,221,0,2046,3440
222,222,0,2047,3080
223,223,0,2046,2675
224,224,0,2047,2241
225,225,0,2046,1798
226,226,0,2046,1366
227,227,0,2047,965
228,228,0,2046,613
229,229,0,2046,324
230,230,0,2047,111
231,231,0,2047,0
232,232,0,2047,0
233,233,0,2047,9
234,234,0,2047,159
235,235,0,2047,393
236,236,0,2047,700
237,237,0,2047,1067
238,238,0,2047,1479
239,239,0,2046,1915
240,240,0,2047,2358
241,241,0,2047,2785
242,242,0,2047,3181
243,243,0,2047,3525
244,244,0,2046,3802
245,245,0,2046,4001
246,246,0,2046,4095
247,247,0,2046,4095
248,248,0,2047,4050
249,249,0,2046,3882
250,250,0,2047,3631
251,251,0,2046,3310
252,252,0,2047,2931
253,253,0,2046,2513
254,254,0,2047,2074
255,255,0,2047,1632
256,256,0,2046,1210
257,257,0,2047,825
258,258,0,2046,494
259,259,0,2047,232
260,260,0,2047,53
261,261,0,2046,0
262,262,0,2047,0
263,263,0,2047,55
264,264,0,2047,238
265,265,0,2046,501
266,266,0,2046,833
267,267,0,2046,1219
268,268,0,2046,1643
269,269,0,2047,2082
270,270,0,2046,2523
271,271,0,2046,2940
272,272,0,2046,3317
273,273,0,2046,3639
274,274,0,2047,3887
275,275,0,2047,4053
276,276,0,2046,4095
277,277,0,2047,4095
278,278,0,2046,3996
279,279,0,2046,3796
280,280,0,2046,3517
281,281,0,2046,3173
282,282,0,2047,2776
283,283,0,2047,2347
284,284,0,2047,1905
285,285,0,2047,1469
286,286,0,2046,1059
287,287,0,2047,692
288,288,0,2047,386
289,289,0,2047,155
290,290,0,2046,7
291,291,0,2047,0
292,292,0,2046,0
293,293,0,2047,114
294,294,0,2047,329
295,295,0,2046,620
296,296,0,2046,974
297,297,0,2047,1376
298,298,0,2046,1809
299,299,0,2046,2251
300,300,0,2047,2684
301,301,0,2046,3089
302,302,0,2046,3447
303,303,0,2047,3743
304,304,0,2046,3960
305,305,0,2047,4093
306,306,0,2046,4095
307,307,0,2046,4078
308,308,0,2047,3931
309,309,0,2047,3700
310,310,0,2047,3393
311,311,0,2046,3026
312,312,0,2046,2616
313,313,0,2046,2180
314,314,0,2046,1738
315,315,0,2046,1310
316,316,0,2046,914
317,317,0,2047,569
318,318,0,2046,290
319,319,0,2047,88
320,320,0,2046,0
321,321,0,2047,0
322,322,0,2047,25
323,323,0,2047,186
324,324,0,2047,430
325,325,0,2047,748
326,326,0,2046,1122
327,327,0,2047,1537
328,328,0,2047,1976
329,329,0,2047,2418
330,330,0,2046,2842
331,331,0,2047,3232
332,332,0,2046,3568
333,333,0,2046,3834
334,334,0,2047,4021
335,335,0,2047,4095
336,336,0,2047,4095
337,337,0,2047,4032
338,338,0,2047,3852
339,339,0,2047,3591
340,340,0,2046,3260
341,341,0,2046,2875
342,342,0,2046,2453
343,343,0,2047,2012
344,344,0,2046,1573
345,345,0,2046,1155
346,346,0,2047,776
347,347,0,2047,455
348,348,0,2047,203
349,349,0,2046,35
350,350,0,2046,0
351,351,0,2047,0
352,352,0,2046,76
353,353,0,2046,270
354,354,0,2046,543
355,355,0,2047,883
356,356,0,2047,1275
357,357,0,2046,1702
358,358,0,2046,2144
359,359,0,2046,2581
360,360,0,2047,2995
361,361,0,2046,3367
362,362,0,2046,3677
363,363,0,2047,3915
364,364,0,2046,4068
365,365,0,2047,4095
366,366,0,2047,4095
367,367,0,2046,3975
368,368,0,2047,3762
369,369,0,2047,3474
370,370,0,2047,3121
371,371,0,2047,2719
372,372,0,2047,2288
373,373,0,2047,1844
374,374,0,2046,1411
375,375,0,2047,1005
376,376,0,2047,647
377,377,0,2046,350
378,378,0,2047,130
379,379,0,2046,0
380,380,0,2046,0
381,381,0,2047,0
382,382,0,2047,140
383,383,0,2046,364
384,384,0,2047,665
385,385,0,2047,1027
386,386,0,2046,1433
387,387,0,2046,1869
388,388,0,2047,2311
389,389,0,2047,2742
390,390,0,2047,3141
391,391,0,2046,3492
392,392,0,2046,3777
393,393,0,2047,3984
394,394,0,2046,4095
395,395,0,2047,4095
396,396,0,2046,4062
397,397,0,2046,3904
398,398,0,2047,3662
399,399,0,2047,3347
400,400,0,2046,2973
401,401,0,2046,2558
402,402,0,2046,2119
403,403,0,2047,1678
404,404,0,2046,1254
405,405,0,2047,863
406,406,0,2046,526
407,407,0,2046,256
408,408,0,2046,67
409,409,0,2047,0
410,410,0,2046,0
411,411,0,2047,42
412,412,0,2046,215
413,413,0,2046,470
414,414,0,2046,795
415,415,0,2046,1176
416,416,0,2047,1597
417,417,0,2047,2037
418,418,0,2047,2477
419,419,0,2046,2898
420,420,0,2046,3281
421,421,0,2047,3607
422,422,0,2046,3865
423,423,0,2046,4040
424,424,0,2047,4095
425,425,0,2046,4095
426,426,0,2046,4012
427,427,0,2046,3821
428,428,0,2046,3550
429,429,0,2046,3210
430,430,0,2046,2819
431,431,0,2047,2393
432,432,0,2047,1951
433,433,0,2047,1513
434,434,0,2047,1100
435,435,0,2046,729
436,436,0,2047,415
437,437,0,2046,176
438,438,0,2047,18
439,439,0,2047,0
440,440,0,2046,0
441,441,0,2046,98
442,442,0,2046,303
443,443,0,2046,586
444,444,0,2046,934
445,445,0,2047,1332
446,446,0,2047,1762
447,447,0,2046,2205
448,448,0,2046,2640
449,449,0,2046,3048
450,450,0,2046,3412
451,451,0,2046,3714
452,452,0,2046,3942
453,453,0,2046,4083
454,454,0,2047,4095
455,455,0,2046,4088
456,456,0,2047,3950
457,457,0,2047,3727
458,458,0,2047,3428
459,459,0,2047,3068
460,460,0,2046,2660
461,461,0,2046,2226
462,462,0,2047,1784
463,463,0,2046,1354
464,464,0,2047,952
465,465,0,2047,602
466,466,0,2047,316
467,467,0,2046,105
468,468,0,2046,0
469,469,0,2047,0
470,470,0,2047,14
471,471,0,2046,166
472,472,0,2047,402
473,473,0,2046,711
474,474,0,2046,1080
475,475,0,2047,1492
476,476,0,2046,1930
477,477,0,2046,2372
478,478,0,2046,2799
479,479,0,2046,3193
480,480,0,2047,3535
481,481,0,2046,3811
482,482,0,2046,4006
483,483,0,2046,4095
484,484,0,2046,4095
485,485,0,2047,4046
486,486,0,2047,3876
487,487,0,2046,3622
488,488,0,2046,3298
489,489,0,2047,2918
490,490,0,2046,2498
491,491,0,2047,2059
492,492,0,2047,1618
493,493,0,2047,1197
494,494,0,2046,814
495,495,0,2047,485
496,496,0,2047,227
497,497,0,2046,48
498,498,0,2046,0
499,499,0,2046,0
500,500,0,2046,60
501,501,0,2047,245
502,502,0,2046,511
503,503,0,2047,845
504,504,0,2047,1232
505,505,0,2046,1656
506,506,0,2046,2098
507,507,0,2047,2537
508,508,0,2046,2953
509,509,0,2046,3330
510,510,0,2047,3648
511,511,0,2046,3894
512,512,0,2046,4057
513,513,0,2047,4095
514,514,0,2046,4095
515,515,0,2046,3991
516,516,0,2046,3789
517,517,0,2046,3507
518,518,0,2046,3160
519,519,0,2046,2763
520,520,0,2046,2333
521,521,0,2047,1891
522,522,0,2047,1455
523,523,0,2047,1046
524,524,0,2047,682
525,525,0,2047,378
526,526,0,2046,149
527,527,0,2046,3
528,528,0,2047,0
529,529,0,2046,0
530,530,0,2046,121
531,531,0,2047,338
532,532,0,2046,629
533,533,0,2046,986
534,534,0,2047,1390
535,535,0,2046,1823
536,536,0,2047,2265
537,537,0,2047,2698
538,538,0,2047,3102
539,539,0,2047,3458
540,540,0,2046,3750
541,541,0,2047,3966
542,542,0,2046,4095
543,543,0,2047,4095
544,544,0,2046,4074
545,545,0,2047,3925
546,546,0,2046,3691
547,547,0,2047,3382
548,548,0,2046,3015
549,549,0,2047,2603
550,550,0,2046,2166
551,551,0,2046,1724
552,552,0,2046,1296
553,553,0,2046,902
554,554,0,2047,558
555,555,0,2047,281
556,556,0,2046,83
557,557,0,2046,0
558,558,0,2047,0
559,559,0,2046,29
560,560,0,2047,192
561,561,0,2047,440
562,562,0,2047,758
563,563,0,2047,1134
564,564,0,2047,1551
565,565,0,2046,1990
566,566,0,2047,2432
567,567,0,2047,2855
568,568,0,2046,3243
569,569,0,2046,3578
570,570,0,2046,3842
571,571,0,2046,4025
572,572,0,2047,4095
573,573,0,2046,4095
574,574,0,2047,4028
575,575,0,2046,3845
576,576,0,2047,3582
577,577,0,2045,3249
578,578,0,2047,2863
579,579,0,2046,2439
580,580,0,2047,1998
581,581,0,2047,1559
582,582,0,2047,1142
583,583,0,2046,765
584,584,0,2046,445
585,585,0,2047,196
586,586,0,2046,31
587,587,0,2047,0
588,588,0,2047,0
589,589,0,2046,81
590,590,0,2046,277
591,591,0,2046,553
592,592,0,2047,895
593,593,0,2046,1289
594,594,0,2047,1716
595,595,0,2046,2158
596,596,0,2046,2596
597,597,0,2047,3008
598,598,0,2047,3377
599,599,0,2046,3686
600,600,0,2047,3921
601,601,0,2047,4072
602,602,0,2047,4095
603,603,0,2046,4095
604,604,0,2046,3968
605,605,0,2047,3755
606,606,0,2047,3464
607,607,0,2047,3108
608,608,0,2046,2705
609,609,0,2046,2273
610,610,0,2047,1830
611,611,0,2046,1398
612,612,0,2046,994
613,613,0,2046,636
614,614,0,2047,343
615,615,0,2046,123
616,616,0,2046,0
617,617,0,2047,0
618,618,0,2047,2
619,619,0,2046,145
620,620,0,2047,373
621,621,0,2047,675
622,622,0,2046,1039
623,623,0,2047,1448
624,624,0,2047,1883
625,625,0,2046,2326
626,626,0,2047,2755
627,627,0,2046,3154
628,628,0,2047,3502
629,629,0,2046,3784
630,630,0,2047,3988
631,631,0,2046,4095
632,632,0,2046,4095
633,633,0,2047,4058
634,634,0,2047,3898
635,635,0,2047,3653
636,636,0,2046,3336
637,637,0,2046,2960
638,638,0,2047,2544
639,639,0,2047,2105
640,640,0,2046,1664
641,641,0,2046,1240
642,642,0,2047,851
643,643,0,2047,516
644,644,0,2045,250
645,645,0,2047,63
646,646,0,2047,0
647,647,0,2046,0
648,648,0,2046,46
649,649,0,2047,222
650,650,0,2047,480
651,651,0,2046,807
652,652,0,2047,1189
653,653,0,2047,1610
654,654,0,2046,2051
655,655,0,2046,2492
656,656,0,2045,2912
657,657,0,2047,3292
658,658,0,2046,3618
659,659,0,2047,3872
660,660,0,2046,4044
661,661,0,2047,4095
662,662,0,2047,4095
663,663,0,2047,4007
664,664,0,2047,3814
665,665,0,2047,3540
666,666,0,2046,3199
667,667,0,2046,2806
668,668,0,2047,2380
669,669,0,2046,1937
670,670,0,2046,1500
671,671,0,2046,1087
672,672,0,2046,717
673,673,0,2046,407
674,674,0,2047,169
675,675,0,2046,15
676,676,0,2046,0
677,677,0,2046,0
678,678,0,2046,103
679,679,0,2047,311
680,680,0,2046,596
681,681,0,2046,946
682,682,0,2046,1346
683,683,0,2046,1777
684,684,0,2046,2219
685,685,0,2047,2654
686,686,0,2046,3061
687,687,0,2046,3423
688,688,0,2046,3723
689,689,0,2046,3947
690,690,0,2047,4086
691,691,0,2047,4095
692,692,0,2047,4084
693,693,0,2046,3945
694,694,0,2047,3718
695,695,0,2046,3417
696,696,0,2046,3055
697,697,0,2047,2646
698,698,0,2046,2212
699,699,0,2047,1770
700,700,0,2047,1341
701,701,0,2046,940
702,702,0,2046,592
703,703,0,2046,308
704,704,0,2047,100
705,705,0,2048,0
706,706,0,2046,0
707,707,0,2047,16
708,708,0,2046,172
709,709,0,2047,410
710,710,0,2046,722
711,711,0,2046,1093
712,712,0,2047,1506
713,713,0,2046,1944
714,714,0,2047,2386
715,715,0,2045,2813
716,716,0,2046,3205
717,717,0,2046,3545
718,718,0,2047,3817
719,719,0,2046,4010
720,720,0,2046,4095
721,721,0,2046,4095
722,722,0,2046,4042
723,723,0,2047,3868
724,724,0,2047,3613
725,725,0,2047,3287
726,726,0,2046,2905
727,727,0,2047,2485
728,728,0,2046,2044
729,729,0,2046,1604
730,730,0,2047,1184
731,731,0,2046,802
732,732,0,2047,475
733,733,0,2047,219
734,734,0,2046,44
735,735,0,2047,0
736,736,0,2046,0
737,737,0,2046,65
738,738,0,2047,253
739,739,0,2046,521
740,740,0,2046,856
741,741,0,2046,1245
742,742,0,2047,1670
743,743,0,2047,2112
744,744,0,2047,2550
745,745,0,2047,2966
746,746,0,2046,3340
747,747,0,2047,3657
748,748,0,2046,3901
749,749,0,2047,4061
750,750,0,2046,4095
751,751,0,2046,4095
752,752,0,2047,3986
753,753,0,2046,3780
754,754,0,2047,3497
755,755,0,2046,3149
756,756,0,2046,2749
757,757,0,2047,2319
758,758,0,2047,1876
759,759,0,2047,1441
760,760,0,2047,1034
761,761,0,2046,671
762,762,0,2046,369
763,763,0,2047,143
764,764,0,2047,1
765,765,0,2047,0
766,766,0,2046,0
767,767,0,2047,126
768,768,0,2047,346
769,769,0,2047,641
770,770,0,2048,999
771,771,0,2047,1403
772,772,0,2047,1837
773,773,0,2046,2279
774,774,0,2047,2711
775,775,0,2047,3115
776,776,0,2047,3468
777,777,0,2047,3758
778,778,0,2047,3972
779,779,0,2046,4095
780,780,0,2046,4095
781,781,0,2047,4070
782,782,0,2047,3919
783,783,0,2046,3682
784,784,0,2046,3371
785,785,0,2046,3002
786,786,0,2046,2590
787,787,0,2046,2152
788,788,0,2047,1710
789,789,0,2047,1283
790,790,0,2046,890
791,791,0,2046,549
792,792,0,2046,274
793,793,0,2046,78
794,794,0,2046,0
795,795,0,2047,0
796,796,0,2047,32
797,797,0,2046,199
798,798,0,2046,449
799,799,0,2047,769
800,800,0,2047,1148
801,801,0,2047,1565
802,802,0,2046,2004
803,803,0,2047,2445
804,804,0,2047,2868
805,805,0,2047,3254
806,806,0,2046,3587
807,807,0,2046,3849
808,808,0,2047,4030
809,809,0,2047,4095
810,810,0,2046,4095
811,811,0,2047,4023
812,812,0,2047,3839
813,813,0,2047,3572
814,814,0,2046,3237
815,815,0,2046,2849
816,816,0,2046,2425
817,817,0,2046,1983
818,818,0,2047,1545
819,819,0,2046,1129
820,820,0,2046,754
821,821,0,2046,437
822,822,0,2047,189
823,823,0,2047,27
824,824,0,2047,0
825,825,0,2047,0
826,826,0,2047,85
827,827,0,2046,285
828,828,0,2046,563
829,829,0,2047,907
830,830,0,2046,1303
831,831,0,2047,1730
832,832,0,2047,2172
833,833,0,2047,2609
834,834,0,2046,3020
835,835,0,2047,3388
836,836,0,2047,3695
837,837,0,2046,3928
838,838,0,2046,4076
839,839,0,2047,4095
840,840,0,2047,4094
841,841,0,2046,3964
842,842,0,2046,3746
843,843,0,2047,3453
844,844,0,2047,3096
845,845,0,2046,2692
846,846,0,2046,2258
847,847,0,2046,1816
848,848,0,2047,1383
849,849,0,2047,981
850,850,0,2047,625
851,851,0,2046,334
852,852,0,2047,118
853,853,0,2047,0
854,854,0,2046,0
855,855,0,2047,5
856,856,0,2047,151
857,857,0,2047,382
858,858,0,2046,686
859,859,0,2047,1051
860,860,0,2047,1461
861,861,0,2047,1897
862,862,0,2046,2339
863,863,0,2046,2769
864,864,0,2046,3165
865,865,0,2047,3512
866,866,0,2046,3792
867,867,0,2046,3994
868,868,0,2046,4095
869,869,0,2046,4095
870,870,0,2046,4056
871,871,0,2046,3891
872,872,0,2046,3643
873,873,0,2047,3324
874,874,0,2046,2947
875,875,0,2046,2530
876,876,0,2046,2091
877,877,0,2047,1650
878,878,0,2046,1226
879,879,0,2047,840
880,880,0,2047,507
881,881,0,2046,243
882,882,0,2046,59
883,883,0,2047,0
884,884,0,2046,0
885,885,0,2047,51
886,886,0,2046,229
887,887,0,2047,489
888,888,0,2047,819
889,889,0,2047,1203
890,890,0,2047,1625
891,891,0,2046,2065
892,892,0,2047,2504
893,893,0,2046,2924
894,894,0,2046,3303
895,895,0,2047,3626
896,896,0,2046,3879
897,897,0,2046,4048
898,898,0,2047,4095
899,899,0,2046,4095
900,900,0,2046,4003
901,901,0,2047,3806
902,902,0,2046,3529
903,903,0,2047,3188
904,904,0,2046,2793
905,905,0,2047,2365
906,906,0,2046,1923
907,907,0,2046,1486
908,908,0,2046,1074
909,909,0,2046,706
910,910,0,2046,397
911,911,0,2047,162
912,912,0,2047,12
913,913,0,2046,0
914,914,0,2047,0
915,915,0,2047,108
916,916,0,2047,318
917,917,0,2046,606
918,918,0,2046,959
919,919,0,2046,1359
920,920,0,2047,1790
921,921,0,2046,2233
922,922,0,2047,2667
923,923,0,2047,3074
924,924,0,2047,3435
925,925,0,2046,3731
926,926,0,2045,3953
927,927,0,2046,4089
928,928,0,2047,4095
929,929,0,2047,4082
930,930,0,2046,3938
931,931,0,2047,3710
932,932,0,2047,3407
933,933,0,2047,3043
934,934,0,2047,2634
935,935,0,2047,2198
936,936,0,2046,1755
937,937,0,2046,1325
938,938,0,2046,929
939,939,0,2046,581
940,940,0,2047,299
941,941,0,2047,95
942,942,0,2046,0
943,943,0,2046,0
944,944,0,2046,20
945,945,0,2046,177
946,946,0,2046,420
947,947,0,2047,733
948,948,0,2047,1106
949,949,0,2047,1520
950,950,0,2047,1958
951,951,0,2047,2400
952,952,0,2047,2825
953,953,0,2046,3216
954,954,0,2046,3556
955,955,0,2047,3825
956,956,0,2046,4015
957,957,0,2047,4095
958,958,0,2047,4095
959,959,0,2047,4037
960,960,0,2047,3861
961,961,0,2047,3603
962,962,0,2047,3275
963,963,0,2047,2892
964,964,0,2046,2470
965,965,0,2047,2030
966,966,0,2046,1590
967,967,0,2046,1170
968,968,0,2047,791
969,969,0,2046,466
970,970,0,2046,212
971,971,0,2046,40
972,972,0,2047,0
973,973,0,2047,0
974,974,0,2046,70
975,975,0,2046,260
976,976,0,2046,530
977,977,0,2046,869
978,978,0,2047,1258
979,979,0,2047,1684
980,980,0,2047,2126
981,981,0,2047,2564
982,982,0,2046,2979
983,983,0,2046,3351
984,984,0,2047,3666
985,985,0,2047,3908
986,986,0,2046,4064
987,987,0,2046,4095
988,988,0,2047,4095
989,989,0,2047,3981
990,990,0,2046,3773
991,991,0,2046,3487
992,992,0,2046,3136
993,993,0,2047,2735
994,994,0,2047,2305
995,995,0,2046,1862
996,996,0,2047,1428
997,997,0,2047,1021
998,998,0,2047,660
999,999,0,2047,361
1000,1000,0,2046,137
1001,1001,0,2047,0
1002,1002,0,2046,0
1003,1003,0,2046,0
1004,1004,0,2046,132
1005,1005,0,2046,355
1006,1006,0,2047,651
1007,1007,0,2047,1011
1008,1008,0,2047,1417
1009,1009,0,2047,1851
1010,1010,0,2047,2294
1011,1011,0,2047,2725
1012,1012,0,2047,3127
1013,1013,0,2046,3478
1014,1014,0,2047,3767
1015,1015,0,2046,3976
1016,1016,0,2047,4095
1017,1017,0,2047,4095
1018,1018,0,2046,4067
1019,1019,0,2046,3912
1020,1020,0,2047,3672
1021,1021,0,2046,3360
1022,1022,0,2046,2989
1023,1023,0,2046,2575
1024,1024,0,2047,2137
1025,1025,0,2047,1696
1026,1026,0,2047,1270
1027,1027,0,2046,878
1028,1028,0,2047,538
1029,1029,0,2046,266
