Sample in Buffer,Sample in Window,TRIGGER,adc1_data_a_d0[11:0],adc1_data_b_d0[11:0]
0,0,0,2046,1249
1,1,0,2046,1552
2,2,0,2046,1867
3,3,0,2046,2186
4,4,0,2047,2501
5,5,0,2047,2805
6,6,0,2046,3091
7,7,0,2046,3352
8,8,0,2046,3582
9,9,0,2046,3775
10,10,0,2046,3927
11,11,0,2047,4034
12,12,0,2046,4094
13,13,0,2046,4095
14,14,0,2047,4068
15,15,0,2045,3983
16,16,0,2046,3853
17,17,0,2047,3678
18,18,0,2046,3466
19,19,0,2046,3220
20,20,0,2046,2946
21,21,0,2046,2650
22,22,0,2046,2339
23,23,0,2046,2021
24,24,0,2046,1704
25,25,0,2046,1394
26,26,0,2046,1099
27,27,0,2046,826
28,28,0,2046,581
29,29,0,2046,373
30,30,0,2046,202
31,31,0,2046,76
32,32,0,2046,0
33,33,0,2046,0
34,34,0,2047,0
35,35,0,2047,49
36,36,0,2046,164
37,37,0,2047,322
38,38,0,2047,522
39,39,0,2046,757
40,40,0,2046,1023
41,41,0,2046,1312
42,42,0,2047,1619
43,43,0,2046,1936
44,44,0,2046,2255
45,45,0,2046,2568
46,46,0,2046,2869
47,47,0,2047,3150
48,48,0,2047,3404
49,49,0,2046,3626
50,50,0,2047,3811
51,51,0,2047,3954
52,52,0,2046,4051
53,53,0,2046,4095
54,54,0,2046,4095
55,55,0,2046,4054
56,56,0,2047,3959
57,57,0,2046,3818
58,58,0,2047,3635
59,59,0,2046,3415
60,60,0,2046,3163
61,61,0,2047,2883
62,62,0,2046,2583
63,63,0,2047,2271
64,64,0,2046,1952
65,65,0,2046,1635
66,66,0,2046,1329
67,67,0,2046,1038
68,68,0,2047,771
69,69,0,2046,533
70,70,0,2046,332
71,71,0,2046,171
72,72,0,2047,55
73,73,0,2046,0
74,74,0,2046,0
75,75,0,2046,0
76,76,0,2046,70
77,77,0,2047,195
78,78,0,2046,362
79,79,0,2047,570
80,80,0,2046,812
81,81,0,2046,1084
82,82,0,2047,1378
83,83,0,2047,1687
84,84,0,2047,2005
85,85,0,2046,2324
86,86,0,2047,2635
87,87,0,2047,2932
88,88,0,2046,3208
89,89,0,2046,3455
90,90,0,2047,3670
91,91,0,2046,3846
92,92,0,2047,3979
93,93,0,2046,4066
94,94,0,2047,4095
95,95,0,2047,4095
96,96,0,2046,4037
97,97,0,2046,3932
98,98,0,2046,3782
99,99,0,2047,3590
100,100,0,2046,3363
101,101,0,2046,3104
102,102,0,2046,2820
103,103,0,2047,2516
104,104,0,2047,2202
105,105,0,2047,1883
106,106,0,2047,1568
107,107,0,2046,1264
108,108,0,2046,978
109,109,0,2046,717
110,110,0,2047,487
111,111,0,2046,294
112,112,0,2047,142
113,113,0,2047,35
114,114,0,2047,0
115,115,0,2046,0
116,116,0,2047,6
117,117,0,2047,93
118,118,0,2047,227
119,119,0,2046,404
120,120,0,2047,620
121,121,0,2046,870
122,122,0,2046,1146
123,123,0,2046,1443
124,124,0,2046,1756
125,125,0,2046,2074
126,126,0,2047,2392
127,127,0,2046,2701
128,128,0,2046,2993
129,129,0,2046,3264
130,130,0,2046,3505
131,131,0,2046,3712
132,132,0,2046,3879
133,133,0,2046,4002
134,134,0,2046,4079
135,135,0,2046,4095
136,136,0,2046,4087
137,137,0,2047,4018
138,138,0,2046,3903
139,139,0,2046,3744
140,140,0,2047,3544
141,141,0,2046,3310
142,142,0,2046,3044
143,143,0,2047,2755
144,144,0,2046,2449
145,145,0,2046,2133
146,146,0,2047,1814
147,147,0,2047,1500
148,148,0,2046,1200
149,149,0,2046,919
150,150,0,2047,664
151,151,0,2046,442
152,152,0,2046,257
153,153,0,2046,115
154,154,0,2046,19
155,155,0,2047,0
156,156,0,2047,0
157,157,0,2046,20
158,158,0,2046,119
159,159,0,2046,262
160,160,0,2047,448
161,161,0,2046,671
162,162,0,2046,927
163,163,0,2047,1209
164,164,0,2046,1510
165,165,0,2047,1824
166,166,0,2046,2143
167,167,0,2047,2460
168,168,0,2047,2766
169,169,0,2046,3055
170,170,0,2046,3319
171,171,0,2046,3553
172,172,0,2046,3751
173,173,0,2047,3909
174,174,0,2046,4022
175,175,0,2046,4089
176,176,0,2046,4095
177,177,0,2047,4077
178,178,0,2046,3997
179,179,0,2046,3872
180,180,0,2047,3703
181,181,0,2046,3496
182,182,0,2046,3253
183,183,0,2046,2983
184,184,0,2047,2690
185,185,0,2046,2381
186,186,0,2046,2063
187,187,0,2047,1745
188,188,0,2046,1434
189,189,0,2046,1137
190,190,0,2046,861
191,191,0,2046,613
192,192,0,2046,398
193,193,0,2047,223
194,194,0,2046,90
195,195,0,2047,4
196,196,0,2047,0
197,197,0,2046,0
198,198,0,2046,38
199,199,0,2046,146
200,200,0,2046,299
201,201,0,2046,493
202,202,0,2047,724
203,203,0,2047,986
204,204,0,2046,1273
205,205,0,2047,1578
206,206,0,2047,1894
207,207,0,2047,2213
208,208,0,2046,2527
209,209,0,2047,2830
210,210,0,2046,3115
211,211,0,2046,3371
212,212,0,2046,3600
213,213,0,2046,3789
214,214,0,2046,3938
215,215,0,2046,4042
216,216,0,2047,4095
217,217,0,2046,4095
218,218,0,2046,4063
219,219,0,2047,3974
220,220,0,2046,3840
221,221,0,2047,3662
222,222,0,2046,3447
223,223,0,2046,3198
224,224,0,2047,2921
225,225,0,2046,2624
226,226,0,2046,2312
227,227,0,2047,1994
228,228,0,2046,1677
229,229,0,2045,1368
230,230,0,2047,1075
231,231,0,2046,804
232,232,0,2046,563
233,233,0,2047,357
234,234,0,2046,190
235,235,0,2047,68
236,236,0,2046,0
237,237,0,2047,0
238,238,0,2046,0
239,239,0,2046,58
240,240,0,2046,175
241,241,0,2047,338
242,242,0,2046,540
243,243,0,2047,778
244,244,0,2046,1047
245,245,0,2046,1338
246,246,0,2046,1646
247,247,0,2046,1963
248,248,0,2046,2282
249,249,0,2046,2594
250,250,0,2047,2893
251,251,0,2046,3172
252,252,0,2046,3424
253,253,0,2047,3644
254,254,0,2047,3825
255,255,0,2046,3964
256,256,0,2046,4057
257,257,0,2046,4095
258,258,0,2046,4095
259,259,0,2046,4047
260,260,0,2045,3948
261,261,0,2047,3804
262,262,0,2046,3618
263,263,0,2046,3395
264,264,0,2046,3140
265,265,0,2047,2859
266,266,0,2047,2557
267,267,0,2046,2244
268,268,0,2046,1925
269,269,0,2046,1609
270,270,0,2046,1303
271,271,0,2046,1014
272,272,0,2046,750
273,273,0,2047,515
274,274,0,2046,317
275,275,0,2046,159
276,276,0,2047,47
277,277,0,2046,0
278,278,0,2046,0
279,279,0,2046,0
280,280,0,2047,79
281,281,0,2046,208
282,282,0,2047,378
283,283,0,2046,589
284,284,0,2046,834
285,285,0,2046,1107
286,286,0,2046,1403
287,287,0,2046,1714
288,288,0,2046,2031
289,289,0,2046,2350
290,290,0,2047,2661
291,291,0,2046,2956
292,292,0,2046,3229
293,293,0,2046,3475
294,294,0,2047,3687
295,295,0,2047,3859
296,296,0,2046,3987
297,297,0,2046,4071
298,298,0,2046,4095
299,299,0,2046,4092
300,300,0,2047,4030
301,301,0,2047,3921
302,302,0,2046,3768
303,303,0,2046,3573
304,304,0,2046,3342
305,305,0,2046,3081
306,306,0,2047,2794
307,307,0,2047,2489
308,308,0,2047,2175
309,309,0,2046,1856
310,310,0,2047,1542
311,311,0,2047,1239
312,312,0,2047,955
313,313,0,2046,696
314,314,0,2046,470
315,315,0,2046,280
316,316,0,2047,131
317,317,0,2046,29
318,318,0,2046,0
319,319,0,2046,0
320,320,0,2046,11
321,321,0,2046,103
322,322,0,2047,241
323,323,0,2047,421
324,324,0,2047,639
325,325,0,2047,890
326,326,0,2047,1170
327,327,0,2047,1470
328,328,0,2046,1782
329,329,0,2047,2101
330,330,0,2046,2418
331,331,0,2047,2726
332,332,0,2046,3017
333,333,0,2046,3286
334,334,0,2047,3523
335,335,0,2046,3726
336,336,0,2046,3891
337,337,0,2046,4010
338,338,0,2047,4083
339,339,0,2047,4095
340,340,0,2046,4083
341,341,0,2047,4011
342,342,0,2046,3891
343,343,0,2046,3728
344,344,0,2046,3526
345,345,0,2047,3288
346,346,0,2047,3021
347,347,0,2046,2730
348,348,0,2046,2422
349,349,0,2047,2106
350,350,0,2046,1788
351,351,0,2047,1475
352,352,0,2047,1175
353,353,0,2047,896
354,354,0,2047,644
355,355,0,2046,424
356,356,0,2046,243
357,357,0,2046,105
358,358,0,2047,13
359,359,0,2046,0
360,360,0,2046,0
361,361,0,2046,28
362,362,0,2046,129
363,363,0,2047,276
364,364,0,2046,465
365,365,0,2046,692
366,366,0,2046,950
367,367,0,2046,1233
368,368,0,2046,1537
369,369,0,2047,1852
370,370,0,2046,2170
371,371,0,2047,2486
372,372,0,2046,2790
373,373,0,2046,3078
374,374,0,2046,3340
375,375,0,2046,3571
376,376,0,2046,3766
377,377,0,2046,3921
378,378,0,2046,4030
379,379,0,2046,4093
380,380,0,2047,4095
381,381,0,2046,4072
382,382,0,2046,3989
383,383,0,2046,3860
384,384,0,2046,3688
385,385,0,2046,3477
386,386,0,2046,3232
387,387,0,2046,2959
388,388,0,2046,2664
389,389,0,2046,2355
390,390,0,2047,2037
391,391,0,2046,1719
392,392,0,2046,1409
393,393,0,2047,1113
394,394,0,2046,839
395,395,0,2046,593
396,396,0,2046,382
397,397,0,2046,210
398,398,0,2046,81
399,399,0,2046,0
400,400,0,2046,0
401,401,0,2046,0
402,402,0,2047,45
403,403,0,2047,157
404,404,0,2046,314
405,405,0,2047,511
406,406,0,2047,745
407,407,0,2046,1009
408,408,0,2046,1298
409,409,0,2046,1604
410,410,0,2047,1920
411,411,0,2047,2239
412,412,0,2046,2553
413,413,0,2046,2855
414,414,0,2047,3137
415,415,0,2046,3393
416,416,0,2047,3616
417,417,0,2046,3803
418,418,0,2047,3948
419,419,0,2046,4047
420,420,0,2046,4095
421,421,0,2046,4095
422,422,0,2046,4057
423,423,0,2046,3964
424,424,0,2046,3826
425,425,0,2047,3646
426,426,0,2047,3427
427,427,0,2046,3176
428,428,0,2046,2897
429,429,0,2046,2598
430,430,0,2046,2286
431,431,0,2047,1968
432,432,0,2046,1651
433,433,0,2047,1343
434,434,0,2046,1051
435,435,0,2046,783
436,436,0,2045,544
437,437,0,2047,342
438,438,0,2046,178
439,439,0,2046,59
440,440,0,2046,0
441,441,0,2046,0
442,442,0,2046,0
443,443,0,2046,65
444,444,0,2046,187
445,445,0,2046,354
446,446,0,2047,559
447,447,0,2046,799
448,448,0,2046,1070
449,449,0,2046,1363
450,450,0,2047,1672
451,451,0,2046,1990
452,452,0,2046,2309
453,453,0,2046,2620
454,454,0,2045,2918
455,455,0,2047,3195
456,456,0,2046,3444
457,457,0,2047,3661
458,458,0,2046,3838
459,459,0,2046,3974
460,460,0,2046,4062
461,461,0,2047,4095
462,462,0,2046,4095
463,463,0,2046,4041
464,464,0,2047,3939
465,465,0,2047,3789
466,466,0,2047,3601
467,467,0,2046,3375
468,468,0,2046,3117
469,469,0,2046,2834
470,470,0,2046,2531
471,471,0,2046,2217
472,472,0,2046,1899
473,473,0,2046,1583
474,474,0,2046,1278
475,475,0,2046,991
476,476,0,2046,729
477,477,0,2046,497
478,478,0,2047,302
479,479,0,2046,149
480,480,0,2046,40
481,481,0,2046,0
482,482,0,2047,0
483,483,0,2046,3
484,484,0,2047,88
485,485,0,2047,220
486,486,0,2047,394
487,487,0,2047,609
488,488,0,2047,856
489,489,0,2046,1132
490,490,0,2047,1429
491,491,0,2046,1741
492,492,0,2046,2059
493,493,0,2046,2377
494,494,0,2047,2686
495,495,0,2046,2979
496,496,0,2046,3251
497,497,0,2047,3494
498,498,0,2046,3703
499,499,0,2046,3872
500,500,0,2046,3997
501,501,0,2046,4075
502,502,0,2047,4095
503,503,0,2047,4088
504,504,0,2047,4023
505,505,0,2047,3910
506,506,0,2046,3752
507,507,0,2046,3555
508,508,0,2047,3322
509,509,0,2047,3058
510,510,0,2047,2770
511,511,0,2046,2464
512,512,0,2046,2148
513,513,0,2046,1830
514,514,0,2046,1516
515,515,0,2046,1214
516,516,0,2047,932
517,517,0,2047,675
518,518,0,2047,452
519,519,0,2047,266
520,520,0,2047,121
521,521,0,2046,23
522,522,0,2047,0
523,523,0,2047,0
524,524,0,2047,18
525,525,0,2046,112
526,526,0,2046,254
527,527,0,2046,438
528,528,0,2046,659
529,529,0,2047,914
530,530,0,2046,1195
531,531,0,2046,1496
532,532,0,2047,1809
533,533,0,2047,2128
534,534,0,2047,2444
535,535,0,2046,2751
536,536,0,2046,3041
537,537,0,2046,3307
538,538,0,2047,3542
539,539,0,2047,3742
540,540,0,2047,3903
541,541,0,2046,4017
542,542,0,2046,4087
543,543,0,2047,4095
544,544,0,2046,4079
545,545,0,2046,4003
546,546,0,2046,3880
547,547,0,2047,3713
548,548,0,2047,3507
549,549,0,2046,3267
550,550,0,2046,2997
551,551,0,2046,2704
552,552,0,2046,2396
553,553,0,2047,2079
554,554,0,2046,1760
555,555,0,2046,1449
556,556,0,2046,1151
557,557,0,2047,874
558,558,0,2047,624
559,559,0,2046,408
560,560,0,2046,231
561,561,0,2046,96
562,562,0,2046,7
563,563,0,2046,0
564,564,0,2047,0
565,565,0,2046,34
566,566,0,2046,140
567,567,0,2047,290
568,568,0,2047,482
569,569,0,2046,712
570,570,0,2046,973
571,571,0,2046,1258
572,572,0,2047,1563
573,573,0,2047,1878
574,574,0,2047,2197
575,575,0,2046,2512
576,576,0,2047,2816
577,577,0,2046,3101
578,578,0,2046,3361
579,579,0,2046,3589
580,580,0,2046,3780
581,581,0,2046,3932
582,582,0,2046,4037
583,583,0,2046,4095
584,584,0,2046,4095
585,585,0,2047,4066
586,586,0,2046,3980
587,587,0,2046,3847
588,588,0,2046,3671
589,589,0,2046,3458
590,590,0,2046,3211
591,591,0,2047,2935
592,592,0,2047,2638
593,593,0,2046,2328
594,594,0,2046,2010
595,595,0,2047,1693
596,596,0,2047,1383
597,597,0,2046,1089
598,598,0,2046,817
599,599,0,2047,573
600,600,0,2046,366
601,601,0,2046,197
602,602,0,2046,73
603,603,0,2046,0
604,604,0,2046,0
605,605,0,2046,0
606,606,0,2047,53
607,607,0,2046,168
608,608,0,2047,329
609,609,0,2047,530
610,610,0,2046,766
611,611,0,2046,1033
612,612,0,2046,1323
613,613,0,2047,1630
614,614,0,2047,1947
615,615,0,2047,2266
616,616,0,2046,2579
617,617,0,2045,2879
618,618,0,2046,3160
619,619,0,2046,3413
620,620,0,2046,3634
621,621,0,2046,3817
622,622,0,2046,3958
623,623,0,2046,4054
624,624,0,2046,4095
625,625,0,2046,4095
626,626,0,2046,4051
627,627,0,2047,3954
628,628,0,2046,3812
629,629,0,2046,3629
630,630,0,2046,3406
631,631,0,2046,3152
632,632,0,2047,2873
633,633,0,2046,2572
634,634,0,2047,2259
635,635,0,2046,1941
636,636,0,2047,1624
637,637,0,2047,1318
638,638,0,2046,1028
639,639,0,2046,761
640,640,0,2046,525
641,641,0,2046,326
642,642,0,2047,166
643,643,0,2046,52
644,644,0,2046,0
645,645,0,2046,0
646,646,0,2046,0
647,647,0,2047,74
648,648,0,2046,200
649,649,0,2046,369
650,650,0,2046,578
651,651,0,2047,822
652,652,0,2047,1094
653,653,0,2046,1388
654,654,0,2046,1699
655,655,0,2047,2017
656,656,0,2047,2335
657,657,0,2047,2646
658,658,0,2047,2942
659,659,0,2046,3217
660,660,0,2047,3463
661,661,0,2046,3677
662,662,0,2047,3851
663,663,0,2046,3983
664,664,0,2047,4068
665,665,0,2047,4095
666,666,0,2046,4094
667,667,0,2047,4035
668,668,0,2046,3927
669,669,0,2046,3776
670,670,0,2046,3583
671,671,0,2046,3354
672,672,0,2047,3094
673,673,0,2047,2809
674,674,0,2046,2506
675,675,0,2047,2190
676,676,0,2046,1872
677,677,0,2046,1557
678,678,0,2046,1254
679,679,0,2046,967
680,680,0,2046,707
681,681,0,2046,478
682,682,0,2046,288
683,683,0,2046,138
684,684,0,2046,33
685,685,0,2047,0
686,686,0,2047,0
687,687,0,2046,8
688,688,0,2046,98
689,689,0,2046,233
690,690,0,2047,411
691,691,0,2046,629
692,692,0,2046,878
693,693,0,2047,1157
694,694,0,2047,1455
695,695,0,2046,1767
696,696,0,2047,2086
697,697,0,2046,2403
698,698,0,2046,2711
699,699,0,2046,3004
700,700,0,2046,3273
701,701,0,2046,3513
702,702,0,2046,3718
703,703,0,2046,3884
704,704,0,2047,4005
705,705,0,2046,4080
706,706,0,2046,4095
707,707,0,2046,4085
708,708,0,2046,4015
709,709,0,2047,3898
710,710,0,2046,3738
711,711,0,2046,3536
712,712,0,2046,3301
713,713,0,2046,3034
714,714,0,2047,2744
715,715,0,2047,2437
716,716,0,2046,2121
717,717,0,2046,1803
718,718,0,2046,1489
719,719,0,2046,1190
720,720,0,2047,909
721,721,0,2047,656
722,722,0,2046,434
723,723,0,2047,251
724,724,0,2047,110
725,725,0,2047,16
726,726,0,2046,0
727,727,0,2046,0
728,728,0,2047,24
729,729,0,2046,123
730,730,0,2046,269
731,731,0,2047,454
732,732,0,2046,680
733,733,0,2046,937
734,734,0,2046,1220
735,735,0,2047,1522
736,736,0,2047,1836
737,737,0,2046,2155
738,738,0,2046,2471
739,739,0,2046,2777
740,740,0,2046,3064
741,741,0,2047,3328
742,742,0,2046,3561
743,743,0,2046,3757
744,744,0,2046,3914
745,745,0,2047,4026
746,746,0,2047,4091
747,747,0,2047,4095
748,748,0,2046,4074
749,749,0,2046,3994
750,750,0,2046,3867
751,751,0,2047,3697
752,752,0,2046,3488
753,753,0,2047,3245
754,754,0,2046,2973
755,755,0,2046,2679
756,756,0,2046,2370
757,757,0,2047,2052
758,758,0,2046,1734
759,759,0,2047,1424
760,760,0,2046,1127
761,761,0,2046,852
762,762,0,2046,604
763,763,0,2047,391
764,764,0,2046,217
765,765,0,2046,87
766,766,0,2046,1
767,767,0,2046,0
768,768,0,2047,0
769,769,0,2046,41
770,770,0,2047,150
771,771,0,2046,306
772,772,0,2046,501
773,773,0,2046,732
774,774,0,2047,996
775,775,0,2047,1284
776,776,0,2046,1589
777,777,0,2046,1905
778,778,0,2046,2224
779,779,0,2046,2539
780,780,0,2046,2841
781,781,0,2046,3124
782,782,0,2046,3381
783,783,0,2046,3607
784,784,0,2046,3795
785,785,0,2046,3942
786,786,0,2046,4043
787,787,0,2047,4095
788,788,0,2046,4095
789,789,0,2046,4061
790,790,0,2047,3970
791,791,0,2047,3833
792,792,0,2046,3655
793,793,0,2047,3438
794,794,0,2046,3187
795,795,0,2047,2910
796,796,0,2047,2613
797,797,0,2047,2301
798,798,0,2047,1983
799,799,0,2046,1665
800,800,0,2046,1358
801,801,0,2046,1066
802,802,0,2046,795
803,803,0,2046,555
804,804,0,2046,350
805,805,0,2046,185
806,806,0,2046,64
807,807,0,2047,0
808,808,0,2046,0
809,809,0,2046,0
810,810,0,2046,61
811,811,0,2047,181
812,812,0,2047,344
813,813,0,2046,548
814,814,0,2047,787
815,815,0,2046,1056
816,816,0,2046,1349
817,817,0,2046,1657
818,818,0,2047,1974
819,819,0,2046,2293
820,820,0,2046,2605
821,821,0,2046,2904
822,822,0,2046,3182
823,823,0,2046,3433
824,824,0,2046,3651
825,825,0,2047,3830
826,826,0,2047,3968
827,827,0,2047,4060
828,828,0,2046,4095
829,829,0,2046,4095
830,830,0,2047,4044
831,831,0,2046,3945
832,832,0,2046,3798
833,833,0,2046,3611
834,834,0,2046,3387
835,835,0,2047,3130
836,836,0,2047,2848
837,837,0,2047,2546
838,838,0,2046,2233
839,839,0,2046,1914
840,840,0,2047,1598
841,841,0,2047,1292
842,842,0,2046,1004
843,843,0,2047,740
844,844,0,2047,507
845,845,0,2047,311
846,846,0,2046,154
847,847,0,2047,44
848,848,0,2046,0
849,849,0,2046,0
850,850,0,2046,0
851,851,0,2046,82
852,852,0,2046,213
853,853,0,2046,385
854,854,0,2046,598
855,855,0,2046,844
856,856,0,2047,1118
857,857,0,2047,1414
858,858,0,2046,1726
859,859,0,2047,2043
860,860,0,2047,2361
861,861,0,2047,2672
862,862,0,2046,2965
863,863,0,2047,3239
864,864,0,2046,3483
865,865,0,2047,3693
866,866,0,2046,3864
867,867,0,2046,3991
868,868,0,2046,4073
869,869,0,2046,4095
870,870,0,2047,4091
871,871,0,2046,4027
872,872,0,2046,3916
873,873,0,2046,3761
874,874,0,2046,3566
875,875,0,2046,3334
876,876,0,2047,3071
877,877,0,2047,2784
878,878,0,2047,2479
879,879,0,2046,2163
880,880,0,2047,1845
881,881,0,2046,1531
882,882,0,2046,1229
883,883,0,2046,945
884,884,0,2046,687
885,885,0,2047,461
886,886,0,2046,274
887,887,0,2047,126
888,888,0,2047,26
889,889,0,2047,0
890,890,0,2046,0
891,891,0,2047,14
892,892,0,2046,107
893,893,0,2046,247
894,894,0,2047,428
895,895,0,2046,648
896,896,0,2047,902
897,897,0,2046,1181
898,898,0,2046,1482
899,899,0,2046,1794
900,900,0,2046,2113
901,901,0,2047,2429
902,902,0,2047,2737
903,903,0,2046,3027
904,904,0,2047,3294
905,905,0,2047,3533
906,906,0,2047,3734
907,907,0,2046,3896
908,908,0,2047,4014
909,909,0,2046,4085
910,910,0,2045,4095
911,911,0,2047,4081
912,912,0,2046,4007
913,913,0,2046,3887
914,914,0,2047,3722
915,915,0,2047,3518
916,916,0,2047,3279
917,917,0,2046,3010
918,918,0,2046,2719
919,919,0,2046,2412
920,920,0,2047,2095
921,921,0,2047,1776
922,922,0,2047,1463
923,923,0,2046,1165
924,924,0,2046,887
925,925,0,2047,635
926,926,0,2046,417
927,927,0,2046,237
928,928,0,2047,101
929,929,0,2047,10
930,930,0,2047,0
931,931,0,2046,0
932,932,0,2046,30
933,933,0,2047,133
934,934,0,2046,282
935,935,0,2046,472
936,936,0,2047,700
937,937,0,2046,959
938,938,0,2046,1244
939,939,0,2046,1548
940,940,0,2046,1863
941,941,0,2047,2181
942,942,0,2046,2497
943,943,0,2047,2802
944,944,0,2046,3088
945,945,0,2046,3349
946,946,0,2046,3578
947,947,0,2047,3773
948,948,0,2047,3926
949,949,0,2046,4033
950,950,0,2047,4094
951,951,0,2046,4095
952,952,0,2046,4069
953,953,0,2046,3985
954,954,0,2046,3854
955,955,0,2046,3681
956,956,0,2047,3469
957,957,0,2046,3222
958,958,0,2046,2949
959,959,0,2046,2654
960,960,0,2046,2343
961,961,0,2047,2025
962,962,0,2046,1708
963,963,0,2046,1397
964,964,0,2046,1102
965,965,0,2046,830
966,966,0,2046,585
967,967,0,2046,376
968,968,0,2046,203
969,969,0,2046,77
970,970,0,2046,0
971,971,0,2046,0
972,972,0,2046,0
973,973,0,2046,48
974,974,0,2047,161
975,975,0,2047,320
976,976,0,2046,519
977,977,0,2046,753
978,978,0,2047,1019
979,979,0,2045,1309
980,980,0,2046,1615
981,981,0,2046,1932
982,982,0,2046,2251
983,983,0,2047,2564
984,984,0,2046,2865
985,985,0,2046,3146
986,986,0,2046,3402
987,987,0,2046,3624
988,988,0,2046,3809
989,989,0,2047,3952
990,990,0,2046,4050
991,991,0,2046,4095
992,992,0,2046,4095
993,993,0,2047,4054
994,994,0,2046,3960
995,995,0,2046,3820
996,996,0,2046,3638
997,997,0,2046,3418
998,998,0,2046,3167
999,999,0,2046,2886
1000,1000,0,2046,2587
1001,1001,0,2046,2274
1002,1002,0,2046,1956
1003,1003,0,2047,1640
1004,1004,0,2046,1332
1005,1005,0,2047,1041
1006,1006,0,2046,774
1007,1007,0,2046,536
1008,1008,0,2046,335
1009,1009,0,2046,173
1010,1010,0,2046,56
1011,1011,0,2047,0
1012,1012,0,2046,0
1013,1013,0,2047,0
1014,1014,0,2046,69
1015,1015,0,2046,192
1016,1016,0,2046,360
1017,1017,0,2047,566
1018,1018,0,2046,809
1019,1019,0,2046,1080
1020,1020,0,2047,1374
1021,1021,0,2047,1683
1022,1022,0,2047,2001
1023,1023,0,2046,2320
1024,1024,0,2046,2632
1025,1025,0,2046,2928
1026,1026,0,2046,3205
1027,1027,0,2046,3453
1028,1028,0,2047,3668
1029,1029,0,2046,3844
