Sample in Buffer,Sample in Window,TRIGGER,adc1_data_a_d0[11:0],adc1_data_b_d0[11:0]
0,0,0,2047,778
1,1,0,2046,283
2,2,0,2046,5
3,3,0,2046,0
4,4,0,2046,218
5,5,0,2046,681
6,6,0,2046,1313
7,7,0,2046,2036
8,8,0,2047,2760
9,9,0,2046,3393
10,10,0,2047,3857
11,11,0,2046,4094
12,12,0,2047,4072
13,13,0,2047,3796
14,14,0,2046,3301
15,15,0,2046,2647
16,16,0,2046,1917
17,17,0,2047,1203
18,18,0,2047,594
19,19,0,2046,164
20,20,0,2047,0
21,21,0,2046,34
22,22,0,2046,349
23,23,0,2047,877
24,24,0,2047,1548
25,25,0,2047,2282
26,26,0,2047,2985
27,27,0,2047,3569
28,28,0,2047,3963
29,29,0,2047,4095
30,30,0,2047,4007
31,31,0,2047,3653
32,32,0,2046,3097
33,33,0,2047,2408
34,34,0,2046,1673
35,35,0,2047,984
36,36,0,2047,427
37,37,0,2047,72
38,38,0,2046,0
39,39,0,2046,111
40,40,0,2047,504
41,41,0,2046,1087
42,42,0,2046,1789
43,43,0,2047,2523
44,44,0,2047,3196
45,45,0,2047,3725
46,46,0,2046,4043
47,47,0,2046,4095
48,48,0,2046,3916
49,49,0,2047,3488
50,50,0,2047,2879
51,51,0,2047,2165
52,52,0,2047,1435
53,53,0,2047,781
54,54,0,2046,284
55,55,0,2046,6
56,56,0,2046,0
57,57,0,2046,216
58,58,0,2047,679
59,59,0,2047,1311
60,60,0,2047,2034
61,61,0,2047,2757
62,62,0,2047,3391
63,63,0,2046,3856
64,64,0,2046,4093
65,65,0,2047,4073
66,66,0,2047,3798
67,67,0,2046,3302
68,68,0,2046,2650
69,69,0,2046,1920
70,70,0,2047,1206
71,71,0,2046,595
72,72,0,2047,164
73,73,0,2046,0
74,74,0,2047,33
75,75,0,2047,347
76,76,0,2047,873
77,77,0,2047,1545
78,78,0,2047,2279
79,79,0,2046,2982
80,80,0,2046,3568
81,81,0,2046,3962
82,82,0,2046,4095
83,83,0,2047,4009
84,84,0,2047,3655
85,85,0,2047,3100
86,86,0,2046,2411
87,87,0,2047,1676
88,88,0,2047,987
89,89,0,2047,428
90,90,0,2046,73
91,91,0,2047,0
92,92,0,2046,111
93,93,0,2046,502
94,94,0,2047,1084
95,95,0,2047,1787
96,96,0,2046,2521
97,97,0,2047,3194
98,98,0,2046,3723
99,99,0,2046,4042
100,100,0,2047,4095
101,101,0,2047,3917
102,102,0,2046,3490
103,103,0,2046,2881
104,104,0,2047,2168
105,105,0,2046,1438
106,106,0,2046,782
107,107,0,2047,285
108,108,0,2047,7
109,109,0,2046,0
110,110,0,2047,215
111,111,0,2047,677
112,112,0,2046,1309
113,113,0,2046,2031
114,114,0,2047,2755
115,115,0,2047,3390
116,116,0,2046,3855
117,117,0,2046,4093
118,118,0,2046,4073
119,119,0,2046,3799
120,120,0,2047,3305
121,121,0,2047,2652
122,122,0,2046,1923
123,123,0,2047,1208
124,124,0,2046,597
125,125,0,2047,166
126,126,0,2046,0
127,127,0,2046,33
128,128,0,2046,346
129,129,0,2046,871
130,130,0,2046,1543
131,131,0,2047,2277
132,132,0,2046,2980
133,133,0,2047,3566
134,134,0,2046,3961
135,135,0,2046,4095
136,136,0,2046,4010
137,137,0,2046,3657
138,138,0,2046,3102
139,139,0,2047,2413
140,140,0,2047,1679
141,141,0,2047,989
142,142,0,2046,430
143,143,0,2046,73
144,144,0,2046,0
145,145,0,2046,110
146,146,0,2047,500
147,147,0,2046,1082
148,148,0,2047,1784
149,149,0,2046,2517
150,150,0,2047,3191
151,151,0,2047,3721
152,152,0,2047,4040
153,153,0,2047,4095
154,154,0,2047,3918
155,155,0,2047,3492
156,156,0,2047,2884
157,157,0,2046,2170
158,158,0,2047,1440
159,159,0,2046,785
160,160,0,2047,286
161,161,0,2047,7
162,162,0,2047,0
163,163,0,2046,214
164,164,0,2046,674
165,165,0,2046,1306
166,166,0,2046,2029
167,167,0,2046,2753
168,168,0,2046,3388
169,169,0,2046,3853
170,170,0,2046,4092
171,171,0,2047,4075
172,172,0,2046,3800
173,173,0,2047,3307
174,174,0,2046,2655
175,175,0,2046,1925
176,176,0,2047,1210
177,177,0,2046,598
178,178,0,2046,168
179,179,0,2046,0
180,180,0,2047,31
181,181,0,2046,343
182,182,0,2046,869
183,183,0,2046,1540
184,184,0,2047,2273
185,185,0,2046,2977
186,186,0,2047,3564
187,187,0,2046,3960
188,188,0,2047,4095
189,189,0,2047,4010
190,190,0,2047,3659
191,191,0,2047,3104
192,192,0,2046,2416
193,193,0,2046,1682
194,194,0,2047,991
195,195,0,2046,432
196,196,0,2046,74
197,197,0,2047,0
198,198,0,2046,109
199,199,0,2047,498
200,200,0,2047,1079
201,201,0,2047,1781
202,202,0,2047,2515
203,203,0,2046,3189
204,204,0,2047,3720
205,205,0,2047,4040
206,206,0,2046,4095
207,207,0,2046,3920
208,208,0,2047,3494
209,209,0,2046,2886
210,210,0,2047,2173
211,211,0,2046,1442
212,212,0,2047,787
213,213,0,2046,288
214,214,0,2047,8
215,215,0,2046,0
216,216,0,2047,212
217,217,0,2046,673
218,218,0,2046,1304
219,219,0,2046,2025
220,220,0,2047,2750
221,221,0,2046,3385
222,222,0,2046,3852
223,223,0,2046,4092
224,224,0,2047,4075
225,225,0,2047,3802
226,226,0,2046,3309
227,227,0,2046,2657
228,228,0,2047,1928
229,229,0,2046,1213
230,230,0,2046,601
231,231,0,2047,168
232,232,0,2047,0
233,233,0,2047,30
234,234,0,2047,342
235,235,0,2047,867
236,236,0,2046,1537
237,237,0,2047,2271
238,238,0,2047,2975
239,239,0,2046,3563
240,240,0,2046,3959
241,241,0,2047,4095
242,242,0,2046,4010
243,243,0,2047,3661
244,244,0,2047,3106
245,245,0,2047,2419
246,246,0,2047,1685
247,247,0,2047,994
248,248,0,2047,434
249,249,0,2046,75
250,250,0,2046,0
251,251,0,2046,108
252,252,0,2047,495
253,253,0,2047,1077
254,254,0,2046,1779
255,255,0,2047,2512
256,256,0,2046,3187
257,257,0,2047,3718
258,258,0,2047,4040
259,259,0,2047,4095
260,260,0,2046,3920
261,261,0,2046,3496
262,262,0,2047,2890
263,263,0,2047,2176
264,264,0,2046,1445
265,265,0,2046,789
266,266,0,2047,290
267,267,0,2046,8
268,268,0,2046,0
269,269,0,2046,211
270,270,0,2047,671
271,271,0,2046,1301
272,272,0,2046,2023
273,273,0,2046,2748
274,274,0,2046,3383
275,275,0,2046,3850
276,276,0,2047,4092
277,277,0,2047,4075
278,278,0,2046,3804
279,279,0,2046,3311
280,280,0,2046,2660
281,281,0,2047,1931
282,282,0,2047,1215
283,283,0,2047,602
284,284,0,2047,170
285,285,0,2047,0
286,286,0,2047,30
287,287,0,2047,341
288,288,0,2046,864
289,289,0,2046,1534
290,290,0,2046,2268
291,291,0,2047,2972
292,292,0,2046,3560
293,293,0,2047,3958
294,294,0,2046,4095
295,295,0,2046,4011
296,296,0,2047,3661
297,297,0,2047,3109
298,298,0,2046,2422
299,299,0,2047,1686
300,300,0,2046,996
301,301,0,2047,435
302,302,0,2047,76
303,303,0,2047,0
304,304,0,2047,106
305,305,0,2047,494
306,306,0,2047,1075
307,307,0,2047,1776
308,308,0,2047,2510
309,309,0,2046,3186
310,310,0,2047,3716
311,311,0,2046,4038
312,312,0,2047,4095
313,313,0,2046,3922
314,314,0,2046,3498
315,315,0,2046,2892
316,316,0,2046,2178
317,317,0,2046,1448
318,318,0,2047,792
319,319,0,2046,291
320,320,0,2046,8
321,321,0,2047,0
322,322,0,2047,211
323,323,0,2046,668
324,324,0,2047,1298
325,325,0,2047,2021
326,326,0,2047,2745
327,327,0,2046,3381
328,328,0,2046,3849
329,329,0,2046,4091
330,330,0,2046,4076
331,331,0,2046,3805
332,332,0,2046,3313
333,333,0,2047,2662
334,334,0,2047,1933
335,335,0,2047,1217
336,336,0,2047,604
337,337,0,2046,171
338,338,0,2047,0
339,339,0,2047,29
340,340,0,2047,339
341,341,0,2047,863
342,342,0,2046,1532
343,343,0,2047,2265
344,344,0,2046,2970
345,345,0,2047,3559
346,346,0,2046,3958
347,347,0,2046,4095
348,348,0,2046,4013
349,349,0,2046,3664
350,350,0,2047,3111
351,351,0,2047,2424
352,352,0,2046,1689
353,353,0,2047,999
354,354,0,2047,438
355,355,0,2047,77
356,356,0,2047,0
357,357,0,2046,106
358,358,0,2047,493
359,359,0,2046,1073
360,360,0,2047,1773
361,361,0,2046,2507
362,362,0,2047,3183
363,363,0,2046,3715
364,364,0,2047,4038
365,365,0,2047,4095
366,366,0,2047,3923
367,367,0,2047,3499
368,368,0,2046,2894
369,369,0,2046,2181
370,370,0,2046,1450
371,371,0,2047,793
372,372,0,2046,293
373,373,0,2047,9
374,374,0,2046,0
375,375,0,2047,209
376,376,0,2047,667
377,377,0,2046,1296
378,378,0,2046,2018
379,379,0,2046,2743
380,380,0,2047,3379
381,381,0,2047,3847
382,382,0,2047,4091
383,383,0,2047,4077
384,384,0,2046,3806
385,385,0,2046,3316
386,386,0,2047,2665
387,387,0,2047,1936
388,388,0,2047,1221
389,389,0,2047,607
390,390,0,2046,172
391,391,0,2047,0
392,392,0,2047,29
393,393,0,2046,337
394,394,0,2047,860
395,395,0,2047,1529
396,396,0,2046,2263
397,397,0,2046,2968
398,398,0,2046,3557
399,399,0,2046,3956
400,400,0,2046,4095
401,401,0,2046,4013
402,402,0,2046,3666
403,403,0,2047,3113
404,404,0,2047,2427
405,405,0,2046,1692
406,406,0,2046,1001
407,407,0,2046,439
408,408,0,2046,78
409,409,0,2047,0
410,410,0,2047,105
411,411,0,2046,491
412,412,0,2046,1070
413,413,0,2046,1770
414,414,0,2046,2505
415,415,0,2047,3181
416,416,0,2047,3713
417,417,0,2047,4037
418,418,0,2047,4095
419,419,0,2046,3923
420,420,0,2046,3502
421,421,0,2046,2896
422,422,0,2047,2183
423,423,0,2046,1453
424,424,0,2046,796
425,425,0,2047,294
426,426,0,2046,10
427,427,0,2046,0
428,428,0,2046,208
429,429,0,2047,664
430,430,0,2047,1293
431,431,0,2047,2016
432,432,0,2046,2740
433,433,0,2047,3377
434,434,0,2047,3846
435,435,0,2046,4091
436,436,0,2047,4077
437,437,0,2047,3808
438,438,0,2046,3318
439,439,0,2047,2667
440,440,0,2047,1938
441,441,0,2046,1223
442,442,0,2047,609
443,443,0,2047,173
444,444,0,2047,0
445,445,0,2046,28
446,446,0,2047,336
447,447,0,2047,859
448,448,0,2046,1527
449,449,0,2046,2260
450,450,0,2047,2966
451,451,0,2046,3555
452,452,0,2046,3955
453,453,0,2046,4095
454,454,0,2046,4014
455,455,0,2046,3667
456,456,0,2047,3116
457,457,0,2046,2430
458,458,0,2046,1695
459,459,0,2046,1003
460,460,0,2046,440
461,461,0,2047,79
462,462,0,2046,0
463,463,0,2046,104
464,464,0,2046,489
465,465,0,2047,1067
466,466,0,2046,1767
467,467,0,2046,2502
468,468,0,2047,3179
469,469,0,2046,3712
470,470,0,2046,4037
471,471,0,2046,4095
472,472,0,2047,3925
473,473,0,2046,3503
474,474,0,2046,2899
475,475,0,2047,2186
476,476,0,2046,1456
477,477,0,2047,799
478,478,0,2047,295
479,479,0,2046,10
480,480,0,2047,0
481,481,0,2046,206
482,482,0,2046,663
483,483,0,2046,1291
484,484,0,2047,2012
485,485,0,2047,2737
486,486,0,2046,3375
487,487,0,2046,3845
488,488,0,2047,4090
489,489,0,2046,4077
490,490,0,2046,3809
491,491,0,2046,3320
492,492,0,2046,2670
493,493,0,2047,1941
494,494,0,2046,1225
495,495,0,2046,610
496,496,0,2046,174
497,497,0,2046,0
498,498,0,2046,27
499,499,0,2047,335
500,500,0,2046,856
501,501,0,2047,1524
502,502,0,2046,2258
503,503,0,2047,2963
504,504,0,2047,3553
505,505,0,2046,3954
506,506,0,2046,4095
507,507,0,2047,4015
508,508,0,2047,3669
509,509,0,2046,3117
510,510,0,2047,2432
511,511,0,2046,1698
512,512,0,2046,1005
513,513,0,2046,442
514,514,0,2046,79
515,515,0,2046,0
516,516,0,2047,103
517,517,0,2046,486
518,518,0,2046,1065
519,519,0,2046,1765
520,520,0,2047,2498
521,521,0,2046,3176
522,522,0,2046,3710
523,523,0,2046,4036
524,524,0,2047,4095
525,525,0,2046,3926
526,526,0,2047,3506
527,527,0,2046,2902
528,528,0,2046,2189
529,529,0,2046,1458
530,530,0,2046,801
531,531,0,2047,297
532,532,0,2047,11
533,533,0,2047,0
534,534,0,2047,205
535,535,0,2047,660
536,536,0,2046,1288
537,537,0,2047,2009
538,538,0,2047,2735
539,539,0,2046,3373
540,540,0,2047,3844
541,541,0,2047,4090
542,542,0,2047,4078
543,543,0,2047,3811
544,544,0,2046,3321
545,545,0,2046,2672
546,546,0,2047,1943
547,547,0,2047,1227
548,548,0,2046,613
549,549,0,2046,176
550,550,0,2046,0
551,551,0,2046,26
552,552,0,2047,333
553,553,0,2047,853
554,554,0,2047,1521
555,555,0,2047,2255
556,556,0,2046,2961
557,557,0,2046,3551
558,558,0,2047,3953
559,559,0,2047,4095
560,560,0,2046,4016
561,561,0,2046,3671
562,562,0,2046,3120
563,563,0,2046,2435
564,564,0,2047,1700
565,565,0,2046,1008
566,566,0,2046,445
567,567,0,2046,80
568,568,0,2046,0
569,569,0,2046,102
570,570,0,2046,485
571,571,0,2047,1063
572,572,0,2046,1762
573,573,0,2046,2496
574,574,0,2047,3174
575,575,0,2046,3708
576,576,0,2046,4034
577,577,0,2047,4095
578,578,0,2046,3927
579,579,0,2046,3507
580,580,0,2046,2904
581,581,0,2046,2192
582,582,0,2047,1461
583,583,0,2047,803
584,584,0,2047,298
585,585,0,2046,12
586,586,0,2047,0
587,587,0,2047,204
588,588,0,2046,659
589,589,0,2047,1286
590,590,0,2046,2007
591,591,0,2047,2732
592,592,0,2047,3372
593,593,0,2046,3842
594,594,0,2046,4089
595,595,0,2047,4079
596,596,0,2047,3812
597,597,0,2047,3324
598,598,0,2046,2675
599,599,0,2046,1947
600,600,0,2047,1231
601,601,0,2046,614
602,602,0,2046,177
603,603,0,2046,0
604,604,0,2046,25
605,605,0,2046,331
606,606,0,2046,850
607,607,0,2046,1519
608,608,0,2047,2252
609,609,0,2047,2959
610,610,0,2046,3550
611,611,0,2047,3952
612,612,0,2046,4095
613,613,0,2047,4017
614,614,0,2046,3672
615,615,0,2047,3123
616,616,0,2047,2438
617,617,0,2046,1703
618,618,0,2047,1010
619,619,0,2047,446
620,620,0,2047,81
621,621,0,2047,0
622,622,0,2047,100
623,623,0,2046,483
624,624,0,2046,1060
625,625,0,2047,1759
626,626,0,2047,2494
627,627,0,2046,3171
628,628,0,2047,3707
629,629,0,2047,4033
630,630,0,2047,4095
631,631,0,2047,3928
632,632,0,2046,3509
633,633,0,2047,2907
634,634,0,2047,2195
635,635,0,2047,1464
636,636,0,2046,805
637,637,0,2047,300
638,638,0,2046,13
639,639,0,2047,0
640,640,0,2047,202
641,641,0,2047,656
642,642,0,2046,1283
643,643,0,2046,2004
644,644,0,2046,2730
645,645,0,2047,3369
646,646,0,2047,3841
647,647,0,2047,4088
648,648,0,2046,4079
649,649,0,2046,3813
650,650,0,2046,3326
651,651,0,2047,2677
652,652,0,2046,1949
653,653,0,2047,1233
654,654,0,2046,617
655,655,0,2047,178
656,656,0,2047,0
657,657,0,2046,25
658,658,0,2046,330
659,659,0,2046,848
660,660,0,2047,1516
661,661,0,2046,2250
662,662,0,2046,2955
663,663,0,2047,3547
664,664,0,2047,3950
665,665,0,2046,4095
666,666,0,2046,4018
667,667,0,2047,3674
668,668,0,2047,3125
669,669,0,2047,2441
670,670,0,2047,1706
671,671,0,2047,1012
672,672,0,2046,447
673,673,0,2047,82
674,674,0,2046,0
675,675,0,2047,100
676,676,0,2047,481
677,677,0,2047,1058
678,678,0,2047,1756
679,679,0,2047,2491
680,680,0,2047,3169
681,681,0,2047,3706
682,682,0,2046,4033
683,683,0,2047,4095
684,684,0,2047,3930
685,685,0,2046,3511
686,686,0,2047,2909
687,687,0,2046,2198
688,688,0,2046,1466
689,689,0,2046,807
690,690,0,2047,301
691,691,0,2046,13
692,692,0,2046,0
693,693,0,2047,202
694,694,0,2047,655
695,695,0,2047,1281
696,696,0,2047,2002
697,697,0,2047,2727
698,698,0,2046,3367
699,699,0,2047,3840
700,700,0,2047,4088
701,701,0,2046,4079
702,702,0,2046,3815
703,703,0,2047,3329
704,704,0,2046,2680
705,705,0,2046,1952
706,706,0,2046,1235
707,707,0,2047,619
708,708,0,2046,179
709,709,0,2046,0
710,710,0,2046,24
711,711,0,2045,329
712,712,0,2047,846
713,713,0,2046,1513
714,714,0,2046,2247
715,715,0,2047,2953
716,716,0,2047,3545
717,717,0,2046,3949
718,718,0,2047,4095
719,719,0,2046,4018
720,720,0,2047,3676
721,721,0,2046,3127
722,722,0,2046,2443
723,723,0,2046,1709
724,724,0,2046,1015
725,725,0,2047,449
726,726,0,2047,83
727,727,0,2046,0
728,728,0,2047,99
729,729,0,2046,479
730,730,0,2046,1055
731,731,0,2047,1754
732,732,0,2047,2488
733,733,0,2046,3166
734,734,0,2047,3703
735,735,0,2047,4032
736,736,0,2046,4095
737,737,0,2047,3931
738,738,0,2046,3513
739,739,0,2047,2911
740,740,0,2046,2201
741,741,0,2047,1469
742,742,0,2047,809
743,743,0,2046,302
744,744,0,2046,14
745,745,0,2046,0
746,746,0,2047,201
747,747,0,2047,652
748,748,0,2046,1278
749,749,0,2046,1999
750,750,0,2046,2724
751,751,0,2047,3364
752,752,0,2046,3838
753,753,0,2047,4087
754,754,0,2046,4080
755,755,0,2046,3817
756,756,0,2046,3331
757,757,0,2047,2683
758,758,0,2046,1956
759,759,0,2046,1237
760,760,0,2046,620
761,761,0,2047,181
762,762,0,2047,0
763,763,0,2047,23
764,764,0,2046,327
765,765,0,2047,845
766,766,0,2048,1510
767,767,0,2047,2243
768,768,0,2047,2951
769,769,0,2046,3544
770,770,0,2047,3948
771,771,0,2046,4095
772,772,0,2047,4019
773,773,0,2046,3678
774,774,0,2047,3130
775,775,0,2047,2446
776,776,0,2046,1711
777,777,0,2046,1017
778,778,0,2046,451
779,779,0,2047,83
780,780,0,2046,0
781,781,0,2047,98
782,782,0,2047,478
783,783,0,2047,1053
784,784,0,2047,1751
785,785,0,2046,2485
786,786,0,2046,3165
787,787,0,2046,3702
788,788,0,2047,4031
789,789,0,2046,4095
790,790,0,2047,3932
791,791,0,2046,3515
792,792,0,2047,2913
793,793,0,2046,2203
794,794,0,2046,1472
795,795,0,2046,811
796,796,0,2046,304
797,797,0,2046,15
798,798,0,2047,0
799,799,0,2046,199
800,800,0,2046,651
801,801,0,2046,1275
802,802,0,2047,1996
803,803,0,2046,2722
804,804,0,2046,3362
805,805,0,2047,3836
806,806,0,2047,4087
807,807,0,2047,4080
808,808,0,2046,3818
809,809,0,2046,3333
810,810,0,2046,2685
811,811,0,2047,1958
812,812,0,2047,1240
813,813,0,2047,622
814,814,0,2046,182
815,815,0,2047,0
816,816,0,2047,23
817,817,0,2046,326
818,818,0,2047,843
819,819,0,2046,1508
820,820,0,2047,2241
821,821,0,2047,2948
822,822,0,2047,3541
823,823,0,2046,3948
824,824,0,2046,4095
825,825,0,2046,4020
826,826,0,2046,3679
827,827,0,2047,3132
828,828,0,2046,2449
829,829,0,2046,1714
830,830,0,2046,1020
831,831,0,2047,453
832,832,0,2046,85
833,833,0,2047,0
834,834,0,2046,97
835,835,0,2047,476
836,836,0,2047,1051
837,837,0,2046,1748
838,838,0,2046,2484
839,839,0,2046,3161
840,840,0,2046,3700
841,841,0,2047,4030
842,842,0,2046,4095
843,843,0,2046,3933
844,844,0,2047,3517
845,845,0,2046,2917
846,846,0,2046,2205
847,847,0,2046,1474
848,848,0,2046,814
849,849,0,2047,306
850,850,0,2046,15
851,851,0,2047,0
852,852,0,2046,198
853,853,0,2047,648
854,854,0,2047,1273
855,855,0,2047,1993
856,856,0,2047,2719
857,857,0,2047,3360
858,858,0,2046,3836
859,859,0,2047,4087
860,860,0,2046,4080
861,861,0,2047,3819
862,862,0,2047,3334
863,863,0,2046,2688
864,864,0,2047,1960
865,865,0,2046,1243
866,866,0,2047,624
867,867,0,2046,183
868,868,0,2047,0
869,869,0,2046,23
870,870,0,2047,323
871,871,0,2047,840
872,872,0,2046,1506
873,873,0,2047,2238
874,874,0,2046,2946
875,875,0,2046,3540
876,876,0,2046,3946
877,877,0,2047,4095
878,878,0,2047,4022
879,879,0,2046,3681
880,880,0,2046,3134
881,881,0,2046,2451
882,882,0,2047,1718
883,883,0,2046,1022
884,884,0,2047,455
885,885,0,2046,86
886,886,0,2046,0
887,887,0,2046,96
888,888,0,2047,474
889,889,0,2046,1048
890,890,0,2046,1746
891,891,0,2047,2480
892,892,0,2047,3160
893,893,0,2047,3698
894,894,0,2047,4030
895,895,0,2046,4095
896,896,0,2047,3934
897,897,0,2047,3518
898,898,0,2047,2919
899,899,0,2046,2208
900,900,0,2046,1477
901,901,0,2046,816
902,902,0,2046,308
903,903,0,2047,16
904,904,0,2047,0
905,905,0,2047,196
906,906,0,2046,646
907,907,0,2047,1270
908,908,0,2046,1991
909,909,0,2046,2716
910,910,0,2046,3358
911,911,0,2046,3835
912,912,0,2047,4086
913,913,0,2047,4081
914,914,0,2047,3820
915,915,0,2046,3337
916,916,0,2046,2691
917,917,0,2047,1963
918,918,0,2047,1245
919,919,0,2046,627
920,920,0,2047,184
921,921,0,2047,0
922,922,0,2047,22
923,923,0,2046,322
924,924,0,2047,838
925,925,0,2046,1502
926,926,0,2047,2236
927,927,0,2047,2944
928,928,0,2047,3538
929,929,0,2046,3945
930,930,0,2046,4095
931,931,0,2047,4022
932,932,0,2046,3682
933,933,0,2047,3136
934,934,0,2046,2455
935,935,0,2047,1719
936,936,0,2047,1025
937,937,0,2047,457
938,938,0,2046,87
939,939,0,2047,0
940,940,0,2047,95
941,941,0,2046,472
942,942,0,2047,1045
943,943,0,2047,1743
944,944,0,2046,2477
945,945,0,2047,3158
946,946,0,2046,3697
947,947,0,2046,4030
948,948,0,2046,4095
949,949,0,2046,3935
950,950,0,2046,3521
951,951,0,2046,2921
952,952,0,2046,2212
953,953,0,2047,1479
954,954,0,2047,819
955,955,0,2047,309
956,956,0,2046,16
957,957,0,2047,0
958,958,0,2047,195
959,959,0,2046,644
960,960,0,2047,1267
961,961,0,2046,1987
962,962,0,2046,2714
963,963,0,2046,3356
964,964,0,2046,3833
965,965,0,2047,4085
966,966,0,2046,4082
967,967,0,2047,3823
968,968,0,2046,3339
969,969,0,2047,2694
970,970,0,2047,1966
971,971,0,2047,1248
972,972,0,2047,629
973,973,0,2046,185
974,974,0,2047,0
975,975,0,2047,21
976,976,0,2046,321
977,977,0,2047,835
978,978,0,2047,1501
979,979,0,2046,2232
980,980,0,2047,2940
981,981,0,2046,3535
982,982,0,2046,3945
983,983,0,2046,4095
984,984,0,2046,4023
985,985,0,2046,3684
986,986,0,2047,3139
987,987,0,2046,2456
988,988,0,2046,1723
989,989,0,2046,1027
990,990,0,2046,458
991,991,0,2046,87
992,992,0,2046,0
993,993,0,2047,94
994,994,0,2047,470
995,995,0,2047,1043
996,996,0,2046,1740
997,997,0,2046,2475
998,998,0,2047,3155
999,999,0,2047,3696
1000,1000,0,2046,4028
1001,1001,0,2046,4095
1002,1002,0,2046,3936
1003,1003,0,2047,3524
1004,1004,0,2046,2924
1005,1005,0,2046,2214
1006,1006,0,2047,1482
1007,1007,0,2047,821
1008,1008,0,2046,310
1009,1009,0,2046,17
1010,1010,0,2046,0
1011,1011,0,2047,193
1012,1012,0,2047,642
1013,1013,0,2046,1265
1014,1014,0,2046,1984
1015,1015,0,2047,2711
1016,1016,0,2047,3354
1017,1017,0,2046,3831
1018,1018,0,2047,4086
1019,1019,0,2046,4082
1020,1020,0,2046,3824
1021,1021,0,2048,3342
1022,1022,0,2047,2697
1023,1023,0,2047,1969
1024,1024,0,2047,1251
1025,1025,0,2046,630
1026,1026,0,2046,187
1027,1027,0,2047,0
1028,1028,0,2046,20
1029,1029,0,2046,319
