Sample in Buffer,Sample in Window,TRIGGER,adc1_data_a_d0[11:0],adc1_data_b_d0[11:0]
0,0,0,2046,0
1,1,0,2046,266
2,2,0,2046,849
3,3,0,2046,1634
4,4,0,2047,2489
5,5,0,2046,3266
6,6,0,2046,3836
7,7,0,2046,4095
8,8,0,2046,4010
9,9,0,2046,3586
10,10,0,2046,2898
11,11,0,2046,2063
12,12,0,2046,1225
13,13,0,2046,526
14,14,0,2046,83
15,15,0,2046,0
16,16,0,2046,216
17,17,0,2046,769
18,18,0,2047,1538
19,19,0,2046,2391
20,20,0,2046,3185
21,21,0,2047,3783
22,22,0,2047,4085
23,23,0,2046,4037
24,24,0,2045,3649
25,25,0,2046,2987
26,26,0,2046,2162
27,27,0,2046,1317
28,28,0,2046,595
29,29,0,2046,118
30,30,0,2047,0
31,31,0,2046,171
32,32,0,2046,692
33,33,0,2046,1443
34,34,0,2047,2294
35,35,0,2046,3101
36,36,0,2046,3728
37,37,0,2046,4068
38,38,0,2046,4061
39,39,0,2046,3710
40,40,0,2047,3073
41,41,0,2046,2261
42,42,0,2047,1411
43,43,0,2046,667
44,44,0,2046,157
45,45,0,2046,0
46,46,0,2047,131
47,47,0,2047,618
48,48,0,2046,1349
49,49,0,2047,2196
50,50,0,2047,3016
51,51,0,2047,3669
52,52,0,2047,4046
53,53,0,2046,4080
54,54,0,2046,3766
55,55,0,2046,3158
56,56,0,2046,2359
57,57,0,2046,1506
58,58,0,2047,743
59,59,0,2046,201
60,60,0,2046,0
61,61,0,2046,94
62,62,0,2047,549
63,63,0,2046,1256
64,64,0,2047,2097
65,65,0,2047,2927
66,66,0,2047,3607
67,67,0,2047,4019
68,68,0,2047,4093
69,69,0,2046,3819
70,70,0,2047,3239
71,71,0,2046,2456
72,72,0,2046,1602
73,73,0,2046,821
74,74,0,2046,249
75,75,0,2046,0
76,76,0,2046,63
77,77,0,2047,481
78,78,0,2046,1165
79,79,0,2046,1998
80,80,0,2047,2837
81,81,0,2046,3540
82,82,0,2046,3989
83,83,0,2046,4095
84,84,0,2047,3867
85,85,0,2047,3319
86,86,0,2046,2552
87,87,0,2046,1699
88,88,0,2046,903
89,89,0,2046,301
90,90,0,2047,0
91,91,0,2046,36
92,92,0,2047,418
93,93,0,2046,1077
94,94,0,2046,1899
95,95,0,2047,2745
96,96,0,2046,3470
97,97,0,2046,3953
98,98,0,2046,4095
99,99,0,2046,3911
100,100,0,2047,3395
101,101,0,2046,2647
102,102,0,2046,1796
103,103,0,2046,987
104,104,0,2046,357
105,105,0,2047,12
106,106,0,2046,12
107,107,0,2047,358
108,108,0,2046,990
109,109,0,2046,1800
110,110,0,2046,2651
111,111,0,2047,3397
112,112,0,2046,3913
113,113,0,2046,4095
114,114,0,2046,3951
115,115,0,2046,3468
116,116,0,2046,2741
117,117,0,2047,1896
118,118,0,2046,1072
119,119,0,2046,416
120,120,0,2046,35
121,121,0,2047,0
122,122,0,2046,302
123,123,0,2046,906
124,124,0,2046,1703
125,125,0,2046,2557
126,126,0,2046,3322
127,127,0,2046,3869
128,128,0,2046,4095
129,129,0,2046,3987
130,130,0,2046,3539
131,131,0,2046,2834
132,132,0,2047,1994
133,133,0,2047,1162
134,134,0,2047,479
135,135,0,2047,62
136,136,0,2046,0
137,137,0,2047,250
138,138,0,2046,824
139,139,0,2047,1605
140,140,0,2046,2460
141,141,0,2047,3242
142,142,0,2047,3821
143,143,0,2046,4094
144,144,0,2047,4019
145,145,0,2046,3605
146,146,0,2046,2924
147,147,0,2046,2093
148,148,0,2046,1252
149,149,0,2046,546
150,150,0,2046,94
151,151,0,2047,0
152,152,0,2047,204
153,153,0,2047,745
154,154,0,2047,1509
155,155,0,2046,2363
156,156,0,2047,3161
157,157,0,2046,3767
158,158,0,2047,4080
159,159,0,2046,4045
160,160,0,2046,3668
161,161,0,2046,3012
162,162,0,2046,2192
163,163,0,2047,1345
164,164,0,2046,617
165,165,0,2046,129
166,166,0,2046,0
167,167,0,2046,159
168,168,0,2047,670
169,169,0,2046,1414
170,170,0,2046,2265
171,171,0,2047,3077
172,172,0,2047,3712
173,173,0,2047,4061
174,174,0,2046,4067
175,175,0,2047,3727
176,176,0,2046,3099
177,177,0,2046,2290
178,178,0,2046,1439
179,179,0,2046,689
180,180,0,2046,170
181,181,0,2047,0
182,182,0,2047,119
183,183,0,2046,598
184,184,0,2047,1321
185,185,0,2046,2166
186,186,0,2046,2989
187,187,0,2046,3651
188,188,0,2047,4039
189,189,0,2046,4084
190,190,0,2046,3782
191,191,0,2046,3182
192,192,0,2046,2388
193,193,0,2047,1534
194,194,0,2047,766
195,195,0,2046,214
196,196,0,2046,0
197,197,0,2047,84
198,198,0,2046,528
199,199,0,2046,1229
200,200,0,2047,2067
201,201,0,2046,2901
202,202,0,2046,3588
203,203,0,2046,4010
204,204,0,2046,4095
205,205,0,2046,3834
206,206,0,2046,3264
207,207,0,2046,2485
208,208,0,2046,1631
209,209,0,2046,845
210,210,0,2046,264
211,211,0,2047,0
212,212,0,2047,54
213,213,0,2046,462
214,214,0,2046,1139
215,215,0,2046,1969
216,216,0,2046,2810
217,217,0,2046,3520
218,218,0,2046,3978
219,219,0,2046,4095
220,220,0,2047,3881
221,221,0,2048,3342
222,222,0,2046,2581
223,223,0,2046,1728
224,224,0,2047,928
225,225,0,2047,316
226,226,0,2046,0
227,227,0,2046,28
228,228,0,2046,400
229,229,0,2047,1050
230,230,0,2047,1869
231,231,0,2046,2717
232,232,0,2047,3450
233,233,0,2046,3941
234,234,0,2046,4095
235,235,0,2047,3924
236,236,0,2046,3417
237,237,0,2046,2676
238,238,0,2046,1826
239,239,0,2047,1013
240,240,0,2047,374
241,241,0,2046,17
242,242,0,2047,7
243,243,0,2046,341
244,244,0,2046,964
245,245,0,2047,1771
246,246,0,2046,2623
247,247,0,2046,3375
248,248,0,2046,3900
249,249,0,2046,4095
250,250,0,2047,3963
251,251,0,2047,3490
252,252,0,2046,2769
253,253,0,2046,1925
254,254,0,2046,1099
255,255,0,2047,434
256,256,0,2046,43
257,257,0,2047,0
258,258,0,2047,286
259,259,0,2047,881
260,260,0,2046,1673
261,261,0,2047,2527
262,262,0,2046,3298
263,263,0,2046,3854
264,264,0,2047,4095
265,265,0,2046,3997
266,266,0,2047,3558
267,267,0,2046,2861
268,268,0,2046,2023
269,269,0,2046,1189
270,270,0,2046,499
271,271,0,2046,71
272,272,0,2046,0
273,273,0,2046,236
274,274,0,2046,801
275,275,0,2046,1576
276,276,0,2046,2430
277,277,0,2046,3218
278,278,0,2046,3804
279,279,0,2046,4091
280,280,0,2046,4027
281,281,0,2046,3624
282,282,0,2046,2950
283,283,0,2046,2122
284,284,0,2046,1280
285,285,0,2047,567
286,286,0,2047,104
287,287,0,2046,0
288,288,0,2047,189
289,289,0,2046,723
290,290,0,2046,1481
291,291,0,2046,2333
292,292,0,2046,3135
293,293,0,2046,3751
294,294,0,2046,4075
295,295,0,2046,4052
296,296,0,2045,3686
297,297,0,2046,3038
298,298,0,2046,2221
299,299,0,2046,1373
300,300,0,2046,638
301,301,0,2047,141
302,302,0,2046,0
303,303,0,2046,146
304,304,0,2046,648
305,305,0,2047,1386
306,306,0,2046,2235
307,307,0,2046,3051
308,308,0,2046,3694
309,309,0,2046,4055
310,310,0,2047,4073
311,311,0,2047,3743
312,312,0,2046,3124
313,313,0,2046,2319
314,314,0,2046,1467
315,315,0,2047,712
316,316,0,2046,183
317,317,0,2046,0
318,318,0,2046,109
319,319,0,2046,577
320,320,0,2047,1293
321,321,0,2046,2136
322,322,0,2047,2963
323,323,0,2047,3633
324,324,0,2046,4030
325,325,0,2047,4089
326,326,0,2047,3798
327,327,0,2046,3207
328,328,0,2047,2417
329,329,0,2046,1563
330,330,0,2047,790
331,331,0,2046,229
332,332,0,2047,0
333,333,0,2046,74
334,334,0,2046,508
335,335,0,2047,1201
336,336,0,2046,2038
337,337,0,2047,2874
338,338,0,2046,3568
339,339,0,2046,4000
340,340,0,2046,4095
341,341,0,2047,3848
342,342,0,2047,3288
343,343,0,2046,2515
344,344,0,2046,1660
345,345,0,2047,871
346,346,0,2046,279
347,347,0,2046,0
348,348,0,2046,46
349,349,0,2046,443
350,350,0,2046,1112
351,351,0,2046,1938
352,352,0,2046,2782
353,353,0,2047,3499
354,354,0,2046,3967
355,355,0,2047,4095
356,356,0,2046,3895
357,357,0,2047,3365
358,358,0,2046,2609
359,359,0,2046,1757
360,360,0,2046,953
361,361,0,2047,334
362,362,0,2046,5
363,363,0,2047,21
364,364,0,2047,382
365,365,0,2046,1025
366,366,0,2046,1840
367,367,0,2046,2689
368,368,0,2046,3427
369,369,0,2047,3929
370,370,0,2047,4095
371,371,0,2047,3935
372,372,0,2046,3439
373,373,0,2046,2704
374,374,0,2046,1856
375,375,0,2046,1038
376,376,0,2046,391
377,377,0,2046,25
378,378,0,2046,1
379,379,0,2046,324
380,380,0,2046,940
381,381,0,2047,1742
382,382,0,2047,2594
383,383,0,2046,3352
384,384,0,2046,3887
385,385,0,2046,4095
386,386,0,2046,3974
387,387,0,2046,3511
388,388,0,2047,2797
389,389,0,2046,1955
390,390,0,2046,1126
391,391,0,2046,453
392,392,0,2047,50
393,393,0,2047,0
394,394,0,2046,271
395,395,0,2046,857
396,396,0,2047,1644
397,397,0,2046,2498
398,398,0,2046,3275
399,399,0,2046,3840
400,400,0,2047,4095
401,401,0,2046,4006
402,402,0,2046,3579
403,403,0,2047,2888
404,404,0,2046,2054
405,405,0,2046,1216
406,406,0,2046,518
407,407,0,2046,81
408,408,0,2046,0
409,409,0,2046,221
410,410,0,2046,777
411,411,0,2046,1547
412,412,0,2047,2401
413,413,0,2046,3193
414,414,0,2047,3789
415,415,0,2046,4087
416,416,0,2046,4034
417,417,0,2047,3643
418,418,0,2047,2977
419,419,0,2047,2152
420,420,0,2046,1307
421,421,0,2046,588
422,422,0,2047,115
423,423,0,2046,0
424,424,0,2047,176
425,425,0,2046,700
426,426,0,2046,1452
427,427,0,2047,2303
428,428,0,2046,3111
429,429,0,2047,3735
430,430,0,2047,4070
431,431,0,2046,4059
432,432,0,2047,3703
433,433,0,2046,3065
434,434,0,2046,2251
435,435,0,2047,1400
436,436,0,2046,659
437,437,0,2046,153
438,438,0,2046,0
439,439,0,2047,135
440,440,0,2046,627
441,441,0,2047,1358
442,442,0,2047,2205
443,443,0,2046,3025
444,444,0,2047,3676
445,445,0,2046,4049
446,446,0,2046,4078
447,447,0,2046,3761
448,448,0,2046,3150
449,449,0,2046,2349
450,450,0,2046,1496
451,451,0,2046,735
452,452,0,2046,196
453,453,0,2047,0
454,454,0,2047,98
455,455,0,2047,556
456,456,0,2047,1265
457,457,0,2046,2107
458,458,0,2047,2936
459,459,0,2047,3613
460,460,0,2046,4022
461,461,0,2047,4093
462,462,0,2046,3813
463,463,0,2046,3232
464,464,0,2047,2447
465,465,0,2046,1592
466,466,0,2047,813
467,467,0,2047,244
468,468,0,2047,0
469,469,0,2046,66
470,470,0,2046,488
471,471,0,2047,1174
472,472,0,2046,2008
473,473,0,2046,2846
474,474,0,2046,3547
475,475,0,2046,3991
476,476,0,2047,4095
477,477,0,2046,3863
478,478,0,2047,3310
479,479,0,2046,2543
480,480,0,2046,1688
481,481,0,2046,895
482,482,0,2047,295
483,483,0,2046,0
484,484,0,2046,38
485,485,0,2047,424
486,486,0,2046,1086
487,487,0,2046,1909
488,488,0,2047,2755
489,489,0,2046,3478
490,490,0,2046,3956
491,491,0,2045,4095
492,492,0,2046,3907
493,493,0,2046,3387
494,494,0,2047,2639
495,495,0,2046,1786
496,496,0,2047,978
497,497,0,2046,350
498,498,0,2046,9
499,499,0,2047,14
500,500,0,2046,364
501,501,0,2046,999
502,502,0,2046,1811
503,503,0,2046,2661
504,504,0,2046,3405
505,505,0,2046,3917
506,506,0,2046,4095
507,507,0,2047,3948
508,508,0,2046,3461
509,509,0,2046,2732
510,510,0,2046,1885
511,511,0,2047,1064
512,512,0,2046,410
513,513,0,2047,32
514,514,0,2046,0
515,515,0,2046,308
516,516,0,2046,914
517,517,0,2046,1712
518,518,0,2046,2566
519,519,0,2046,3329
520,520,0,2046,3873
521,521,0,2046,4095
522,522,0,2047,3983
523,523,0,2047,3531
524,524,0,2046,2825
525,525,0,2046,1983
526,526,0,2046,1153
527,527,0,2046,472
528,528,0,2047,59
529,529,0,2046,0
530,530,0,2046,256
531,531,0,2047,832
532,532,0,2046,1615
533,533,0,2046,2469
534,534,0,2047,3250
535,535,0,2046,3825
536,536,0,2047,4095
537,537,0,2046,4015
538,538,0,2046,3598
539,539,0,2046,2916
540,540,0,2046,2083
541,541,0,2046,1243
542,542,0,2047,539
543,543,0,2046,90
544,544,0,2046,0
545,545,0,2047,207
546,546,0,2046,754
547,547,0,2046,1519
548,548,0,2047,2372
549,549,0,2046,3169
550,550,0,2046,3773
551,551,0,2046,4082
552,552,0,2047,4042
553,553,0,2046,3662
554,554,0,2047,3003
555,555,0,2047,2182
556,556,0,2046,1335
557,557,0,2046,609
558,558,0,2046,125
559,559,0,2046,0
560,560,0,2046,163
561,561,0,2047,677
562,562,0,2046,1424
563,563,0,2047,2275
564,564,0,2047,3085
565,565,0,2046,3717
566,566,0,2046,4064
567,567,0,2047,4065
568,568,0,2046,3721
569,569,0,2047,3090
570,570,0,2046,2280
571,571,0,2046,1429
572,572,0,2046,682
573,573,0,2046,165
574,574,0,2047,0
575,575,0,2047,123
576,576,0,2046,605
577,577,0,2046,1330
578,578,0,2046,2176
579,579,0,2046,2998
580,580,0,2046,3657
581,581,0,2046,4041
582,582,0,2046,4083
583,583,0,2046,3776
584,584,0,2047,3174
585,585,0,2047,2378
586,586,0,2047,1525
587,587,0,2046,758
588,588,0,2047,210
589,589,0,2046,0
590,590,0,2047,88
591,591,0,2046,535
592,592,0,2047,1238
593,593,0,2047,2078
594,594,0,2046,2910
595,595,0,2047,3594
596,596,0,2046,4013
597,597,0,2046,4095
598,598,0,2046,3828
599,599,0,2047,3255
600,600,0,2047,2475
601,601,0,2047,1620
602,602,0,2046,838
603,603,0,2047,259
604,604,0,2046,0
605,605,0,2046,57
606,606,0,2047,468
607,607,0,2047,1147
608,608,0,2047,1978
609,609,0,2046,2819
610,610,0,2046,3527
611,611,0,2046,3982
612,612,0,2046,4095
613,613,0,2047,3876
614,614,0,2046,3334
615,615,0,2047,2572
616,616,0,2047,1718
617,617,0,2047,920
618,618,0,2046,311
619,619,0,2047,0
620,620,0,2046,31
621,621,0,2047,406
622,622,0,2047,1060
623,623,0,2046,1880
624,624,0,2046,2726
625,625,0,2046,3457
626,626,0,2046,3945
627,627,0,2046,4095
628,628,0,2046,3919
629,629,0,2046,3410
630,630,0,2046,2667
631,631,0,2046,1816
632,632,0,2046,1003
633,633,0,2046,367
634,634,0,2047,16
635,635,0,2047,8
636,636,0,2046,347
637,637,0,2046,973
638,638,0,2047,1781
639,639,0,2046,2633
640,640,0,2047,3383
641,641,0,2046,3904
642,642,0,2046,4095
643,643,0,2047,3959
644,644,0,2047,3482
645,645,0,2047,2759
646,646,0,2047,1914
647,647,0,2046,1091
648,648,0,2046,429
649,649,0,2046,40
650,650,0,2046,0
651,651,0,2046,292
652,652,0,2047,889
653,653,0,2047,1683
654,654,0,2047,2537
655,655,0,2046,3306
656,656,0,2046,3859
657,657,0,2047,4095
658,658,0,2046,3994
659,659,0,2047,3552
660,660,0,2046,2853
661,661,0,2046,2013
662,662,0,2046,1180
663,663,0,2047,492
664,664,0,2046,68
665,665,0,2046,0
666,666,0,2047,241
667,667,0,2046,809
668,668,0,2047,1587
669,669,0,2046,2441
670,670,0,2046,3227
671,671,0,2047,3810
672,672,0,2047,4092
673,673,0,2047,4024
674,674,0,2047,3618
675,675,0,2046,2942
676,676,0,2046,2113
677,677,0,2046,1271
678,678,0,2047,560
679,679,0,2046,101
680,680,0,2047,0
681,681,0,2046,194
682,682,0,2046,730
683,683,0,2046,1490
684,684,0,2047,2343
685,685,0,2047,3144
686,686,0,2047,3757
687,687,0,2046,4078
688,688,0,2046,4049
689,689,0,2046,3680
690,690,0,2047,3030
691,691,0,2046,2211
692,692,0,2046,1363
693,693,0,2047,631
694,694,0,2046,137
695,695,0,2047,0
696,696,0,2047,151
697,697,0,2045,655
698,698,0,2046,1396
699,699,0,2046,2245
700,700,0,2046,3060
701,701,0,2046,3700
702,702,0,2046,4057
703,703,0,2047,4071
704,704,0,2047,3738
705,705,0,2046,3116
706,706,0,2047,2310
707,707,0,2046,1458
708,708,0,2046,705
709,709,0,2046,178
710,710,0,2047,0
711,711,0,2045,112
712,712,0,2046,583
713,713,0,2046,1302
714,714,0,2046,2147
715,715,0,2047,2972
716,716,0,2046,3639
717,717,0,2047,4033
718,718,0,2047,4087
719,719,0,2046,3794
720,720,0,2046,3199
721,721,0,2046,2407
722,722,0,2047,1554
723,723,0,2047,781
724,724,0,2046,224
725,725,0,2046,0
726,726,0,2046,78
727,727,0,2047,514
728,728,0,2046,1211
729,729,0,2047,2048
730,730,0,2047,2883
731,731,0,2046,3575
732,732,0,2047,4004
733,733,0,2046,4095
734,734,0,2047,3843
735,735,0,2046,3280
736,736,0,2045,2504
737,737,0,2047,1650
738,738,0,2047,862
739,739,0,2047,274
740,740,0,2046,0
741,741,0,2046,48
742,742,0,2047,450
743,743,0,2046,1120
744,744,0,2046,1948
745,745,0,2047,2792
746,746,0,2047,3506
747,747,0,2046,3971
748,748,0,2046,4095
749,749,0,2046,3890
750,750,0,2046,3357
751,751,0,2046,2600
752,752,0,2046,1748
753,753,0,2047,945
754,754,0,2046,328
755,755,0,2047,3
756,756,0,2046,24
757,757,0,2046,388
758,758,0,2046,1034
759,759,0,2046,1849
760,760,0,2046,2699
761,761,0,2046,3435
762,762,0,2046,3934
763,763,0,2046,4095
764,764,0,2046,3932
765,765,0,2047,3432
766,766,0,2046,2694
767,767,0,2046,1845
768,768,0,2046,1029
769,769,0,2046,385
770,770,0,2046,23
771,771,0,2046,3
772,772,0,2047,330
773,773,0,2046,948
774,774,0,2047,1752
775,775,0,2047,2605
776,776,0,2047,3360
777,777,0,2047,3891
778,778,0,2046,4095
779,779,0,2046,3970
780,780,0,2046,3504
781,781,0,2046,2787
782,782,0,2047,1944
783,783,0,2047,1117
784,784,0,2046,447
785,785,0,2046,48
786,786,0,2046,0
787,787,0,2046,276
788,788,0,2047,865
789,789,0,2046,1654
790,790,0,2047,2509
791,791,0,2046,3283
792,792,0,2047,3845
793,793,0,2047,4095
794,794,0,2046,4003
795,795,0,2046,3571
796,796,0,2046,2879
797,797,0,2046,2044
798,798,0,2047,1206
799,799,0,2047,511
800,800,0,2046,77
801,801,0,2047,0
802,802,0,2046,226
803,803,0,2047,785
804,804,0,2047,1557
805,805,0,2047,2411
806,806,0,2046,3201
807,807,0,2047,3794
808,808,0,2046,4088
809,809,0,2047,4032
810,810,0,2047,3637
811,811,0,2046,2968
812,812,0,2046,2142
813,813,0,2046,1298
814,814,0,2047,580
815,815,0,2046,111
816,816,0,2046,0
817,817,0,2046,180
818,818,0,2047,708
819,819,0,2046,1462
820,820,0,2046,2314
821,821,0,2047,3119
822,822,0,2047,3740
823,823,0,2047,4072
824,824,0,2047,4056
825,825,0,2046,3697
826,826,0,2046,3056
827,827,0,2046,2240
828,828,0,2047,1391
829,829,0,2047,652
830,830,0,2047,148
831,831,0,2046,0
832,832,0,2046,139
833,833,0,2046,634
834,834,0,2047,1368
835,835,0,2047,2216
836,836,0,2047,3033
837,837,0,2046,3682
838,838,0,2046,4051
839,839,0,2046,4077
840,840,0,2047,3754
841,841,0,2046,3140
842,842,0,2047,2339
843,843,0,2046,1485
844,844,0,2047,727
845,845,0,2047,192
846,846,0,2046,0
847,847,0,2046,103
848,848,0,2046,563
849,849,0,2046,1274
850,850,0,2047,2117
851,851,0,2047,2945
852,852,0,2046,3620
853,853,0,2046,4025
854,854,0,2046,4091
855,855,0,2046,3808
856,856,0,2046,3223
857,857,0,2046,2436
858,858,0,2046,1581
859,859,0,2047,805
860,860,0,2047,239
861,861,0,2046,0
862,862,0,2046,69
863,863,0,2047,495
864,864,0,2047,1185
865,865,0,2047,2018
866,866,0,2046,2856
867,867,0,2046,3554
868,868,0,2046,3994
869,869,0,2047,4095
870,870,0,2047,3857
871,871,0,2047,3302
872,872,0,2046,2533
873,873,0,2046,1679
874,874,0,2047,887
875,875,0,2046,290
876,876,0,2047,0
877,877,0,2047,41
878,878,0,2046,431
879,879,0,2047,1095
880,880,0,2046,1919
881,881,0,2047,2764
882,882,0,2047,3485
883,883,0,2046,3960
884,884,0,2046,4095
885,885,0,2047,3903
886,886,0,2046,3379
887,887,0,2047,2628
888,888,0,2046,1776
889,889,0,2046,970
890,890,0,2046,344
891,891,0,2046,8
892,892,0,2046,17
893,893,0,2046,370
894,894,0,2046,1008
895,895,0,2046,1821
896,896,0,2047,2671
897,897,0,2046,3412
898,898,0,2047,3922
899,899,0,2047,4095
900,900,0,2047,3944
901,901,0,2047,3453
902,902,0,2046,2722
903,903,0,2046,1875
904,904,0,2047,1055
905,905,0,2046,403
906,906,0,2046,30
907,907,0,2047,0
908,908,0,2047,314
909,909,0,2047,923
910,910,0,2046,1723
911,911,0,2047,2576
912,912,0,2046,3338
913,913,0,2047,3878
914,914,0,2047,4095
915,915,0,2046,3980
916,916,0,2046,3524
917,917,0,2046,2815
918,918,0,2046,1973
919,919,0,2046,1144
920,920,0,2046,465
921,921,0,2046,56
922,922,0,2047,0
923,923,0,2047,261
924,924,0,2047,841
925,925,0,2047,1625
926,926,0,2046,2479
927,927,0,2047,3259
928,928,0,2047,3830
929,929,0,2046,4095
930,930,0,2046,4012
931,931,0,2046,3591
932,932,0,2046,2905
933,933,0,2047,2072
934,934,0,2047,1234
935,935,0,2046,533
936,936,0,2046,87
937,937,0,2047,0
938,938,0,2046,212
939,939,0,2046,762
940,940,0,2046,1529
941,941,0,2047,2383
942,942,0,2046,3177
943,943,0,2046,3779
944,944,0,2046,4084
945,945,0,2047,4040
946,946,0,2045,3654
947,947,0,2047,2995
948,948,0,2046,2172
949,949,0,2046,1325
950,950,0,2046,601
951,951,0,2047,122
952,952,0,2047,0
953,953,0,2047,168
954,954,0,2046,685
955,955,0,2047,1435
956,956,0,2046,2285
957,957,0,2046,3094
958,958,0,2047,3723
959,959,0,2047,4065
960,960,0,2046,4063
961,961,0,2046,3714
962,962,0,2046,3081
963,963,0,2047,2270
964,964,0,2047,1419
965,965,0,2046,674
966,966,0,2046,161
967,967,0,2047,0
968,968,0,2046,127
969,969,0,2046,613
970,970,0,2047,1340
971,971,0,2046,2187
972,972,0,2046,3008
973,973,0,2047,3664
974,974,0,2047,4044
975,975,0,2047,4081
976,976,0,2047,3771
977,977,0,2047,3165
978,978,0,2046,2367
979,979,0,2046,1514
980,980,0,2046,750
981,981,0,2046,205
982,982,0,2046,0
983,983,0,2046,92
984,984,0,2046,542
985,985,0,2047,1247
986,986,0,2046,2088
987,987,0,2047,2919
988,988,0,2046,3601
989,989,0,2047,4016
990,990,0,2046,4095
991,991,0,2046,3823
992,992,0,2047,3246
993,993,0,2046,2465
994,994,0,2047,1610
995,995,0,2046,829
996,996,0,2047,253
997,997,0,2047,0
998,998,0,2047,60
999,999,0,2046,475
1000,1000,0,2047,1157
1001,1001,0,2047,1989
1002,1002,0,2046,2829
1003,1003,0,2046,3534
1004,1004,0,2046,3985
1005,1005,0,2046,4095
1006,1006,0,2047,3871
1007,1007,0,2046,3326
1008,1008,0,2047,2561
1009,1009,0,2046,1708
1010,1010,0,2047,911
1011,1011,0,2047,305
1012,1012,0,2046,0
1013,1013,0,2046,33
1014,1014,0,2047,413
1015,1015,0,2046,1068
1016,1016,0,2046,1890
1017,1017,0,2047,2737
1018,1018,0,2047,3464
1019,1019,0,2047,3949
1020,1020,0,2046,4095
1021,1021,0,2047,3915
1022,1022,0,2047,3402
1023,1023,0,2046,2656
1024,1024,0,2046,1805
1025,1025,0,2047,995
1026,1026,0,2046,362
1027,1027,0,2046,14
1028,1028,0,2047,11
1029,1029,0,2046,353
