Sample in Buffer,Sample in Window,TRIGGER,adc1_data_a_d0[11:0],adc1_data_b_d0[11:0]
0,0,0,2046,2661
1,1,0,2047,3269
2,2,0,2046,3744
3,3,0,2046,4038
4,4,0,2046,4095
5,5,0,2047,3970
6,6,0,2047,3618
7,7,0,2046,3095
8,8,0,2047,2459
9,9,0,2045,1778
10,10,0,2046,1125
11,11,0,2046,570
12,12,0,2046,173
13,13,0,2046,0
14,14,0,2046,0
15,15,0,2046,243
16,16,0,2046,680
17,17,0,2047,1263
18,18,0,2046,1928
19,19,0,2046,2606
20,20,0,2046,3222
21,21,0,2046,3711
22,22,0,2046,4021
23,23,0,2047,4095
24,24,0,2046,3991
25,25,0,2047,3654
26,26,0,2046,3144
27,27,0,2046,2515
28,28,0,2047,1835
29,29,0,2047,1177
30,30,0,2047,612
31,31,0,2046,199
32,32,0,2046,0
33,33,0,2047,0
34,34,0,2046,215
35,35,0,2046,638
36,36,0,2047,1209
37,37,0,2047,1871
38,38,0,2046,2550
39,39,0,2046,3174
40,40,0,2047,3676
41,41,0,2047,4003
42,42,0,2046,4095
43,43,0,2046,4010
44,44,0,2047,3690
45,45,0,2047,3193
46,46,0,2047,2571
47,47,0,2047,1893
48,48,0,2046,1230
49,49,0,2047,654
50,50,0,2046,226
51,51,0,2047,0
52,52,0,2047,0
53,53,0,2047,188
54,54,0,2047,595
55,55,0,2046,1156
56,56,0,2046,1814
57,57,0,2046,2494
58,58,0,2047,3126
59,59,0,2047,3641
60,60,0,2046,3984
61,61,0,2046,4095
62,62,0,2047,4028
63,63,0,2046,3724
64,64,0,2046,3239
65,65,0,2047,2626
66,66,0,2047,1950
67,67,0,2047,1283
68,68,0,2047,697
69,69,0,2046,255
70,70,0,2046,5
71,71,0,2047,0
72,72,0,2046,163
73,73,0,2047,554
74,74,0,2047,1104
75,75,0,2047,1756
76,76,0,2047,2437
77,77,0,2046,3076
78,78,0,2046,3603
79,79,0,2046,3963
80,80,0,2046,4095
81,81,0,2046,4044
82,82,0,2046,3757
83,83,0,2046,3286
84,84,0,2046,2681
85,85,0,2047,2008
86,86,0,2046,1337
87,87,0,2046,742
88,88,0,2046,286
89,89,0,2046,18
90,90,0,2046,0
91,91,0,2046,138
92,92,0,2046,515
93,93,0,2047,1054
94,94,0,2047,1700
95,95,0,2047,2381
96,96,0,2047,3025
97,97,0,2046,3565
98,98,0,2046,3939
99,99,0,2047,4095
100,100,0,2046,4059
101,101,0,2047,3789
102,102,0,2046,3332
103,103,0,2046,2736
104,104,0,2046,2065
105,105,0,2046,1391
106,106,0,2046,786
107,107,0,2046,317
108,108,0,2046,32
109,109,0,2047,0
110,110,0,2046,116
111,111,0,2046,476
112,112,0,2046,1004
113,113,0,2047,1643
114,114,0,2046,2324
115,115,0,2046,2975
116,116,0,2046,3525
117,117,0,2047,3915
118,118,0,2047,4095
119,119,0,2046,4072
120,120,0,2046,3820
121,121,0,2046,3376
122,122,0,2046,2789
123,123,0,2046,2122
124,124,0,2046,1446
125,125,0,2046,833
126,126,0,2046,350
127,127,0,2046,47
128,128,0,2046,0
129,129,0,2046,94
130,130,0,2047,439
131,131,0,2047,954
132,132,0,2046,1586
133,133,0,2046,2266
134,134,0,2047,2923
135,135,0,2046,3483
136,136,0,2046,3890
137,137,0,2047,4095
138,138,0,2047,4083
139,139,0,2046,3848
140,140,0,2046,3420
141,141,0,2046,2843
142,142,0,2046,2180
143,143,0,2047,1501
144,144,0,2046,881
145,145,0,2046,385
146,146,0,2047,66
147,147,0,2046,0
148,148,0,2046,75
149,149,0,2046,403
150,150,0,2046,905
151,151,0,2046,1530
152,152,0,2047,2210
153,153,0,2046,2871
154,154,0,2046,3443
155,155,0,2046,3863
156,156,0,2047,4088
157,157,0,2046,4093
158,158,0,2046,3876
159,159,0,2046,3462
160,160,0,2046,2896
161,161,0,2046,2237
162,162,0,2046,1557
163,163,0,2046,929
164,164,0,2046,420
165,165,0,2046,84
166,166,0,2046,0
167,167,0,2046,56
168,168,0,2046,368
169,169,0,2047,858
170,170,0,2046,1475
171,171,0,2046,2152
172,172,0,2047,2818
173,173,0,2046,3399
174,174,0,2046,3834
175,175,0,2047,4077
176,176,0,2047,4095
177,177,0,2046,3902
178,178,0,2047,3504
179,179,0,2046,2948
180,180,0,2046,2294
181,181,0,2047,1613
182,182,0,2047,978
183,183,0,2046,456
184,184,0,2047,105
185,185,0,2046,0
186,186,0,2047,40
187,187,0,2046,333
188,188,0,2047,812
189,189,0,2046,1419
190,190,0,2046,2095
191,191,0,2047,2764
192,192,0,2046,3355
193,193,0,2045,3805
194,194,0,2046,4065
195,195,0,2047,4095
196,196,0,2047,3928
197,197,0,2046,3543
198,198,0,2046,2999
199,199,0,2046,2352
200,200,0,2046,1670
201,201,0,2046,1028
202,202,0,2046,494
203,203,0,2047,127
204,204,0,2046,0
205,205,0,2046,26
206,206,0,2047,302
207,207,0,2046,765
208,208,0,2046,1365
209,209,0,2047,2037
210,210,0,2047,2710
211,211,0,2047,3311
212,212,0,2047,3774
213,213,0,2046,4052
214,214,0,2047,4095
215,215,0,2046,3951
216,216,0,2046,3583
217,217,0,2046,3050
218,218,0,2046,2407
219,219,0,2046,1726
220,220,0,2047,1078
221,221,0,2046,534
222,222,0,2047,150
223,223,0,2047,0
224,224,0,2046,11
225,225,0,2047,271
226,226,0,2047,720
227,227,0,2047,1311
228,228,0,2046,1980
229,229,0,2046,2655
230,230,0,2047,3264
231,231,0,2047,3742
232,232,0,2047,4036
233,233,0,2046,4095
234,234,0,2047,3973
235,235,0,2046,3621
236,236,0,2046,3099
237,237,0,2046,2464
238,238,0,2046,1783
239,239,0,2046,1130
240,240,0,2047,573
241,241,0,2047,175
242,242,0,2046,0
243,243,0,2047,0
244,244,0,2047,241
245,245,0,2047,676
246,246,0,2047,1257
247,247,0,2046,1922
248,248,0,2046,2600
249,249,0,2046,3218
250,250,0,2046,3708
251,251,0,2047,4019
252,252,0,2046,4095
253,253,0,2047,3993
254,254,0,2046,3658
255,255,0,2046,3149
256,256,0,2046,2521
257,257,0,2047,1840
258,258,0,2046,1182
259,259,0,2046,616
260,260,0,2046,202
261,261,0,2047,0
262,262,0,2046,0
263,263,0,2046,212
264,264,0,2046,633
265,265,0,2047,1205
266,266,0,2047,1865
267,267,0,2046,2544
268,268,0,2045,3170
269,269,0,2046,3673
270,270,0,2047,4001
271,271,0,2046,4095
272,272,0,2046,4012
273,273,0,2046,3694
274,274,0,2046,3197
275,275,0,2046,2576
276,276,0,2046,1899
277,277,0,2046,1235
278,278,0,2046,658
279,279,0,2046,229
280,280,0,2046,0
281,281,0,2046,0
282,282,0,2046,186
283,283,0,2047,591
284,284,0,2046,1151
285,285,0,2046,1808
286,286,0,2046,2488
287,287,0,2046,3121
288,288,0,2046,3636
289,289,0,2046,3981
290,290,0,2046,4095
291,291,0,2047,4029
292,292,0,2047,3728
293,293,0,2046,3244
294,294,0,2046,2631
295,295,0,2046,1956
296,296,0,2046,1288
297,297,0,2047,701
298,298,0,2047,258
299,299,0,2047,6
300,300,0,2046,0
301,301,0,2047,160
302,302,0,2046,550
303,303,0,2046,1100
304,304,0,2046,1750
305,305,0,2047,2432
306,306,0,2047,3071
307,307,0,2046,3599
308,308,0,2046,3961
309,309,0,2046,4095
310,310,0,2047,4045
311,311,0,2046,3761
312,312,0,2046,3291
313,313,0,2046,2686
314,314,0,2046,2013
315,315,0,2047,1342
316,316,0,2046,746
317,317,0,2047,288
318,318,0,2047,19
319,319,0,2046,0
320,320,0,2046,136
321,321,0,2046,511
322,322,0,2046,1049
323,323,0,2046,1694
324,324,0,2046,2376
325,325,0,2046,3021
326,326,0,2047,3561
327,327,0,2046,3938
328,328,0,2047,4095
329,329,0,2047,4060
330,330,0,2046,3793
331,331,0,2046,3337
332,332,0,2046,2741
333,333,0,2046,2070
334,334,0,2046,1396
335,335,0,2047,791
336,336,0,2046,320
337,337,0,2047,33
338,338,0,2046,0
339,339,0,2046,113
340,340,0,2046,472
341,341,0,2046,999
342,342,0,2046,1637
343,343,0,2047,2318
344,344,0,2046,2970
345,345,0,2046,3521
346,346,0,2046,3913
347,347,0,2046,4095
348,348,0,2046,4072
349,349,0,2047,3822
350,350,0,2046,3381
351,351,0,2046,2794
352,352,0,2046,2128
353,353,0,2046,1451
354,354,0,2046,838
355,355,0,2046,354
356,356,0,2046,50
357,357,0,2046,0
358,358,0,2047,92
359,359,0,2047,435
360,360,0,2046,949
361,361,0,2046,1580
362,362,0,2046,2262
363,363,0,2047,2918
364,364,0,2046,3480
365,365,0,2047,3888
366,366,0,2047,4095
367,367,0,2047,4083
368,368,0,2046,3851
369,369,0,2046,3424
370,370,0,2047,2848
371,371,0,2046,2185
372,372,0,2047,1507
373,373,0,2046,886
374,374,0,2046,388
375,375,0,2047,68
376,376,0,2047,0
377,377,0,2046,73
378,378,0,2046,399
379,379,0,2046,901
380,380,0,2047,1525
381,381,0,2047,2204
382,382,0,2046,2866
383,383,0,2046,3438
384,384,0,2047,3860
385,385,0,2047,4087
386,386,0,2047,4093
387,387,0,2046,3879
388,388,0,2047,3467
389,389,0,2046,2901
390,390,0,2046,2243
391,391,0,2046,1562
392,392,0,2047,933
393,393,0,2046,423
394,394,0,2046,87
395,395,0,2046,0
396,396,0,2046,55
397,397,0,2046,364
398,398,0,2046,853
399,399,0,2046,1470
400,400,0,2046,2146
401,401,0,2046,2812
402,402,0,2047,3395
403,403,0,2046,3832
404,404,0,2046,4076
405,405,0,2047,4095
406,406,0,2047,3906
407,407,0,2047,3508
408,408,0,2047,2953
409,409,0,2046,2300
410,410,0,2047,1619
411,411,0,2046,983
412,412,0,2046,460
413,413,0,2046,108
414,414,0,2046,0
415,415,0,2046,39
416,416,0,2046,331
417,417,0,2046,806
418,418,0,2047,1414
419,419,0,2046,2089
420,420,0,2046,2759
421,421,0,2047,3351
422,422,0,2047,3802
423,423,0,2046,4064
424,424,0,2047,4095
425,425,0,2046,3930
426,426,0,2047,3548
427,427,0,2046,3004
428,428,0,2046,2357
429,429,0,2046,1675
430,430,0,2046,1033
431,431,0,2047,498
432,432,0,2046,129
433,433,0,2046,0
434,434,0,2046,23
435,435,0,2046,298
436,436,0,2046,760
437,437,0,2047,1360
438,438,0,2047,2032
439,439,0,2046,2705
440,440,0,2047,3306
441,441,0,2046,3771
442,442,0,2046,4050
443,443,0,2046,4095
444,444,0,2046,3953
445,445,0,2046,3587
446,446,0,2046,3054
447,447,0,2046,2414
448,448,0,2047,1732
449,449,0,2047,1083
450,450,0,2046,537
451,451,0,2046,152
452,452,0,2046,0
453,453,0,2046,10
454,454,0,2047,268
455,455,0,2047,715
456,456,0,2047,1306
457,457,0,2047,1974
458,458,0,2046,2650
459,459,0,2046,3260
460,460,0,2046,3739
461,461,0,2046,4035
462,462,0,2046,4095
463,463,0,2047,3975
464,464,0,2047,3625
465,465,0,2047,3105
466,466,0,2046,2470
467,467,0,2046,1789
468,468,0,2047,1135
469,469,0,2047,578
470,470,0,2047,177
471,471,0,2047,0
472,472,0,2046,0
473,473,0,2046,238
474,474,0,2046,672
475,475,0,2046,1252
476,476,0,2046,1917
477,477,0,2046,2595
478,478,0,2047,3212
479,479,0,2046,3705
480,480,0,2046,4017
481,481,0,2047,4095
482,482,0,2046,3995
483,483,0,2047,3662
484,484,0,2046,3153
485,485,0,2047,2526
486,486,0,2046,1846
487,487,0,2046,1187
488,488,0,2047,619
489,489,0,2047,204
490,490,0,2046,0
491,491,0,2047,0
492,492,0,2047,209
493,493,0,2047,629
494,494,0,2046,1199
495,495,0,2046,1859
496,496,0,2046,2539
497,497,0,2047,3165
498,498,0,2047,3670
499,499,0,2046,3999
500,500,0,2046,4095
501,501,0,2046,4013
502,502,0,2046,3697
503,503,0,2046,3202
504,504,0,2047,2582
505,505,0,2047,1903
506,506,0,2046,1240
507,507,0,2047,663
508,508,0,2046,232
509,509,0,2047,0
510,510,0,2046,0
511,511,0,2046,183
512,512,0,2046,587
513,513,0,2046,1147
514,514,0,2046,1802
515,515,0,2047,2483
516,516,0,2046,3116
517,517,0,2046,3634
518,518,0,2046,3979
519,519,0,2047,4095
520,520,0,2046,4032
521,521,0,2046,3731
522,522,0,2046,3249
523,523,0,2046,2637
524,524,0,2046,1961
525,525,0,2046,1294
526,526,0,2046,706
527,527,0,2046,262
528,528,0,2047,7
529,529,0,2046,0
530,530,0,2047,159
531,531,0,2047,546
532,532,0,2046,1095
533,533,0,2046,1744
534,534,0,2046,2426
535,535,0,2047,3066
536,536,0,2046,3596
537,537,0,2047,3958
538,538,0,2047,4095
539,539,0,2046,4047
540,540,0,2046,3763
541,541,0,2046,3296
542,542,0,2046,2692
543,543,0,2046,2018
544,544,0,2046,1348
545,545,0,2047,750
546,546,0,2046,292
547,547,0,2046,20
548,548,0,2047,0
549,549,0,2047,134
550,550,0,2046,508
551,551,0,2047,1044
552,552,0,2046,1689
553,553,0,2046,2370
554,554,0,2046,3016
555,555,0,2047,3557
556,556,0,2046,3935
557,557,0,2046,4095
558,558,0,2047,4061
559,559,0,2047,3796
560,560,0,2047,3341
561,561,0,2046,2746
562,562,0,2046,2076
563,563,0,2046,1402
564,564,0,2046,796
565,565,0,2046,324
566,566,0,2046,35
567,567,0,2046,0
568,568,0,2046,111
569,569,0,2046,468
570,570,0,2047,994
571,571,0,2047,1631
572,572,0,2046,2313
573,573,0,2047,2965
574,574,0,2046,3517
575,575,0,2046,3912
576,576,0,2047,4095
577,577,0,2046,4074
578,578,0,2047,3825
579,579,0,2046,3385
580,580,0,2046,2800
581,581,0,2046,2134
582,582,0,2047,1457
583,583,0,2046,843
584,584,0,2046,356
585,585,0,2047,52
586,586,0,2046,0
587,587,0,2047,90
588,588,0,2046,431
589,589,0,2046,945
590,590,0,2046,1575
591,591,0,2046,2256
592,592,0,2046,2913
593,593,0,2046,3476
594,594,0,2047,3886
595,595,0,2046,4095
596,596,0,2047,4085
597,597,0,2047,3854
598,598,0,2046,3428
599,599,0,2047,2853
600,600,0,2046,2191
601,601,0,2046,1512
602,602,0,2046,890
603,603,0,2046,391
604,604,0,2047,70
605,605,0,2046,0
606,606,0,2046,71
607,607,0,2047,396
608,608,0,2047,896
609,609,0,2047,1520
610,610,0,2047,2199
611,611,0,2046,2861
612,612,0,2046,3434
613,613,0,2047,3858
614,614,0,2046,4086
615,615,0,2046,4094
616,616,0,2046,3882
617,617,0,2046,3470
618,618,0,2046,2906
619,619,0,2047,2249
620,620,0,2046,1569
621,621,0,2047,938
622,622,0,2046,426
623,623,0,2047,89
624,624,0,2046,0
625,625,0,2046,53
626,626,0,2046,361
627,627,0,2047,849
628,628,0,2046,1463
629,629,0,2047,2141
630,630,0,2047,2807
631,631,0,2047,3391
632,632,0,2046,3829
633,633,0,2047,4075
634,634,0,2046,4095
635,635,0,2046,3907
636,636,0,2046,3511
637,637,0,2046,2958
638,638,0,2046,2306
639,639,0,2046,1624
640,640,0,2046,988
641,641,0,2047,464
642,642,0,2047,110
643,643,0,2046,0
644,644,0,2046,37
645,645,0,2047,327
646,646,0,2047,801
647,647,0,2046,1409
648,648,0,2047,2084
649,649,0,2047,2753
650,650,0,2046,3347
651,651,0,2047,3799
652,652,0,2046,4063
653,653,0,2047,4095
654,654,0,2046,3933
655,655,0,2046,3552
656,656,0,2047,3009
657,657,0,2047,2363
658,658,0,2047,1682
659,659,0,2046,1038
660,660,0,2047,502
661,661,0,2047,131
662,662,0,2046,0
663,663,0,2047,22
664,664,0,2047,295
665,665,0,2046,756
666,666,0,2046,1354
667,667,0,2046,2026
668,668,0,2046,2700
669,669,0,2046,3301
670,670,0,2046,3768
671,671,0,2046,4048
672,672,0,2046,4095
673,673,0,2047,3955
674,674,0,2047,3590
675,675,0,2046,3059
676,676,0,2046,2419
677,677,0,2046,1738
678,678,0,2047,1089
679,679,0,2047,542
680,680,0,2046,155
681,681,0,2046,0
682,682,0,2047,9
683,683,0,2046,264
684,684,0,2047,711
685,685,0,2046,1301
686,686,0,2047,1968
687,687,0,2047,2644
688,688,0,2047,3255
689,689,0,2046,3735
690,690,0,2045,4033
691,691,0,2046,4095
692,692,0,2046,3977
693,693,0,2047,3629
694,694,0,2046,3109
695,695,0,2046,2476
696,696,0,2047,1795
697,697,0,2046,1140
698,698,0,2046,581
699,699,0,2047,180
700,700,0,2046,0
701,701,0,2047,0
702,702,0,2046,236
703,703,0,2046,667
704,704,0,2046,1248
705,705,0,2046,1911
706,706,0,2046,2590
707,707,0,2046,3208
708,708,0,2046,3701
709,709,0,2047,4016
710,710,0,2045,4095
711,711,0,2046,3997
712,712,0,2046,3665
713,713,0,2047,3158
714,714,0,2046,2531
715,715,0,2047,1852
716,716,0,2046,1192
717,717,0,2047,624
718,718,0,2047,207
719,719,0,2046,0
720,720,0,2046,0
721,721,0,2046,208
722,722,0,2046,625
723,723,0,2047,1194
724,724,0,2047,1854
725,725,0,2047,2533
726,726,0,2046,3160
727,727,0,2047,3666
728,728,0,2046,3997
729,729,0,2047,4095
730,730,0,2047,4015
731,731,0,2046,3700
732,732,0,2046,3206
733,733,0,2046,2588
734,734,0,2047,1910
735,735,0,2046,1245
736,736,0,2046,666
737,737,0,2046,236
738,738,0,2046,0
739,739,0,2047,0
740,740,0,2047,181
741,741,0,2046,583
742,742,0,2046,1142
743,743,0,2046,1796
744,744,0,2047,2477
745,745,0,2046,3111
746,746,0,2047,3629
747,747,0,2047,3977
748,748,0,2047,4095
749,749,0,2047,4033
750,750,0,2046,3734
751,751,0,2046,3253
752,752,0,2046,2643
753,753,0,2047,1967
754,754,0,2047,1299
755,755,0,2046,710
756,756,0,2046,264
757,757,0,2047,8
758,758,0,2047,0
759,759,0,2047,155
760,760,0,2047,543
761,761,0,2046,1090
762,762,0,2046,1739
763,763,0,2046,2420
764,764,0,2046,3060
765,765,0,2046,3592
766,766,0,2047,3956
767,767,0,2047,4095
768,768,0,2046,4049
769,769,0,2046,3767
770,770,0,2046,3300
771,771,0,2047,2697
772,772,0,2046,2025
773,773,0,2047,1354
774,774,0,2047,755
775,775,0,2046,294
776,776,0,2046,21
777,777,0,2046,0
778,778,0,2047,131
779,779,0,2046,503
780,780,0,2046,1038
781,781,0,2047,1682
782,782,0,2046,2364
783,783,0,2047,3011
784,784,0,2046,3553
785,785,0,2046,3932
786,786,0,2046,4095
787,787,0,2046,4062
788,788,0,2047,3799
789,789,0,2046,3346
790,790,0,2046,2752
791,791,0,2046,2082
792,792,0,2046,1408
793,793,0,2046,801
794,794,0,2046,327
795,795,0,2046,37
796,796,0,2046,0
797,797,0,2046,110
798,798,0,2046,465
799,799,0,2046,989
800,800,0,2046,1626
801,801,0,2046,2308
802,802,0,2046,2959
803,803,0,2046,3513
804,804,0,2046,3908
805,805,0,2046,4095
806,806,0,2046,4075
807,807,0,2047,3829
808,808,0,2046,3390
809,809,0,2046,2805
810,810,0,2046,2139
811,811,0,2046,1463
812,812,0,2047,847
813,813,0,2046,361
814,814,0,2046,53
815,815,0,2047,0
816,816,0,2047,88
817,817,0,2046,427
818,818,0,2046,940
819,819,0,2047,1570
820,820,0,2046,2250
821,821,0,2046,2908
822,822,0,2046,3471
823,823,0,2046,3883
824,824,0,2047,4094
825,825,0,2046,4086
826,826,0,2046,3857
827,827,0,2046,3432
828,828,0,2046,2859
829,829,0,2047,2197
830,830,0,2046,1519
831,831,0,2046,896
832,832,0,2046,395
833,833,0,2046,72
834,834,0,2046,0
835,835,0,2047,70
836,836,0,2046,392
837,837,0,2046,891
838,838,0,2047,1514
839,839,0,2046,2193
840,840,0,2046,2855
841,841,0,2046,3429
842,842,0,2045,3855
843,843,0,2046,4085
844,844,0,2046,4095
845,845,0,2046,3884
846,846,0,2047,3475
847,847,0,2046,2912
848,848,0,2046,2255
849,849,0,2046,1574
850,850,0,2046,944
851,851,0,2046,431
852,852,0,2046,90
853,853,0,2046,0
854,854,0,2047,51
855,855,0,2046,358
856,856,0,2046,843
857,857,0,2047,1457
858,858,0,2046,2135
859,859,0,2046,2802
860,860,0,2046,3387
861,861,0,2047,3825
862,862,0,2047,4074
863,863,0,2046,4095
864,864,0,2047,3910
865,865,0,2047,3515
866,866,0,2046,2963
867,867,0,2046,2312
868,868,0,2047,1630
869,869,0,2046,994
870,870,0,2046,468
871,871,0,2047,112
872,872,0,2047,0
873,873,0,2047,35
874,874,0,2047,324
875,875,0,2047,797
876,876,0,2046,1403
877,877,0,2046,2078
878,878,0,2046,2748
879,879,0,2046,3342
880,880,0,2047,3796
881,881,0,2046,4061
882,882,0,2046,4095
883,883,0,2046,3935
884,884,0,2046,3556
885,885,0,2046,3014
886,886,0,2046,2369
887,887,0,2046,1687
888,888,0,2047,1043
889,889,0,2047,506
890,890,0,2046,134
891,891,0,2047,0
892,892,0,2047,21
893,893,0,2046,292
894,894,0,2047,751
895,895,0,2047,1349
896,896,0,2046,2020
897,897,0,2046,2693
898,898,0,2046,3297
899,899,0,2046,3765
900,900,0,2046,4046
901,901,0,2046,4095
902,902,0,2046,3957
903,903,0,2046,3595
904,904,0,2046,3065
905,905,0,2047,2425
906,906,0,2047,1744
907,907,0,2046,1094
908,908,0,2046,546
909,909,0,2046,158
910,910,0,2046,0
911,911,0,2046,8
912,912,0,2046,261
913,913,0,2046,707
914,914,0,2046,1295
915,915,0,2046,1963
916,916,0,2046,2639
917,917,0,2046,3250
918,918,0,2047,3732
919,919,0,2047,4031
920,920,0,2046,4095
921,921,0,2046,3979
922,922,0,2046,3632
923,923,0,2046,3115
924,924,0,2047,2482
925,925,0,2046,1801
926,926,0,2046,1145
927,927,0,2046,586
928,928,0,2046,183
929,929,0,2047,0
930,930,0,2046,0
931,931,0,2046,232
932,932,0,2047,663
933,933,0,2047,1241
934,934,0,2047,1905
935,935,0,2046,2583
936,936,0,2047,3203
937,937,0,2046,3697
938,938,0,2046,4014
939,939,0,2046,4095
940,940,0,2046,3999
941,941,0,2046,3668
942,942,0,2046,3163
943,943,0,2046,2538
944,944,0,2046,1858
945,945,0,2046,1198
946,946,0,2046,628
947,947,0,2046,209
948,948,0,2046,0
949,949,0,2047,0
950,950,0,2046,204
951,951,0,2047,620
952,952,0,2047,1189
953,953,0,2046,1848
954,954,0,2046,2527
955,955,0,2047,3155
956,956,0,2047,3663
957,957,0,2046,3995
958,958,0,2046,4095
959,959,0,2047,4017
960,960,0,2047,3704
961,961,0,2047,3212
962,962,0,2046,2593
963,963,0,2046,1915
964,964,0,2046,1251
965,965,0,2046,671
966,966,0,2046,239
967,967,0,2046,0
968,968,0,2046,0
969,969,0,2046,178
970,970,0,2046,579
971,971,0,2046,1136
972,972,0,2046,1790
973,973,0,2046,2471
974,974,0,2046,3106
975,975,0,2046,3626
976,976,0,2046,3976
977,977,0,2046,4095
978,978,0,2046,4035
979,979,0,2046,3738
980,980,0,2047,3258
981,981,0,2046,2649
982,982,0,2046,1972
983,983,0,2046,1305
984,984,0,2046,715
985,985,0,2046,268
986,986,0,2047,10
987,987,0,2047,0
988,988,0,2046,153
989,989,0,2047,538
990,990,0,2046,1084
991,991,0,2046,1733
992,992,0,2047,2415
993,993,0,2047,3056
994,994,0,2047,3588
995,995,0,2047,3953
996,996,0,2046,4095
997,997,0,2046,4050
998,998,0,2047,3770
999,999,0,2046,3304
1000,1000,0,2046,2703
1001,1001,0,2047,2031
1002,1002,0,2046,1358
1003,1003,0,2047,760
1004,1004,0,2045,298
1005,1005,0,2046,23
1006,1006,0,2047,0
1007,1007,0,2046,130
1008,1008,0,2047,499
1009,1009,0,2046,1033
1010,1010,0,2046,1676
1011,1011,0,2046,2358
1012,1012,0,2046,3005
1013,1013,0,2046,3550
1014,1014,0,2046,3930
1015,1015,0,2047,4095
1016,1016,0,2046,4064
1017,1017,0,2046,3802
1018,1018,0,2046,3350
1019,1019,0,2046,2758
1020,1020,0,2046,2088
1021,1021,0,2046,1413
1022,1022,0,2047,806
1023,1023,0,2046,331
1024,1024,0,2046,38
1025,1025,0,2046,0
1026,1026,0,2046,108
1027,1027,0,2047,461
1028,1028,0,2046,984
1029,1029,0,2046,1620
