Sample in Buffer,Sample in Window,TRIGGER,adc1_data_a_d0[11:0],adc1_data_b_d0[11:0]
0,0,0,2046,3475
1,1,0,2047,3715
2,2,0,2046,3903
3,3,0,2047,4033
4,4,0,2046,4095
5,5,0,2046,4095
6,6,0,2047,4046
7,7,0,2046,3926
8,8,0,2046,3747
9,9,0,2046,3515
10,10,0,2047,3238
11,11,0,2047,2924
12,12,0,2047,2582
13,13,0,2047,2224
14,14,0,2046,1860
15,15,0,2047,1503
16,16,0,2046,1161
17,17,0,2046,846
18,18,0,2046,567
19,19,0,2046,334
20,20,0,2046,154
21,21,0,2047,32
22,22,0,2046,0
23,23,0,2046,0
24,24,0,2046,42
25,25,0,2047,171
26,26,0,2047,357
27,27,0,2046,596
28,28,0,2046,879
29,29,0,2047,1198
30,30,0,2047,1544
31,31,0,2046,1903
32,32,0,2047,2268
33,33,0,2046,2626
34,34,0,2046,2965
35,35,0,2046,3276
36,36,0,2047,3549
37,37,0,2047,3774
38,38,0,2047,3946
39,39,0,2047,4059
40,40,0,2046,4095
41,41,0,2047,4095
42,42,0,2046,4019
43,43,0,2046,3880
44,44,0,2046,3685
45,45,0,2047,3440
46,46,0,2046,3151
47,47,0,2047,2828
48,48,0,2046,2481
49,49,0,2047,2120
50,50,0,2047,1757
51,51,0,2047,1403
52,52,0,2047,1067
53,53,0,2046,762
54,54,0,2046,496
55,55,0,2047,277
56,56,0,2046,113
57,57,0,2046,9
58,58,0,2046,0
59,59,0,2046,0
60,60,0,2046,73
61,61,0,2047,219
62,62,0,2046,420
63,63,0,2046,673
64,64,0,2047,968
65,65,0,2047,1295
66,66,0,2047,1645
67,67,0,2047,2009
68,68,0,2046,2372
69,69,0,2047,2725
70,70,0,2047,3058
71,71,0,2047,3359
72,72,0,2046,3618
73,73,0,2047,3830
74,74,0,2047,3985
75,75,0,2046,4080
76,76,0,2047,4095
77,77,0,2047,4079
78,78,0,2047,3985
79,79,0,2046,3830
80,80,0,2046,3620
81,81,0,2047,3362
82,82,0,2046,3062
83,83,0,2047,2731
84,84,0,2046,2379
85,85,0,2046,2016
86,86,0,2047,1654
87,87,0,2046,1305
88,88,0,2046,976
89,89,0,2046,681
90,90,0,2047,428
91,91,0,2046,224
92,92,0,2046,77
93,93,0,2047,0
94,94,0,2046,0
95,95,0,2046,6
96,96,0,2047,108
97,97,0,2046,271
98,98,0,2046,488
99,99,0,2047,752
100,100,0,2047,1058
101,101,0,2047,1393
102,102,0,2046,1749
103,103,0,2047,2113
104,104,0,2047,2475
105,105,0,2047,2823
106,106,0,2047,3147
107,107,0,2047,3437
108,108,0,2046,3684
109,109,0,2048,3878
110,110,0,2046,4018
111,111,0,2047,4095
112,112,0,2047,4095
113,113,0,2047,4059
114,114,0,2047,3947
115,115,0,2047,3775
116,116,0,2046,3551
117,117,0,2047,3280
118,118,0,2046,2970
119,119,0,2046,2631
120,120,0,2047,2276
121,121,0,2047,1912
122,122,0,2046,1552
123,123,0,2046,1208
124,124,0,2047,889
125,125,0,2046,605
126,126,0,2047,364
127,127,0,2047,177
128,128,0,2046,46
129,129,0,2047,0
130,130,0,2047,0
131,131,0,2047,28
132,132,0,2046,149
133,133,0,2047,328
134,134,0,2046,559
135,135,0,2046,836
136,136,0,2047,1151
137,137,0,2047,1493
138,138,0,2046,1852
139,139,0,2046,2216
140,140,0,2046,2576
141,141,0,2046,2918
142,142,0,2046,3234
143,143,0,2047,3512
144,144,0,2046,3744
145,145,0,2046,3925
146,146,0,2046,4046
147,147,0,2046,4095
148,148,0,2046,4095
149,149,0,2047,4034
150,150,0,2047,3904
151,151,0,2047,3717
152,152,0,2047,3478
153,153,0,2047,3195
154,154,0,2046,2876
155,155,0,2047,2532
156,156,0,2047,2173
157,157,0,2047,1808
158,158,0,2047,1453
159,159,0,2047,1114
160,160,0,2046,803
161,161,0,2046,531
162,162,0,2046,306
163,163,0,2047,133
164,164,0,2046,20
165,165,0,2047,0
166,166,0,2046,0
167,167,0,2047,57
168,168,0,2046,194
169,169,0,2047,389
170,170,0,2046,634
171,171,0,2047,924
172,172,0,2046,1247
173,173,0,2046,1595
174,174,0,2047,1956
175,175,0,2046,2321
176,176,0,2047,2676
177,177,0,2047,3012
178,178,0,2046,3318
179,179,0,2047,3584
180,180,0,2046,3802
181,181,0,2046,3966
182,182,0,2046,4069
183,183,0,2047,4095
184,184,0,2046,4089
185,185,0,2046,4003
186,186,0,2046,3856
187,187,0,2046,3654
188,188,0,2047,3401
189,189,0,2047,3107
190,190,0,2047,2780
191,191,0,2047,2430
192,192,0,2047,2068
193,193,0,2047,1706
194,194,0,2046,1353
195,195,0,2046,1022
196,196,0,2047,721
197,197,0,2046,462
198,198,0,2046,251
199,199,0,2047,95
200,200,0,2047,0
201,201,0,2046,0
202,202,0,2046,0
203,203,0,2046,89
204,204,0,2047,244
205,205,0,2047,453
206,206,0,2046,713
207,207,0,2046,1012
208,208,0,2047,1343
209,209,0,2047,1696
210,210,0,2046,2061
211,211,0,2046,2423
212,212,0,2047,2774
213,213,0,2047,3103
214,214,0,2046,3398
215,215,0,2047,3651
216,216,0,2047,3855
217,217,0,2047,4002
218,218,0,2046,4089
219,219,0,2046,4095
220,220,0,2047,4071
221,221,0,2046,3967
222,222,0,2046,3803
223,223,0,2047,3587
224,224,0,2046,3321
225,225,0,2046,3016
226,226,0,2046,2682
227,227,0,2046,2327
228,228,0,2046,1964
229,229,0,2047,1604
230,230,0,2046,1255
231,231,0,2047,932
232,232,0,2047,642
233,233,0,2047,396
234,234,0,2047,199
235,235,0,2046,60
236,236,0,2047,0
237,237,0,2047,0
238,238,0,2047,16
239,239,0,2047,128
240,240,0,2046,299
241,241,0,2047,523
242,242,0,2047,794
243,243,0,2046,1104
244,244,0,2046,1443
245,245,0,2047,1800
246,246,0,2047,2165
247,247,0,2046,2526
248,248,0,2047,2871
249,249,0,2047,3191
250,250,0,2047,3474
251,251,0,2047,3715
252,252,0,2046,3902
253,253,0,2046,4032
254,254,0,2046,4095
255,255,0,2047,4095
256,256,0,2047,4047
257,257,0,2046,3926
258,258,0,2046,3747
259,259,0,2046,3515
260,260,0,2046,3238
261,261,0,2046,2924
262,262,0,2047,2582
263,263,0,2047,2224
264,264,0,2047,1861
265,265,0,2047,1502
266,266,0,2047,1160
267,267,0,2047,845
268,268,0,2047,567
269,269,0,2047,334
270,270,0,2046,154
271,271,0,2047,31
272,272,0,2047,0
273,273,0,2047,0
274,274,0,2047,42
275,275,0,2046,170
276,276,0,2047,357
277,277,0,2046,597
278,278,0,2046,879
279,279,0,2046,1199
280,280,0,2047,1545
281,281,0,2046,1904
282,282,0,2047,2268
283,283,0,2046,2626
284,284,0,2046,2965
285,285,0,2047,3276
286,286,0,2046,3548
287,287,0,2047,3774
288,288,0,2047,3946
289,289,0,2046,4058
290,290,0,2047,4095
291,291,0,2046,4095
292,292,0,2047,4018
293,293,0,2046,3880
294,294,0,2047,3686
295,295,0,2047,3440
296,296,0,2046,3151
297,297,0,2047,2828
298,298,0,2046,2482
299,299,0,2046,2121
300,300,0,2046,1756
301,301,0,2047,1402
302,302,0,2047,1067
303,303,0,2047,762
304,304,0,2047,496
305,305,0,2046,278
306,306,0,2046,113
307,307,0,2046,8
308,308,0,2046,0
309,309,0,2046,0
310,310,0,2047,73
311,311,0,2047,218
312,312,0,2047,421
313,313,0,2046,673
314,314,0,2046,967
315,315,0,2046,1295
316,316,0,2046,1646
317,317,0,2047,2009
318,318,0,2046,2371
319,319,0,2047,2726
320,320,0,2046,3058
321,321,0,2047,3358
322,322,0,2047,3619
323,323,0,2046,3829
324,324,0,2046,3984
325,325,0,2047,4080
326,326,0,2047,4095
327,327,0,2046,4081
328,328,0,2047,3985
329,329,0,2046,3830
330,330,0,2047,3621
331,331,0,2047,3362
332,332,0,2047,3062
333,333,0,2046,2731
334,334,0,2047,2379
335,335,0,2047,2017
336,336,0,2047,1655
337,337,0,2046,1304
338,338,0,2047,977
339,339,0,2047,682
340,340,0,2046,428
341,341,0,2046,225
342,342,0,2047,77
343,343,0,2047,0
344,344,0,2046,0
345,345,0,2047,6
346,346,0,2047,109
347,347,0,2047,271
348,348,0,2046,487
349,349,0,2046,753
350,350,0,2047,1058
351,351,0,2047,1393
352,352,0,2046,1749
353,353,0,2047,2113
354,354,0,2046,2475
355,355,0,2046,2823
356,356,0,2046,3147
357,357,0,2047,3437
358,358,0,2047,3683
359,359,0,2047,3879
360,360,0,2046,4018
361,361,0,2047,4095
362,362,0,2046,4095
363,363,0,2047,4059
364,364,0,2047,3947
365,365,0,2046,3775
366,366,0,2047,3551
367,367,0,2046,3280
368,368,0,2046,2971
369,369,0,2046,2633
370,370,0,2046,2276
371,371,0,2047,1913
372,372,0,2046,1553
373,373,0,2046,1208
374,374,0,2046,889
375,375,0,2046,604
376,376,0,2047,364
377,377,0,2047,177
378,378,0,2046,46
379,379,0,2046,0
380,380,0,2046,0
381,381,0,2047,29
382,382,0,2047,148
383,383,0,2047,328
384,384,0,2047,559
385,385,0,2046,836
386,386,0,2047,1151
387,387,0,2046,1493
388,388,0,2046,1852
389,389,0,2046,2217
390,390,0,2046,2576
391,391,0,2046,2919
392,392,0,2047,3234
393,393,0,2047,3511
394,394,0,2046,3745
395,395,0,2046,3925
396,396,0,2046,4046
397,397,0,2047,4095
398,398,0,2046,4095
399,399,0,2047,4033
400,400,0,2046,3903
401,401,0,2046,3717
402,402,0,2046,3478
403,403,0,2046,3195
404,404,0,2047,2876
405,405,0,2047,2532
406,406,0,2046,2173
407,407,0,2046,1809
408,408,0,2047,1453
409,409,0,2047,1114
410,410,0,2047,804
411,411,0,2047,532
412,412,0,2047,306
413,413,0,2046,133
414,414,0,2047,19
415,415,0,2047,0
416,416,0,2047,0
417,417,0,2046,57
418,418,0,2046,194
419,419,0,2046,388
420,420,0,2046,633
421,421,0,2047,923
422,422,0,2046,1246
423,423,0,2047,1594
424,424,0,2046,1956
425,425,0,2047,2321
426,426,0,2047,2676
427,427,0,2047,3011
428,428,0,2047,3317
429,429,0,2046,3583
430,430,0,2046,3802
431,431,0,2047,3965
432,432,0,2047,4069
433,433,0,2047,4095
434,434,0,2047,4088
435,435,0,2047,4002
436,436,0,2047,3856
437,437,0,2046,3653
438,438,0,2046,3402
439,439,0,2047,3107
440,440,0,2046,2780
441,441,0,2047,2430
442,442,0,2047,2069
443,443,0,2047,1706
444,444,0,2047,1354
445,445,0,2047,1022
446,446,0,2047,721
447,447,0,2047,462
448,448,0,2046,250
449,449,0,2046,94
450,450,0,2046,0
451,451,0,2046,0
452,452,0,2046,0
453,453,0,2047,90
454,454,0,2047,244
455,455,0,2047,453
456,456,0,2046,713
457,457,0,2047,1012
458,458,0,2046,1344
459,459,0,2047,1697
460,460,0,2046,2061
461,461,0,2047,2423
462,462,0,2047,2775
463,463,0,2046,3103
464,464,0,2046,3398
465,465,0,2046,3651
466,466,0,2046,3855
467,467,0,2047,4002
468,468,0,2047,4088
469,469,0,2047,4095
470,470,0,2046,4071
471,471,0,2046,3967
472,472,0,2046,3804
473,473,0,2046,3587
474,474,0,2047,3322
475,475,0,2046,3016
476,476,0,2047,2683
477,477,0,2046,2328
478,478,0,2047,1965
479,479,0,2047,1604
480,480,0,2046,1256
481,481,0,2047,932
482,482,0,2046,643
483,483,0,2047,396
484,484,0,2046,200
485,485,0,2046,60
486,486,0,2046,0
487,487,0,2046,0
488,488,0,2046,16
489,489,0,2046,128
490,490,0,2046,299
491,491,0,2046,523
492,492,0,2047,794
493,493,0,2046,1104
494,494,0,2046,1443
495,495,0,2047,1800
496,496,0,2046,2165
497,497,0,2046,2525
498,498,0,2046,2871
499,499,0,2046,3190
500,500,0,2046,3475
501,501,0,2046,3714
502,502,0,2046,3902
503,503,0,2047,4032
504,504,0,2046,4095
505,505,0,2047,4095
506,506,0,2046,4047
507,507,0,2047,3926
508,508,0,2047,3747
509,509,0,2046,3515
510,510,0,2047,3238
511,511,0,2047,2924
512,512,0,2047,2582
513,513,0,2047,2224
514,514,0,2047,1861
515,515,0,2046,1502
516,516,0,2046,1160
517,517,0,2046,846
518,518,0,2047,568
519,519,0,2046,334
520,520,0,2046,155
521,521,0,2047,32
522,522,0,2046,0
523,523,0,2047,0
524,524,0,2047,42
525,525,0,2047,170
526,526,0,2046,357
527,527,0,2047,596
528,528,0,2046,879
529,529,0,2047,1199
530,530,0,2047,1544
531,531,0,2047,1904
532,532,0,2046,2268
533,533,0,2046,2625
534,534,0,2046,2965
535,535,0,2047,3275
536,536,0,2047,3548
537,537,0,2047,3774
538,538,0,2046,3946
539,539,0,2047,4058
540,540,0,2047,4095
541,541,0,2047,4095
542,542,0,2047,4018
543,543,0,2046,3881
544,544,0,2047,3685
545,545,0,2047,3440
546,546,0,2046,3151
547,547,0,2047,2829
548,548,0,2047,2482
549,549,0,2047,2121
550,550,0,2047,1758
551,551,0,2047,1403
552,552,0,2046,1067
553,553,0,2047,762
554,554,0,2046,496
555,555,0,2047,278
556,556,0,2047,113
557,557,0,2047,8
558,558,0,2047,0
559,559,0,2047,0
560,560,0,2046,72
561,561,0,2047,218
562,562,0,2047,421
563,563,0,2047,673
564,564,0,2046,967
565,565,0,2047,1295
566,566,0,2046,1646
567,567,0,2047,2008
568,568,0,2047,2372
569,569,0,2046,2725
570,570,0,2046,3057
571,571,0,2047,3358
572,572,0,2047,3618
573,573,0,2047,3828
574,574,0,2047,3984
575,575,0,2046,4079
576,576,0,2046,4095
577,577,0,2046,4080
578,578,0,2047,3985
579,579,0,2047,3830
580,580,0,2047,3620
581,581,0,2047,3362
582,582,0,2047,3063
583,583,0,2046,2732
584,584,0,2047,2380
585,585,0,2046,2016
586,586,0,2046,1654
587,587,0,2046,1305
588,588,0,2047,977
589,589,0,2047,682
590,590,0,2047,428
591,591,0,2047,225
592,592,0,2047,76
593,593,0,2047,0
594,594,0,2047,0
595,595,0,2046,5
596,596,0,2047,108
597,597,0,2047,271
598,598,0,2046,488
599,599,0,2046,752
600,600,0,2047,1057
601,601,0,2046,1393
602,602,0,2047,1748
603,603,0,2047,2113
604,604,0,2047,2474
605,605,0,2047,2823
606,606,0,2047,3147
607,607,0,2047,3436
608,608,0,2046,3683
609,609,0,2047,3879
610,610,0,2047,4017
611,611,0,2046,4095
612,612,0,2046,4095
613,613,0,2046,4059
614,614,0,2047,3947
615,615,0,2046,3776
616,616,0,2047,3551
617,617,0,2046,3281
618,618,0,2046,2971
619,619,0,2046,2633
620,620,0,2047,2276
621,621,0,2047,1913
622,622,0,2046,1553
623,623,0,2046,1208
624,624,0,2046,889
625,625,0,2046,605
626,626,0,2047,364
627,627,0,2047,177
628,628,0,2047,46
629,629,0,2047,0
630,630,0,2046,0
631,631,0,2047,29
632,632,0,2047,148
633,633,0,2047,328
634,634,0,2047,559
635,635,0,2047,836
636,636,0,2047,1151
637,637,0,2047,1493
638,638,0,2047,1851
639,639,0,2046,2216
640,640,0,2046,2576
641,641,0,2046,2918
642,642,0,2047,3234
643,643,0,2047,3512
644,644,0,2047,3745
645,645,0,2047,3925
646,646,0,2047,4046
647,647,0,2046,4095
648,648,0,2046,4095
649,649,0,2046,4034
650,650,0,2046,3904
651,651,0,2047,3718
652,652,0,2047,3478
653,653,0,2046,3195
654,654,0,2047,2877
655,655,0,2047,2533
656,656,0,2047,2173
657,657,0,2047,1809
658,658,0,2047,1453
659,659,0,2046,1114
660,660,0,2046,804
661,661,0,2047,531
662,662,0,2046,306
663,663,0,2046,133
664,664,0,2047,19
665,665,0,2046,0
666,666,0,2047,0
667,667,0,2046,57
668,668,0,2046,194
669,669,0,2046,388
670,670,0,2046,634
671,671,0,2046,922
672,672,0,2047,1246
673,673,0,2047,1594
674,674,0,2047,1956
675,675,0,2047,2320
676,676,0,2046,2676
677,677,0,2046,3010
678,678,0,2046,3317
679,679,0,2047,3583
680,680,0,2046,3802
681,681,0,2047,3966
682,682,0,2047,4069
683,683,0,2047,4095
684,684,0,2046,4089
685,685,0,2046,4002
686,686,0,2047,3856
687,687,0,2046,3653
688,688,0,2047,3402
689,689,0,2047,3107
690,690,0,2047,2780
691,691,0,2047,2430
692,692,0,2046,2068
693,693,0,2046,1706
694,694,0,2047,1354
695,695,0,2046,1022
696,696,0,2046,721
697,697,0,2046,462
698,698,0,2046,250
699,699,0,2046,94
700,700,0,2047,0
701,701,0,2046,0
702,702,0,2046,0
703,703,0,2047,90
704,704,0,2046,244
705,705,0,2047,453
706,706,0,2047,712
707,707,0,2046,1012
708,708,0,2046,1344
709,709,0,2047,1696
710,710,0,2047,2061
711,711,0,2047,2423
712,712,0,2047,2774
713,713,0,2046,3101
714,714,0,2046,3398
715,715,0,2047,3651
716,716,0,2046,3854
717,717,0,2046,4001
718,718,0,2047,4088
719,719,0,2046,4095
720,720,0,2047,4070
721,721,0,2046,3967
722,722,0,2046,3804
723,723,0,2046,3587
724,724,0,2046,3322
725,725,0,2046,3017
726,726,0,2047,2682
727,727,0,2047,2328
728,728,0,2047,1965
729,729,0,2046,1604
730,730,0,2047,1256
731,731,0,2046,933
732,732,0,2046,644
733,733,0,2047,397
734,734,0,2047,200
735,735,0,2047,61
736,736,0,2047,0
737,737,0,2046,0
738,738,0,2047,17
739,739,0,2047,128
740,740,0,2047,298
741,741,0,2047,523
742,742,0,2047,793
743,743,0,2046,1104
744,744,0,2046,1443
745,745,0,2047,1800
746,746,0,2046,2164
747,747,0,2047,2525
748,748,0,2046,2870
749,749,0,2046,3190
750,750,0,2047,3474
751,751,0,2046,3714
752,752,0,2047,3902
753,753,0,2046,4032
754,754,0,2047,4095
755,755,0,2046,4095
756,756,0,2047,4047
757,757,0,2046,3926
758,758,0,2047,3746
759,759,0,2046,3516
760,760,0,2047,3238
761,761,0,2047,2924
762,762,0,2046,2582
763,763,0,2046,2225
764,764,0,2047,1861
765,765,0,2047,1502
766,766,0,2047,1160
767,767,0,2047,847
768,768,0,2047,568
769,769,0,2047,335
770,770,0,2047,154
771,771,0,2047,32
772,772,0,2047,0
773,773,0,2047,0
774,774,0,2046,41
775,775,0,2047,170
776,776,0,2046,357
777,777,0,2046,595
778,778,0,2046,879
779,779,0,2047,1198
780,780,0,2047,1543
781,781,0,2047,1904
782,782,0,2047,2268
783,783,0,2047,2626
784,784,0,2046,2965
785,785,0,2047,3276
786,786,0,2046,3547
787,787,0,2046,3773
788,788,0,2047,3946
789,789,0,2047,4059
790,790,0,2047,4095
791,791,0,2046,4095
792,792,0,2047,4018
793,793,0,2047,3881
794,794,0,2046,3686
795,795,0,2046,3440
796,796,0,2046,3152
797,797,0,2046,2829
798,798,0,2047,2482
799,799,0,2046,2121
800,800,0,2047,1757
801,801,0,2047,1403
802,802,0,2046,1068
803,803,0,2046,763
804,804,0,2047,496
805,805,0,2046,278
806,806,0,2047,113
807,807,0,2047,8
808,808,0,2046,0
809,809,0,2046,0
810,810,0,2047,72
811,811,0,2046,218
812,812,0,2046,421
813,813,0,2047,673
814,814,0,2047,967
815,815,0,2046,1295
816,816,0,2047,1645
817,817,0,2046,2008
818,818,0,2046,2371
819,819,0,2046,2725
820,820,0,2046,3057
821,821,0,2047,3358
822,822,0,2046,3617
823,823,0,2046,3828
824,824,0,2046,3984
825,825,0,2047,4079
826,826,0,2047,4095
827,827,0,2047,4080
828,828,0,2047,3985
829,829,0,2047,3830
830,830,0,2047,3621
831,831,0,2047,3362
832,832,0,2046,3063
833,833,0,2046,2732
834,834,0,2046,2380
835,835,0,2046,2017
836,836,0,2046,1655
837,837,0,2047,1305
838,838,0,2046,977
839,839,0,2046,682
840,840,0,2046,428
841,841,0,2047,226
842,842,0,2047,77
843,843,0,2047,0
844,844,0,2047,0
845,845,0,2047,6
846,846,0,2046,107
847,847,0,2047,271
848,848,0,2047,488
849,849,0,2046,752
850,850,0,2047,1057
851,851,0,2047,1393
852,852,0,2046,1748
853,853,0,2046,2112
854,854,0,2046,2474
855,855,0,2046,2822
856,856,0,2046,3146
857,857,0,2047,3436
858,858,0,2046,3683
859,859,0,2047,3878
860,860,0,2046,4018
861,861,0,2046,4095
862,862,0,2046,4095
863,863,0,2046,4060
864,864,0,2046,3947
865,865,0,2046,3776
866,866,0,2046,3551
867,867,0,2046,3281
868,868,0,2047,2971
869,869,0,2047,2633
870,870,0,2047,2277
871,871,0,2046,1912
872,872,0,2047,1553
873,873,0,2046,1208
874,874,0,2047,889
875,875,0,2047,605
876,876,0,2047,365
877,877,0,2046,177
878,878,0,2046,46
879,879,0,2047,0
880,880,0,2046,0
881,881,0,2046,29
882,882,0,2046,149
883,883,0,2046,327
884,884,0,2047,559
885,885,0,2047,836
886,886,0,2047,1150
887,887,0,2047,1492
888,888,0,2046,1851
889,889,0,2047,2216
890,890,0,2046,2575
891,891,0,2046,2918
892,892,0,2046,3233
893,893,0,2047,3511
894,894,0,2046,3744
895,895,0,2047,3925
896,896,0,2047,4046
897,897,0,2047,4095
898,898,0,2047,4095
899,899,0,2047,4033
900,900,0,2046,3904
901,901,0,2046,3717
902,902,0,2047,3478
903,903,0,2047,3195
904,904,0,2046,2877
905,905,0,2046,2533
906,906,0,2047,2173
907,907,0,2047,1808
908,908,0,2047,1453
909,909,0,2047,1114
910,910,0,2047,804
911,911,0,2047,532
912,912,0,2046,306
913,913,0,2047,133
914,914,0,2047,20
915,915,0,2046,0
916,916,0,2047,0
917,917,0,2046,56
918,918,0,2047,193
919,919,0,2047,389
920,920,0,2046,634
921,921,0,2047,922
922,922,0,2047,1245
923,923,0,2046,1593
924,924,0,2047,1955
925,925,0,2046,2320
926,926,0,2047,2675
927,927,0,2046,3011
928,928,0,2047,3317
929,929,0,2047,3582
930,930,0,2047,3801
931,931,0,2047,3966
932,932,0,2046,4069
933,933,0,2047,4095
934,934,0,2047,4089
935,935,0,2046,4002
936,936,0,2046,3856
937,937,0,2046,3654
938,938,0,2046,3402
939,939,0,2046,3108
940,940,0,2046,2781
941,941,0,2046,2432
942,942,0,2046,2069
943,943,0,2047,1706
944,944,0,2046,1354
945,945,0,2046,1022
946,946,0,2046,722
947,947,0,2046,462
948,948,0,2047,251
949,949,0,2047,94
950,950,0,2046,0
951,951,0,2046,0
952,952,0,2046,0
953,953,0,2046,90
954,954,0,2047,244
955,955,0,2047,453
956,956,0,2047,712
957,957,0,2047,1011
958,958,0,2046,1343
959,959,0,2047,1696
960,960,0,2047,2060
961,961,0,2047,2423
962,962,0,2047,2774
963,963,0,2047,3102
964,964,0,2047,3398
965,965,0,2047,3650
966,966,0,2047,3854
967,967,0,2046,4001
968,968,0,2047,4088
969,969,0,2047,4095
970,970,0,2046,4070
971,971,0,2047,3967
972,972,0,2046,3804
973,973,0,2046,3587
974,974,0,2047,3322
975,975,0,2046,3017
976,976,0,2046,2683
977,977,0,2047,2327
978,978,0,2046,1966
979,979,0,2047,1604
980,980,0,2047,1256
981,981,0,2047,933
982,982,0,2046,643
983,983,0,2046,397
984,984,0,2047,200
985,985,0,2046,61
986,986,0,2046,0
987,987,0,2046,0
988,988,0,2046,17
989,989,0,2047,127
990,990,0,2046,298
991,991,0,2046,523
992,992,0,2046,794
993,993,0,2046,1103
994,994,0,2047,1443
995,995,0,2046,1800
996,996,0,2047,2164
997,997,0,2046,2524
998,998,0,2046,2870
999,999,0,2047,3190
1000,1000,0,2047,3474
1001,1001,0,2047,3714
1002,1002,0,2046,3902
1003,1003,0,2047,4032
1004,1004,0,2046,4095
1005,1005,0,2046,4095
1006,1006,0,2047,4047
1007,1007,0,2047,3927
1008,1008,0,2046,3748
1009,1009,0,2046,3515
1010,1010,0,2046,3238
1011,1011,0,2047,2924
1012,1012,0,2046,2583
1013,1013,0,2046,2225
1014,1014,0,2047,1861
1015,1015,0,2046,1503
1016,1016,0,2047,1161
1017,1017,0,2046,846
1018,1018,0,2046,568
1019,1019,0,2046,335
1020,1020,0,2047,154
1021,1021,0,2046,32
1022,1022,0,2047,0
1023,1023,0,2046,0
1024,1024,0,2046,42
1025,1025,0,2047,170
1026,1026,0,2047,357
1027,1027,0,2047,596
1028,1028,0,2046,879
1029,1029,0,2047,1198
