Sample in Buffer,Sample in Window,TRIGGER,adc1_data_a_d0[11:0],adc1_data_b_d0[11:0]
0,0,0,2046,1638
1,1,0,2046,1282
2,2,0,2046,949
3,3,0,2046,652
4,4,0,2046,399
5,5,0,2046,197
6,6,0,2047,54
7,7,0,2046,0
8,8,0,2047,0
9,9,0,2046,15
10,10,0,2046,133
11,11,0,2047,311
12,12,0,2046,545
13,13,0,2047,827
14,14,0,2046,1147
15,15,0,2047,1496
16,16,0,2047,1862
17,17,0,2046,2234
18,18,0,2046,2600
19,19,0,2046,2947
20,20,0,2046,3266
21,21,0,2046,3545
22,22,0,2047,3777
23,23,0,2047,3953
24,24,0,2047,4067
25,25,0,2047,4095
26,26,0,2046,4095
27,27,0,2047,4017
28,28,0,2046,3871
29,29,0,2047,3666
30,30,0,2046,3410
31,31,0,2047,3110
32,32,0,2046,2775
33,33,0,2046,2418
34,34,0,2047,2049
35,35,0,2047,1679
36,36,0,2047,1321
37,37,0,2046,986
38,38,0,2047,683
39,39,0,2046,424
40,40,0,2046,217
41,41,0,2047,67
42,42,0,2047,0
43,43,0,2047,0
44,44,0,2046,7
45,45,0,2047,117
46,46,0,2046,288
47,47,0,2046,516
48,48,0,2047,793
49,49,0,2047,1109
50,50,0,2046,1456
51,51,0,2046,1820
52,52,0,2047,2192
53,53,0,2046,2559
54,54,0,2047,2910
55,55,0,2047,3232
56,56,0,2046,3516
57,57,0,2046,3754
58,58,0,2046,3936
59,59,0,2046,4057
60,60,0,2047,4095
61,61,0,2046,4095
62,62,0,2046,4029
63,63,0,2047,3890
64,64,0,2047,3692
65,65,0,2047,3441
66,66,0,2046,3146
67,67,0,2047,2816
68,68,0,2046,2460
69,69,0,2047,2091
70,70,0,2047,1720
71,71,0,2047,1360
72,72,0,2047,1022
73,73,0,2046,715
74,74,0,2046,451
75,75,0,2046,237
76,76,0,2046,82
77,77,0,2047,0
78,78,0,2046,0
79,79,0,2047,0
80,80,0,2046,101
81,81,0,2047,266
82,82,0,2047,488
83,83,0,2047,759
84,84,0,2047,1072
85,85,0,2046,1415
86,86,0,2047,1779
87,87,0,2047,2150
88,88,0,2046,2518
89,89,0,2047,2872
90,90,0,2047,3198
91,91,0,2047,3486
92,92,0,2047,3730
93,93,0,2047,3918
94,94,0,2047,4047
95,95,0,2046,4095
96,96,0,2046,4095
97,97,0,2047,4041
98,98,0,2047,3909
99,99,0,2047,3717
100,100,0,2046,3472
101,101,0,2046,3181
102,102,0,2047,2853
103,103,0,2047,2500
104,104,0,2047,2133
105,105,0,2046,1761
106,106,0,2047,1400
107,107,0,2046,1058
108,108,0,2047,747
109,109,0,2047,479
110,110,0,2046,259
111,111,0,2047,96
112,112,0,2047,0
113,113,0,2047,0
114,114,0,2046,0
115,115,0,2046,86
116,116,0,2046,245
117,117,0,2047,461
118,118,0,2046,728
119,119,0,2046,1035
120,120,0,2046,1376
121,121,0,2046,1738
122,122,0,2046,2109
123,123,0,2047,2478
124,124,0,2046,2833
125,125,0,2046,3162
126,126,0,2047,3456
127,127,0,2046,3705
128,128,0,2046,3900
129,129,0,2046,4035
130,130,0,2046,4095
131,131,0,2046,4095
132,132,0,2046,4052
133,133,0,2046,3926
134,134,0,2046,3742
135,135,0,2047,3502
136,136,0,2046,3215
137,137,0,2046,2892
138,138,0,2046,2541
139,139,0,2047,2174
140,140,0,2046,1803
141,141,0,2047,1439
142,142,0,2047,1095
143,143,0,2047,781
144,144,0,2047,507
145,145,0,2046,281
146,146,0,2047,111
147,147,0,2046,3
148,148,0,2046,0
149,149,0,2046,0
150,150,0,2046,73
151,151,0,2047,224
152,152,0,2047,434
153,153,0,2046,696
154,154,0,2047,999
155,155,0,2046,1336
156,156,0,2046,1696
157,157,0,2047,2067
158,158,0,2046,2436
159,159,0,2046,2794
160,160,0,2047,3127
161,161,0,2047,3425
162,162,0,2046,3679
163,163,0,2046,3880
164,164,0,2046,4023
165,165,0,2046,4095
166,166,0,2047,4095
167,167,0,2046,4062
168,168,0,2047,3944
169,169,0,2047,3765
170,170,0,2047,3531
171,171,0,2047,3250
172,172,0,2046,2930
173,173,0,2046,2581
174,174,0,2047,2216
175,175,0,2047,1845
176,176,0,2047,1479
177,177,0,2047,1132
178,178,0,2047,814
179,179,0,2046,535
180,180,0,2046,304
181,181,0,2047,127
182,182,0,2046,13
183,183,0,2047,0
184,184,0,2047,0
185,185,0,2046,60
186,186,0,2047,204
187,187,0,2046,408
188,188,0,2047,663
189,189,0,2046,963
190,190,0,2046,1297
191,191,0,2047,1655
192,192,0,2046,2025
193,193,0,2046,2395
194,194,0,2047,2755
195,195,0,2047,3091
196,196,0,2046,3395
197,197,0,2046,3652
198,198,0,2047,3861
199,199,0,2046,4010
200,200,0,2047,4095
201,201,0,2046,4095
202,202,0,2047,4072
203,203,0,2046,3960
204,204,0,2046,3788
205,205,0,2046,3560
206,206,0,2046,3283
207,207,0,2047,2967
208,208,0,2046,2622
209,209,0,2046,2258
210,210,0,2046,1887
211,211,0,2046,1520
212,212,0,2046,1170
213,213,0,2047,848
214,214,0,2046,564
215,215,0,2047,327
216,216,0,2047,145
217,217,0,2047,22
218,218,0,2047,0
219,219,0,2046,0
220,220,0,2047,46
221,221,0,2047,184
222,222,0,2047,382
223,223,0,2046,633
224,224,0,2047,927
225,225,0,2047,1258
226,226,0,2046,1614
227,227,0,2047,1983
228,228,0,2046,2355
229,229,0,2047,2715
230,230,0,2046,3054
231,231,0,2046,3362
232,232,0,2046,3627
233,233,0,2047,3840
234,234,0,2046,3997
235,235,0,2047,4090
236,236,0,2047,4095
237,237,0,2046,4080
238,238,0,2047,3976
239,239,0,2047,3810
240,240,0,2046,3588
241,241,0,2047,3317
242,242,0,2047,3005
243,243,0,2046,2662
244,244,0,2047,2299
245,245,0,2046,1928
246,246,0,2047,1561
247,247,0,2046,1208
248,248,0,2047,883
249,249,0,2046,594
250,250,0,2046,351
251,251,0,2047,161
252,252,0,2047,33
253,253,0,2046,0
254,254,0,2047,0
255,255,0,2046,35
256,256,0,2047,166
257,257,0,2046,358
258,258,0,2047,601
259,259,0,2047,892
260,260,0,2046,1220
261,261,0,2046,1573
262,262,0,2047,1941
263,263,0,2046,2313
264,264,0,2046,2676
265,265,0,2047,3018
266,266,0,2047,3330
267,267,0,2046,3598
268,268,0,2046,3819
269,269,0,2046,3983
270,270,0,2046,4083
271,271,0,2047,4095
272,272,0,2046,4087
273,273,0,2047,3991
274,274,0,2046,3832
275,275,0,2046,3616
276,276,0,2047,3349
277,277,0,2047,3042
278,278,0,2047,2702
279,279,0,2047,2341
280,280,0,2046,1970
281,281,0,2047,1602
282,282,0,2047,1247
283,283,0,2046,918
284,284,0,2046,625
285,285,0,2046,376
286,286,0,2047,180
287,287,0,2046,44
288,288,0,2047,0
289,289,0,2046,0
290,290,0,2046,24
291,291,0,2046,148
292,292,0,2047,333
293,293,0,2046,572
294,294,0,2047,857
295,295,0,2046,1181
296,296,0,2047,1532
297,297,0,2046,1899
298,298,0,2047,2271
299,299,0,2046,2635
300,300,0,2047,2981
301,301,0,2046,3297
302,302,0,2046,3571
303,303,0,2046,3798
304,304,0,2047,3967
305,305,0,2046,4075
306,306,0,2046,4095
307,307,0,2047,4094
308,308,0,2046,4005
309,309,0,2047,3854
310,310,0,2046,3642
311,311,0,2046,3381
312,312,0,2046,3078
313,313,0,2046,2741
314,314,0,2046,2383
315,315,0,2046,2012
316,316,0,2046,1642
317,317,0,2047,1286
318,318,0,2047,953
319,319,0,2046,656
320,320,0,2047,401
321,321,0,2046,199
322,322,0,2046,56
323,323,0,2046,0
324,324,0,2047,0
325,325,0,2046,14
326,326,0,2046,131
327,327,0,2047,309
328,328,0,2046,542
329,329,0,2047,823
330,330,0,2046,1143
331,331,0,2046,1492
332,332,0,2046,1858
333,333,0,2047,2230
334,334,0,2046,2595
335,335,0,2046,2943
336,336,0,2046,3263
337,337,0,2046,3543
338,338,0,2047,3774
339,339,0,2046,3950
340,340,0,2046,4066
341,341,0,2047,4095
342,342,0,2046,4095
343,343,0,2047,4018
344,344,0,2046,3873
345,345,0,2046,3669
346,346,0,2047,3413
347,347,0,2046,3114
348,348,0,2046,2780
349,349,0,2047,2423
350,350,0,2047,2053
351,351,0,2046,1683
352,352,0,2047,1325
353,353,0,2047,988
354,354,0,2047,686
355,355,0,2046,428
356,356,0,2047,219
357,357,0,2047,69
358,358,0,2047,0
359,359,0,2047,0
360,360,0,2047,5
361,361,0,2046,115
362,362,0,2047,286
363,363,0,2046,513
364,364,0,2047,789
365,365,0,2047,1105
366,366,0,2047,1451
367,367,0,2046,1816
368,368,0,2046,2189
369,369,0,2046,2555
370,370,0,2047,2906
371,371,0,2047,3228
372,372,0,2046,3513
373,373,0,2046,3751
374,374,0,2047,3935
375,375,0,2046,4057
376,376,0,2047,4095
377,377,0,2046,4095
378,378,0,2046,4030
379,379,0,2047,3892
380,380,0,2046,3694
381,381,0,2046,3444
382,382,0,2046,3150
383,383,0,2047,2819
384,384,0,2047,2465
385,385,0,2046,2095
386,386,0,2046,1724
387,387,0,2047,1364
388,388,0,2046,1025
389,389,0,2046,718
390,390,0,2046,454
391,391,0,2047,240
392,392,0,2047,83
393,393,0,2046,0
394,394,0,2047,0
395,395,0,2046,0
396,396,0,2047,100
397,397,0,2047,264
398,398,0,2046,485
399,399,0,2047,756
400,400,0,2046,1068
401,401,0,2046,1411
402,402,0,2046,1774
403,403,0,2046,2147
404,404,0,2047,2514
405,405,0,2046,2868
406,406,0,2047,3193
407,407,0,2047,3484
408,408,0,2047,3727
409,409,0,2046,3916
410,410,0,2047,4045
411,411,0,2046,4095
412,412,0,2046,4095
413,413,0,2046,4042
414,414,0,2047,3911
415,415,0,2047,3719
416,416,0,2047,3475
417,417,0,2047,3184
418,418,0,2047,2858
419,419,0,2046,2505
420,420,0,2047,2137
421,421,0,2046,1766
422,422,0,2046,1404
423,423,0,2047,1062
424,424,0,2047,751
425,425,0,2046,481
426,426,0,2047,262
427,427,0,2046,98
428,428,0,2046,0
429,429,0,2046,0
430,430,0,2046,0
431,431,0,2047,85
432,432,0,2046,243
433,433,0,2047,458
434,434,0,2046,724
435,435,0,2046,1032
436,436,0,2046,1372
437,437,0,2047,1733
438,438,0,2046,2105
439,439,0,2046,2474
440,440,0,2046,2829
441,441,0,2046,3159
442,442,0,2046,3453
443,443,0,2047,3702
444,444,0,2047,3897
445,445,0,2047,4035
446,446,0,2047,4095
447,447,0,2047,4095
448,448,0,2047,4053
449,449,0,2046,3929
450,450,0,2046,3744
451,451,0,2047,3505
452,452,0,2047,3219
453,453,0,2046,2896
454,454,0,2047,2545
455,455,0,2046,2178
456,456,0,2047,1807
457,457,0,2046,1444
458,458,0,2046,1099
459,459,0,2047,785
460,460,0,2046,509
461,461,0,2046,284
462,462,0,2046,113
463,463,0,2046,4
464,464,0,2047,0
465,465,0,2047,0
466,466,0,2046,71
467,467,0,2046,222
468,468,0,2046,431
469,469,0,2046,692
470,470,0,2046,995
471,471,0,2047,1333
472,472,0,2047,1692
473,473,0,2047,2063
474,474,0,2046,2433
475,475,0,2046,2790
476,476,0,2047,3123
477,477,0,2046,3422
478,478,0,2046,3677
479,479,0,2046,3878
480,480,0,2046,4022
481,481,0,2046,4095
482,482,0,2047,4095
483,483,0,2046,4063
484,484,0,2047,3946
485,485,0,2046,3767
486,486,0,2047,3534
487,487,0,2047,3254
488,488,0,2047,2934
489,489,0,2046,2586
490,490,0,2046,2220
491,491,0,2046,1849
492,492,0,2046,1485
493,493,0,2047,1137
494,494,0,2047,818
495,495,0,2046,538
496,496,0,2046,306
497,497,0,2047,129
498,498,0,2047,14
499,499,0,2047,0
500,500,0,2045,0
501,501,0,2047,58
502,502,0,2046,201
503,503,0,2047,405
504,504,0,2046,659
505,505,0,2046,960
506,506,0,2046,1293
507,507,0,2046,1651
508,508,0,2047,2021
509,509,0,2047,2391
510,510,0,2047,2751
511,511,0,2047,3088
512,512,0,2046,3390
513,513,0,2046,3651
514,514,0,2046,3859
515,515,0,2046,4009
516,516,0,2047,4095
517,517,0,2046,4095
518,518,0,2046,4072
519,519,0,2046,3963
520,520,0,2046,3791
521,521,0,2047,3563
522,522,0,2046,3287
523,523,0,2046,2972
524,524,0,2046,2626
525,525,0,2046,2262
526,526,0,2046,1890
527,527,0,2047,1525
528,528,0,2046,1174
529,529,0,2047,852
530,530,0,2046,567
531,531,0,2046,329
532,532,0,2046,146
533,533,0,2047,24
534,534,0,2047,0
535,535,0,2046,0
536,536,0,2047,46
537,537,0,2047,183
538,538,0,2047,380
539,539,0,2047,629
540,540,0,2046,924
541,541,0,2046,1254
542,542,0,2047,1610
543,543,0,2046,1979
544,544,0,2047,2350
545,545,0,2047,2711
546,546,0,2047,3052
547,547,0,2046,3359
548,548,0,2046,3624
549,549,0,2047,3839
550,550,0,2046,3996
551,551,0,2047,4090
552,552,0,2046,4095
553,553,0,2046,4081
554,554,0,2046,3978
555,555,0,2046,3813
556,556,0,2047,3592
557,557,0,2046,3320
558,558,0,2046,3009
559,559,0,2046,2666
560,560,0,2047,2303
561,561,0,2046,1932
562,562,0,2046,1564
563,563,0,2047,1212
564,564,0,2046,886
565,565,0,2047,597
566,566,0,2046,353
567,567,0,2047,163
568,568,0,2046,33
569,569,0,2047,0
570,570,0,2047,0
571,571,0,2047,34
572,572,0,2046,164
573,573,0,2046,355
574,574,0,2047,599
575,575,0,2046,888
576,576,0,2047,1215
577,577,0,2046,1569
578,578,0,2047,1936
579,579,0,2046,2309
580,580,0,2046,2671
581,581,0,2046,3013
582,582,0,2047,3325
583,583,0,2046,3596
584,584,0,2047,3816
585,585,0,2046,3980
586,586,0,2047,4081
587,587,0,2047,4095
588,588,0,2046,4088
589,589,0,2047,3992
590,590,0,2047,3834
591,591,0,2046,3619
592,592,0,2046,3353
593,593,0,2046,3045
594,594,0,2046,2705
595,595,0,2046,2345
596,596,0,2046,1974
597,597,0,2047,1606
598,598,0,2046,1251
599,599,0,2047,921
600,600,0,2047,628
601,601,0,2047,378
602,602,0,2047,182
603,603,0,2047,45
604,604,0,2046,0
605,605,0,2046,0
606,606,0,2046,23
607,607,0,2046,147
608,608,0,2046,330
609,609,0,2047,569
610,610,0,2046,853
611,611,0,2047,1177
612,612,0,2046,1528
613,613,0,2046,1895
614,614,0,2046,2267
615,615,0,2047,2631
616,616,0,2046,2977
617,617,0,2047,3293
618,618,0,2046,3568
619,619,0,2047,3794
620,620,0,2047,3965
621,621,0,2047,4074
622,622,0,2046,4095
623,623,0,2047,4095
624,624,0,2047,4006
625,625,0,2047,3854
626,626,0,2047,3646
627,627,0,2047,3385
628,628,0,2046,3082
629,629,0,2047,2746
630,630,0,2046,2387
631,631,0,2046,2016
632,632,0,2047,1646
633,633,0,2046,1290
634,634,0,2046,957
635,635,0,2047,659
636,636,0,2047,404
637,637,0,2047,202
638,638,0,2047,57
639,639,0,2046,0
640,640,0,2046,0
641,641,0,2047,14
642,642,0,2046,130
643,643,0,2047,307
644,644,0,2046,539
645,645,0,2046,820
646,646,0,2047,1140
647,647,0,2046,1488
648,648,0,2046,1854
649,649,0,2047,2225
650,650,0,2047,2591
651,651,0,2046,2940
652,652,0,2046,3260
653,653,0,2046,3539
654,654,0,2047,3772
655,655,0,2046,3949
656,656,0,2046,4065
657,657,0,2047,4095
658,658,0,2046,4095
659,659,0,2046,4019
660,660,0,2046,3875
661,661,0,2046,3672
662,662,0,2047,3416
663,663,0,2046,3118
664,664,0,2047,2784
665,665,0,2047,2428
666,666,0,2047,2058
667,667,0,2047,1687
668,668,0,2047,1329
669,669,0,2045,993
670,670,0,2046,690
671,671,0,2047,430
672,672,0,2046,222
673,673,0,2046,70
674,674,0,2047,0
675,675,0,2046,0
676,676,0,2047,5
677,677,0,2046,113
678,678,0,2047,283
679,679,0,2046,510
680,680,0,2046,785
681,681,0,2046,1101
682,682,0,2047,1447
683,683,0,2046,1812
684,684,0,2047,2184
685,685,0,2047,2551
686,686,0,2046,2902
687,687,0,2047,3225
688,688,0,2047,3509
689,689,0,2046,3749
690,690,0,2046,3932
691,691,0,2047,4055
692,692,0,2047,4095
693,693,0,2046,4095
694,694,0,2046,4032
695,695,0,2046,3894
696,696,0,2047,3697
697,697,0,2047,3448
698,698,0,2046,3153
699,699,0,2046,2823
700,700,0,2046,2468
701,701,0,2046,2100
702,702,0,2047,1729
703,703,0,2047,1368
704,704,0,2047,1029
705,705,0,2046,722
706,706,0,2046,457
707,707,0,2047,243
708,708,0,2046,85
709,709,0,2046,0
710,710,0,2046,0
711,711,0,2046,0
712,712,0,2046,98
713,713,0,2046,262
714,714,0,2047,482
715,715,0,2046,752
716,716,0,2047,1064
717,717,0,2047,1406
718,718,0,2047,1770
719,719,0,2047,2142
720,720,0,2046,2511
721,721,0,2046,2864
722,722,0,2047,3190
723,723,0,2046,3480
724,724,0,2046,3724
725,725,0,2047,3914
726,726,0,2046,4044
727,727,0,2045,4095
728,728,0,2047,4095
729,729,0,2047,4044
730,730,0,2047,3913
731,731,0,2046,3722
732,732,0,2046,3478
733,733,0,2046,3189
734,734,0,2046,2862
735,735,0,2046,2509
736,736,0,2046,2142
737,737,0,2046,1771
738,738,0,2046,1408
739,739,0,2046,1066
740,740,0,2046,755
741,741,0,2046,484
742,742,0,2047,263
743,743,0,2047,99
744,744,0,2047,0
745,745,0,2046,0
746,746,0,2047,0
747,747,0,2046,83
748,748,0,2047,240
749,749,0,2046,455
750,750,0,2047,720
751,751,0,2046,1027
752,752,0,2046,1367
753,753,0,2047,1729
754,754,0,2046,2100
755,755,0,2046,2469
756,756,0,2047,2825
757,757,0,2046,3155
758,758,0,2046,3450
759,759,0,2046,3700
760,760,0,2046,3895
761,761,0,2046,4033
762,762,0,2047,4095
763,763,0,2047,4095
764,764,0,2046,4054
765,765,0,2046,3931
766,766,0,2047,3746
767,767,0,2047,3509
768,768,0,2046,3223
769,769,0,2046,2900
770,770,0,2047,2550
771,771,0,2047,2183
772,772,0,2046,1812
773,773,0,2047,1448
774,774,0,2047,1103
775,775,0,2046,787
776,776,0,2047,513
777,777,0,2047,285
778,778,0,2046,114
779,779,0,2047,6
780,780,0,2047,0
781,781,0,2047,0
782,782,0,2047,70
783,783,0,2047,219
784,784,0,2047,428
785,785,0,2046,688
786,786,0,2047,991
787,787,0,2047,1328
788,788,0,2047,1688
789,789,0,2046,2058
790,790,0,2046,2428
791,791,0,2047,2785
792,792,0,2047,3119
793,793,0,2046,3418
794,794,0,2047,3673
795,795,0,2047,3876
796,796,0,2047,4020
797,797,0,2046,4095
798,798,0,2046,4095
799,799,0,2047,4064
800,800,0,2046,3947
801,801,0,2047,3770
802,802,0,2047,3537
803,803,0,2047,3257
804,804,0,2046,2938
805,805,0,2046,2590
806,806,0,2047,2225
807,807,0,2046,1853
808,808,0,2046,1488
809,809,0,2046,1140
810,810,0,2047,822
811,811,0,2047,541
812,812,0,2047,308
813,813,0,2046,131
814,814,0,2046,14
815,815,0,2047,0
816,816,0,2047,0
817,817,0,2046,56
818,818,0,2046,199
819,819,0,2047,402
820,820,0,2047,656
821,821,0,2047,955
822,822,0,2047,1289
823,823,0,2047,1646
824,824,0,2046,2016
825,825,0,2047,2387
826,826,0,2047,2747
827,827,0,2047,3083
828,828,0,2046,3387
829,829,0,2046,3648
830,830,0,2046,3857
831,831,0,2046,4007
832,832,0,2047,4095
833,833,0,2046,4095
834,834,0,2047,4074
835,835,0,2047,3964
836,836,0,2046,3793
837,837,0,2047,3566
838,838,0,2047,3290
839,839,0,2046,2976
840,840,0,2047,2631
841,841,0,2046,2266
842,842,0,2047,1895
843,843,0,2046,1529
844,844,0,2046,1179
845,845,0,2046,856
846,846,0,2047,570
847,847,0,2047,332
848,848,0,2047,148
849,849,0,2046,24
850,850,0,2047,0
851,851,0,2047,0
852,852,0,2046,44
853,853,0,2047,180
854,854,0,2047,376
855,855,0,2046,625
856,856,0,2047,920
857,857,0,2047,1250
858,858,0,2046,1605
859,859,0,2047,1974
860,860,0,2047,2345
861,861,0,2046,2707
862,862,0,2047,3047
863,863,0,2047,3355
864,864,0,2046,3620
865,865,0,2046,3836
866,866,0,2046,3994
867,867,0,2047,4089
868,868,0,2047,4095
869,869,0,2046,4082
870,870,0,2046,3979
871,871,0,2046,3815
872,872,0,2047,3594
873,873,0,2046,3324
874,874,0,2047,3014
875,875,0,2046,2670
876,876,0,2047,2307
877,877,0,2046,1937
878,878,0,2047,1570
879,879,0,2047,1216
880,880,0,2046,891
881,881,0,2047,600
882,882,0,2046,356
883,883,0,2046,165
884,884,0,2046,35
885,885,0,2046,0
886,886,0,2047,0
887,887,0,2046,32
888,888,0,2046,162
889,889,0,2047,351
890,890,0,2047,594
891,891,0,2047,884
892,892,0,2046,1211
893,893,0,2047,1564
894,894,0,2046,1932
895,895,0,2046,2304
896,896,0,2047,2667
897,897,0,2046,3010
898,898,0,2046,3322
899,899,0,2047,3593
900,900,0,2047,3814
901,901,0,2047,3979
902,902,0,2047,4081
903,903,0,2047,4095
904,904,0,2047,4089
905,905,0,2046,3994
906,906,0,2047,3837
907,907,0,2046,3622
908,908,0,2047,3357
909,909,0,2047,3049
910,910,0,2047,2710
911,911,0,2046,2349
912,912,0,2046,1978
913,913,0,2046,1611
914,914,0,2047,1256
915,915,0,2046,925
916,916,0,2047,631
917,917,0,2047,381
918,918,0,2046,184
919,919,0,2046,47
920,920,0,2047,0
921,921,0,2046,0
922,922,0,2047,22
923,923,0,2047,144
924,924,0,2047,328
925,925,0,2047,565
926,926,0,2047,849
927,927,0,2046,1173
928,928,0,2046,1524
929,929,0,2046,1890
930,930,0,2046,2261
931,931,0,2047,2627
932,932,0,2046,2973
933,933,0,2047,3289
934,934,0,2046,3565
935,935,0,2046,3792
936,936,0,2047,3963
937,937,0,2047,4073
938,938,0,2047,4095
939,939,0,2047,4095
940,940,0,2046,4008
941,941,0,2047,3857
942,942,0,2046,3649
943,943,0,2046,3389
944,944,0,2046,3086
945,945,0,2047,2749
946,946,0,2047,2391
947,947,0,2047,2021
948,948,0,2046,1651
949,949,0,2046,1295
950,950,0,2046,961
951,951,0,2046,662
952,952,0,2047,407
953,953,0,2046,204
954,954,0,2046,59
955,955,0,2046,0
956,956,0,2046,0
957,957,0,2046,12
958,958,0,2046,128
959,959,0,2046,304
960,960,0,2046,536
961,961,0,2047,815
962,962,0,2047,1134
963,963,0,2047,1483
964,964,0,2047,1849
965,965,0,2047,2220
966,966,0,2046,2587
967,967,0,2046,2935
968,968,0,2046,3255
969,969,0,2046,3537
970,970,0,2046,3769
971,971,0,2047,3947
972,972,0,2047,4064
973,973,0,2046,4095
974,974,0,2047,4095
975,975,0,2046,4021
976,976,0,2046,3877
977,977,0,2047,3675
978,978,0,2047,3421
979,979,0,2047,3121
980,980,0,2046,2788
981,981,0,2046,2432
982,982,0,2046,2063
983,983,0,2046,1693
984,984,0,2046,1334
985,985,0,2046,997
986,986,0,2047,694
987,987,0,2047,433
988,988,0,2046,224
989,989,0,2046,72
990,990,0,2047,0
991,991,0,2046,0
992,992,0,2047,3
993,993,0,2047,112
994,994,0,2046,281
995,995,0,2046,507
996,996,0,2046,782
997,997,0,2046,1097
998,998,0,2046,1443
999,999,0,2047,1807
1000,1000,0,2046,2179
1001,1001,0,2047,2546
1002,1002,0,2046,2897
1003,1003,0,2046,3220
1004,1004,0,2047,3507
1005,1005,0,2047,3746
1006,1006,0,2046,3930
1007,1007,0,2047,4053
1008,1008,0,2046,4095
1009,1009,0,2046,4095
1010,1010,0,2047,4032
1011,1011,0,2046,3896
1012,1012,0,2046,3700
1013,1013,0,2047,3452
1014,1014,0,2046,3157
1015,1015,0,2047,2827
1016,1016,0,2047,2473
1017,1017,0,2047,2104
1018,1018,0,2046,1734
1019,1019,0,2046,1373
1020,1020,0,2046,1033
1021,1021,0,2046,725
1022,1022,0,2047,460
1023,1023,0,2047,244
1024,1024,0,2046,86
1025,1025,0,2046,0
1026,1026,0,2047,0
1027,1027,0,2046,0
1028,1028,0,2046,96
1029,1029,0,2046,259
1030,1030,0,2046,479
