Sample in Buffer,Sample in Window,TRIGGER,adc1_data_a_d0[11:0],adc1_data_b_d0[11:0]
0,0,0,2046,786
1,1,0,2047,1570
2,2,0,2046,2436
3,3,0,2046,3233
4,4,0,2046,3820
5,5,0,2047,4094
6,6,0,2047,4007
7,7,0,2046,3574
8,8,0,2046,2871
9,9,0,2046,2022
10,10,0,2046,1175
11,11,0,2046,481
12,12,0,2046,60
13,13,0,2047,0
14,14,0,2047,274
15,15,0,2046,871
16,16,0,2047,1672
17,17,0,2046,2538
18,18,0,2046,3318
19,19,0,2046,3871
20,20,0,2046,4095
21,21,0,2047,3972
22,22,0,2046,3502
23,23,0,2046,2775
24,24,0,2046,1918
25,25,0,2046,1081
26,26,0,2046,415
27,27,0,2046,33
28,28,0,2046,2
29,29,0,2047,329
30,30,0,2046,957
31,31,0,2046,1775
32,32,0,2046,2638
33,33,0,2046,3397
34,34,0,2046,3916
35,35,0,2046,4095
36,36,0,2046,3933
37,37,0,2046,3427
38,38,0,2047,2676
39,39,0,2047,1813
40,40,0,2046,991
41,41,0,2046,353
42,42,0,2046,10
43,43,0,2046,23
44,44,0,2046,390
45,45,0,2047,1048
46,46,0,2046,1878
47,47,0,2046,2737
48,48,0,2046,3473
49,49,0,2046,3958
50,50,0,2046,4095
51,51,0,2047,3889
52,52,0,2047,3348
53,53,0,2047,2578
54,54,0,2046,1712
55,55,0,2046,902
56,56,0,2046,294
57,57,0,2046,0
58,58,0,2046,49
59,59,0,2046,456
60,60,0,2047,1139
61,61,0,2047,1982
62,62,0,2046,2834
63,63,0,2046,3547
64,64,0,2046,3995
65,65,0,2046,4095
66,66,0,2046,3840
67,67,0,2046,3266
68,68,0,2046,2476
69,69,0,2046,1608
70,70,0,2046,818
71,71,0,2046,241
72,72,0,2047,0
73,73,0,2046,79
74,74,0,2046,524
75,75,0,2046,1234
76,76,0,2046,2086
77,77,0,2047,2928
78,78,0,2046,3616
79,79,0,2047,4026
80,80,0,2046,4086
81,81,0,2047,3787
82,82,0,2047,3180
83,83,0,2046,2373
84,84,0,2046,1507
85,85,0,2047,735
86,86,0,2046,191
87,87,0,2046,0
88,88,0,2046,115
89,89,0,2047,597
90,90,0,2046,1331
91,91,0,2046,2190
92,92,0,2047,3021
93,93,0,2047,3681
94,94,0,2046,4052
95,95,0,2046,4069
96,96,0,2047,3730
97,97,0,2046,3093
98,98,0,2047,2271
99,99,0,2046,1408
100,100,0,2046,657
101,101,0,2046,147
102,102,0,2046,0
103,103,0,2047,157
104,104,0,2047,673
105,105,0,2046,1430
106,106,0,2046,2293
107,107,0,2046,3112
108,108,0,2046,3741
109,109,0,2046,4074
110,110,0,2046,4047
111,111,0,2047,3667
112,112,0,2046,3002
113,113,0,2046,2167
114,114,0,2047,1310
115,115,0,2046,581
116,116,0,2047,108
117,117,0,2047,0
118,118,0,2046,201
119,119,0,2046,753
120,120,0,2046,1530
121,121,0,2047,2395
122,122,0,2047,3199
123,123,0,2046,3799
124,124,0,2047,4090
125,125,0,2046,4019
126,126,0,2047,3601
127,127,0,2046,2909
128,128,0,2046,2063
129,129,0,2046,1214
130,130,0,2046,508
131,131,0,2047,73
132,132,0,2046,0
133,133,0,2046,252
134,134,0,2046,836
135,135,0,2046,1631
136,136,0,2046,2497
137,137,0,2047,3284
138,138,0,2047,3851
139,139,0,2046,4095
140,140,0,2046,3987
141,141,0,2047,3531
142,142,0,2047,2813
143,143,0,2047,1959
144,144,0,2046,1119
145,145,0,2046,440
146,146,0,2046,43
147,147,0,2046,0
148,148,0,2046,306
149,149,0,2046,922
150,150,0,2047,1734
151,151,0,2047,2599
152,152,0,2046,3365
153,153,0,2046,3899
154,154,0,2047,4095
155,155,0,2046,3950
156,156,0,2047,3457
157,157,0,2046,2716
158,158,0,2047,1855
159,159,0,2046,1027
160,160,0,2046,377
161,161,0,2047,18
162,162,0,2047,14
163,163,0,2046,365
164,164,0,2046,1011
165,165,0,2047,1837
166,166,0,2046,2698
167,167,0,2047,3443
168,168,0,2046,3942
169,169,0,2047,4095
170,170,0,2046,3908
171,171,0,2046,3380
172,172,0,2046,2617
173,173,0,2046,1752
174,174,0,2046,939
175,175,0,2046,317
176,176,0,2046,0
177,177,0,2046,37
178,178,0,2046,428
179,179,0,2047,1103
180,180,0,2046,1940
181,181,0,2046,2795
182,182,0,2046,3517
183,183,0,2047,3980
184,184,0,2046,4095
185,185,0,2046,3861
186,186,0,2046,3299
187,187,0,2046,2516
188,188,0,2047,1649
189,189,0,2047,851
190,190,0,2046,261
191,191,0,2047,0
192,192,0,2047,67
193,193,0,2047,496
194,194,0,2047,1196
195,195,0,2047,2044
196,196,0,2046,2892
197,197,0,2046,3588
198,198,0,2046,4013
199,199,0,2047,4092
200,200,0,2046,3809
201,201,0,2047,3215
202,202,0,2047,2415
203,203,0,2047,1548
204,204,0,2046,768
205,205,0,2046,210
206,206,0,2046,0
207,207,0,2046,101
208,208,0,2046,567
209,209,0,2046,1291
210,210,0,2046,2147
211,211,0,2046,2984
212,212,0,2047,3655
213,213,0,2046,4041
214,214,0,2047,4077
215,215,0,2047,3754
216,216,0,2046,3129
217,217,0,2046,2313
218,218,0,2047,1448
219,219,0,2046,688
220,220,0,2047,165
221,221,0,2046,0
222,222,0,2046,139
223,223,0,2047,642
224,224,0,2046,1390
225,225,0,2046,2251
226,226,0,2046,3076
227,227,0,2046,3718
228,228,0,2047,4065
229,229,0,2046,4056
230,230,0,2047,3693
231,231,0,2046,3038
232,232,0,2046,2209
233,233,0,2047,1350
234,234,0,2045,610
235,235,0,2046,123
236,236,0,2046,0
237,237,0,2046,183
238,238,0,2046,719
239,239,0,2046,1489
240,240,0,2046,2354
241,241,0,2046,3164
242,242,0,2047,3776
243,243,0,2046,4083
244,244,0,2046,4031
245,245,0,2046,3629
246,246,0,2047,2946
247,247,0,2046,2104
248,248,0,2046,1252
249,249,0,2046,538
250,250,0,2046,86
251,251,0,2046,0
252,252,0,2046,231
253,253,0,2047,802
254,254,0,2046,1589
255,255,0,2046,2456
256,256,0,2047,3250
257,257,0,2047,3831
258,258,0,2046,4095
259,259,0,2047,4001
260,260,0,2047,3561
261,261,0,2046,2852
262,262,0,2047,2001
263,263,0,2047,1157
264,264,0,2047,468
265,265,0,2046,55
266,266,0,2046,0
267,267,0,2047,284
268,268,0,2046,886
269,269,0,2047,1692
270,270,0,2046,2558
271,271,0,2047,3332
272,272,0,2047,3880
273,273,0,2046,4095
274,274,0,2047,3966
275,275,0,2046,3487
276,276,0,2046,2756
277,277,0,2046,1898
278,278,0,2047,1064
279,279,0,2047,402
280,280,0,2046,28
281,281,0,2047,6
282,282,0,2046,341
283,283,0,2046,975
284,284,0,2047,1795
285,285,0,2046,2657
286,286,0,2046,3412
287,287,0,2047,3925
288,288,0,2047,4095
289,289,0,2047,3926
290,290,0,2047,3412
291,291,0,2046,2657
292,292,0,2046,1795
293,293,0,2046,974
294,294,0,2046,342
295,295,0,2046,5
296,296,0,2047,28
297,297,0,2046,403
298,298,0,2046,1065
299,299,0,2047,1898
300,300,0,2046,2756
301,301,0,2047,3488
302,302,0,2047,3966
303,303,0,2046,4095
304,304,0,2046,3880
305,305,0,2046,3332
306,306,0,2046,2557
307,307,0,2046,1691
308,308,0,2047,885
309,309,0,2046,284
310,310,0,2047,0
311,311,0,2047,55
312,312,0,2046,468
313,313,0,2047,1158
314,314,0,2047,2003
315,315,0,2047,2853
316,316,0,2046,3560
317,317,0,2046,4000
318,318,0,2047,4095
319,319,0,2047,3831
320,320,0,2046,3249
321,321,0,2046,2456
322,322,0,2047,1589
323,323,0,2046,801
324,324,0,2047,230
325,325,0,2046,0
326,326,0,2046,87
327,327,0,2046,539
328,328,0,2046,1253
329,329,0,2046,2106
330,330,0,2046,2947
331,331,0,2047,3628
332,332,0,2047,4031
333,333,0,2046,4084
334,334,0,2047,3776
335,335,0,2046,3164
336,336,0,2047,2354
337,337,0,2046,1488
338,338,0,2046,720
339,339,0,2046,182
340,340,0,2046,0
341,341,0,2046,123
342,342,0,2046,611
343,343,0,2046,1351
344,344,0,2046,2210
345,345,0,2046,3039
346,346,0,2046,3693
347,347,0,2047,4056
348,348,0,2047,4065
349,349,0,2046,3717
350,350,0,2046,3075
351,351,0,2046,2251
352,352,0,2046,1389
353,353,0,2046,641
354,354,0,2046,139
355,355,0,2047,0
356,356,0,2046,165
357,357,0,2046,689
358,358,0,2047,1449
359,359,0,2047,2313
360,360,0,2047,3129
361,361,0,2046,3753
362,362,0,2047,4076
363,363,0,2046,4041
364,364,0,2046,3655
365,365,0,2046,2984
366,366,0,2046,2147
367,367,0,2046,1291
368,368,0,2046,566
369,369,0,2046,101
370,370,0,2047,0
371,371,0,2047,211
372,372,0,2047,769
373,373,0,2047,1549
374,374,0,2046,2415
375,375,0,2046,3216
376,376,0,2047,3809
377,377,0,2046,4092
378,378,0,2046,4013
379,379,0,2047,3588
380,380,0,2046,2890
381,381,0,2046,2043
382,382,0,2046,1195
383,383,0,2046,496
384,384,0,2046,67
385,385,0,2046,0
386,386,0,2046,262
387,387,0,2046,852
388,388,0,2046,1650
389,389,0,2046,2517
390,390,0,2046,3299
391,391,0,2046,3861
392,392,0,2046,4095
393,393,0,2046,3980
394,394,0,2046,3518
395,395,0,2046,2795
396,396,0,2047,1939
397,397,0,2047,1102
398,398,0,2046,428
399,399,0,2047,38
400,400,0,2046,0
401,401,0,2046,317
402,402,0,2046,938
403,403,0,2046,1753
404,404,0,2046,2618
405,405,0,2046,3380
406,406,0,2047,3907
407,407,0,2046,4095
408,408,0,2046,3942
409,409,0,2047,3442
410,410,0,2046,2696
411,411,0,2046,1836
412,412,0,2046,1011
413,413,0,2047,365
414,414,0,2046,14
415,415,0,2047,19
416,416,0,2047,377
417,417,0,2046,1029
418,418,0,2046,1856
419,419,0,2046,2717
420,420,0,2047,3458
421,421,0,2046,3949
422,422,0,2046,4095
423,423,0,2047,3899
424,424,0,2046,3365
425,425,0,2046,2598
426,426,0,2047,1733
427,427,0,2047,921
428,428,0,2046,306
429,429,0,2046,0
430,430,0,2047,43
431,431,0,2046,441
432,432,0,2047,1121
433,433,0,2047,1959
434,434,0,2046,2814
435,435,0,2047,3532
436,436,0,2047,3987
437,437,0,2047,4095
438,438,0,2047,3851
439,439,0,2046,3283
440,440,0,2046,2497
441,441,0,2046,1630
442,442,0,2047,836
443,443,0,2046,252
444,444,0,2047,0
445,445,0,2047,73
446,446,0,2046,509
447,447,0,2046,1214
448,448,0,2046,2064
449,449,0,2047,2909
450,450,0,2046,3602
451,451,0,2047,4019
452,452,0,2046,4090
453,453,0,2046,3799
454,454,0,2047,3199
455,455,0,2046,2395
456,456,0,2046,1529
457,457,0,2046,753
458,458,0,2046,201
459,459,0,2046,0
460,460,0,2046,108
461,461,0,2047,582
462,462,0,2047,1311
463,463,0,2046,2167
464,464,0,2047,3002
465,465,0,2046,3667
466,466,0,2046,4046
467,467,0,2046,4073
468,468,0,2046,3742
469,469,0,2046,3111
470,470,0,2046,2293
471,471,0,2047,1429
472,472,0,2047,673
473,473,0,2046,156
474,474,0,2047,0
475,475,0,2046,146
476,476,0,2047,657
477,477,0,2046,1409
478,478,0,2046,2271
479,479,0,2047,3094
480,480,0,2046,3729
481,481,0,2046,4069
482,482,0,2047,4052
483,483,0,2046,3681
484,484,0,2046,3022
485,485,0,2047,2190
486,486,0,2046,1330
487,487,0,2047,596
488,488,0,2047,115
489,489,0,2046,0
490,490,0,2046,192
491,491,0,2047,735
492,492,0,2046,1508
493,493,0,2047,2374
494,494,0,2046,3181
495,495,0,2046,3787
496,496,0,2046,4086
497,497,0,2047,4025
498,498,0,2046,3615
499,499,0,2047,2929
500,500,0,2046,2085
501,501,0,2047,1233
502,502,0,2046,524
503,503,0,2046,80
504,504,0,2047,0
505,505,0,2047,241
506,506,0,2047,819
507,507,0,2046,1610
508,508,0,2046,2476
509,509,0,2046,3266
510,510,0,2046,3839
511,511,0,2046,4095
512,512,0,2046,3995
513,513,0,2046,3547
514,514,0,2046,2834
515,515,0,2047,1982
516,516,0,2046,1140
517,517,0,2047,456
518,518,0,2047,49
519,519,0,2047,0
520,520,0,2046,294
521,521,0,2046,904
522,522,0,2046,1712
523,523,0,2046,2578
524,524,0,2047,3348
525,525,0,2047,3889
526,526,0,2046,4095
527,527,0,2047,3958
528,528,0,2046,3474
529,529,0,2047,2737
530,530,0,2046,1878
531,531,0,2046,1047
532,532,0,2047,390
533,533,0,2046,23
534,534,0,2046,10
535,535,0,2046,352
536,536,0,2047,992
537,537,0,2046,1815
538,538,0,2046,2676
539,539,0,2046,3427
540,540,0,2047,3932
541,541,0,2047,4095
542,542,0,2047,3917
543,543,0,2046,3397
544,544,0,2047,2638
545,545,0,2046,1775
546,546,0,2046,957
547,547,0,2047,330
548,548,0,2046,2
549,549,0,2047,32
550,550,0,2046,415
551,551,0,2046,1083
552,552,0,2046,1918
553,553,0,2047,2774
554,554,0,2046,3501
555,555,0,2046,3973
556,556,0,2046,4095
557,557,0,2046,3871
558,558,0,2047,3317
559,559,0,2046,2538
560,560,0,2046,1672
561,561,0,2046,870
562,562,0,2046,273
563,563,0,2047,0
564,564,0,2046,60
565,565,0,2046,481
566,566,0,2047,1175
567,567,0,2046,2022
568,568,0,2046,2871
569,569,0,2047,3574
570,570,0,2046,4007
571,571,0,2046,4095
572,572,0,2046,3821
573,573,0,2046,3233
574,574,0,2047,2437
575,575,0,2046,1570
576,576,0,2047,786
577,577,0,2046,222
578,578,0,2046,0
579,579,0,2047,94
580,580,0,2046,551
581,581,0,2046,1272
582,582,0,2047,2125
583,583,0,2047,2965
584,584,0,2047,3641
585,585,0,2046,4036
586,586,0,2046,4080
587,587,0,2047,3765
588,588,0,2046,3147
589,589,0,2047,2334
590,590,0,2046,1469
591,591,0,2047,704
592,592,0,2046,173
593,593,0,2046,0
594,594,0,2046,131
595,595,0,2046,626
596,596,0,2046,1368
597,597,0,2047,2229
598,598,0,2046,3056
599,599,0,2046,3705
600,600,0,2046,4061
601,601,0,2047,4061
602,602,0,2046,3706
603,603,0,2046,3058
604,604,0,2046,2231
605,605,0,2046,1370
606,606,0,2046,627
607,607,0,2046,131
608,608,0,2046,0
609,609,0,2046,173
610,610,0,2046,704
611,611,0,2047,1468
612,612,0,2046,2333
613,613,0,2046,3145
614,614,0,2047,3764
615,615,0,2047,4080
616,616,0,2046,4037
617,617,0,2047,3643
618,618,0,2046,2966
619,619,0,2046,2127
620,620,0,2046,1273
621,621,0,2046,552
622,622,0,2047,94
623,623,0,2046,0
624,624,0,2046,220
625,625,0,2046,784
626,626,0,2047,1568
627,627,0,2047,2435
628,628,0,2047,3232
629,629,0,2047,3819
630,630,0,2046,4095
631,631,0,2047,4008
632,632,0,2046,3575
633,633,0,2046,2873
634,634,0,2046,2023
635,635,0,2047,1178
636,636,0,2046,483
637,637,0,2046,61
638,638,0,2046,0
639,639,0,2046,272
640,640,0,2046,869
641,641,0,2046,1670
642,642,0,2047,2536
643,643,0,2047,3316
644,644,0,2046,3870
645,645,0,2046,4095
646,646,0,2046,3973
647,647,0,2047,3503
648,648,0,2047,2776
649,649,0,2047,1920
650,650,0,2046,1084
651,651,0,2046,416
652,652,0,2046,33
653,653,0,2046,2
654,654,0,2046,328
655,655,0,2046,956
656,656,0,2046,1772
657,657,0,2047,2636
658,658,0,2046,3395
659,659,0,2047,3916
660,660,0,2046,4095
661,661,0,2047,3935
662,662,0,2046,3428
663,663,0,2046,2678
664,664,0,2046,1816
665,665,0,2046,993
666,666,0,2046,353
667,667,0,2047,10
668,668,0,2046,22
669,669,0,2047,388
670,670,0,2046,1046
671,671,0,2047,1876
672,672,0,2046,2735
673,673,0,2046,3471
674,674,0,2046,3957
675,675,0,2046,4095
676,676,0,2046,3890
677,677,0,2047,3350
678,678,0,2046,2579
679,679,0,2046,1714
680,680,0,2046,905
681,681,0,2047,296
682,682,0,2046,0
683,683,0,2046,48
684,684,0,2046,454
685,685,0,2047,1138
686,686,0,2047,1980
687,687,0,2046,2832
688,688,0,2046,3544
689,689,0,2046,3994
690,690,0,2046,4095
691,691,0,2047,3842
692,692,0,2046,3268
693,693,0,2047,2478
694,694,0,2046,1611
695,695,0,2046,819
696,696,0,2046,242
697,697,0,2047,0
698,698,0,2046,79
699,699,0,2046,523
700,700,0,2047,1233
701,701,0,2046,2083
702,702,0,2046,2926
703,703,0,2047,3614
704,704,0,2046,4024
705,705,0,2046,4087
706,706,0,2047,3788
707,707,0,2047,3182
708,708,0,2046,2376
709,709,0,2047,1510
710,710,0,2046,737
711,711,0,2047,193
712,712,0,2047,0
713,713,0,2047,115
714,714,0,2046,595
715,715,0,2046,1329
716,716,0,2047,2187
717,717,0,2046,3019
718,718,0,2046,3678
719,719,0,2046,4052
720,720,0,2047,4069
721,721,0,2047,3731
722,722,0,2047,3094
723,723,0,2046,2273
724,724,0,2047,1411
725,725,0,2047,658
726,726,0,2046,148
727,727,0,2047,0
728,728,0,2046,155
729,729,0,2047,671
730,730,0,2046,1427
731,731,0,2047,2290
732,732,0,2046,3110
733,733,0,2046,3741
734,734,0,2046,4073
735,735,0,2046,4047
736,736,0,2046,3669
737,737,0,2047,3003
738,738,0,2047,2169
739,739,0,2046,1312
740,740,0,2047,582
741,741,0,2047,109
742,742,0,2047,0
743,743,0,2047,201
744,744,0,2047,751
745,745,0,2046,1527
746,746,0,2046,2393
747,747,0,2047,3197
748,748,0,2047,3797
749,749,0,2046,4089
750,750,0,2047,4020
751,751,0,2046,3603
752,752,0,2047,2910
753,753,0,2047,2066
754,754,0,2046,1216
755,755,0,2046,510
756,756,0,2047,74
757,757,0,2046,0
758,758,0,2047,250
759,759,0,2046,834
760,760,0,2046,1628
761,761,0,2047,2496
762,762,0,2047,3281
763,763,0,2046,3850
764,764,0,2046,4095
765,765,0,2047,3988
766,766,0,2047,3533
767,767,0,2047,2816
768,768,0,2046,1962
769,769,0,2046,1122
770,770,0,2047,442
771,771,0,2046,43
772,772,0,2046,0
773,773,0,2047,305
774,774,0,2047,919
775,775,0,2047,1731
776,776,0,2047,2596
777,777,0,2047,3364
778,778,0,2047,3898
779,779,0,2047,4095
780,780,0,2047,3951
781,781,0,2047,3459
782,782,0,2047,2718
783,783,0,2047,1858
784,784,0,2046,1030
785,785,0,2045,378
786,786,0,2047,19
787,787,0,2046,13
788,788,0,2046,364
789,789,0,2047,1009
790,790,0,2047,1835
791,791,0,2046,2696
792,792,0,2046,3442
793,793,0,2046,3941
794,794,0,2047,4095
795,795,0,2046,3909
796,796,0,2046,3381
797,797,0,2046,2619
798,798,0,2047,1755
799,799,0,2046,940
800,800,0,2046,318
801,801,0,2046,0
802,802,0,2046,37
803,803,0,2046,426
804,804,0,2047,1100
805,805,0,2046,1937
806,806,0,2047,2794
807,807,0,2046,3516
808,808,0,2046,3980
809,809,0,2046,4095
810,810,0,2047,3862
811,811,0,2046,3301
812,812,0,2047,2518
813,813,0,2046,1652
814,814,0,2047,854
815,815,0,2046,263
816,816,0,2046,0
817,817,0,2046,66
818,818,0,2046,494
819,819,0,2046,1193
820,820,0,2046,2041
821,821,0,2047,2889
822,822,0,2047,3587
823,823,0,2046,4013
824,824,0,2046,4093
825,825,0,2047,3811
826,826,0,2046,3218
827,827,0,2046,2417
828,828,0,2046,1551
829,829,0,2046,770
830,830,0,2046,212
831,831,0,2046,0
832,832,0,2046,100
833,833,0,2046,566
834,834,0,2046,1289
835,835,0,2046,2145
836,836,0,2047,2983
837,837,0,2046,3654
838,838,0,2047,4040
839,839,0,2047,4077
840,840,0,2046,3754
841,841,0,2047,3131
842,842,0,2047,2314
843,843,0,2047,1450
844,844,0,2047,690
845,845,0,2046,165
846,846,0,2046,0
847,847,0,2046,138
848,848,0,2047,640
849,849,0,2046,1388
850,850,0,2046,2249
851,851,0,2046,3074
852,852,0,2046,3717
853,853,0,2046,4064
854,854,0,2046,4057
855,855,0,2046,3694
856,856,0,2046,3041
857,857,0,2046,2212
858,858,0,2047,1351
859,859,0,2046,613
860,860,0,2046,124
861,861,0,2046,0
862,862,0,2046,181
863,863,0,2046,719
864,864,0,2046,1487
865,865,0,2046,2352
866,866,0,2047,3161
867,867,0,2046,3775
868,868,0,2047,4084
869,869,0,2046,4032
870,870,0,2046,3631
871,871,0,2046,2949
872,872,0,2046,2108
873,873,0,2046,1254
874,874,0,2046,539
875,875,0,2047,87
876,876,0,2047,0
877,877,0,2047,230
878,878,0,2047,800
879,879,0,2047,1588
880,880,0,2047,2455
881,881,0,2046,3248
882,882,0,2046,3829
883,883,0,2047,4095
884,884,0,2047,4002
885,885,0,2046,3561
886,886,0,2046,2854
887,887,0,2047,2004
888,888,0,2046,1160
889,889,0,2046,470
890,890,0,2046,56
891,891,0,2046,0
892,892,0,2046,283
893,893,0,2046,885
894,894,0,2046,1690
895,895,0,2047,2556
896,896,0,2046,3330
897,897,0,2046,3879
898,898,0,2047,4095
899,899,0,2047,3966
900,900,0,2046,3489
901,901,0,2046,2758
902,902,0,2046,1900
903,903,0,2047,1066
904,904,0,2046,404
905,905,0,2046,28
906,906,0,2046,6
907,907,0,2046,340
908,908,0,2046,973
909,909,0,2047,1792
910,910,0,2047,2655
911,911,0,2046,3410
912,912,0,2047,3924
913,913,0,2046,4095
914,914,0,2045,3927
915,915,0,2046,3413
916,916,0,2047,2659
917,917,0,2046,1796
918,918,0,2046,976
919,919,0,2046,342
920,920,0,2046,6
921,921,0,2046,26
922,922,0,2047,401
923,923,0,2046,1063
924,924,0,2047,1895
925,925,0,2046,2753
926,926,0,2047,3486
927,927,0,2045,3964
928,928,0,2047,4095
929,929,0,2047,3881
930,930,0,2047,3334
931,931,0,2046,2560
932,932,0,2046,1694
933,933,0,2046,888
934,934,0,2046,285
935,935,0,2046,0
936,936,0,2046,54
937,937,0,2047,466
938,938,0,2046,1156
939,939,0,2047,2001
940,940,0,2047,2850
941,941,0,2047,3559
942,942,0,2046,4000
943,943,0,2046,4095
944,944,0,2046,3831
945,945,0,2047,3251
946,946,0,2047,2459
947,947,0,2046,1591
948,948,0,2046,803
949,949,0,2046,232
950,950,0,2047,0
951,951,0,2047,86
952,952,0,2047,536
953,953,0,2046,1250
954,954,0,2047,2104
955,955,0,2046,2945
956,956,0,2047,3627
957,957,0,2047,4030
958,958,0,2046,4084
959,959,0,2046,3777
960,960,0,2046,3166
961,961,0,2047,2355
962,962,0,2046,1490
963,963,0,2047,722
964,964,0,2047,183
965,965,0,2046,0
966,966,0,2047,122
967,967,0,2047,610
968,968,0,2046,1348
969,969,0,2047,2207
970,970,0,2046,3038
971,971,0,2046,3692
972,972,0,2047,4056
973,973,0,2047,4065
974,974,0,2046,3719
975,975,0,2046,3077
976,976,0,2046,2252
977,977,0,2046,1391
978,978,0,2046,643
979,979,0,2046,141
980,980,0,2047,0
981,981,0,2047,163
982,982,0,2046,687
983,983,0,2047,1446
984,984,0,2046,2310
985,985,0,2047,3127
986,986,0,2046,3751
987,987,0,2046,4077
988,988,0,2047,4042
989,989,0,2046,3657
990,990,0,2046,2986
991,991,0,2046,2149
992,992,0,2047,1293
993,993,0,2046,568
994,994,0,2047,101
995,995,0,2046,0
996,996,0,2046,210
997,997,0,2046,766
998,998,0,2046,1546
999,999,0,2047,2413
1000,1000,0,2047,3214
1001,1001,0,2046,3809
1002,1002,0,2046,4092
1003,1003,0,2047,4015
1004,1004,0,2046,3590
1005,1005,0,2046,2893
1006,1006,0,2046,2045
1007,1007,0,2046,1198
1008,1008,0,2046,498
1009,1009,0,2046,68
1010,1010,0,2046,0
1011,1011,0,2047,261
1012,1012,0,2047,851
1013,1013,0,2046,1648
1014,1014,0,2047,2515
1015,1015,0,2046,3298
1016,1016,0,2046,3859
1017,1017,0,2047,4095
1018,1018,0,2046,3981
1019,1019,0,2046,3519
1020,1020,0,2046,2797
1021,1021,0,2047,1942
1022,1022,0,2046,1104
1023,1023,0,2047,430
1024,1024,0,2046,40
1025,1025,0,2046,0
1026,1026,0,2046,316
1027,1027,0,2046,936
1028,1028,0,2046,1751
