Sample in Buffer,Sample in Window,TRIGGER,adc1_data_a_d0[11:0],adc1_data_b_d0[11:0]
0,0,0,2047,2082
1,1,0,2046,2758
2,2,0,2046,3356
3,3,0,2047,3809
4,4,0,2047,4069
5,5,0,2046,4095
6,6,0,2046,3915
7,7,0,2047,3520
8,8,0,2046,2962
9,9,0,2046,2303
10,10,0,2046,1616
11,11,0,2046,975
12,12,0,2047,450
13,13,0,2046,99
14,14,0,2046,0
15,15,0,2046,49
16,16,0,2047,356
17,17,0,2046,848
18,18,0,2047,1469
19,19,0,2047,2154
20,20,0,2047,2825
21,21,0,2046,3410
22,22,0,2046,3846
23,23,0,2046,4083
24,24,0,2046,4095
25,25,0,2046,3883
26,26,0,2047,3469
27,27,0,2047,2897
28,28,0,2047,2232
29,29,0,2046,1546
30,30,0,2046,914
31,31,0,2047,404
32,32,0,2046,74
33,33,0,2046,0
34,34,0,2046,71
35,35,0,2046,400
36,36,0,2046,907
37,37,0,2047,1539
38,38,0,2046,2225
39,39,0,2046,2891
40,40,0,2047,3463
41,41,0,2046,3880
42,42,0,2047,4094
43,43,0,2046,4084
44,44,0,2047,3849
45,45,0,2046,3416
46,46,0,2046,2832
47,47,0,2046,2161
48,48,0,2046,1477
49,49,0,2046,854
50,50,0,2046,362
51,51,0,2046,52
52,52,0,2046,0
53,53,0,2047,96
54,54,0,2046,445
55,55,0,2046,968
56,56,0,2046,1608
57,57,0,2046,2296
58,58,0,2047,2956
59,59,0,2047,3514
60,60,0,2046,3913
61,61,0,2046,4095
62,62,0,2047,4070
63,63,0,2047,3813
64,64,0,2047,3361
65,65,0,2047,2766
66,66,0,2046,2089
67,67,0,2046,1408
68,68,0,2047,796
69,69,0,2046,320
70,70,0,2047,32
71,71,0,2046,0
72,72,0,2046,122
73,73,0,2046,492
74,74,0,2046,1030
75,75,0,2046,1679
76,76,0,2047,2367
77,77,0,2047,3019
78,78,0,2046,3565
79,79,0,2047,3942
80,80,0,2046,4095
81,81,0,2046,4054
82,82,0,2046,3775
83,83,0,2046,3305
84,84,0,2046,2698
85,85,0,2047,2018
86,86,0,2046,1340
87,87,0,2047,739
88,88,0,2047,281
89,89,0,2047,14
90,90,0,2047,0
91,91,0,2046,152
92,92,0,2046,541
93,93,0,2047,1093
94,94,0,2046,1749
95,95,0,2046,2438
96,96,0,2046,3082
97,97,0,2046,3612
98,98,0,2046,3970
99,99,0,2047,4095
100,100,0,2047,4034
101,101,0,2046,3734
102,102,0,2046,3248
103,103,0,2046,2630
104,104,0,2046,1946
105,105,0,2046,1274
106,106,0,2046,684
107,107,0,2046,243
108,108,0,2046,0
109,109,0,2047,0
110,110,0,2046,182
111,111,0,2047,591
112,112,0,2046,1156
113,113,0,2047,1820
114,114,0,2046,2507
115,115,0,2046,3143
116,116,0,2046,3658
117,117,0,2047,3994
118,118,0,2046,4095
119,119,0,2046,4013
120,120,0,2047,3692
121,121,0,2046,3189
122,122,0,2046,2561
123,123,0,2046,1875
124,124,0,2046,1207
125,125,0,2046,631
126,126,0,2046,209
127,127,0,2046,0
128,128,0,2046,0
129,129,0,2046,217
130,130,0,2046,643
131,131,0,2047,1223
132,132,0,2046,1892
133,133,0,2046,2576
134,134,0,2046,3203
135,135,0,2046,3702
136,136,0,2046,4018
137,137,0,2047,4095
138,138,0,2046,3990
139,139,0,2046,3647
140,140,0,2046,3129
141,141,0,2045,2491
142,142,0,2047,1804
143,143,0,2046,1142
144,144,0,2046,579
145,145,0,2046,175
146,146,0,2046,0
147,147,0,2046,2
148,148,0,2047,251
149,149,0,2046,697
150,150,0,2046,1290
151,151,0,2046,1963
152,152,0,2046,2646
153,153,0,2046,3262
154,154,0,2047,3744
155,155,0,2047,4039
156,156,0,2046,4095
157,157,0,2046,3963
158,158,0,2046,3601
159,159,0,2046,3067
160,160,0,2046,2421
161,161,0,2047,1733
162,162,0,2046,1078
163,163,0,2047,528
164,164,0,2046,145
165,165,0,2046,0
166,166,0,2047,18
167,167,0,2046,290
168,168,0,2046,752
169,169,0,2046,1356
170,170,0,2047,2035
171,171,0,2046,2714
172,172,0,2046,3319
173,173,0,2047,3784
174,174,0,2046,4058
175,175,0,2046,4095
176,176,0,2046,3936
177,177,0,2046,3552
178,178,0,2046,3005
179,179,0,2046,2351
180,180,0,2046,1663
181,181,0,2046,1016
182,182,0,2046,481
183,183,0,2046,117
184,184,0,2047,0
185,185,0,2046,37
186,186,0,2046,329
187,187,0,2046,810
188,188,0,2047,1424
189,189,0,2046,2106
190,190,0,2046,2781
191,191,0,2046,3375
192,192,0,2047,3821
193,193,0,2047,4074
194,194,0,2046,4095
195,195,0,2046,3905
196,196,0,2046,3503
197,197,0,2046,2941
198,198,0,2046,2280
199,199,0,2046,1593
200,200,0,2046,954
201,201,0,2047,434
202,202,0,2046,91
203,203,0,2046,0
204,204,0,2046,56
205,205,0,2047,370
206,206,0,2046,867
207,207,0,2047,1493
208,208,0,2047,2178
209,209,0,2046,2847
210,210,0,2047,3429
211,211,0,2046,3857
212,212,0,2046,4087
213,213,0,2046,4093
214,214,0,2047,3872
215,215,0,2047,3451
216,216,0,2046,2876
217,217,0,2047,2208
218,218,0,2047,1523
219,219,0,2046,893
220,220,0,2046,390
221,221,0,2046,67
222,222,0,2046,0
223,223,0,2047,79
224,224,0,2047,415
225,225,0,2046,927
226,226,0,2046,1562
227,227,0,2046,2250
228,228,0,2046,2913
229,229,0,2046,3481
230,230,0,2046,3891
231,231,0,2046,4095
232,232,0,2047,4079
233,233,0,2046,3837
234,234,0,2046,3398
235,235,0,2047,2809
236,236,0,2047,2137
237,237,0,2046,1453
238,238,0,2046,834
239,239,0,2046,348
240,240,0,2046,45
241,241,0,2046,0
242,242,0,2046,105
243,243,0,2046,460
244,244,0,2046,989
245,245,0,2046,1632
246,246,0,2047,2320
247,247,0,2047,2976
248,248,0,2047,3531
249,249,0,2046,3923
250,250,0,2046,4095
251,251,0,2046,4065
252,252,0,2046,3801
253,253,0,2046,3343
254,254,0,2046,2742
255,255,0,2047,2066
256,256,0,2046,1386
257,257,0,2046,777
258,258,0,2047,306
259,259,0,2047,25
260,260,0,2046,0
261,261,0,2046,132
262,262,0,2047,507
263,263,0,2047,1051
264,264,0,2046,1703
265,265,0,2045,2390
266,266,0,2047,3040
267,267,0,2046,3580
268,268,0,2046,3952
269,269,0,2046,4095
270,270,0,2046,4047
271,271,0,2046,3762
272,272,0,2046,3287
273,273,0,2046,2675
274,274,0,2046,1994
275,275,0,2046,1318
276,276,0,2046,720
277,277,0,2047,268
278,278,0,2046,9
279,279,0,2046,0
280,280,0,2046,162
281,281,0,2046,557
282,282,0,2046,1114
283,283,0,2047,1773
284,284,0,2047,2460
285,285,0,2047,3102
286,286,0,2046,3627
287,287,0,2046,3979
288,288,0,2046,4095
289,289,0,2047,4028
290,290,0,2046,3720
291,291,0,2046,3228
292,292,0,2046,2607
293,293,0,2047,1922
294,294,0,2046,1251
295,295,0,2046,666
296,296,0,2046,232
297,297,0,2047,0
298,298,0,2047,0
299,299,0,2047,194
300,300,0,2046,608
301,301,0,2047,1179
302,302,0,2046,1845
303,303,0,2046,2531
304,304,0,2046,3163
305,305,0,2047,3673
306,306,0,2047,4004
307,307,0,2047,4095
308,308,0,2046,4005
309,309,0,2046,3677
310,310,0,2046,3169
311,311,0,2046,2538
312,312,0,2046,1851
313,313,0,2046,1185
314,314,0,2047,614
315,315,0,2046,197
316,316,0,2047,0
317,317,0,2046,0
318,318,0,2046,228
319,319,0,2047,661
320,320,0,2047,1245
321,321,0,2046,1916
322,322,0,2046,2600
323,323,0,2047,3223
324,324,0,2047,3716
325,325,0,2046,4025
326,326,0,2046,4095
327,327,0,2046,3981
328,328,0,2047,3632
329,329,0,2046,3109
330,330,0,2046,2468
331,331,0,2047,1781
332,332,0,2046,1121
333,333,0,2046,562
334,334,0,2047,165
335,335,0,2047,0
336,336,0,2046,7
337,337,0,2046,264
338,338,0,2046,715
339,339,0,2046,1311
340,340,0,2047,1987
341,341,0,2047,2669
342,342,0,2046,3280
343,343,0,2047,3757
344,344,0,2047,4045
345,345,0,2047,4095
346,346,0,2046,3955
347,347,0,2046,3585
348,348,0,2047,3046
349,349,0,2046,2398
350,350,0,2046,1709
351,351,0,2047,1058
352,352,0,2046,512
353,353,0,2046,136
354,354,0,2046,0
355,355,0,2047,24
356,356,0,2046,302
357,357,0,2046,771
358,358,0,2046,1379
359,359,0,2046,2059
360,360,0,2046,2736
361,361,0,2046,3338
362,362,0,2046,3796
363,363,0,2046,4063
364,364,0,2046,4095
365,365,0,2046,3925
366,366,0,2046,3536
367,367,0,2046,2983
368,368,0,2046,2327
369,369,0,2046,1639
370,370,0,2047,995
371,371,0,2046,465
372,372,0,2046,108
373,373,0,2046,0
374,374,0,2046,43
375,375,0,2047,342
376,376,0,2046,829
377,377,0,2046,1447
378,378,0,2047,2130
379,379,0,2046,2803
380,380,0,2046,3393
381,381,0,2047,3834
382,382,0,2047,4079
383,383,0,2047,4095
384,384,0,2046,3894
385,385,0,2047,3486
386,386,0,2047,2919
387,387,0,2046,2256
388,388,0,2047,1569
389,389,0,2046,934
390,390,0,2046,419
391,391,0,2047,82
392,392,0,2046,0
393,393,0,2046,64
394,394,0,2047,385
395,395,0,2046,888
396,396,0,2046,1516
397,397,0,2047,2201
398,398,0,2046,2870
399,399,0,2047,3446
400,400,0,2046,3869
401,401,0,2046,4091
402,402,0,2047,4088
403,403,0,2046,3861
404,404,0,2045,3433
405,405,0,2047,2853
406,406,0,2046,2185
407,407,0,2046,1500
408,408,0,2046,874
409,409,0,2046,375
410,410,0,2046,60
411,411,0,2047,0
412,412,0,2046,88
413,413,0,2046,429
414,414,0,2046,948
415,415,0,2046,1585
416,416,0,2046,2273
417,417,0,2047,2934
418,418,0,2047,3498
419,419,0,2046,3902
420,420,0,2046,4095
421,421,0,2047,4075
422,422,0,2047,3826
423,423,0,2047,3380
424,424,0,2046,2787
425,425,0,2046,2113
426,426,0,2046,1431
427,427,0,2047,816
428,428,0,2047,333
429,429,0,2047,38
430,430,0,2046,0
431,431,0,2046,113
432,432,0,2047,476
433,433,0,2046,1009
434,434,0,2046,1656
435,435,0,2046,2344
436,436,0,2046,2998
437,437,0,2047,3548
438,438,0,2046,3933
439,439,0,2046,4095
440,440,0,2046,4059
441,441,0,2046,3787
442,442,0,2045,3324
443,443,0,2046,2720
444,444,0,2047,2042
445,445,0,2046,1363
446,446,0,2046,758
447,447,0,2047,294
448,448,0,2047,20
449,449,0,2046,0
450,450,0,2047,141
451,451,0,2046,524
452,452,0,2046,1072
453,453,0,2046,1726
454,454,0,2047,2414
455,455,0,2046,3061
456,456,0,2047,3596
457,457,0,2046,3961
458,458,0,2046,4095
459,459,0,2047,4041
460,460,0,2047,3748
461,461,0,2046,3267
462,462,0,2046,2652
463,463,0,2047,1971
464,464,0,2046,1295
465,465,0,2046,703
466,466,0,2046,256
467,467,0,2046,4
468,468,0,2046,0
469,469,0,2046,172
470,470,0,2046,573
471,471,0,2046,1136
472,472,0,2046,1797
473,473,0,2046,2485
474,474,0,2046,3124
475,475,0,2046,3643
476,476,0,2047,3987
477,477,0,2046,4095
478,478,0,2046,4020
479,479,0,2046,3706
480,480,0,2046,3209
481,481,0,2045,2584
482,482,0,2046,1899
483,483,0,2047,1228
484,484,0,2047,649
485,485,0,2046,220
486,486,0,2046,0
487,487,0,2046,0
488,488,0,2046,204
489,489,0,2046,626
490,490,0,2046,1201
491,491,0,2046,1868
492,492,0,2047,2554
493,493,0,2046,3183
494,494,0,2046,3687
495,495,0,2047,4010
496,496,0,2046,4095
497,497,0,2047,3997
498,498,0,2047,3662
499,499,0,2047,3149
500,500,0,2046,2514
501,501,0,2046,1828
502,502,0,2046,1164
503,503,0,2046,596
504,504,0,2046,186
505,505,0,2047,0
506,506,0,2046,0
507,507,0,2047,238
508,508,0,2046,679
509,509,0,2046,1267
510,510,0,2046,1940
511,511,0,2046,2623
512,512,0,2046,3242
513,513,0,2046,3729
514,514,0,2046,4032
515,515,0,2047,4095
516,516,0,2046,3972
517,517,0,2046,3616
518,518,0,2046,3088
519,519,0,2046,2444
520,520,0,2047,1756
521,521,0,2046,1100
522,522,0,2046,545
523,523,0,2047,156
524,524,0,2046,0
525,525,0,2046,13
526,526,0,2047,276
527,527,0,2046,734
528,528,0,2046,1334
529,529,0,2046,2011
530,530,0,2046,2691
531,531,0,2046,3300
532,532,0,2047,3770
533,533,0,2046,4052
534,534,0,2046,4095
535,535,0,2047,3945
536,536,0,2046,3569
537,537,0,2047,3025
538,538,0,2046,2373
539,539,0,2046,1685
540,540,0,2047,1037
541,541,0,2046,496
542,542,0,2046,126
543,543,0,2046,0
544,544,0,2046,30
545,545,0,2046,315
546,546,0,2047,790
547,547,0,2046,1401
548,548,0,2046,2082
549,549,0,2047,2758
550,550,0,2046,3356
551,551,0,2047,3809
552,552,0,2046,4067
553,553,0,2046,4095
554,554,0,2047,3916
555,555,0,2047,3519
556,556,0,2046,2961
557,557,0,2046,2302
558,558,0,2046,1615
559,559,0,2047,975
560,560,0,2047,449
561,561,0,2046,98
562,562,0,2047,0
563,563,0,2046,50
564,564,0,2046,357
565,565,0,2046,848
566,566,0,2046,1470
567,567,0,2046,2154
568,568,0,2046,2826
569,569,0,2047,3411
570,570,0,2046,3845
571,571,0,2046,4083
572,572,0,2046,4095
573,573,0,2046,3883
574,574,0,2046,3468
575,575,0,2046,2897
576,576,0,2046,2231
577,577,0,2046,1546
578,578,0,2046,913
579,579,0,2047,405
580,580,0,2047,75
581,581,0,2046,0
582,582,0,2046,72
583,583,0,2046,400
584,584,0,2046,908
585,585,0,2046,1539
586,586,0,2047,2225
587,587,0,2047,2891
588,588,0,2046,3464
589,589,0,2046,3880
590,590,0,2046,4094
591,591,0,2046,4084
592,592,0,2046,3849
593,593,0,2046,3416
594,594,0,2046,2832
595,595,0,2046,2161
596,596,0,2046,1477
597,597,0,2046,854
598,598,0,2046,361
599,599,0,2046,52
600,600,0,2046,0
601,601,0,2046,96
602,602,0,2046,445
603,603,0,2046,968
604,604,0,2047,1609
605,605,0,2046,2297
606,606,0,2046,2956
607,607,0,2046,3515
608,608,0,2046,3913
609,609,0,2047,4095
610,610,0,2046,4069
611,611,0,2047,3813
612,612,0,2047,3361
613,613,0,2046,2764
614,614,0,2046,2090
615,615,0,2046,1408
616,616,0,2047,796
617,617,0,2047,320
618,618,0,2046,32
619,619,0,2046,0
620,620,0,2046,123
621,621,0,2046,492
622,622,0,2046,1030
623,623,0,2046,1679
624,624,0,2046,2368
625,625,0,2046,3019
626,626,0,2046,3565
627,627,0,2046,3942
628,628,0,2047,4095
629,629,0,2046,4053
630,630,0,2046,3775
631,631,0,2046,3306
632,632,0,2046,2698
633,633,0,2046,2018
634,634,0,2047,1340
635,635,0,2046,739
636,636,0,2046,280
637,637,0,2046,15
638,638,0,2047,0
639,639,0,2046,152
640,640,0,2046,541
641,641,0,2046,1093
642,642,0,2046,1750
643,643,0,2046,2438
644,644,0,2047,3083
645,645,0,2046,3612
646,646,0,2046,3970
647,647,0,2046,4095
648,648,0,2046,4034
649,649,0,2047,3734
650,650,0,2047,3248
651,651,0,2046,2629
652,652,0,2046,1946
653,653,0,2046,1273
654,654,0,2047,684
655,655,0,2046,244
656,656,0,2046,0
657,657,0,2047,0
658,658,0,2047,182
659,659,0,2046,591
660,660,0,2047,1158
661,661,0,2046,1821
662,662,0,2046,2508
663,663,0,2047,3143
664,664,0,2046,3658
665,665,0,2047,3996
666,666,0,2047,4095
667,667,0,2046,4013
668,668,0,2046,3691
669,669,0,2046,3189
670,670,0,2046,2560
671,671,0,2046,1874
672,672,0,2046,1207
673,673,0,2046,631
674,674,0,2047,208
675,675,0,2047,0
676,676,0,2046,0
677,677,0,2047,216
678,678,0,2046,643
679,679,0,2046,1223
680,680,0,2046,1892
681,681,0,2046,2577
682,682,0,2046,3203
683,683,0,2046,3702
684,684,0,2046,4018
685,685,0,2046,4095
686,686,0,2046,3989
687,687,0,2047,3646
688,688,0,2046,3128
689,689,0,2046,2491
690,690,0,2046,1804
691,691,0,2046,1143
692,692,0,2046,579
693,693,0,2046,175
694,694,0,2046,0
695,695,0,2046,3
696,696,0,2046,251
697,697,0,2047,697
698,698,0,2046,1289
699,699,0,2046,1964
700,700,0,2046,2646
701,701,0,2046,3261
702,702,0,2046,3744
703,703,0,2046,4040
704,704,0,2046,4095
705,705,0,2046,3963
706,706,0,2046,3601
707,707,0,2046,3067
708,708,0,2047,2420
709,709,0,2046,1732
710,710,0,2046,1078
711,711,0,2046,528
712,712,0,2046,145
713,713,0,2046,0
714,714,0,2046,18
715,715,0,2046,290
716,716,0,2046,752
717,717,0,2046,1356
718,718,0,2046,2035
719,719,0,2046,2714
720,720,0,2046,3320
721,721,0,2047,3784
722,722,0,2047,4058
723,723,0,2046,4095
724,724,0,2046,3935
725,725,0,2046,3552
726,726,0,2047,3004
727,727,0,2046,2350
728,728,0,2046,1662
729,729,0,2046,1015
730,730,0,2046,481
731,731,0,2046,116
732,732,0,2046,0
733,733,0,2046,36
734,734,0,2047,330
735,735,0,2046,810
736,736,0,2046,1425
737,737,0,2046,2106
738,738,0,2046,2781
739,739,0,2047,3375
740,740,0,2047,3822
741,741,0,2046,4073
742,742,0,2046,4095
743,743,0,2046,3905
744,744,0,2047,3503
745,745,0,2046,2940
746,746,0,2046,2279
747,747,0,2045,1592
748,748,0,2046,953
749,749,0,2047,434
750,750,0,2046,90
751,751,0,2046,0
752,752,0,2046,57
753,753,0,2047,370
754,754,0,2046,868
755,755,0,2047,1493
756,756,0,2046,2178
757,757,0,2046,2848
758,758,0,2046,3429
759,759,0,2047,3857
760,760,0,2046,4087
761,761,0,2046,4092
762,762,0,2046,3872
763,763,0,2046,3450
764,764,0,2046,2875
765,765,0,2046,2208
766,766,0,2045,1522
767,767,0,2046,893
768,768,0,2046,390
769,769,0,2046,67
770,770,0,2046,0
771,771,0,2046,80
772,772,0,2046,415
773,773,0,2046,928
774,774,0,2046,1563
775,775,0,2046,2249
776,776,0,2046,2913
777,777,0,2046,3481
778,778,0,2046,3891
779,779,0,2047,4095
780,780,0,2047,4079
781,781,0,2046,3837
782,782,0,2046,3398
783,783,0,2046,2809
784,784,0,2046,2137
785,785,0,2046,1453
786,786,0,2046,833
787,787,0,2046,347
788,788,0,2046,45
789,789,0,2047,0
790,790,0,2047,105
791,791,0,2046,460
792,792,0,2045,989
793,793,0,2047,1632
794,794,0,2046,2321
795,795,0,2046,2978
796,796,0,2047,3532
797,797,0,2047,3922
798,798,0,2046,4095
799,799,0,2047,4064
800,800,0,2047,3799
801,801,0,2046,3343
802,802,0,2046,2742
803,803,0,2046,2066
804,804,0,2047,1385
805,805,0,2046,777
806,806,0,2046,306
807,807,0,2046,25
808,808,0,2046,0
809,809,0,2047,132
810,810,0,2046,508
811,811,0,2046,1051
812,812,0,2046,1703
813,813,0,2046,2392
814,814,0,2046,3041
815,815,0,2046,3582
816,816,0,2046,3952
817,817,0,2046,4095
818,818,0,2046,4047
819,819,0,2047,3761
820,820,0,2046,3286
821,821,0,2046,2674
822,822,0,2047,1993
823,823,0,2046,1317
824,824,0,2046,720
825,825,0,2046,268
826,826,0,2046,8
827,827,0,2047,0
828,828,0,2046,162
829,829,0,2046,558
830,830,0,2046,1114
831,831,0,2047,1774
832,832,0,2046,2461
833,833,0,2046,3103
834,834,0,2046,3628
835,835,0,2047,3978
836,836,0,2047,4095
837,837,0,2047,4027
838,838,0,2046,3719
839,839,0,2046,3228
840,840,0,2047,2606
841,841,0,2045,1921
842,842,0,2046,1251
843,843,0,2047,666
844,844,0,2046,231
845,845,0,2047,0
846,846,0,2046,0
847,847,0,2046,194
848,848,0,2046,609
849,849,0,2046,1179
850,850,0,2046,1845
851,851,0,2046,2532
852,852,0,2046,3163
853,853,0,2046,3672
854,854,0,2047,4003
855,855,0,2046,4095
856,856,0,2046,4005
857,857,0,2046,3677
858,858,0,2046,3168
859,859,0,2046,2536
860,860,0,2047,1851
861,861,0,2047,1185
862,862,0,2046,614
863,863,0,2046,196
864,864,0,2046,0
865,865,0,2046,0
866,866,0,2046,228
867,867,0,2047,661
868,868,0,2046,1245
869,869,0,2046,1916
870,870,0,2046,2601
871,871,0,2046,3223
872,872,0,2045,3716
873,873,0,2046,4025
874,874,0,2047,4095
875,875,0,2047,3980
876,876,0,2047,3631
877,877,0,2046,3107
878,878,0,2046,2467
879,879,0,2046,1779
880,880,0,2046,1120
881,881,0,2047,561
882,882,0,2046,164
883,883,0,2047,0
884,884,0,2046,7
885,885,0,2046,264
886,886,0,2046,715
887,887,0,2047,1312
888,888,0,2047,1988
889,889,0,2046,2669
890,890,0,2046,3281
891,891,0,2046,3757
892,892,0,2046,4045
893,893,0,2046,4095
894,894,0,2046,3954
895,895,0,2046,3584
896,896,0,2046,3045
897,897,0,2047,2397
898,898,0,2047,1709
899,899,0,2046,1057
900,900,0,2046,512
901,901,0,2046,135
902,902,0,2046,0
903,903,0,2047,24
904,904,0,2046,303
905,905,0,2046,771
906,906,0,2046,1380
907,907,0,2046,2059
908,908,0,2046,2737
909,909,0,2046,3338
910,910,0,2046,3797
911,911,0,2046,4063
912,912,0,2046,4095
913,913,0,2046,3925
914,914,0,2046,3535
915,915,0,2046,2983
916,916,0,2046,2326
917,917,0,2046,1638
918,918,0,2046,994
919,919,0,2046,465
920,920,0,2046,107
921,921,0,2046,0
922,922,0,2046,43
923,923,0,2047,342
924,924,0,2047,830
925,925,0,2046,1448
926,926,0,2046,2131
927,927,0,2047,2804
928,928,0,2047,3393
929,929,0,2046,3834
930,930,0,2046,4078
931,931,0,2047,4095
932,932,0,2047,3894
933,933,0,2047,3486
934,934,0,2047,2918
935,935,0,2047,2255
936,936,0,2047,1569
937,937,0,2046,933
938,938,0,2047,419
939,939,0,2046,82
940,940,0,2047,0
941,941,0,2046,65
942,942,0,2046,386
943,943,0,2046,888
944,944,0,2047,1516
945,945,0,2047,2202
946,946,0,2046,2870
947,947,0,2047,3447
948,948,0,2046,3869
949,949,0,2047,4092
950,950,0,2047,4088
951,951,0,2046,3860
952,952,0,2046,3433
953,953,0,2046,2853
954,954,0,2046,2183
955,955,0,2046,1499
956,956,0,2046,873
957,957,0,2047,375
958,958,0,2046,59
959,959,0,2046,0
960,960,0,2046,88
961,961,0,2046,431
962,962,0,2046,949
963,963,0,2046,1586
964,964,0,2047,2273
965,965,0,2047,2935
966,966,0,2046,3498
967,967,0,2046,3902
968,968,0,2047,4095
969,969,0,2046,4075
970,970,0,2046,3825
971,971,0,2046,3379
972,972,0,2046,2787
973,973,0,2046,2113
974,974,0,2047,1430
975,975,0,2046,815
976,976,0,2047,332
977,977,0,2047,38
978,978,0,2046,0
979,979,0,2046,114
980,980,0,2047,476
981,981,0,2046,1010
982,982,0,2047,1655
983,983,0,2047,2345
984,984,0,2046,2999
985,985,0,2047,3549
986,986,0,2047,3932
987,987,0,2045,4095
988,988,0,2046,4059
989,989,0,2046,3787
990,990,0,2046,3324
991,991,0,2046,2720
992,992,0,2046,2041
993,993,0,2047,1362
994,994,0,2046,757
995,995,0,2046,293
996,996,0,2046,20
997,997,0,2047,0
998,998,0,2046,142
999,999,0,2046,525
1000,1000,0,2047,1072
1001,1001,0,2046,1727
1002,1002,0,2046,2415
1003,1003,0,2046,3061
1004,1004,0,2046,3597
1005,1005,0,2046,3961
1006,1006,0,2046,4095
1007,1007,0,2047,4041
1008,1008,0,2046,3748
1009,1009,0,2046,3267
1010,1010,0,2047,2651
1011,1011,0,2046,1970
1012,1012,0,2046,1295
1013,1013,0,2047,702
1014,1014,0,2046,255
1015,1015,0,2046,3
1016,1016,0,2046,0
1017,1017,0,2046,173
1018,1018,0,2047,575
1019,1019,0,2047,1136
1020,1020,0,2046,1797
1021,1021,0,2046,2485
1022,1022,0,2046,3124
1023,1023,0,2046,3643
1024,1024,0,2046,3987
1025,1025,0,2046,4095
1026,1026,0,2046,4019
1027,1027,0,2047,3705
1028,1028,0,2046,3208
1029,1029,0,2047,2583
