Sample in Buffer,Sample in Window,TRIGGER,adc1_data_a_d0[11:0],adc1_data_b_d0[11:0]
0,0,0,2047,0
1,1,0,2046,256
2,2,0,2047,842
3,3,0,2046,1637
4,4,0,2046,2504
5,5,0,2047,3288
6,6,0,2047,3853
7,7,0,2046,4095
8,8,0,2046,3987
9,9,0,2046,3531
10,10,0,2046,2813
11,11,0,2047,1961
12,12,0,2047,1122
13,13,0,2046,443
14,14,0,2046,44
15,15,0,2046,0
16,16,0,2047,302
17,17,0,2046,916
18,18,0,2047,1725
19,19,0,2046,2589
20,20,0,2047,3357
21,21,0,2047,3894
22,22,0,2046,4095
23,23,0,2046,3955
24,24,0,2046,3467
25,25,0,2046,2730
26,26,0,2046,1872
27,27,0,2046,1042
28,28,0,2047,388
29,29,0,2046,22
30,30,0,2047,9
31,31,0,2046,352
32,32,0,2047,990
33,33,0,2046,1812
34,34,0,2047,2674
35,35,0,2046,3423
36,36,0,2046,3930
37,37,0,2047,4095
38,38,0,2047,3920
39,39,0,2046,3403
40,40,0,2047,2647
41,41,0,2046,1785
42,42,0,2047,967
43,43,0,2046,336
44,44,0,2047,4
45,45,0,2046,28
46,46,0,2047,405
47,47,0,2046,1068
48,48,0,2047,1900
49,49,0,2047,2757
50,50,0,2047,3488
51,51,0,2046,3965
52,52,0,2047,4095
53,53,0,2046,3882
54,54,0,2046,3335
55,55,0,2047,2562
56,56,0,2046,1697
57,57,0,2046,892
58,58,0,2047,288
59,59,0,2046,0
60,60,0,2046,52
61,61,0,2046,461
62,62,0,2046,1147
63,63,0,2047,1989
64,64,0,2046,2839
65,65,0,2047,3549
66,66,0,2046,3995
67,67,0,2046,4095
68,68,0,2047,3840
69,69,0,2046,3265
70,70,0,2046,2476
71,71,0,2046,1610
72,72,0,2047,819
73,73,0,2046,242
74,74,0,2046,0
75,75,0,2046,77
76,76,0,2047,519
77,77,0,2046,1226
78,78,0,2047,2077
79,79,0,2047,2920
80,80,0,2046,3608
81,81,0,2046,4022
82,82,0,2047,4089
83,83,0,2046,3794
84,84,0,2046,3194
85,85,0,2046,2389
86,86,0,2047,1525
87,87,0,2047,750
88,88,0,2046,201
89,89,0,2046,0
90,90,0,2047,108
91,91,0,2046,580
92,92,0,2046,1309
93,93,0,2047,2165
94,94,0,2046,2999
95,95,0,2046,3665
96,96,0,2047,4045
97,97,0,2046,4074
98,98,0,2046,3746
99,99,0,2046,3119
100,100,0,2046,2302
101,101,0,2046,1439
102,102,0,2046,681
103,103,0,2046,161
104,104,0,2046,0
105,105,0,2047,142
106,106,0,2046,645
107,107,0,2047,1392
108,108,0,2047,2253
109,109,0,2047,3077
110,110,0,2046,3718
111,111,0,2047,4065
112,112,0,2046,4057
113,113,0,2047,3695
114,114,0,2046,3042
115,115,0,2046,2214
116,116,0,2046,1355
117,117,0,2047,616
118,118,0,2047,126
119,119,0,2047,0
120,120,0,2046,178
121,121,0,2047,711
122,122,0,2046,1477
123,123,0,2047,2341
124,124,0,2046,3152
125,125,0,2046,3768
126,126,0,2047,4082
127,127,0,2047,4035
128,128,0,2047,3641
129,129,0,2047,2964
130,130,0,2047,2126
131,131,0,2046,1272
132,132,0,2046,553
133,133,0,2047,94
134,134,0,2046,0
135,135,0,2046,219
136,136,0,2046,780
137,137,0,2046,1562
138,138,0,2047,2427
139,139,0,2047,3224
140,140,0,2047,3814
141,141,0,2046,4093
142,142,0,2046,4011
143,143,0,2046,3583
144,144,0,2046,2885
145,145,0,2047,2038
146,146,0,2047,1191
147,147,0,2046,493
148,148,0,2047,66
149,149,0,2046,0
150,150,0,2047,262
151,151,0,2047,852
152,152,0,2046,1649
153,153,0,2046,2514
154,154,0,2047,3297
155,155,0,2046,3858
156,156,0,2046,4095
157,157,0,2047,3983
158,158,0,2047,3523
159,159,0,2046,2803
160,160,0,2046,1949
161,161,0,2047,1112
162,162,0,2046,435
163,163,0,2047,41
164,164,0,2047,0
165,165,0,2047,308
166,166,0,2046,924
167,167,0,2046,1736
168,168,0,2046,2600
169,169,0,2047,3365
170,170,0,2046,3899
171,171,0,2046,4095
172,172,0,2047,3952
173,173,0,2047,3460
174,174,0,2046,2721
175,175,0,2047,1862
176,176,0,2047,1033
177,177,0,2046,381
178,178,0,2047,20
179,179,0,2047,12
180,180,0,2046,359
181,181,0,2046,1000
182,182,0,2046,1823
183,183,0,2047,2684
184,184,0,2047,3432
185,185,0,2046,3936
186,186,0,2046,4095
187,187,0,2047,3915
188,188,0,2047,3395
189,189,0,2046,2636
190,190,0,2046,1773
191,191,0,2047,957
192,192,0,2047,330
193,193,0,2047,3
194,194,0,2046,32
195,195,0,2047,412
196,196,0,2047,1078
197,197,0,2047,1911
198,198,0,2046,2767
199,199,0,2047,3496
200,200,0,2047,3969
201,201,0,2047,4095
202,202,0,2047,3877
203,203,0,2046,3327
204,204,0,2047,2551
205,205,0,2046,1686
206,206,0,2046,882
207,207,0,2046,282
208,208,0,2046,0
209,209,0,2047,54
210,210,0,2046,467
211,211,0,2047,1157
212,212,0,2046,2000
213,213,0,2046,2849
214,214,0,2046,3557
215,215,0,2046,3999
216,216,0,2046,4095
217,217,0,2046,3834
218,218,0,2047,3257
219,219,0,2046,2466
220,220,0,2046,1600
221,221,0,2047,810
222,222,0,2046,237
223,223,0,2046,0
224,224,0,2046,82
225,225,0,2047,527
226,226,0,2046,1237
227,227,0,2046,2088
228,228,0,2047,2930
229,229,0,2047,3616
230,230,0,2046,4025
231,231,0,2046,4087
232,232,0,2046,3789
233,233,0,2047,3184
234,234,0,2047,2378
235,235,0,2047,1514
236,236,0,2046,741
237,237,0,2046,195
238,238,0,2046,0
239,239,0,2046,112
240,240,0,2046,589
241,241,0,2046,1320
242,242,0,2046,2176
243,243,0,2047,3010
244,244,0,2046,3671
245,245,0,2046,4048
246,246,0,2046,4072
247,247,0,2046,3740
248,248,0,2047,3110
249,249,0,2046,2292
250,250,0,2047,1429
251,251,0,2046,673
252,252,0,2046,156
253,253,0,2047,0
254,254,0,2047,145
255,255,0,2047,653
256,256,0,2047,1402
257,257,0,2046,2264
258,258,0,2046,3086
259,259,0,2047,3724
260,260,0,2047,4068
261,261,0,2046,4054
262,262,0,2046,3689
263,263,0,2046,3033
264,264,0,2047,2203
265,265,0,2047,1345
266,266,0,2046,608
267,267,0,2046,121
268,268,0,2046,0
269,269,0,2047,183
270,270,0,2046,720
271,271,0,2046,1488
272,272,0,2046,2351
273,273,0,2046,3161
274,274,0,2047,3774
275,275,0,2047,4082
276,276,0,2046,4033
277,277,0,2047,3633
278,278,0,2046,2954
279,279,0,2047,2115
280,280,0,2046,1262
281,281,0,2046,546
282,282,0,2046,90
283,283,0,2046,0
284,284,0,2047,223
285,285,0,2046,790
286,286,0,2047,1573
287,287,0,2046,2438
288,288,0,2047,3234
289,289,0,2047,3820
290,290,0,2047,4094
291,291,0,2046,4007
292,292,0,2047,3576
293,293,0,2046,2874
294,294,0,2047,2027
295,295,0,2046,1181
296,296,0,2047,486
297,297,0,2047,62
298,298,0,2046,0
299,299,0,2046,268
300,300,0,2047,861
301,301,0,2046,1659
302,302,0,2046,2525
303,303,0,2046,3305
304,304,0,2046,3864
305,305,0,2047,4095
306,306,0,2046,3980
307,307,0,2046,3515
308,308,0,2046,2793
309,309,0,2046,1939
310,310,0,2046,1102
311,311,0,2046,428
312,312,0,2046,39
313,313,0,2046,0
314,314,0,2047,314
315,315,0,2046,934
316,316,0,2047,1746
317,317,0,2046,2611
318,318,0,2047,3374
319,319,0,2047,3903
320,320,0,2047,4095
321,321,0,2047,3946
322,322,0,2046,3452
323,323,0,2046,2710
324,324,0,2046,1851
325,325,0,2046,1024
326,326,0,2046,376
327,327,0,2046,18
328,328,0,2047,15
329,329,0,2046,365
330,330,0,2046,1010
331,331,0,2047,1834
332,332,0,2046,2694
333,333,0,2046,3440
334,334,0,2047,3940
335,335,0,2047,4095
336,336,0,2046,3910
337,337,0,2046,3386
338,338,0,2046,2626
339,339,0,2046,1762
340,340,0,2047,948
341,341,0,2047,324
342,342,0,2047,0
343,343,0,2047,34
344,344,0,2046,419
345,345,0,2047,1087
346,346,0,2046,1922
347,347,0,2047,2777
348,348,0,2047,3504
349,349,0,2046,3973
350,350,0,2047,4095
351,351,0,2047,3872
352,352,0,2046,3318
353,353,0,2046,2540
354,354,0,2047,1676
355,355,0,2047,874
356,356,0,2046,276
357,357,0,2047,0
358,358,0,2047,57
359,359,0,2047,475
360,360,0,2046,1166
361,361,0,2046,2010
362,362,0,2046,2859
363,363,0,2046,3564
364,364,0,2047,4002
365,365,0,2047,4095
366,366,0,2046,3829
367,367,0,2047,3248
368,368,0,2047,2455
369,369,0,2046,1589
370,370,0,2047,802
371,371,0,2046,231
372,372,0,2047,0
373,373,0,2046,85
374,374,0,2047,535
375,375,0,2046,1247
376,376,0,2047,2099
377,377,0,2046,2939
378,378,0,2047,3623
379,379,0,2046,4028
380,380,0,2047,4085
381,381,0,2047,3783
382,382,0,2047,3175
383,383,0,2048,2367
384,384,0,2046,1503
385,385,0,2046,733
386,386,0,2047,190
387,387,0,2046,0
388,388,0,2046,116
389,389,0,2047,596
390,390,0,2046,1329
391,391,0,2047,2186
392,392,0,2046,3019
393,393,0,2046,3678
394,394,0,2047,4051
395,395,0,2046,4071
396,396,0,2047,3734
397,397,0,2046,3100
398,398,0,2046,2280
399,399,0,2046,1419
400,400,0,2047,665
401,401,0,2046,153
402,402,0,2047,0
403,403,0,2046,150
404,404,0,2046,661
405,405,0,2046,1413
406,406,0,2047,2275
407,407,0,2046,3095
408,408,0,2046,3731
409,409,0,2047,4069
410,410,0,2046,4051
411,411,0,2046,3681
412,412,0,2046,3023
413,413,0,2046,2192
414,414,0,2046,1334
415,415,0,2047,599
416,416,0,2047,118
417,417,0,2045,0
418,418,0,2046,188
419,419,0,2046,729
420,420,0,2046,1499
421,421,0,2047,2362
422,422,0,2046,3169
423,423,0,2047,3780
424,424,0,2046,4084
425,425,0,2047,4030
426,426,0,2046,3626
427,427,0,2047,2944
428,428,0,2047,2104
429,429,0,2046,1252
430,430,0,2047,538
431,431,0,2047,87
432,432,0,2047,0
433,433,0,2046,229
434,434,0,2047,798
435,435,0,2046,1584
436,436,0,2047,2449
437,437,0,2046,3243
438,438,0,2047,3826
439,439,0,2047,4095
440,440,0,2047,4004
441,441,0,2046,3569
442,442,0,2046,2864
443,443,0,2047,2016
444,444,0,2047,1171
445,445,0,2046,479
446,446,0,2046,59
447,447,0,2046,0
448,448,0,2046,274
449,449,0,2047,870
450,450,0,2047,1670
451,451,0,2047,2536
452,452,0,2047,3314
453,453,0,2046,3868
454,454,0,2047,4095
455,455,0,2046,3975
456,456,0,2047,3507
457,457,0,2046,2782
458,458,0,2046,1928
459,459,0,2046,1092
460,460,0,2046,422
461,461,0,2047,35
462,462,0,2047,0
463,463,0,2047,321
464,464,0,2047,943
465,465,0,2046,1757
466,466,0,2047,2621
467,467,0,2046,3382
468,468,0,2048,3908
469,469,0,2047,4095
470,470,0,2046,3943
471,471,0,2047,3444
472,472,0,2046,2700
473,473,0,2047,1839
474,474,0,2046,1014
475,475,0,2046,368
476,476,0,2047,15
477,477,0,2046,16
478,478,0,2046,371
479,479,0,2046,1019
480,480,0,2047,1845
481,481,0,2047,2705
482,482,0,2047,3448
483,483,0,2047,3944
484,484,0,2046,4095
485,485,0,2047,3906
486,486,0,2046,3378
487,487,0,2047,2615
488,488,0,2046,1752
489,489,0,2047,938
490,490,0,2046,318
491,491,0,2047,0
492,492,0,2046,37
493,493,0,2046,426
494,494,0,2046,1096
495,495,0,2047,1933
496,496,0,2046,2788
497,497,0,2046,3511
498,498,0,2047,3977
499,499,0,2046,4095
500,500,0,2047,3867
501,501,0,2046,3309
502,502,0,2046,2530
503,503,0,2046,1665
504,504,0,2046,865
505,505,0,2047,270
506,506,0,2046,0
507,507,0,2046,61
508,508,0,2046,481
509,509,0,2046,1177
510,510,0,2046,2022
511,511,0,2046,2869
512,512,0,2047,3572
513,513,0,2046,4006
514,514,0,2046,4095
515,515,0,2047,3823
516,516,0,2046,3238
517,517,0,2046,2444
518,518,0,2046,1579
519,519,0,2046,793
520,520,0,2046,227
521,521,0,2047,0
522,522,0,2047,89
523,523,0,2046,542
524,524,0,2047,1258
525,525,0,2047,2110
526,526,0,2047,2949
527,527,0,2046,3630
528,528,0,2046,4031
529,529,0,2046,4084
530,530,0,2047,3777
531,531,0,2047,3166
532,532,0,2047,2357
533,533,0,2046,1492
534,534,0,2046,725
535,535,0,2046,186
536,536,0,2046,0
537,537,0,2047,119
538,538,0,2047,604
539,539,0,2046,1339
540,540,0,2047,2198
541,541,0,2046,3028
542,542,0,2046,3685
543,543,0,2047,4053
544,544,0,2046,4068
545,545,0,2047,3729
546,546,0,2046,3091
547,547,0,2046,2269
548,548,0,2047,1409
549,549,0,2047,657
550,550,0,2047,148
551,551,0,2047,0
552,552,0,2046,154
553,553,0,2046,670
554,554,0,2046,1424
555,555,0,2046,2286
556,556,0,2047,3105
557,557,0,2047,3737
558,558,0,2046,4072
559,559,0,2046,4050
560,560,0,2047,3675
561,561,0,2046,3014
562,562,0,2046,2181
563,563,0,2047,1324
564,564,0,2047,593
565,565,0,2046,114
566,566,0,2047,0
567,567,0,2047,193
568,568,0,2047,736
569,569,0,2047,1509
570,570,0,2046,2373
571,571,0,2046,3180
572,572,0,2046,3786
573,573,0,2047,4086
574,574,0,2046,4027
575,575,0,2046,3620
576,576,0,2046,2935
577,577,0,2046,2094
578,578,0,2046,1242
579,579,0,2047,531
580,580,0,2046,83
581,581,0,2046,0
582,582,0,2046,234
583,583,0,2046,806
584,584,0,2047,1594
585,585,0,2046,2460
586,586,0,2047,3252
587,587,0,2047,3831
588,588,0,2046,4095
589,589,0,2046,4002
590,590,0,2046,3562
591,591,0,2046,2855
592,592,0,2047,2005
593,593,0,2046,1161
594,594,0,2047,471
595,595,0,2046,57
596,596,0,2046,0
597,597,0,2046,279
598,598,0,2047,879
599,599,0,2046,1681
600,600,0,2047,2546
601,601,0,2047,3322
602,602,0,2047,3874
603,603,0,2047,4095
604,604,0,2046,3972
605,605,0,2047,3500
606,606,0,2047,2773
607,607,0,2047,1917
608,608,0,2047,1082
609,609,0,2046,415
610,610,0,2046,33
611,611,0,2046,1
612,612,0,2046,327
613,613,0,2046,953
614,614,0,2047,1768
615,615,0,2046,2631
616,616,0,2046,3390
617,617,0,2047,3913
618,618,0,2047,4095
619,619,0,2047,3938
620,620,0,2046,3436
621,621,0,2047,2689
622,622,0,2047,1830
623,623,0,2047,1005
624,624,0,2046,362
625,625,0,2046,13
626,626,0,2046,19
627,627,0,2046,378
628,628,0,2046,1029
629,629,0,2047,1856
630,630,0,2046,2715
631,631,0,2047,3456
632,632,0,2046,3948
633,633,0,2047,4095
634,634,0,2047,3901
635,635,0,2047,3370
636,636,0,2046,2605
637,637,0,2046,1741
638,638,0,2046,929
639,639,0,2046,312
640,640,0,2047,0
641,641,0,2046,40
642,642,0,2047,433
643,643,0,2046,1107
644,644,0,2046,1944
645,645,0,2047,2798
646,646,0,2046,3519
647,647,0,2046,3980
648,648,0,2046,4095
649,649,0,2046,3861
650,650,0,2046,3302
651,651,0,2046,2520
652,652,0,2046,1654
653,653,0,2047,856
654,654,0,2046,265
655,655,0,2047,0
656,656,0,2047,64
657,657,0,2047,490
658,658,0,2047,1186
659,659,0,2047,2032
660,660,0,2046,2880
661,661,0,2047,3579
662,662,0,2046,4008
663,663,0,2046,4093
664,664,0,2046,3818
665,665,0,2047,3230
666,666,0,2046,2433
667,667,0,2046,1568
668,668,0,2047,784
669,669,0,2046,221
670,670,0,2046,0
671,671,0,2046,93
672,672,0,2046,550
673,673,0,2046,1267
674,674,0,2047,2121
675,675,0,2047,2960
676,676,0,2047,3637
677,677,0,2046,4034
678,678,0,2047,4082
679,679,0,2047,3771
680,680,0,2047,3156
681,681,0,2046,2346
682,682,0,2045,1482
683,683,0,2047,716
684,684,0,2046,180
685,685,0,2047,0
686,686,0,2047,124
687,687,0,2047,613
688,688,0,2047,1350
689,689,0,2046,2208
690,690,0,2046,3038
691,691,0,2047,3691
692,692,0,2047,4056
693,693,0,2046,4066
694,694,0,2047,3721
695,695,0,2046,3081
696,696,0,2046,2259
697,697,0,2046,1398
698,698,0,2046,649
699,699,0,2046,144
700,700,0,2046,0
701,701,0,2047,159
702,702,0,2046,678
703,703,0,2047,1434
704,704,0,2047,2296
705,705,0,2046,3114
706,706,0,2047,3743
707,707,0,2047,4074
708,708,0,2046,4046
709,709,0,2047,3668
710,710,0,2046,3004
711,711,0,2047,2170
712,712,0,2047,1314
713,713,0,2046,585
714,714,0,2047,109
715,715,0,2047,0
716,716,0,2047,198
717,717,0,2046,745
718,718,0,2047,1519
719,719,0,2047,2384
720,720,0,2046,3188
721,721,0,2046,3791
722,722,0,2046,4088
723,723,0,2047,4023
724,724,0,2046,3612
725,725,0,2047,2925
726,726,0,2047,2082
727,727,0,2046,1232
728,728,0,2046,524
729,729,0,2047,80
730,730,0,2047,0
731,731,0,2046,240
732,732,0,2046,815
733,733,0,2047,1605
734,734,0,2046,2470
735,735,0,2047,3260
736,736,0,2046,3837
737,737,0,2046,4095
738,738,0,2046,3997
739,739,0,2046,3554
740,740,0,2046,2844
741,741,0,2047,1994
742,742,0,2046,1151
743,743,0,2046,465
744,744,0,2047,54
745,745,0,2046,0
746,746,0,2047,286
747,747,0,2046,888
748,748,0,2047,1692
749,749,0,2047,2557
750,750,0,2047,3331
751,751,0,2046,3879
752,752,0,2046,4095
753,753,0,2047,3968
754,754,0,2046,3491
755,755,0,2046,2762
756,756,0,2046,1905
757,757,0,2047,1072
758,758,0,2047,408
759,759,0,2046,30
760,760,0,2046,4
761,761,0,2047,334
762,762,0,2047,962
763,763,0,2047,1779
764,764,0,2047,2642
765,765,0,2047,3398
766,766,0,2047,3918
767,767,0,2046,4095
768,768,0,2046,3934
769,769,0,2046,3428
770,770,0,2046,2679
771,771,0,2047,1818
772,772,0,2047,995
773,773,0,2046,356
774,774,0,2046,11
775,775,0,2047,21
776,776,0,2046,385
777,777,0,2046,1038
778,778,0,2047,1867
779,779,0,2046,2725
780,780,0,2047,3465
781,781,0,2047,3952
782,782,0,2046,4095
783,783,0,2046,3897
784,784,0,2046,3362
785,785,0,2046,2594
786,786,0,2046,1730
787,787,0,2047,920
788,788,0,2046,306
789,789,0,2046,0
790,790,0,2046,42
791,791,0,2046,439
792,792,0,2047,1117
793,793,0,2046,1955
794,794,0,2046,2808
795,795,0,2047,3527
796,796,0,2046,3984
797,797,0,2046,4095
798,798,0,2047,3856
799,799,0,2046,3292
800,800,0,2046,2509
801,801,0,2046,1643
802,802,0,2046,847
803,803,0,2046,259
804,804,0,2046,0
805,805,0,2046,67
806,806,0,2047,496
807,807,0,2047,1196
808,808,0,2047,2044
809,809,0,2046,2889
810,810,0,2047,3587
811,811,0,2047,4012
812,812,0,2047,4092
813,813,0,2046,3813
814,814,0,2047,3222
815,815,0,2046,2422
816,816,0,2046,1557
817,817,0,2047,776
818,818,0,2046,215
819,819,0,2046,0
820,820,0,2046,96
821,821,0,2047,557
822,822,0,2047,1278
823,823,0,2046,2132
824,824,0,2046,2969
825,825,0,2046,3644
826,826,0,2047,4037
827,827,0,2047,4080
828,828,0,2047,3765
829,829,0,2046,3148
830,830,0,2047,2336
831,831,0,2046,1471
832,832,0,2047,707
833,833,0,2046,176
834,834,0,2046,0
835,835,0,2047,128
836,836,0,2047,620
837,837,0,2047,1360
838,838,0,2046,2219
839,839,0,2047,3048
840,840,0,2047,3698
841,841,0,2046,4058
842,842,0,2046,4064
843,843,0,2047,3715
844,844,0,2046,3072
845,845,0,2047,2248
846,846,0,2046,1387
847,847,0,2046,639
848,848,0,2047,139
849,849,0,2046,0
850,850,0,2046,164
851,851,0,2046,685
852,852,0,2046,1445
853,853,0,2047,2307
854,854,0,2046,3123
855,855,0,2046,3749
856,856,0,2047,4076
857,857,0,2047,4044
858,858,0,2046,3661
859,859,0,2046,2994
860,860,0,2046,2159
861,861,0,2046,1304
862,862,0,2047,577
863,863,0,2046,105
864,864,0,2046,0
865,865,0,2047,202
866,866,0,2047,753
867,867,0,2046,1530
868,868,0,2046,2395
869,869,0,2046,3198
870,870,0,2046,3797
871,871,0,2046,4089
872,872,0,2046,4020
873,873,0,2046,3606
874,874,0,2046,2915
875,875,0,2047,2071
876,876,0,2047,1222
877,877,0,2046,515
878,878,0,2047,76
879,879,0,2047,0
880,880,0,2047,246
881,881,0,2046,824
882,882,0,2047,1616
883,883,0,2046,2481
884,884,0,2046,3270
885,885,0,2046,3842
886,886,0,2046,4095
887,887,0,2046,3994
888,888,0,2047,3546
889,889,0,2046,2834
890,890,0,2047,1983
891,891,0,2047,1141
892,892,0,2047,457
893,893,0,2046,50
894,894,0,2046,0
895,895,0,2047,291
896,896,0,2047,897
897,897,0,2047,1703
898,898,0,2046,2567
899,899,0,2046,3339
900,900,0,2047,3884
901,901,0,2046,4095
902,902,0,2047,3963
903,903,0,2046,3484
904,904,0,2047,2752
905,905,0,2046,1895
906,906,0,2046,1063
907,907,0,2046,402
908,908,0,2046,27
909,909,0,2046,5
910,910,0,2046,339
911,911,0,2046,971
912,912,0,2047,1790
913,913,0,2046,2652
914,914,0,2046,3407
915,915,0,2046,3921
916,916,0,2046,4095
917,917,0,2046,3929
918,918,0,2047,3420
919,919,0,2047,2669
920,920,0,2046,1807
921,921,0,2047,986
922,922,0,2047,350
923,923,0,2047,8
924,924,0,2047,24
925,925,0,2047,391
926,926,0,2046,1049
927,927,0,2047,1878
928,928,0,2046,2735
929,929,0,2046,3472
930,930,0,2046,3957
931,931,0,2047,4095
932,932,0,2046,3891
933,933,0,2046,3353
934,934,0,2047,2584
935,935,0,2047,1721
936,936,0,2047,911
937,937,0,2047,300
938,938,0,2046,0
939,939,0,2047,45
940,940,0,2046,445
941,941,0,2047,1126
942,942,0,2046,1966
943,943,0,2047,2818
944,944,0,2047,3534
945,945,0,2046,3988
946,946,0,2047,4095
947,947,0,2046,3850
948,948,0,2047,3284
949,949,0,2047,2498
950,950,0,2046,1632
951,951,0,2046,837
952,952,0,2047,254
953,953,0,2046,0
954,954,0,2046,71
955,955,0,2047,504
956,956,0,2047,1207
957,957,0,2046,2055
958,958,0,2047,2900
959,959,0,2047,3594
960,960,0,2046,4015
961,961,0,2046,4091
962,962,0,2046,3806
963,963,0,2047,3212
964,964,0,2046,2411
965,965,0,2047,1547
966,966,0,2047,767
967,967,0,2046,210
968,968,0,2046,0
969,969,0,2046,100
970,970,0,2046,565
971,971,0,2046,1288
972,972,0,2046,2142
973,973,0,2046,2979
974,974,0,2047,3651
975,975,0,2046,4039
976,976,0,2046,4078
977,977,0,2046,3758
978,978,0,2047,3138
979,979,0,2046,2325
980,980,0,2046,1461
981,981,0,2047,699
982,982,0,2046,171
983,983,0,2047,0
984,984,0,2046,133
985,985,0,2047,628
986,986,0,2046,1371
987,987,0,2046,2230
988,988,0,2047,3057
989,989,0,2046,3704
990,990,0,2047,4060
991,991,0,2047,4062
992,992,0,2046,3708
993,993,0,2046,3062
994,994,0,2047,2237
995,995,0,2046,1377
996,996,0,2046,632
997,997,0,2047,135
998,998,0,2046,0
999,999,0,2046,169
1000,1000,0,2047,695
1001,1001,0,2046,1455
1002,1002,0,2047,2318
1003,1003,0,2046,3133
1004,1004,0,2047,3755
1005,1005,0,2047,4077
1006,1006,0,2046,4042
1007,1007,0,2046,3654
1008,1008,0,2047,2985
1009,1009,0,2046,2149
1010,1010,0,2046,1294
1011,1011,0,2046,569
1012,1012,0,2047,102
1013,1013,0,2047,0
1014,1014,0,2046,207
1015,1015,0,2046,762
1016,1016,0,2046,1540
1017,1017,0,2046,2405
1018,1018,0,2046,3206
1019,1019,0,2047,3803
1020,1020,0,2047,4090
1021,1021,0,2047,4018
1022,1022,0,2047,3598
1023,1023,0,2047,2905
1024,1024,0,2046,2060
1025,1025,0,2046,1212
1026,1026,0,2047,508
1027,1027,0,2046,73
1028,1028,0,2046,0
1029,1029,0,2047,250
