Sample in Buffer,Sample in Window,TRIGGER,adc2_data_b_d0[11:0],adc2_data_a_d0[11:0]
0,0,0,0,2049
1,1,0,0,2049
2,2,0,119,2049
3,3,0,448,2049
4,4,0,915,2049
5,5,0,1483,2049
6,6,0,2100,2050
7,7,0,2713,2049
8,8,0,3266,2049
9,9,0,3713,2049
10,10,0,4013,2049
11,11,0,4095,2050
12,12,0,4080,2049
13,13,0,3843,2049
14,14,0,3447,2049
15,15,0,2929,2049
16,16,0,2331,2049
17,17,0,1710,2049
18,18,0,1118,2049
19,19,0,607,2049
20,20,0,223,2049
21,21,0,0,2049
22,22,0,0,2049
23,23,0,97,2049
24,24,0,408,2049
25,25,0,864,2049
26,26,0,1425,2049
27,27,0,2040,2049
28,28,0,2656,2049
29,29,0,3217,2049
30,30,0,3676,2049
31,31,0,3990,2050
32,32,0,4095,2049
33,33,0,4095,2049
34,34,0,3874,2049
35,35,0,3492,2049
36,36,0,2983,2049
37,37,0,2392,2049
38,38,0,1770,2049
39,39,0,1173,2049
40,40,0,652,2050
41,41,0,254,2049
42,42,0,13,2049
43,43,0,0,2049
44,44,0,75,2049
45,45,0,371,2049
46,46,0,815,2049
47,47,0,1367,2049
48,48,0,1979,2049
49,49,0,2597,2050
50,50,0,3166,2049
51,51,0,3637,2049
52,52,0,3968,2050
53,53,0,4095,2049
54,54,0,4095,2049
55,55,0,3903,2049
56,56,0,3536,2049
57,57,0,3037,2050
58,58,0,2451,2049
59,59,0,1830,2049
60,60,0,1228,2049
61,61,0,697,2049
62,62,0,286,2050
63,63,0,29,2049
64,64,0,0,2049
65,65,0,55,2049
66,66,0,335,2049
67,67,0,766,2049
68,68,0,1310,2049
69,69,0,1919,2049
70,70,0,2538,2049
71,71,0,3115,2049
72,72,0,3597,2048
73,73,0,3942,2049
74,74,0,4095,2048
75,75,0,4095,2049
76,76,0,3930,2049
77,77,0,3577,2050
78,78,0,3090,2049
79,79,0,2510,2049
80,80,0,1891,2049
81,81,0,1284,2048
82,82,0,745,2049
83,83,0,319,2049
84,84,0,46,2049
85,85,0,0,2049
86,86,0,37,2049
87,87,0,302,2049
88,88,0,719,2049
89,89,0,1253,2049
90,90,0,1858,2050
91,91,0,2479,2049
92,92,0,3062,2049
93,93,0,3555,2049
94,94,0,3916,2049
95,95,0,4095,2049
96,96,0,4095,2049
97,97,0,3956,2049
98,98,0,3618,2049
99,99,0,3142,2050
100,100,0,2569,2049
101,101,0,1951,2049
102,102,0,1342,2050
103,103,0,793,2049
104,104,0,355,2049
105,105,0,65,2049
106,106,0,0,2049
107,107,0,20,2050
108,108,0,269,2049
109,109,0,673,2049
110,110,0,1198,2050
111,111,0,1798,2049
112,112,0,2420,2049
113,113,0,3009,2049
114,114,0,3512,2050
115,115,0,3887,2049
116,116,0,4095,2048
117,117,0,4095,2050
118,118,0,3980,2049
119,119,0,3658,2049
120,120,0,3193,2049
121,121,0,2628,2049
122,122,0,2012,2049
123,123,0,1398,2049
124,124,0,842,2049
125,125,0,391,2049
126,126,0,87,2050
127,127,0,0,2049
128,128,0,6,2049
129,129,0,237,2048
130,130,0,628,2049
131,131,0,1143,2049
132,132,0,1738,2050
133,133,0,2361,2049
134,134,0,2954,2049
135,135,0,3469,2049
136,136,0,3858,2049
137,137,0,4087,2049
138,138,0,4095,2050
139,139,0,4002,2049
140,140,0,3695,2049
141,141,0,3244,2049
142,142,0,2686,2049
143,143,0,2072,2049
144,144,0,1456,2049
145,145,0,892,2049
146,146,0,430,2049
147,147,0,109,2050
148,148,0,0,2048
149,149,0,0,2049
150,150,0,207,2049
151,151,0,584,2049
152,152,0,1089,2050
153,153,0,1678,2049
154,154,0,2300,2049
155,155,0,2900,2049
156,156,0,3424,2049
157,157,0,3826,2049
158,158,0,4073,2049
159,159,0,4095,2048
160,160,0,4023,2050
161,161,0,3732,2049
162,162,0,3293,2049
163,163,0,2743,2050
164,164,0,2133,2049
165,165,0,1515,2049
166,166,0,943,2049
167,167,0,469,2049
168,168,0,133,2049
169,169,0,0,2049
170,170,0,0,2049
171,171,0,178,2050
172,172,0,541,2049
173,173,0,1035,2049
174,174,0,1619,2049
175,175,0,2239,2049
176,176,0,2843,2049
177,177,0,3377,2049
178,178,0,3794,2049
179,179,0,4056,2050
180,180,0,4095,2049
181,181,0,4043,2049
182,182,0,3769,2049
183,183,0,3341,2050
184,184,0,2800,2049
185,185,0,2194,2049
186,186,0,1573,2049
187,187,0,995,2049
188,188,0,510,2049
189,189,0,158,2049
190,190,0,0,2049
191,191,0,0,2049
192,192,0,152,2049
193,193,0,499,2050
194,194,0,983,2049
195,195,0,1559,2049
196,196,0,2179,2049
197,197,0,2787,2050
198,198,0,3330,2049
199,199,0,3760,2049
200,200,0,4038,2049
201,201,0,4095,2049
202,202,0,4061,2049
203,203,0,3802,2049
204,204,0,3388,2048
205,205,0,2857,2049
206,206,0,2254,2049
207,207,0,1634,2050
208,208,0,1048,2049
209,209,0,551,2049
210,210,0,186,2049
211,211,0,0,2049
212,212,0,0,2049
213,213,0,127,2049
214,214,0,459,2049
215,215,0,931,2049
216,216,0,1501,2049
217,217,0,2119,2049
218,218,0,2730,2050
219,219,0,3281,2049
220,220,0,3724,2049
221,221,0,4019,2050
222,222,0,4095,2049
223,223,0,4076,2050
224,224,0,3834,2049
225,225,0,3434,2050
226,226,0,2912,2049
227,227,0,2314,2049
228,228,0,1692,2049
229,229,0,1102,2050
230,230,0,594,2049
231,231,0,214,2050
232,232,0,0,2049
233,233,0,0,2049
234,234,0,103,2049
235,235,0,420,2049
236,236,0,880,2049
237,237,0,1442,2049
238,238,0,2058,2049
239,239,0,2672,2050
240,240,0,3232,2049
241,241,0,3687,2048
242,242,0,3997,2050
243,243,0,4095,2049
244,244,0,4090,2049
245,245,0,3865,2049
246,246,0,3479,2049
247,247,0,2967,2049
248,248,0,2375,2049
249,249,0,1752,2049
250,250,0,1156,2049
251,251,0,638,2049
252,252,0,245,2049
253,253,0,10,2049
254,254,0,0,2049
255,255,0,81,2049
256,256,0,382,2049
257,257,0,830,2050
258,258,0,1384,2049
259,259,0,1997,2049
260,260,0,2614,2049
261,261,0,3181,2049
262,262,0,3648,2050
263,263,0,3975,2049
264,264,0,4095,2049
265,265,0,4095,2049
266,266,0,3895,2049
267,267,0,3522,2049
268,268,0,3022,2049
269,269,0,2433,2049
270,270,0,1813,2049
271,271,0,1212,2049
272,272,0,683,2049
273,273,0,277,2049
274,274,0,25,2049
275,275,0,0,2049
276,276,0,61,2049
277,277,0,346,2049
278,278,0,781,2049
279,279,0,1327,2049
280,280,0,1937,2049
281,281,0,2556,2050
282,282,0,3130,2049
283,283,0,3609,2049
284,284,0,3950,2049
285,285,0,4095,2050
286,286,0,4095,2049
287,287,0,3922,2049
288,288,0,3565,2049
289,289,0,3074,2049
290,290,0,2493,2050
291,291,0,1873,2049
292,292,0,1268,2050
293,293,0,731,2049
294,294,0,309,2050
295,295,0,41,2050
296,296,0,0,2049
297,297,0,42,2049
298,298,0,311,2049
299,299,0,733,2049
300,300,0,1270,2049
301,301,0,1875,2049
302,302,0,2497,2049
303,303,0,3078,2049
304,304,0,3568,2049
305,305,0,3925,2050
306,306,0,4095,2049
307,307,0,4095,2049
308,308,0,3949,2049
309,309,0,3606,2049
310,310,0,3127,2049
311,311,0,2552,2049
312,312,0,1933,2049
313,313,0,1324,2049
314,314,0,778,2050
315,315,0,344,2050
316,316,0,60,2049
317,317,0,0,2049
318,318,0,24,2049
319,319,0,278,2049
320,320,0,686,2049
321,321,0,1214,2049
322,322,0,1816,2050
323,323,0,2438,2049
324,324,0,3024,2049
325,325,0,3525,2050
326,326,0,3896,2049
327,327,0,4095,2049
328,328,0,4095,2049
329,329,0,3973,2050
330,330,0,3646,2049
331,331,0,3178,2049
332,332,0,2611,2049
333,333,0,1993,2049
334,334,0,1381,2049
335,335,0,827,2049
336,336,0,380,2049
337,337,0,80,2049
338,338,0,0,2049
339,339,0,9,2049
340,340,0,246,2049
341,341,0,640,2049
342,342,0,1160,2049
343,343,0,1756,2049
344,344,0,2378,2049
345,345,0,2970,2049
346,346,0,3482,2050
347,347,0,3867,2049
348,348,0,4092,2049
349,349,0,4095,2049
350,350,0,3996,2049
351,351,0,3685,2049
352,352,0,3229,2050
353,353,0,2669,2049
354,354,0,2055,2049
355,355,0,1439,2048
356,356,0,877,2049
357,357,0,418,2049
358,358,0,102,2050
359,359,0,0,2049
360,360,0,0,2049
361,361,0,215,2049
362,362,0,597,2049
363,363,0,1105,2049
364,364,0,1695,2049
365,365,0,2318,2049
366,366,0,2916,2049
367,367,0,3438,2049
368,368,0,3836,2049
369,369,0,4077,2049
370,370,0,4095,2049
371,371,0,4017,2049
372,372,0,3721,2049
373,373,0,3278,2049
374,374,0,2726,2050
375,375,0,2115,2048
376,376,0,1497,2049
377,377,0,928,2049
378,378,0,457,2049
379,379,0,125,2049
380,380,0,0,2049
381,381,0,0,2049
382,382,0,186,2050
383,383,0,554,2049
384,384,0,1051,2049
385,385,0,1635,2049
386,386,0,2258,2050
387,387,0,2860,2050
388,388,0,3391,2049
389,389,0,3804,2049
390,390,0,4062,2049
391,391,0,4095,2049
392,392,0,4037,2049
393,393,0,3758,2049
394,394,0,3327,2049
395,395,0,2784,2049
396,396,0,2176,2049
397,397,0,1556,2049
398,398,0,980,2049
399,399,0,497,2049
400,400,0,151,2049
401,401,0,0,2049
402,402,0,0,2050
403,403,0,159,2049
404,404,0,511,2049
405,405,0,998,2049
406,406,0,1576,2048
407,407,0,2197,2049
408,408,0,2804,2050
409,409,0,3344,2049
410,410,0,3771,2049
411,411,0,4045,2049
412,412,0,4095,2049
413,413,0,4056,2049
414,414,0,3792,2049
415,415,0,3375,2049
416,416,0,2841,2049
417,417,0,2236,2049
418,418,0,1615,2050
419,419,0,1033,2049
420,420,0,539,2049
421,421,0,178,2049
422,422,0,0,2049
423,423,0,0,2049
424,424,0,133,2049
425,425,0,471,2049
426,426,0,946,2049
427,427,0,1518,2049
428,428,0,2136,2049
429,429,0,2747,2049
430,430,0,3296,2050
431,431,0,3735,2049
432,432,0,4025,2049
433,433,0,4095,2049
434,434,0,4072,2049
435,435,0,3824,2049
436,436,0,3420,2049
437,437,0,2896,2049
438,438,0,2296,2049
439,439,0,1675,2049
440,440,0,1086,2049
441,441,0,581,2049
442,442,0,205,2049
443,443,0,0,2048
444,444,0,0,2049
445,445,0,110,2049
446,446,0,432,2049
447,447,0,895,2049
448,448,0,1460,2049
449,449,0,2076,2049
450,450,0,2690,2050
451,451,0,3247,2049
452,452,0,3698,2048
453,453,0,4004,2049
454,454,0,4095,2049
455,455,0,4087,2049
456,456,0,3856,2049
457,457,0,3466,2048
458,458,0,2950,2049
459,459,0,2357,2049
460,460,0,1734,2049
461,461,0,1140,2050
462,462,0,625,2049
463,463,0,235,2049
464,464,0,4,2049
465,465,0,0,2049
466,466,0,87,2049
467,467,0,393,2049
468,468,0,844,2049
469,469,0,1401,2050
470,470,0,2016,2049
471,471,0,2631,2049
472,472,0,3196,2049
473,473,0,3660,2049
474,474,0,3981,2049
475,475,0,4095,2049
476,476,0,4095,2049
477,477,0,3886,2050
478,478,0,3509,2049
479,479,0,3006,2049
480,480,0,2416,2050
481,481,0,1795,2049
482,482,0,1194,2050
483,483,0,671,2049
484,484,0,267,2049
485,485,0,19,2049
486,486,0,0,2049
487,487,0,67,2049
488,488,0,357,2049
489,489,0,796,2049
490,490,0,1344,2049
491,491,0,1955,2049
492,492,0,2573,2049
493,493,0,3145,2049
494,494,0,3621,2049
495,495,0,3958,2050
496,496,0,4095,2049
497,497,0,4095,2049
498,498,0,3914,2049
499,499,0,3553,2049
500,500,0,3059,2050
501,501,0,2475,2049
502,502,0,1855,2049
503,503,0,1250,2049
504,504,0,717,2049
505,505,0,299,2049
506,506,0,36,2049
507,507,0,0,2049
508,508,0,47,2049
509,509,0,321,2049
510,510,0,748,2049
511,511,0,1287,2049
512,512,0,1894,2049
513,513,0,2515,2049
514,514,0,3093,2050
515,515,0,3580,2049
516,516,0,3932,2049
517,517,0,4095,2049
518,518,0,4095,2048
519,519,0,3941,2050
520,520,0,3594,2049
521,521,0,3112,2049
522,522,0,2535,2049
523,523,0,1915,2049
524,524,0,1307,2048
525,525,0,764,2049
526,526,0,334,2049
527,527,0,54,2049
528,528,0,0,2049
529,529,0,30,2049
530,530,0,288,2049
531,531,0,700,2048
532,532,0,1231,2049
533,533,0,1834,2049
534,534,0,2455,2049
535,535,0,3041,2049
536,536,0,3538,2049
537,537,0,3905,2049
538,538,0,4095,2050
539,539,0,4095,2049
540,540,0,3966,2049
541,541,0,3634,2050
542,542,0,3163,2049
543,543,0,2593,2048
544,544,0,1975,2049
545,545,0,1365,2049
546,546,0,813,2049
547,547,0,370,2050
548,548,0,74,2049
549,549,0,0,2049
550,550,0,14,2050
551,551,0,256,2049
552,552,0,654,2049
553,553,0,1176,2049
554,554,0,1774,2049
555,555,0,2395,2049
556,556,0,2987,2048
557,557,0,3495,2049
558,558,0,3877,2049
559,559,0,4095,2049
560,560,0,4095,2049
561,561,0,3990,2049
562,562,0,3673,2049
563,563,0,3214,2049
564,564,0,2651,2049
565,565,0,2037,2049
566,566,0,1422,2049
567,567,0,863,2049
568,568,0,406,2049
569,569,0,95,2049
570,570,0,0,2050
571,571,0,0,2050
572,572,0,224,2049
573,573,0,609,2050
574,574,0,1121,2049
575,575,0,1714,2049
576,576,0,2335,2049
577,577,0,2932,2049
578,578,0,3450,2050
579,579,0,3846,2049
580,580,0,4082,2049
581,581,0,4095,2049
582,582,0,4011,2049
583,583,0,3711,2050
584,584,0,3264,2049
585,585,0,2709,2049
586,586,0,2097,2049
587,587,0,1480,2049
588,588,0,912,2049
589,589,0,446,2050
590,590,0,119,2049
591,591,0,0,2049
592,592,0,0,2049
593,593,0,195,2049
594,594,0,566,2049
595,595,0,1067,2049
596,596,0,1654,2049
597,597,0,2275,2049
598,598,0,2877,2049
599,599,0,3405,2049
600,600,0,3814,2049
601,601,0,4066,2049
602,602,0,4095,2049
603,603,0,4032,2049
604,604,0,3747,2049
605,605,0,3313,2049
606,606,0,2767,2049
607,607,0,2158,2049
608,608,0,1538,2049
609,609,0,964,2049
610,610,0,485,2049
611,611,0,142,2049
612,612,0,0,2049
613,613,0,0,2049
614,614,0,167,2048
615,615,0,524,2049
616,616,0,1013,2049
617,617,0,1594,2049
618,618,0,2215,2049
619,619,0,2821,2050
620,620,0,3358,2049
621,621,0,3780,2049
622,622,0,4050,2048
623,623,0,4095,2049
624,624,0,4050,2049
625,625,0,3782,2049
626,626,0,3360,2049
627,627,0,2823,2049
628,628,0,2219,2050
629,629,0,1598,2049
630,630,0,1016,2049
631,631,0,526,2049
632,632,0,170,2049
633,633,0,0,2048
634,634,0,0,2049
635,635,0,141,2050
636,636,0,484,2050
637,637,0,961,2050
638,638,0,1536,2049
639,639,0,2155,2049
640,640,0,2764,2049
641,641,0,3311,2049
642,642,0,3745,2050
643,643,0,4031,2049
644,644,0,4095,2049
645,645,0,4068,2049
646,646,0,3815,2049
647,647,0,3407,2049
648,648,0,2879,2049
649,649,0,2278,2049
650,650,0,1657,2048
651,651,0,1070,2049
652,652,0,568,2050
653,653,0,197,2049
654,654,0,0,2049
655,655,0,0,2049
656,656,0,117,2049
657,657,0,443,2049
658,658,0,910,2050
659,659,0,1477,2049
660,660,0,2094,2049
661,661,0,2707,2049
662,662,0,3262,2049
663,663,0,3709,2050
664,664,0,4011,2049
665,665,0,4095,2049
666,666,0,4082,2049
667,667,0,3846,2050
668,668,0,3452,2049
669,669,0,2935,2049
670,670,0,2338,2049
671,671,0,1717,2049
672,672,0,1123,2049
673,673,0,612,2049
674,674,0,226,2050
675,675,0,0,2049
676,676,0,0,2049
677,677,0,94,2049
678,678,0,405,2049
679,679,0,859,2049
680,680,0,1418,2049
681,681,0,2033,2050
682,682,0,2649,2049
683,683,0,3212,2049
684,684,0,3672,2049
685,685,0,3989,2049
686,686,0,4095,2049
687,687,0,4095,2049
688,688,0,3877,2049
689,689,0,3497,2049
690,690,0,2989,2049
691,691,0,2399,2050
692,692,0,1777,2049
693,693,0,1179,2049
694,694,0,657,2049
695,695,0,257,2049
696,696,0,15,2049
697,697,0,0,2049
698,698,0,73,2049
699,699,0,367,2049
700,700,0,810,2049
701,701,0,1362,2049
702,702,0,1973,2049
703,703,0,2591,2049
704,704,0,3161,2049
705,705,0,3632,2049
706,706,0,3965,2048
707,707,0,4095,2049
708,708,0,4095,2049
709,709,0,3906,2049
710,710,0,3540,2049
711,711,0,3043,2049
712,712,0,2458,2049
713,713,0,1837,2049
714,714,0,1234,2049
715,715,0,703,2050
716,716,0,290,2049
717,717,0,31,2050
718,718,0,0,2049
719,719,0,53,2049
720,720,0,332,2049
721,721,0,762,2049
722,722,0,1305,2049
723,723,0,1913,2049
724,724,0,2533,2049
725,725,0,3109,2049
726,726,0,3592,2049
727,727,0,3940,2049
728,728,0,4095,2049
729,729,0,4095,2048
730,730,0,3932,2049
731,731,0,3581,2049
732,732,0,3096,2050
733,733,0,2517,2049
734,734,0,1897,2049
735,735,0,1290,2049
736,736,0,750,2049
737,737,0,323,2050
738,738,0,48,2049
739,739,0,0,2050
740,740,0,35,2049
741,741,0,298,2049
742,742,0,714,2049
743,743,0,1248,2049
744,744,0,1852,2049
745,745,0,2472,2048
746,746,0,3057,2049
747,747,0,3550,2049
748,748,0,3913,2049
749,749,0,4095,2049
750,750,0,4095,2049
751,751,0,3959,2049
752,752,0,3622,2049
753,753,0,3148,2050
754,754,0,2576,2049
755,755,0,1958,2049
756,756,0,1347,2049
757,757,0,798,2049
758,758,0,358,2049
759,759,0,68,2049
760,760,0,0,2049
761,761,0,18,2049
762,762,0,265,2049
763,763,0,668,2048
764,764,0,1192,2049
765,765,0,1791,2049
766,766,0,2414,2049
767,767,0,3002,2049
768,768,0,3508,2049
769,769,0,3885,2049
770,770,0,4095,2049
771,771,0,4095,2049
772,772,0,3983,2050
773,773,0,3662,2049
774,774,0,3199,2049
775,775,0,2634,2049
776,776,0,2019,2050
777,777,0,1405,2049
778,778,0,847,2049
779,779,0,396,2049
780,780,0,89,2049
781,781,0,0,2050
782,782,0,5,2049
783,783,0,234,2049
784,784,0,623,2049
785,785,0,1137,2049
786,786,0,1732,2049
787,787,0,2353,2049
788,788,0,2948,2049
789,789,0,3464,2049
790,790,0,3855,2049
791,791,0,4086,2049
792,792,0,4095,2049
793,793,0,4004,2049
794,794,0,3700,2049
795,795,0,3249,2049
796,796,0,2692,2049
797,797,0,2079,2049
798,798,0,1463,2049
799,799,0,897,2049
800,800,0,433,2049
801,801,0,110,2049
802,802,0,0,2049
803,803,0,0,2049
804,804,0,203,2049
805,805,0,579,2049
806,806,0,1083,2049
807,807,0,1672,2049
808,808,0,2294,2049
809,809,0,2893,2050
810,810,0,3419,2049
811,811,0,3823,2050
812,812,0,4071,2049
813,813,0,4095,2049
814,814,0,4026,2049
815,815,0,3736,2049
816,816,0,3298,2049
817,817,0,2750,2048
818,818,0,2140,2050
819,819,0,1521,2049
820,820,0,949,2049
821,821,0,473,2050
822,822,0,136,2049
823,823,0,0,2049
824,824,0,0,2049
825,825,0,175,2049
826,826,0,535,2050
827,827,0,1029,2049
828,828,0,1612,2050
829,829,0,2233,2049
830,830,0,2837,2049
831,831,0,3373,2049
832,832,0,3791,2049
833,833,0,4055,2050
834,834,0,4095,2049
835,835,0,4045,2049
836,836,0,3772,2049
837,837,0,3346,2049
838,838,0,2807,2049
839,839,0,2200,2049
840,840,0,1580,2049
841,841,0,1001,2049
842,842,0,514,2049
843,843,0,162,2049
844,844,0,0,2049
845,845,0,0,2049
846,846,0,149,2049
847,847,0,495,2049
848,848,0,976,2050
849,849,0,1553,2050
850,850,0,2173,2049
851,851,0,2781,2049
852,852,0,3325,2049
853,853,0,3756,2050
854,854,0,4037,2049
855,855,0,4095,2049
856,856,0,4063,2049
857,857,0,3805,2049
858,858,0,3393,2050
859,859,0,2863,2049
860,860,0,2261,2049
861,861,0,1640,2049
862,862,0,1054,2050
863,863,0,555,2049
864,864,0,189,2049
865,865,0,0,2049
866,866,0,0,2049
867,867,0,124,2049
868,868,0,455,2049
869,869,0,925,2049
870,870,0,1494,2049
871,871,0,2113,2049
872,872,0,2724,2049
873,873,0,3275,2050
874,874,0,3720,2049
875,875,0,4017,2049
876,876,0,4095,2050
877,877,0,4078,2049
878,878,0,3838,2049
879,879,0,3439,2049
880,880,0,2918,2049
881,881,0,2321,2049
882,882,0,1699,2049
883,883,0,1108,2049
884,884,0,598,2049
885,885,0,218,2049
886,886,0,0,2049
887,887,0,0,2049
888,888,0,100,2049
889,889,0,415,2049
890,890,0,874,2048
891,891,0,1436,2050
892,892,0,2051,2049
893,893,0,2666,2049
894,894,0,3226,2049
895,895,0,3683,2049
896,896,0,3995,2049
897,897,0,4095,2049
898,898,0,4093,2049
899,899,0,3868,2049
900,900,0,3484,2049
901,901,0,2973,2049
902,902,0,2381,2050
903,903,0,1759,2049
904,904,0,1162,2049
905,905,0,644,2049
906,906,0,248,2049
907,907,0,11,2049
908,908,0,0,2049
909,909,0,79,2049
910,910,0,379,2049
911,911,0,825,2048
912,912,0,1378,2049
913,913,0,1991,2049
914,914,0,2608,2049
915,915,0,3175,2049
916,916,0,3645,2049
917,917,0,3972,2049
918,918,0,4095,2049
919,919,0,4095,2049
920,920,0,3898,2049
921,921,0,3527,2049
922,922,0,3027,2049
923,923,0,2441,2048
924,924,0,1819,2049
925,925,0,1217,2049
926,926,0,689,2049
927,927,0,280,2049
928,928,0,26,2049
929,929,0,0,2049
930,930,0,59,2049
931,931,0,342,2049
932,932,0,775,2049
933,933,0,1321,2048
934,934,0,1930,2049
935,935,0,2549,2049
936,936,0,3125,2048
937,937,0,3604,2049
938,938,0,3947,2048
939,939,0,4095,2050
940,940,0,4095,2049
941,941,0,3926,2049
942,942,0,3570,2049
943,943,0,3080,2049
944,944,0,2499,2049
945,945,0,1879,2049
946,946,0,1274,2049
947,947,0,735,2049
948,948,0,314,2049
949,949,0,43,2049
950,950,0,0,2049
951,951,0,40,2049
952,952,0,307,2049
953,953,0,728,2048
954,954,0,1264,2049
955,955,0,1870,2049
956,956,0,2490,2049
957,957,0,3072,2049
958,958,0,3564,2049
959,959,0,3921,2049
960,960,0,4095,2049
961,961,0,4095,2049
962,962,0,3951,2049
963,963,0,3611,2049
964,964,0,3132,2050
965,965,0,2558,2050
966,966,0,1941,2049
967,967,0,1330,2049
968,968,0,784,2049
969,969,0,348,2049
970,970,0,62,2049
971,971,0,0,2048
972,972,0,23,2050
973,973,0,274,2049
974,974,0,681,2049
975,975,0,1208,2048
976,976,0,1809,2049
977,977,0,2431,2049
978,978,0,3018,2050
979,979,0,3521,2049
980,980,0,3894,2049
981,981,0,4095,2049
982,982,0,4095,2049
983,983,0,3977,2049
984,984,0,3650,2050
985,985,0,3184,2048
986,986,0,2617,2049
987,987,0,2001,2049
988,988,0,1387,2049
989,989,0,832,2050
990,990,0,385,2049
991,991,0,82,2049
992,992,0,0,2049
993,993,0,9,2050
994,994,0,243,2049
995,995,0,636,2049
996,996,0,1153,2049
997,997,0,1749,2050
998,998,0,2371,2049
999,999,0,2964,2049
1000,1000,0,3477,2049
1001,1001,0,3864,2049
1002,1002,0,4090,2049
1003,1003,0,4095,2049
1004,1004,0,3998,2049
1005,1005,0,3689,2049
1006,1006,0,3234,2049
1007,1007,0,2676,2049
1008,1008,0,2061,2049
1009,1009,0,1445,2049
1010,1010,0,883,2049
1011,1011,0,422,2049
1012,1012,0,105,2049
1013,1013,0,0,2049
1014,1014,0,0,2050
1015,1015,0,212,2049
1016,1016,0,592,2049
1017,1017,0,1098,2049
1018,1018,0,1689,2050
1019,1019,0,2311,2049
1020,1020,0,2910,2049
1021,1021,0,3432,2049
1022,1022,0,3833,2049
1023,1023,0,4076,2049
1024,1024,0,4095,2049
1025,1025,0,4020,2050
1026,1026,0,3725,2049
1027,1027,0,3283,2049
1028,1028,0,2733,2049
1029,1029,0,2122,2049
1030,1030,0,1503,2049
