Sample in Buffer,Sample in Window,TRIGGER,adc1_data_a_d0[11:0],adc1_data_b_d0[11:0]
0,0,0,2046,303
1,1,0,2046,1047
2,2,0,2047,2037
3,3,0,2046,3024
4,4,0,2047,3770
5,5,0,2046,4091
6,6,0,2046,3909
7,7,0,2046,3267
8,8,0,2047,2323
9,9,0,2046,1309
10,10,0,2046,476
11,11,0,2046,24
12,12,0,2047,67
13,13,0,2047,594
14,14,0,2046,1475
15,15,0,2046,2495
16,16,0,2047,3402
17,17,0,2045,3975
18,18,0,2047,4072
19,19,0,2046,3669
20,20,0,2046,2866
21,21,0,2046,1861
22,22,0,2046,898
23,23,0,2046,216
24,24,0,2046,0
25,25,0,2046,250
26,26,0,2047,959
27,27,0,2047,1932
28,28,0,2046,2932
29,29,0,2047,3712
30,30,0,2047,4082
31,31,0,2046,3949
32,32,0,2046,3348
33,33,0,2046,2425
34,34,0,2047,1408
35,35,0,2047,545
36,36,0,2046,48
37,37,0,2046,40
38,38,0,2046,522
39,39,0,2046,1377
40,40,0,2046,2394
41,41,0,2047,3322
42,42,0,2046,3938
43,43,0,2046,4085
44,44,0,2047,3731
45,45,0,2047,2960
46,46,0,2046,1964
47,47,0,2046,986
48,48,0,2046,266
49,49,0,2046,0
50,50,0,2046,200
51,51,0,2046,871
52,52,0,2047,1829
53,53,0,2046,2838
54,54,0,2046,3650
55,55,0,2046,4067
56,56,0,2047,3986
57,57,0,2046,3426
58,58,0,2047,2527
59,59,0,2046,1507
60,60,0,2046,618
61,61,0,2047,77
62,62,0,2047,17
63,63,0,2046,454
64,64,0,2046,1280
65,65,0,2047,2292
66,66,0,2046,3241
67,67,0,2047,3896
68,68,0,2046,4094
69,69,0,2046,3787
70,70,0,2047,3052
71,71,0,2046,2067
72,72,0,2046,1076
73,73,0,2046,321
74,74,0,2047,0
75,75,0,2047,156
76,76,0,2046,788
77,77,0,2047,1726
78,78,0,2047,2741
79,79,0,2047,3583
80,80,0,2046,4046
81,81,0,2046,4016
82,82,0,2047,3501
83,83,0,2046,2627
84,84,0,2046,1607
85,85,0,2046,694
86,86,0,2046,111
87,87,0,2046,1
88,88,0,2046,390
89,89,0,2046,1185
90,90,0,2046,2188
91,91,0,2047,3155
92,92,0,2047,3848
93,93,0,2046,4095
94,94,0,2047,3839
95,95,0,2046,3140
96,96,0,2046,2172
97,97,0,2046,1169
98,98,0,2047,380
99,99,0,2046,0
100,100,0,2046,117
101,101,0,2046,707
102,102,0,2046,1624
103,103,0,2047,2643
104,104,0,2046,3513
105,105,0,2046,4021
106,106,0,2047,4043
107,107,0,2046,3572
108,108,0,2046,2725
109,109,0,2046,1709
110,110,0,2047,774
111,111,0,2046,150
112,112,0,2047,0
113,113,0,2046,331
114,114,0,2046,1092
115,115,0,2046,2085
116,116,0,2046,3067
117,117,0,2046,3796
118,118,0,2047,4094
119,119,0,2047,3887
120,120,0,2046,3227
121,121,0,2046,2274
122,122,0,2047,1264
123,123,0,2047,444
124,124,0,2046,14
125,125,0,2046,82
126,126,0,2046,630
127,127,0,2046,1524
128,128,0,2047,2543
129,129,0,2046,3440
130,130,0,2046,3992
131,131,0,2047,4064
132,132,0,2047,3639
133,133,0,2046,2822
134,134,0,2047,1812
135,135,0,2046,858
136,136,0,2046,193
137,137,0,2046,0
138,138,0,2046,275
139,139,0,2046,1000
140,140,0,2046,1981
141,141,0,2047,2975
142,142,0,2047,3740
143,143,0,2046,4087
144,144,0,2046,3931
145,145,0,2045,3310
146,146,0,2046,2376
147,147,0,2046,1360
148,148,0,2046,511
149,149,0,2046,36
150,150,0,2046,52
151,151,0,2046,556
152,152,0,2047,1424
153,153,0,2046,2443
154,154,0,2046,3361
155,155,0,2046,3956
156,156,0,2046,4079
157,157,0,2046,3702
158,158,0,2046,2916
159,159,0,2046,1914
160,160,0,2046,945
161,161,0,2045,241
162,162,0,2046,0
163,163,0,2046,223
164,164,0,2046,913
165,165,0,2046,1878
166,166,0,2047,2883
167,167,0,2046,3680
168,168,0,2046,4074
169,169,0,2046,3969
170,170,0,2046,3389
171,171,0,2047,2478
172,172,0,2045,1459
173,173,0,2046,583
174,174,0,2046,63
175,175,0,2046,28
176,176,0,2046,487
177,177,0,2046,1326
178,178,0,2046,2340
179,179,0,2046,3280
180,180,0,2046,3916
181,181,0,2046,4090
182,182,0,2047,3761
183,183,0,2046,3009
184,184,0,2046,2018
185,185,0,2047,1033
186,186,0,2046,294
187,187,0,2046,0
188,188,0,2046,177
189,189,0,2046,827
190,190,0,2046,1775
191,191,0,2046,2787
192,192,0,2046,3616
193,193,0,2046,4057
194,194,0,2045,4002
195,195,0,2046,3466
196,196,0,2046,2579
197,197,0,2046,1560
198,198,0,2046,657
199,199,0,2046,94
200,200,0,2046,8
201,201,0,2046,420
202,202,0,2046,1229
203,203,0,2046,2237
204,204,0,2046,3196
205,205,0,2046,3871
206,206,0,2046,4095
207,207,0,2046,3815
208,208,0,2046,3099
209,209,0,2046,2122
210,210,0,2047,1124
211,211,0,2046,351
212,212,0,2046,0
213,213,0,2047,134
214,214,0,2047,745
215,215,0,2047,1673
216,216,0,2046,2690
217,217,0,2046,3547
218,218,0,2046,4034
219,219,0,2046,4031
220,220,0,2045,3538
221,221,0,2046,2678
222,222,0,2046,1661
223,223,0,2046,736
224,224,0,2046,130
225,225,0,2047,0
226,226,0,2046,358
227,227,0,2047,1135
228,228,0,2047,2134
229,229,0,2046,3109
230,230,0,2046,3822
231,231,0,2046,4095
232,232,0,2046,3865
233,233,0,2046,3186
234,234,0,2046,2225
235,235,0,2046,1218
236,236,0,2046,413
237,237,0,2046,6
238,238,0,2046,98
239,239,0,2046,666
240,240,0,2046,1571
241,241,0,2047,2590
242,242,0,2046,3475
243,243,0,2046,4006
244,244,0,2046,4054
245,245,0,2046,3608
246,246,0,2047,2775
247,247,0,2046,1763
248,248,0,2046,818
249,249,0,2046,172
250,250,0,2046,0
251,251,0,2046,301
252,252,0,2046,1043
253,253,0,2046,2030
254,254,0,2046,3019
255,255,0,2046,3767
256,256,0,2046,4091
257,257,0,2046,3911
258,258,0,2046,3271
259,259,0,2046,2327
260,260,0,2046,1314
261,261,0,2046,478
262,262,0,2047,25
263,263,0,2047,65
264,264,0,2046,591
265,265,0,2046,1470
266,266,0,2047,2490
267,267,0,2047,3399
268,268,0,2046,3973
269,269,0,2046,4073
270,270,0,2046,3673
271,271,0,2046,2871
272,272,0,2047,1866
273,273,0,2046,903
274,274,0,2046,218
275,275,0,2046,0
276,276,0,2047,248
277,277,0,2047,954
278,278,0,2047,1928
279,279,0,2047,2927
280,280,0,2047,3709
281,281,0,2046,4080
282,282,0,2047,3952
283,283,0,2046,3352
284,284,0,2047,2430
285,285,0,2047,1413
286,286,0,2046,548
287,287,0,2047,50
288,288,0,2047,39
289,289,0,2047,519
290,290,0,2046,1372
291,291,0,2046,2389
292,292,0,2047,3320
293,293,0,2046,3936
294,294,0,2047,4085
295,295,0,2047,3733
296,296,0,2046,2965
297,297,0,2046,1970
298,298,0,2047,991
299,299,0,2046,268
300,300,0,2047,0
301,301,0,2046,198
302,302,0,2046,868
303,303,0,2046,1824
304,304,0,2047,2833
305,305,0,2046,3647
306,306,0,2046,4065
307,307,0,2046,3987
308,308,0,2047,3430
309,309,0,2046,2531
310,310,0,2046,1512
311,311,0,2046,621
312,312,0,2046,78
313,313,0,2046,17
314,314,0,2046,451
315,315,0,2047,1275
316,316,0,2047,2286
317,317,0,2046,3237
318,318,0,2047,3893
319,319,0,2046,4094
320,320,0,2047,3791
321,321,0,2046,3056
322,322,0,2047,2073
323,323,0,2046,1082
324,324,0,2046,324
325,325,0,2046,0
326,326,0,2046,155
327,327,0,2046,784
328,328,0,2046,1721
329,329,0,2046,2736
330,330,0,2046,3581
331,331,0,2046,4045
332,332,0,2046,4017
333,333,0,2046,3505
334,334,0,2046,2631
335,335,0,2046,1613
336,336,0,2046,698
337,337,0,2046,112
338,338,0,2046,0
339,339,0,2047,387
340,340,0,2046,1180
341,341,0,2046,2183
342,342,0,2046,3151
343,343,0,2046,3845
344,344,0,2047,4095
345,345,0,2046,3841
346,346,0,2046,3145
347,347,0,2046,2177
348,348,0,2047,1174
349,349,0,2046,383
350,350,0,2046,0
351,351,0,2046,115
352,352,0,2047,704
353,353,0,2046,1620
354,354,0,2046,2638
355,355,0,2047,3510
356,356,0,2046,4020
357,357,0,2046,4044
358,358,0,2046,3575
359,359,0,2046,2730
360,360,0,2046,1714
361,361,0,2046,778
362,362,0,2046,151
363,363,0,2046,0
364,364,0,2046,328
365,365,0,2047,1087
366,366,0,2046,2080
367,367,0,2046,3062
368,368,0,2046,3794
369,369,0,2047,4095
370,370,0,2046,3890
371,371,0,2046,3231
372,372,0,2046,2279
373,373,0,2046,1269
374,374,0,2046,447
375,375,0,2046,15
376,376,0,2047,81
377,377,0,2046,627
378,378,0,2046,1519
379,379,0,2047,2538
380,380,0,2046,3435
381,381,0,2046,3989
382,382,0,2046,4065
383,383,0,2046,3642
384,384,0,2046,2826
385,385,0,2047,1816
386,386,0,2046,862
387,387,0,2045,196
388,388,0,2047,0
389,389,0,2046,272
390,390,0,2046,996
391,391,0,2046,1976
392,392,0,2046,2971
393,393,0,2046,3738
394,394,0,2046,4087
395,395,0,2046,3933
396,396,0,2046,3314
397,397,0,2047,2382
398,398,0,2046,1366
399,399,0,2046,514
400,400,0,2046,37
401,401,0,2046,50
402,402,0,2046,553
403,403,0,2046,1419
404,404,0,2046,2437
405,405,0,2046,3358
406,406,0,2046,3954
407,407,0,2046,4080
408,408,0,2046,3705
409,409,0,2046,2921
410,410,0,2046,1920
411,411,0,2047,948
412,412,0,2047,244
413,413,0,2046,0
414,414,0,2046,221
415,415,0,2047,908
416,416,0,2047,1873
417,417,0,2047,2878
418,418,0,2046,3676
419,419,0,2046,4074
420,420,0,2047,3970
421,421,0,2046,3393
422,422,0,2046,2484
423,423,0,2047,1464
424,424,0,2046,587
425,425,0,2047,63
426,426,0,2047,26
427,427,0,2046,483
428,428,0,2047,1321
429,429,0,2047,2335
430,430,0,2046,3276
431,431,0,2047,3913
432,432,0,2046,4091
433,433,0,2046,3764
434,434,0,2046,3013
435,435,0,2046,2023
436,436,0,2046,1038
437,437,0,2046,297
438,438,0,2046,0
439,439,0,2046,175
440,440,0,2046,824
441,441,0,2046,1770
442,442,0,2046,2782
443,443,0,2046,3612
444,444,0,2047,4055
445,445,0,2047,4004
446,446,0,2046,3469
447,447,0,2047,2584
448,448,0,2047,1564
449,449,0,2046,661
450,450,0,2046,96
451,451,0,2046,7
452,452,0,2046,417
453,453,0,2047,1225
454,454,0,2046,2233
455,455,0,2046,3192
456,456,0,2046,3869
457,457,0,2047,4095
458,458,0,2046,3818
459,459,0,2046,3103
460,460,0,2046,2127
461,461,0,2047,1129
462,462,0,2046,354
463,463,0,2046,0
464,464,0,2045,134
465,465,0,2046,741
466,466,0,2046,1668
467,467,0,2046,2684
468,468,0,2046,3543
469,469,0,2046,4032
470,470,0,2047,4032
471,471,0,2046,3542
472,472,0,2046,2683
473,473,0,2046,1666
474,474,0,2046,740
475,475,0,2046,132
476,476,0,2046,0
477,477,0,2046,356
478,478,0,2046,1131
479,479,0,2046,2129
480,480,0,2046,3104
481,481,0,2046,3818
482,482,0,2046,4095
483,483,0,2046,3867
484,484,0,2047,3190
485,485,0,2046,2230
486,486,0,2046,1223
487,487,0,2046,416
488,488,0,2046,7
489,489,0,2046,96
490,490,0,2046,662
491,491,0,2046,1566
492,492,0,2047,2586
493,493,0,2047,3471
494,494,0,2046,4005
495,495,0,2046,4055
496,496,0,2046,3612
497,497,0,2046,2780
498,498,0,2047,1768
499,499,0,2046,822
500,500,0,2046,174
501,501,0,2046,0
502,502,0,2046,297
503,503,0,2046,1039
504,504,0,2046,2025
505,505,0,2046,3015
506,506,0,2046,3765
507,507,0,2046,4091
508,508,0,2046,3913
509,509,0,2046,3274
510,510,0,2046,2333
511,511,0,2046,1320
512,512,0,2046,482
513,513,0,2046,27
514,514,0,2046,65
515,515,0,2046,587
516,516,0,2046,1466
517,517,0,2046,2485
518,518,0,2046,3396
519,519,0,2046,3972
520,520,0,2046,4073
521,521,0,2046,3676
522,522,0,2046,2876
523,523,0,2046,1870
524,524,0,2046,907
525,525,0,2047,221
526,526,0,2046,0
527,527,0,2046,245
528,528,0,2046,949
529,529,0,2046,1922
530,530,0,2046,2923
531,531,0,2046,3707
532,532,0,2047,4080
533,533,0,2046,3953
534,534,0,2046,3355
535,535,0,2047,2435
536,536,0,2046,1417
537,537,0,2047,552
538,538,0,2046,50
539,539,0,2047,38
540,540,0,2047,516
541,541,0,2046,1368
542,542,0,2047,2383
543,543,0,2047,3315
544,544,0,2046,3933
545,545,0,2046,4086
546,546,0,2046,3736
547,547,0,2046,2970
548,548,0,2047,1975
549,549,0,2047,995
550,550,0,2046,271
551,551,0,2047,0
552,552,0,2046,196
553,553,0,2046,863
554,554,0,2047,1819
555,555,0,2046,2827
556,556,0,2047,3643
557,557,0,2046,4065
558,558,0,2046,3989
559,559,0,2046,3433
560,560,0,2046,2536
561,561,0,2047,1517
562,562,0,2047,625
563,563,0,2046,81
564,564,0,2046,16
565,565,0,2046,448
566,566,0,2046,1270
567,567,0,2047,2282
568,568,0,2047,3233
569,569,0,2046,3891
570,570,0,2047,4094
571,571,0,2046,3793
572,572,0,2046,3060
573,573,0,2047,2078
574,574,0,2047,1085
575,575,0,2047,327
576,576,0,2046,0
577,577,0,2046,152
578,578,0,2046,780
579,579,0,2047,1717
580,580,0,2046,2732
581,581,0,2046,3576
582,582,0,2046,4044
583,583,0,2047,4020
584,584,0,2047,3508
585,585,0,2046,2636
586,586,0,2046,1618
587,587,0,2047,702
588,588,0,2047,115
589,589,0,2047,0
590,590,0,2046,384
591,591,0,2047,1175
592,592,0,2046,2178
593,593,0,2046,3146
594,594,0,2046,3843
595,595,0,2046,4095
596,596,0,2046,3845
597,597,0,2046,3149
598,598,0,2047,2181
599,599,0,2047,1178
600,600,0,2047,386
601,601,0,2046,0
602,602,0,2046,114
603,603,0,2047,699
604,604,0,2045,1615
605,605,0,2046,2634
606,606,0,2046,3505
607,607,0,2046,4018
608,608,0,2047,4045
609,609,0,2046,3579
610,610,0,2047,2735
611,611,0,2046,1719
612,612,0,2046,783
613,613,0,2046,154
614,614,0,2047,0
615,615,0,2046,325
616,616,0,2047,1083
617,617,0,2047,2075
618,618,0,2046,3058
619,619,0,2046,3791
620,620,0,2047,4094
621,621,0,2046,3892
622,622,0,2047,3235
623,623,0,2046,2285
624,624,0,2046,1274
625,625,0,2046,450
626,626,0,2046,17
627,627,0,2046,79
628,628,0,2046,623
629,629,0,2047,1513
630,630,0,2046,2534
631,631,0,2046,3432
632,632,0,2047,3988
633,633,0,2046,4066
634,634,0,2047,3646
635,635,0,2046,2830
636,636,0,2046,1822
637,637,0,2046,866
638,638,0,2047,197
639,639,0,2047,0
640,640,0,2046,269
641,641,0,2047,992
642,642,0,2046,1971
643,643,0,2047,2967
644,644,0,2047,3734
645,645,0,2046,4086
646,646,0,2046,3934
647,647,0,2047,3318
648,648,0,2047,2386
649,649,0,2046,1371
650,650,0,2047,518
651,651,0,2046,38
652,652,0,2047,50
653,653,0,2046,550
654,654,0,2047,1414
655,655,0,2046,2432
656,656,0,2046,3353
657,657,0,2047,3952
658,658,0,2046,4081
659,659,0,2046,3708
660,660,0,2046,2925
661,661,0,2046,1924
662,662,0,2047,952
663,663,0,2046,247
664,664,0,2047,0
665,665,0,2046,219
666,666,0,2046,905
667,667,0,2046,1868
668,668,0,2047,2873
669,669,0,2046,3674
670,670,0,2047,4072
671,671,0,2046,3973
672,672,0,2047,3397
673,673,0,2046,2488
674,674,0,2046,1469
675,675,0,2046,590
676,676,0,2046,65
677,677,0,2046,26
678,678,0,2046,480
679,679,0,2046,1316
680,680,0,2046,2330
681,681,0,2047,3272
682,682,0,2046,3912
683,683,0,2046,4091
684,684,0,2046,3767
685,685,0,2046,3017
686,686,0,2046,2028
687,687,0,2046,1042
688,688,0,2046,300
689,689,0,2045,0
690,690,0,2047,173
691,691,0,2047,820
692,692,0,2047,1765
693,693,0,2046,2778
694,694,0,2046,3609
695,695,0,2046,4055
696,696,0,2046,4005
697,697,0,2046,3473
698,698,0,2046,2588
699,699,0,2046,1569
700,700,0,2046,665
701,701,0,2046,98
702,702,0,2047,6
703,703,0,2046,414
704,704,0,2046,1220
705,705,0,2046,2227
706,706,0,2046,3188
707,707,0,2046,3866
708,708,0,2046,4095
709,709,0,2046,3820
710,710,0,2046,3107
711,711,0,2047,2132
712,712,0,2046,1133
713,713,0,2046,357
714,714,0,2046,0
715,715,0,2046,131
716,716,0,2047,737
717,717,0,2047,1663
718,718,0,2046,2680
719,719,0,2046,3540
720,720,0,2046,4031
721,721,0,2046,4033
722,722,0,2046,3545
723,723,0,2047,2688
724,724,0,2046,1670
725,725,0,2046,744
726,726,0,2047,134
727,727,0,2047,0
728,728,0,2046,352
729,729,0,2047,1126
730,730,0,2047,2124
731,731,0,2046,3101
732,732,0,2047,3817
733,733,0,2046,4095
734,734,0,2046,3870
735,735,0,2046,3194
736,736,0,2046,2235
737,737,0,2046,1229
738,738,0,2046,419
739,739,0,2046,7
740,740,0,2046,94
741,741,0,2046,659
742,742,0,2046,1562
743,743,0,2046,2581
744,744,0,2047,3468
745,745,0,2046,4002
746,746,0,2046,4056
747,747,0,2047,3614
748,748,0,2046,2785
749,749,0,2047,1773
750,750,0,2046,826
751,751,0,2046,176
752,752,0,2046,0
753,753,0,2046,296
754,754,0,2046,1035
755,755,0,2046,2021
756,756,0,2046,3011
757,757,0,2046,3762
758,758,0,2046,4090
759,759,0,2046,3915
760,760,0,2046,3278
761,761,0,2046,2337
762,762,0,2047,1324
763,763,0,2046,485
764,764,0,2046,27
765,765,0,2046,63
766,766,0,2046,584
767,767,0,2046,1461
768,768,0,2046,2481
769,769,0,2046,3392
770,770,0,2046,3969
771,771,0,2046,4074
772,772,0,2047,3679
773,773,0,2046,2881
774,774,0,2046,1876
775,775,0,2046,911
776,776,0,2047,223
777,777,0,2047,0
778,778,0,2046,242
779,779,0,2046,945
780,780,0,2047,1917
781,781,0,2046,2918
782,782,0,2046,3703
783,783,0,2047,4079
784,784,0,2047,3955
785,785,0,2046,3359
786,786,0,2046,2439
787,787,0,2046,1422
788,788,0,2046,555
789,789,0,2046,52
790,790,0,2046,36
791,791,0,2046,512
792,792,0,2047,1363
793,793,0,2047,2378
794,794,0,2047,3311
795,795,0,2046,3931
796,796,0,2047,4087
797,797,0,2046,3739
798,798,0,2046,2974
799,799,0,2046,1979
800,800,0,2046,999
801,801,0,2046,274
802,802,0,2046,0
803,803,0,2047,194
804,804,0,2046,859
805,805,0,2046,1814
806,806,0,2046,2823
807,807,0,2046,3640
808,808,0,2046,4064
809,809,0,2046,3991
810,810,0,2046,3437
811,811,0,2046,2540
812,812,0,2046,1521
813,813,0,2046,629
814,814,0,2046,82
815,815,0,2046,15
816,816,0,2047,445
817,817,0,2046,1266
818,818,0,2047,2276
819,819,0,2047,3229
820,820,0,2046,3889
821,821,0,2046,4095
822,822,0,2046,3795
823,823,0,2046,3065
824,824,0,2046,2082
825,825,0,2046,1090
826,826,0,2046,329
827,827,0,2046,0
828,828,0,2046,150
829,829,0,2046,776
830,830,0,2046,1711
831,831,0,2046,2728
832,832,0,2046,3574
833,833,0,2046,4043
834,834,0,2046,4020
835,835,0,2046,3511
836,836,0,2046,2641
837,837,0,2046,1623
838,838,0,2046,706
839,839,0,2047,116
840,840,0,2047,0
841,841,0,2047,381
842,842,0,2046,1171
843,843,0,2045,2173
844,844,0,2046,3142
845,845,0,2046,3841
846,846,0,2045,4095
847,847,0,2046,3846
848,848,0,2047,3154
849,849,0,2046,2186
850,850,0,2047,1183
851,851,0,2046,389
852,852,0,2047,1
853,853,0,2046,112
854,854,0,2046,696
855,855,0,2046,1610
856,856,0,2047,2628
857,857,0,2046,3502
858,858,0,2047,4017
859,859,0,2046,4045
860,860,0,2046,3582
861,861,0,2046,2739
862,862,0,2047,1724
863,863,0,2047,787
864,864,0,2046,155
865,865,0,2046,0
866,866,0,2046,322
867,867,0,2046,1078
868,868,0,2046,2070
869,869,0,2046,3054
870,870,0,2047,3788
871,871,0,2046,4094
872,872,0,2046,3894
873,873,0,2046,3239
874,874,0,2046,2289
875,875,0,2046,1278
876,876,0,2046,453
877,877,0,2046,17
878,878,0,2046,77
879,879,0,2047,619
880,880,0,2047,1509
881,881,0,2046,2529
882,882,0,2047,3428
883,883,0,2046,3986
884,884,0,2046,4066
885,885,0,2046,3648
886,886,0,2046,2835
887,887,0,2046,1827
888,888,0,2046,870
889,889,0,2045,200
890,890,0,2046,0
891,891,0,2046,266
892,892,0,2047,987
893,893,0,2046,1966
894,894,0,2046,2962
895,895,0,2046,3732
896,896,0,2046,4085
897,897,0,2046,3937
898,898,0,2046,3321
899,899,0,2046,2392
900,900,0,2046,1375
901,901,0,2047,520
902,902,0,2047,39
903,903,0,2046,48
904,904,0,2046,545
905,905,0,2046,1409
906,906,0,2047,2427
907,907,0,2046,3350
908,908,0,2046,3950
909,909,0,2046,4081
910,910,0,2046,3711
911,911,0,2046,2930
912,912,0,2046,1930
913,913,0,2046,957
914,914,0,2046,249
915,915,0,2046,0
916,916,0,2047,216
917,917,0,2046,899
918,918,0,2046,1863
919,919,0,2046,2869
920,920,0,2046,3671
921,921,0,2046,4072
922,922,0,2047,3974
923,923,0,2046,3400
924,924,0,2047,2493
925,925,0,2046,1475
926,926,0,2047,593
927,927,0,2047,67
928,928,0,2046,25
929,929,0,2046,476
930,930,0,2046,1312
931,931,0,2046,2325
932,932,0,2046,3268
933,933,0,2046,3909
934,934,0,2047,4091
935,935,0,2047,3769
936,936,0,2047,3021
937,937,0,2046,2033
938,938,0,2046,1047
939,939,0,2046,303
940,940,0,2047,0
941,941,0,2047,170
942,942,0,2047,815
943,943,0,2046,1760
944,944,0,2046,2773
945,945,0,2046,3606
946,946,0,2046,4053
947,947,0,2045,4007
948,948,0,2046,3476
949,949,0,2046,2593
950,950,0,2046,1574
951,951,0,2046,668
952,952,0,2047,100
953,953,0,2046,6
954,954,0,2046,411
955,955,0,2046,1216
956,956,0,2046,2222
957,957,0,2046,3183
958,958,0,2046,3864
959,959,0,2046,4095
960,960,0,2046,3823
961,961,0,2047,3112
962,962,0,2047,2137
963,963,0,2046,1138
964,964,0,2046,361
965,965,0,2046,0
966,966,0,2046,129
967,967,0,2046,733
968,968,0,2046,1658
969,969,0,2045,2675
970,970,0,2046,3536
971,971,0,2047,4030
972,972,0,2046,4035
973,973,0,2047,3549
974,974,0,2047,2693
975,975,0,2046,1675
976,976,0,2046,747
977,977,0,2046,136
978,978,0,2046,0
979,979,0,2047,349
980,980,0,2046,1122
981,981,0,2046,2119
982,982,0,2046,3096
983,983,0,2046,3813
984,984,0,2046,4095
985,985,0,2046,3872
986,986,0,2046,3198
987,987,0,2046,2241
988,988,0,2046,1233
989,989,0,2046,422
990,990,0,2046,9
991,991,0,2046,93
992,992,0,2046,655
993,993,0,2046,1556
994,994,0,2046,2576
995,995,0,2046,3464
996,996,0,2046,4002
997,997,0,2046,4057
998,998,0,2046,3617
999,999,0,2046,2790
1000,1000,0,2046,1778
1001,1001,0,2046,830
1002,1002,0,2046,178
1003,1003,0,2046,0
1004,1004,0,2046,292
1005,1005,0,2047,1030
1006,1006,0,2046,2015
1007,1007,0,2046,3007
1008,1008,0,2046,3759
1009,1009,0,2046,4090
1010,1010,0,2046,3917
1011,1011,0,2046,3283
1012,1012,0,2046,2344
1013,1013,0,2046,1329
1014,1014,0,2046,488
1015,1015,0,2046,28
1016,1016,0,2046,61
1017,1017,0,2046,580
1018,1018,0,2046,1456
1019,1019,0,2046,2476
1020,1020,0,2046,3388
1021,1021,0,2047,3968
1022,1022,0,2046,4074
1023,1023,0,2047,3682
1024,1024,0,2047,2886
1025,1025,0,2046,1881
1026,1026,0,2047,915
1027,1027,0,2047,225
1028,1028,0,2047,0
