Sample in Buffer,Sample in Window,TRIGGER,adc1_data_a_d0[11:0],adc1_data_b_d0[11:0]
0,0,0,2046,4011
1,1,0,2047,4095
2,2,0,2047,3821
3,3,0,2046,3240
4,4,0,2047,2450
5,5,0,2047,1589
6,6,0,2045,806
7,7,0,2046,237
8,8,0,2046,0
9,9,0,2047,78
10,10,0,2046,515
11,11,0,2047,1218
12,12,0,2046,2063
13,13,0,2047,2902
14,14,0,2047,3593
15,15,0,2046,4014
16,16,0,2047,4094
17,17,0,2046,3817
18,18,0,2046,3231
19,19,0,2046,2439
20,20,0,2047,1578
21,21,0,2046,797
22,22,0,2047,231
23,23,0,2046,0
24,24,0,2045,81
25,25,0,2047,523
26,26,0,2046,1228
27,27,0,2046,2073
28,28,0,2047,2912
29,29,0,2046,3599
30,30,0,2046,4017
31,31,0,2046,4093
32,32,0,2047,3812
33,33,0,2046,3222
34,34,0,2047,2429
35,35,0,2046,1568
36,36,0,2046,789
37,37,0,2046,226
38,38,0,2046,0
39,39,0,2046,84
40,40,0,2047,530
41,41,0,2046,1238
42,42,0,2046,2083
43,43,0,2045,2921
44,44,0,2046,3607
45,45,0,2046,4020
46,46,0,2046,4091
47,47,0,2046,3806
48,48,0,2046,3214
49,49,0,2046,2419
50,50,0,2046,1558
51,51,0,2046,781
52,52,0,2046,221
53,53,0,2046,0
54,54,0,2046,88
55,55,0,2046,537
56,56,0,2046,1247
57,57,0,2047,2094
58,58,0,2047,2930
59,59,0,2047,3613
60,60,0,2046,4023
61,61,0,2046,4090
62,62,0,2046,3800
63,63,0,2046,3205
64,64,0,2047,2409
65,65,0,2046,1548
66,66,0,2046,773
67,67,0,2046,216
68,68,0,2046,0
69,69,0,2046,91
70,70,0,2046,544
71,71,0,2046,1256
72,72,0,2046,2105
73,73,0,2046,2940
74,74,0,2047,3620
75,75,0,2046,4026
76,76,0,2046,4088
77,77,0,2046,3795
78,78,0,2046,3197
79,79,0,2046,2398
80,80,0,2047,1538
81,81,0,2047,765
82,82,0,2046,211
83,83,0,2046,0
84,84,0,2046,95
85,85,0,2046,552
86,86,0,2046,1266
87,87,0,2046,2115
88,88,0,2046,2950
89,89,0,2046,3626
90,90,0,2046,4029
91,91,0,2046,4087
92,92,0,2047,3789
93,93,0,2046,3187
94,94,0,2046,2388
95,95,0,2047,1528
96,96,0,2047,756
97,97,0,2046,206
98,98,0,2046,0
99,99,0,2046,98
100,100,0,2046,559
101,101,0,2046,1276
102,102,0,2047,2125
103,103,0,2046,2958
104,104,0,2046,3634
105,105,0,2046,4031
106,106,0,2046,4085
107,107,0,2047,3783
108,108,0,2046,3180
109,109,0,2046,2378
110,110,0,2046,1518
111,111,0,2047,748
112,112,0,2047,202
113,113,0,2047,0
114,114,0,2047,102
115,115,0,2047,566
116,116,0,2046,1285
117,117,0,2047,2135
118,118,0,2047,2967
119,119,0,2047,3640
120,120,0,2046,4035
121,121,0,2046,4084
122,122,0,2047,3779
123,123,0,2047,3171
124,124,0,2046,2368
125,125,0,2046,1508
126,126,0,2046,740
127,127,0,2046,196
128,128,0,2046,0
129,129,0,2047,106
130,130,0,2046,573
131,131,0,2046,1296
132,132,0,2047,2145
133,133,0,2046,2977
134,134,0,2047,3646
135,135,0,2046,4037
136,136,0,2047,4082
137,137,0,2046,3773
138,138,0,2046,3162
139,139,0,2046,2358
140,140,0,2046,1498
141,141,0,2046,732
142,142,0,2046,192
143,143,0,2047,0
144,144,0,2047,109
145,145,0,2046,581
146,146,0,2046,1305
147,147,0,2046,2155
148,148,0,2046,2986
149,149,0,2046,3653
150,150,0,2047,4040
151,151,0,2047,4080
152,152,0,2046,3767
153,153,0,2047,3154
154,154,0,2046,2347
155,155,0,2046,1488
156,156,0,2047,725
157,157,0,2047,187
158,158,0,2046,0
159,159,0,2046,114
160,160,0,2046,588
161,161,0,2047,1315
162,162,0,2047,2166
163,163,0,2047,2995
164,164,0,2046,3660
165,165,0,2046,4042
166,166,0,2046,4078
167,167,0,2046,3761
168,168,0,2046,3145
169,169,0,2046,2338
170,170,0,2046,1479
171,171,0,2046,717
172,172,0,2047,183
173,173,0,2047,0
174,174,0,2046,117
175,175,0,2047,596
176,176,0,2046,1324
177,177,0,2046,2177
178,178,0,2046,3005
179,179,0,2047,3665
180,180,0,2047,4045
181,181,0,2047,4077
182,182,0,2046,3756
183,183,0,2046,3136
184,184,0,2046,2327
185,185,0,2046,1468
186,186,0,2046,708
187,187,0,2046,177
188,188,0,2047,0
189,189,0,2047,121
190,190,0,2046,603
191,191,0,2046,1334
192,192,0,2046,2187
193,193,0,2046,3014
194,194,0,2047,3672
195,195,0,2047,4047
196,196,0,2046,4075
197,197,0,2047,3749
198,198,0,2046,3127
199,199,0,2046,2317
200,200,0,2046,1459
201,201,0,2046,701
202,202,0,2046,174
203,203,0,2046,0
204,204,0,2047,124
205,205,0,2046,611
206,206,0,2047,1344
207,207,0,2046,2196
208,208,0,2046,3023
209,209,0,2046,3678
210,210,0,2046,4050
211,211,0,2046,4073
212,212,0,2046,3743
213,213,0,2047,3119
214,214,0,2046,2306
215,215,0,2047,1448
216,216,0,2046,692
217,217,0,2047,170
218,218,0,2047,0
219,219,0,2046,129
220,220,0,2047,618
221,221,0,2047,1353
222,222,0,2046,2206
223,223,0,2047,3032
224,224,0,2047,3684
225,225,0,2046,4052
226,226,0,2046,4071
227,227,0,2046,3738
228,228,0,2046,3109
229,229,0,2046,2296
230,230,0,2046,1439
231,231,0,2046,684
232,232,0,2047,165
233,233,0,2046,0
234,234,0,2046,133
235,235,0,2046,626
236,236,0,2047,1363
237,237,0,2046,2217
238,238,0,2047,3041
239,239,0,2046,3690
240,240,0,2047,4055
241,241,0,2046,4069
242,242,0,2047,3732
243,243,0,2047,3102
244,244,0,2047,2286
245,245,0,2046,1429
246,246,0,2047,677
247,247,0,2046,161
248,248,0,2046,0
249,249,0,2047,137
250,250,0,2046,633
251,251,0,2047,1373
252,252,0,2047,2228
253,253,0,2047,3050
254,254,0,2047,3697
255,255,0,2046,4057
256,256,0,2046,4067
257,257,0,2046,3726
258,258,0,2046,3091
259,259,0,2046,2276
260,260,0,2047,1419
261,261,0,2046,669
262,262,0,2046,157
263,263,0,2047,0
264,264,0,2046,141
265,265,0,2047,641
266,266,0,2047,1383
267,267,0,2047,2237
268,268,0,2046,3059
269,269,0,2047,3703
270,270,0,2046,4059
271,271,0,2046,4065
272,272,0,2047,3720
273,273,0,2047,3083
274,274,0,2046,2265
275,275,0,2047,1409
276,276,0,2047,662
277,277,0,2046,152
278,278,0,2047,0
279,279,0,2047,145
280,280,0,2046,648
281,281,0,2047,1392
282,282,0,2046,2249
283,283,0,2047,3069
284,284,0,2046,3709
285,285,0,2047,4061
286,286,0,2046,4063
287,287,0,2047,3714
288,288,0,2046,3074
289,289,0,2046,2254
290,290,0,2047,1399
291,291,0,2047,654
292,292,0,2047,148
293,293,0,2047,0
294,294,0,2047,150
295,295,0,2047,657
296,296,0,2047,1402
297,297,0,2046,2259
298,298,0,2046,3077
299,299,0,2047,3714
300,300,0,2046,4063
301,301,0,2046,4061
302,302,0,2047,3708
303,303,0,2047,3065
304,304,0,2047,2245
305,305,0,2047,1389
306,306,0,2046,646
307,307,0,2046,144
308,308,0,2046,0
309,309,0,2046,153
310,310,0,2046,664
311,311,0,2046,1412
312,312,0,2046,2269
313,313,0,2046,3086
314,314,0,2046,3721
315,315,0,2047,4065
316,316,0,2047,4058
317,317,0,2046,3702
318,318,0,2047,3056
319,319,0,2046,2234
320,320,0,2046,1380
321,321,0,2046,638
322,322,0,2046,139
323,323,0,2046,0
324,324,0,2046,157
325,325,0,2046,671
326,326,0,2046,1422
327,327,0,2047,2279
328,328,0,2047,3095
329,329,0,2046,3727
330,330,0,2046,4067
331,331,0,2047,4056
332,332,0,2046,3696
333,333,0,2047,3047
334,334,0,2047,2224
335,335,0,2046,1370
336,336,0,2047,631
337,337,0,2047,135
338,338,0,2047,0
339,339,0,2046,162
340,340,0,2046,680
341,341,0,2046,1432
342,342,0,2047,2289
343,343,0,2047,3104
344,344,0,2046,3733
345,345,0,2047,4070
346,346,0,2046,4054
347,347,0,2047,3689
348,348,0,2047,3038
349,349,0,2046,2214
350,350,0,2046,1360
351,351,0,2046,623
352,352,0,2047,132
353,353,0,2047,0
354,354,0,2046,166
355,355,0,2046,687
356,356,0,2046,1442
357,357,0,2047,2301
358,358,0,2046,3113
359,359,0,2046,3739
360,360,0,2046,4072
361,361,0,2047,4051
362,362,0,2046,3683
363,363,0,2046,3029
364,364,0,2046,2203
365,365,0,2047,1350
366,366,0,2046,615
367,367,0,2046,127
368,368,0,2046,0
369,369,0,2046,171
370,370,0,2046,695
371,371,0,2046,1452
372,372,0,2047,2310
373,373,0,2047,3122
374,374,0,2046,3746
375,375,0,2046,4073
376,376,0,2046,4049
377,377,0,2047,3677
378,378,0,2046,3020
379,379,0,2047,2194
380,380,0,2046,1341
381,381,0,2047,608
382,382,0,2046,123
383,383,0,2047,0
384,384,0,2046,175
385,385,0,2046,703
386,386,0,2047,1462
387,387,0,2047,2320
388,388,0,2046,3130
389,389,0,2047,3750
390,390,0,2047,4075
391,391,0,2046,4047
392,392,0,2047,3670
393,393,0,2046,3011
394,394,0,2047,2183
395,395,0,2047,1331
396,396,0,2046,600
397,397,0,2047,120
398,398,0,2046,0
399,399,0,2047,180
400,400,0,2046,711
401,401,0,2046,1472
402,402,0,2046,2331
403,403,0,2046,3139
404,404,0,2046,3757
405,405,0,2047,4077
406,406,0,2046,4044
407,407,0,2046,3664
408,408,0,2047,3002
409,409,0,2046,2173
410,410,0,2047,1321
411,411,0,2046,593
412,412,0,2046,115
413,413,0,2047,0
414,414,0,2046,185
415,415,0,2046,718
416,416,0,2047,1482
417,417,0,2047,2340
418,418,0,2047,3147
419,419,0,2046,3762
420,420,0,2046,4079
421,421,0,2047,4041
422,422,0,2046,3657
423,423,0,2046,2993
424,424,0,2047,2162
425,425,0,2047,1311
426,426,0,2046,585
427,427,0,2047,112
428,428,0,2047,0
429,429,0,2046,189
430,430,0,2046,727
431,431,0,2046,1492
432,432,0,2046,2351
433,433,0,2046,3157
434,434,0,2047,3769
435,435,0,2047,4080
436,436,0,2046,4038
437,437,0,2046,3651
438,438,0,2046,2983
439,439,0,2047,2153
440,440,0,2047,1302
441,441,0,2046,579
442,442,0,2046,108
443,443,0,2047,0
444,444,0,2047,194
445,445,0,2047,734
446,446,0,2046,1502
447,447,0,2046,2361
448,448,0,2046,3165
449,449,0,2047,3774
450,450,0,2047,4082
451,451,0,2047,4037
452,452,0,2046,3645
453,453,0,2046,2974
454,454,0,2046,2142
455,455,0,2046,1292
456,456,0,2047,571
457,457,0,2046,105
458,458,0,2047,0
459,459,0,2046,198
460,460,0,2046,743
461,461,0,2046,1512
462,462,0,2046,2371
463,463,0,2046,3173
464,464,0,2046,3780
465,465,0,2046,4084
466,466,0,2046,4034
467,467,0,2046,3638
468,468,0,2046,2964
469,469,0,2047,2132
470,470,0,2046,1282
471,471,0,2046,563
472,472,0,2046,101
473,473,0,2046,0
474,474,0,2046,203
475,475,0,2046,751
476,476,0,2047,1522
477,477,0,2046,2382
478,478,0,2046,3182
479,479,0,2046,3784
480,480,0,2046,4086
481,481,0,2047,4031
482,482,0,2046,3632
483,483,0,2047,2956
484,484,0,2046,2121
485,485,0,2046,1273
486,486,0,2046,558
487,487,0,2046,97
488,488,0,2046,0
489,489,0,2046,208
490,490,0,2046,759
491,491,0,2046,1531
492,492,0,2046,2391
493,493,0,2046,3191
494,494,0,2046,3790
495,495,0,2047,4088
496,496,0,2046,4028
497,497,0,2046,3624
498,498,0,2046,2946
499,499,0,2046,2111
500,500,0,2046,1263
501,501,0,2046,549
502,502,0,2047,94
503,503,0,2047,0
504,504,0,2046,213
505,505,0,2047,767
506,506,0,2046,1542
507,507,0,2047,2402
508,508,0,2047,3199
509,509,0,2046,3795
510,510,0,2046,4089
511,511,0,2046,4025
512,512,0,2046,3619
513,513,0,2046,2937
514,514,0,2046,2100
515,515,0,2046,1254
516,516,0,2047,542
517,517,0,2046,91
518,518,0,2047,0
519,519,0,2046,217
520,520,0,2047,775
521,521,0,2046,1552
522,522,0,2046,2412
523,523,0,2047,3208
524,524,0,2046,3802
525,525,0,2047,4090
526,526,0,2046,4022
527,527,0,2046,3612
528,528,0,2046,2928
529,529,0,2046,2090
530,530,0,2046,1244
531,531,0,2046,535
532,532,0,2047,86
533,533,0,2046,0
534,534,0,2046,222
535,535,0,2047,784
536,536,0,2047,1562
537,537,0,2046,2422
538,538,0,2046,3216
539,539,0,2046,3806
540,540,0,2046,4091
541,541,0,2047,4020
542,542,0,2046,3604
543,543,0,2046,2918
544,544,0,2046,2080
545,545,0,2047,1234
546,546,0,2046,528
547,547,0,2047,84
548,548,0,2047,0
549,549,0,2046,228
550,550,0,2047,792
551,551,0,2046,1572
552,552,0,2046,2432
553,553,0,2046,3225
554,554,0,2046,3812
555,555,0,2046,4093
556,556,0,2046,4016
557,557,0,2046,3598
558,558,0,2046,2909
559,559,0,2047,2070
560,560,0,2046,1225
561,561,0,2046,521
562,562,0,2046,81
563,563,0,2047,0
564,564,0,2047,232
565,565,0,2047,800
566,566,0,2047,1582
567,567,0,2046,2442
568,568,0,2047,3233
569,569,0,2047,3818
570,570,0,2046,4094
571,571,0,2047,4013
572,572,0,2047,3592
573,573,0,2047,2898
574,574,0,2047,2059
575,575,0,2046,1216
576,576,0,2046,514
577,577,0,2046,77
578,578,0,2047,0
579,579,0,2047,238
580,580,0,2047,809
581,581,0,2047,1592
582,582,0,2046,2453
583,583,0,2047,3242
584,584,0,2047,3823
585,585,0,2047,4095
586,586,0,2047,4010
587,587,0,2047,3584
588,588,0,2046,2890
589,589,0,2047,2049
590,590,0,2047,1206
591,591,0,2047,507
592,592,0,2046,73
593,593,0,2046,0
594,594,0,2046,243
595,595,0,2047,817
596,596,0,2046,1602
597,597,0,2047,2462
598,598,0,2047,3251
599,599,0,2046,3828
600,600,0,2046,4095
601,601,0,2046,4008
602,602,0,2046,3577
603,603,0,2046,2881
604,604,0,2047,2038
605,605,0,2046,1197
606,606,0,2046,500
607,607,0,2047,70
608,608,0,2046,0
609,609,0,2046,248
610,610,0,2046,825
611,611,0,2047,1612
612,612,0,2046,2473
613,613,0,2047,3259
614,614,0,2046,3833
615,615,0,2046,4095
616,616,0,2046,4004
617,617,0,2046,3570
618,618,0,2046,2871
619,619,0,2047,2028
620,620,0,2047,1187
621,621,0,2046,493
622,622,0,2046,67
623,623,0,2046,0
624,624,0,2047,253
625,625,0,2046,834
626,626,0,2046,1622
627,627,0,2046,2483
628,628,0,2047,3267
629,629,0,2046,3838
630,630,0,2046,4095
631,631,0,2047,4001
632,632,0,2047,3564
633,633,0,2047,2861
634,634,0,2046,2018
635,635,0,2047,1177
636,636,0,2047,486
637,637,0,2047,64
638,638,0,2047,0
639,639,0,2045,258
640,640,0,2046,842
641,641,0,2047,1633
642,642,0,2046,2494
643,643,0,2046,3276
644,644,0,2046,3843
645,645,0,2046,4095
646,646,0,2046,3998
647,647,0,2047,3557
648,648,0,2046,2852
649,649,0,2046,2007
650,650,0,2046,1168
651,651,0,2046,479
652,652,0,2046,61
653,653,0,2046,0
654,654,0,2047,264
655,655,0,2046,851
656,656,0,2047,1643
657,657,0,2047,2504
658,658,0,2047,3284
659,659,0,2047,3849
660,660,0,2046,4095
661,661,0,2046,3995
662,662,0,2046,3549
663,663,0,2047,2842
664,664,0,2046,1997
665,665,0,2047,1159
666,666,0,2046,472
667,667,0,2046,58
668,668,0,2047,0
669,669,0,2046,270
670,670,0,2046,859
671,671,0,2046,1653
672,672,0,2046,2514
673,673,0,2046,3293
674,674,0,2046,3853
675,675,0,2046,4095
676,676,0,2046,3990
677,677,0,2047,3542
678,678,0,2047,2833
679,679,0,2046,1986
680,680,0,2046,1150
681,681,0,2046,466
682,682,0,2046,55
683,683,0,2047,0
684,684,0,2047,275
685,685,0,2046,867
686,686,0,2046,1664
687,687,0,2046,2524
688,688,0,2047,3301
689,689,0,2046,3858
690,690,0,2047,4095
691,691,0,2046,3987
692,692,0,2047,3535
693,693,0,2047,2823
694,694,0,2047,1976
695,695,0,2047,1140
696,696,0,2046,460
697,697,0,2047,52
698,698,0,2047,0
699,699,0,2047,280
700,700,0,2047,875
701,701,0,2046,1673
702,702,0,2046,2534
703,703,0,2047,3309
704,704,0,2046,3864
705,705,0,2047,4095
706,706,0,2047,3984
707,707,0,2046,3527
708,708,0,2046,2814
709,709,0,2046,1966
710,710,0,2046,1131
711,711,0,2047,452
712,712,0,2047,49
713,713,0,2046,0
714,714,0,2047,285
715,715,0,2046,885
716,716,0,2046,1684
717,717,0,2047,2545
718,718,0,2046,3317
719,719,0,2046,3868
720,720,0,2046,4095
721,721,0,2047,3981
722,722,0,2046,3520
723,723,0,2046,2804
724,724,0,2046,1955
725,725,0,2046,1121
726,726,0,2046,446
727,727,0,2047,47
728,728,0,2046,0
729,729,0,2046,291
730,730,0,2046,893
731,731,0,2047,1694
732,732,0,2046,2554
733,733,0,2047,3325
734,734,0,2047,3873
735,735,0,2046,4095
736,736,0,2046,3976
737,737,0,2046,3513
738,738,0,2046,2794
739,739,0,2046,1946
740,740,0,2046,1113
741,741,0,2046,439
742,742,0,2046,43
743,743,0,2046,0
744,744,0,2046,296
745,745,0,2047,902
746,746,0,2046,1704
747,747,0,2046,2564
748,748,0,2047,3333
749,749,0,2046,3879
750,750,0,2047,4095
751,751,0,2046,3973
752,752,0,2045,3506
753,753,0,2046,2785
754,754,0,2047,1935
755,755,0,2046,1103
756,756,0,2046,433
757,757,0,2046,41
758,758,0,2046,0
759,759,0,2047,302
760,760,0,2047,911
761,761,0,2046,1715
762,762,0,2046,2574
763,763,0,2047,3341
764,764,0,2047,3883
765,765,0,2046,4095
766,766,0,2046,3969
767,767,0,2046,3498
768,768,0,2046,2775
769,769,0,2046,1924
770,770,0,2046,1094
771,771,0,2046,426
772,772,0,2046,38
773,773,0,2046,0
774,774,0,2046,308
775,775,0,2046,919
776,776,0,2046,1725
777,777,0,2046,2585
778,778,0,2047,3350
779,779,0,2047,3887
780,780,0,2046,4095
781,781,0,2046,3966
782,782,0,2047,3491
783,783,0,2047,2765
784,784,0,2046,1914
785,785,0,2047,1084
786,786,0,2046,420
787,787,0,2047,35
788,788,0,2047,0
789,789,0,2046,313
790,790,0,2046,928
791,791,0,2046,1735
792,792,0,2046,2595
793,793,0,2047,3357
794,794,0,2047,3892
795,795,0,2047,4095
796,796,0,2047,3961
797,797,0,2046,3483
798,798,0,2047,2756
799,799,0,2046,1904
800,800,0,2046,1075
801,801,0,2046,413
802,802,0,2047,33
803,803,0,2046,0
804,804,0,2046,319
805,805,0,2046,937
806,806,0,2046,1746
807,807,0,2047,2603
808,808,0,2046,3365
809,809,0,2046,3896
810,810,0,2046,4095
811,811,0,2047,3958
812,812,0,2046,3476
813,813,0,2046,2745
814,814,0,2047,1893
815,815,0,2046,1066
816,816,0,2046,407
817,817,0,2046,30
818,818,0,2047,1
819,819,0,2046,325
820,820,0,2047,945
821,821,0,2046,1755
822,822,0,2046,2614
823,823,0,2046,3373
824,824,0,2047,3901
825,825,0,2047,4095
826,826,0,2046,3953
827,827,0,2046,3469
828,828,0,2046,2736
829,829,0,2046,1883
830,830,0,2046,1057
831,831,0,2046,400
832,832,0,2046,28
833,833,0,2047,4
834,834,0,2047,331
835,835,0,2047,954
836,836,0,2047,1766
837,837,0,2046,2624
838,838,0,2046,3381
839,839,0,2046,3905
840,840,0,2046,4095
841,841,0,2046,3950
842,842,0,2046,3461
843,843,0,2046,2727
844,844,0,2046,1873
845,845,0,2047,1047
846,846,0,2046,394
847,847,0,2047,26
848,848,0,2047,5
849,849,0,2046,337
850,850,0,2046,963
851,851,0,2047,1776
852,852,0,2046,2634
853,853,0,2046,3388
854,854,0,2046,3909
855,855,0,2046,4095
856,856,0,2046,3946
857,857,0,2047,3453
858,858,0,2046,2716
859,859,0,2046,1863
860,860,0,2046,1039
861,861,0,2047,388
862,862,0,2046,23
863,863,0,2046,7
864,864,0,2046,343
865,865,0,2047,973
866,866,0,2046,1786
867,867,0,2047,2644
868,868,0,2047,3397
869,869,0,2047,3915
870,870,0,2047,4095
871,871,0,2047,3943
872,872,0,2047,3447
873,873,0,2046,2706
874,874,0,2046,1852
875,875,0,2046,1029
876,876,0,2047,382
877,877,0,2047,20
878,878,0,2046,9
879,879,0,2047,349
880,880,0,2046,981
881,881,0,2046,1796
882,882,0,2046,2654
883,883,0,2046,3405
884,884,0,2047,3918
885,885,0,2046,4095
886,886,0,2046,3937
887,887,0,2046,3439
888,888,0,2046,2697
889,889,0,2046,1842
890,890,0,2047,1021
891,891,0,2047,375
892,892,0,2046,19
893,893,0,2046,11
894,894,0,2047,355
895,895,0,2046,990
896,896,0,2046,1807
897,897,0,2047,2663
898,898,0,2046,3412
899,899,0,2046,3922
900,900,0,2046,4095
901,901,0,2046,3934
902,902,0,2047,3431
903,903,0,2046,2687
904,904,0,2046,1831
905,905,0,2046,1011
906,906,0,2046,370
907,907,0,2046,16
908,908,0,2047,14
909,909,0,2046,361
910,910,0,2046,999
911,911,0,2046,1817
912,912,0,2047,2674
913,913,0,2046,3420
914,914,0,2046,3927
915,915,0,2047,4095
916,916,0,2046,3929
917,917,0,2046,3423
918,918,0,2047,2677
919,919,0,2046,1821
920,920,0,2046,1003
921,921,0,2046,363
922,922,0,2047,14
923,923,0,2046,16
924,924,0,2046,367
925,925,0,2046,1008
926,926,0,2046,1828
927,927,0,2047,2684
928,928,0,2046,3427
929,929,0,2046,3931
930,930,0,2047,4095
931,931,0,2046,3925
932,932,0,2046,3415
933,933,0,2046,2667
934,934,0,2046,1810
935,935,0,2046,994
936,936,0,2046,357
937,937,0,2046,13
938,938,0,2046,18
939,939,0,2046,373
940,940,0,2046,1017
941,941,0,2046,1838
942,942,0,2046,2694
943,943,0,2046,3435
944,944,0,2046,3936
945,945,0,2046,4095
946,946,0,2046,3920
947,947,0,2046,3407
948,948,0,2046,2658
949,949,0,2046,1800
950,950,0,2046,984
951,951,0,2046,351
952,952,0,2046,10
953,953,0,2046,20
954,954,0,2047,379
955,955,0,2047,1026
956,956,0,2047,1847
957,957,0,2046,2702
958,958,0,2047,3442
959,959,0,2047,3940
960,960,0,2046,4095
961,961,0,2046,3917
962,962,0,2046,3400
963,963,0,2047,2646
964,964,0,2046,1790
965,965,0,2047,976
966,966,0,2047,346
967,967,0,2046,8
968,968,0,2047,22
969,969,0,2047,386
970,970,0,2046,1035
971,971,0,2046,1858
972,972,0,2046,2713
973,973,0,2046,3451
974,974,0,2047,3943
975,975,0,2046,4095
976,976,0,2046,3912
977,977,0,2046,3392
978,978,0,2046,2638
979,979,0,2046,1780
980,980,0,2046,967
981,981,0,2046,339
982,982,0,2046,6
983,983,0,2046,24
984,984,0,2046,392
985,985,0,2046,1044
986,986,0,2046,1869
987,987,0,2046,2722
988,988,0,2046,3458
989,989,0,2047,3948
990,990,0,2046,4095
991,991,0,2046,3908
992,992,0,2046,3384
993,993,0,2046,2628
994,994,0,2047,1769
995,995,0,2046,958
996,996,0,2046,334
997,997,0,2046,5
998,998,0,2046,27
999,999,0,2046,398
1000,1000,0,2046,1054
1001,1001,0,2046,1879
1002,1002,0,2047,2732
1003,1003,0,2047,3466
1004,1004,0,2047,3952
1005,1005,0,2046,4095
1006,1006,0,2046,3903
1007,1007,0,2046,3377
1008,1008,0,2046,2618
1009,1009,0,2046,1760
1010,1010,0,2046,949
1011,1011,0,2047,327
1012,1012,0,2046,2
1013,1013,0,2046,29
1014,1014,0,2046,404
1015,1015,0,2046,1062
1016,1016,0,2047,1889
1017,1017,0,2046,2741
1018,1018,0,2046,3473
1019,1019,0,2046,3955
1020,1020,0,2046,4095
1021,1021,0,2046,3899
1022,1022,0,2046,3368
1023,1023,0,2046,2608
1024,1024,0,2046,1750
1025,1025,0,2047,940
1026,1026,0,2046,322
1027,1027,0,2046,0
1028,1028,0,2046,31
