Sample in Buffer,Sample in Window,TRIGGER,adc1_data_a_d0[11:0],adc1_data_b_d0[11:0]
0,0,0,2046,3561
1,1,0,2047,3898
2,2,0,2046,4087
3,3,0,2047,4095
4,4,0,2046,3976
5,5,0,2047,3683
6,6,0,2046,3262
7,7,0,2046,2743
8,8,0,2046,2169
9,9,0,2047,1583
10,10,0,2046,1034
11,11,0,2047,565
12,12,0,2046,212
13,13,0,2046,5
14,14,0,2046,0
15,15,0,2047,76
16,16,0,2046,351
17,17,0,2047,758
18,18,0,2046,1267
19,19,0,2046,1838
20,20,0,2047,2424
21,21,0,2046,2980
22,22,0,2046,3461
23,23,0,2046,3829
24,24,0,2046,4055
25,25,0,2047,4095
26,26,0,2046,4023
27,27,0,2046,3768
28,28,0,2046,3374
29,29,0,2046,2875
30,30,0,2047,2310
31,31,0,2046,1724
32,32,0,2046,1162
33,33,0,2046,670
34,34,0,2046,286
35,35,0,2046,41
36,36,0,2046,0
37,37,0,2047,33
38,38,0,2047,271
39,39,0,2047,649
40,40,0,2047,1136
41,41,0,2047,1696
42,42,0,2046,2283
43,43,0,2047,2850
44,44,0,2046,3353
45,45,0,2047,3752
46,46,0,2046,4015
47,47,0,2046,4095
48,48,0,2046,4063
49,49,0,2046,3843
50,50,0,2046,3480
51,51,0,2046,3004
52,52,0,2047,2451
53,53,0,2046,1865
54,54,0,2046,1293
55,55,0,2047,780
56,56,0,2047,366
57,57,0,2046,86
58,58,0,2047,0
59,59,0,2046,0
60,60,0,2046,199
61,61,0,2046,546
62,62,0,2046,1010
63,63,0,2047,1557
64,64,0,2046,2140
65,65,0,2046,2717
66,66,0,2047,3240
67,67,0,2046,3668
68,68,0,2046,3966
69,69,0,2046,4095
70,70,0,2046,4092
71,71,0,2046,3910
72,72,0,2046,3580
73,73,0,2046,3128
74,74,0,2046,2589
75,75,0,2046,2007
76,76,0,2046,1427
77,77,0,2046,896
78,78,0,2046,456
79,79,0,2046,141
80,80,0,2046,0
81,81,0,2047,0
82,82,0,2046,136
83,83,0,2046,450
84,84,0,2046,888
85,85,0,2047,1418
86,86,0,2046,1998
87,87,0,2046,2581
88,88,0,2046,3120
89,89,0,2046,3575
90,90,0,2046,3906
91,91,0,2047,4090
92,92,0,2046,4095
93,93,0,2046,3968
94,94,0,2047,3672
95,95,0,2046,3246
96,96,0,2046,2726
97,97,0,2046,2149
98,98,0,2047,1565
99,99,0,2046,1018
100,100,0,2047,552
101,101,0,2047,204
102,102,0,2047,1
103,103,0,2046,0
104,104,0,2046,82
105,105,0,2047,361
106,106,0,2046,772
107,107,0,2046,1284
108,108,0,2046,1856
109,109,0,2047,2442
110,110,0,2046,2997
111,111,0,2046,3474
112,112,0,2047,3839
113,113,0,2047,4061
114,114,0,2047,4095
115,115,0,2046,4018
116,116,0,2046,3757
117,117,0,2047,3360
118,118,0,2046,2859
119,119,0,2047,2291
120,120,0,2046,1705
121,121,0,2046,1145
122,122,0,2046,656
123,123,0,2046,276
124,124,0,2046,36
125,125,0,2047,0
126,126,0,2047,38
127,127,0,2047,280
128,128,0,2046,662
129,129,0,2047,1154
130,130,0,2046,1714
131,131,0,2047,2301
132,132,0,2047,2867
133,133,0,2047,3367
134,134,0,2046,3763
135,135,0,2047,4021
136,136,0,2046,4095
137,137,0,2046,4058
138,138,0,2046,3834
139,139,0,2047,3466
140,140,0,2046,2987
141,141,0,2046,2432
142,142,0,2047,1846
143,143,0,2046,1275
144,144,0,2046,765
145,145,0,2046,355
146,146,0,2046,79
147,147,0,2047,0
148,148,0,2046,3
149,149,0,2046,208
150,150,0,2046,559
151,151,0,2047,1026
152,152,0,2046,1574
153,153,0,2046,2160
154,154,0,2046,2735
155,155,0,2047,3255
156,156,0,2047,3678
157,157,0,2046,3972
158,158,0,2046,4095
159,159,0,2046,4089
160,160,0,2046,3902
161,161,0,2046,3567
162,162,0,2047,3112
163,163,0,2047,2571
164,164,0,2046,1989
165,165,0,2047,1410
166,166,0,2046,881
167,167,0,2046,444
168,168,0,2047,133
169,169,0,2046,0
170,170,0,2046,0
171,171,0,2046,144
172,172,0,2046,462
173,173,0,2046,905
174,174,0,2047,1437
175,175,0,2047,2017
176,176,0,2047,2599
177,177,0,2047,3136
178,178,0,2046,3587
179,179,0,2047,3914
180,180,0,2046,4094
181,181,0,2047,4095
182,182,0,2047,3961
183,183,0,2046,3660
184,184,0,2046,3231
185,185,0,2046,2707
186,186,0,2047,2131
187,187,0,2046,1547
188,188,0,2046,1002
189,189,0,2047,539
190,190,0,2046,195
191,191,0,2046,0
192,192,0,2046,0
193,193,0,2047,89
194,194,0,2046,372
195,195,0,2046,788
196,196,0,2046,1301
197,197,0,2046,1874
198,198,0,2046,2460
199,199,0,2047,3013
200,200,0,2046,3489
201,201,0,2046,3848
202,202,0,2046,4065
203,203,0,2047,4095
204,204,0,2047,4012
205,205,0,2047,3747
206,206,0,2046,3345
207,207,0,2047,2841
208,208,0,2046,2273
209,209,0,2046,1687
210,210,0,2046,1128
211,211,0,2046,642
212,212,0,2046,266
213,213,0,2047,30
214,214,0,2046,0
215,215,0,2047,44
216,216,0,2047,290
217,217,0,2046,676
218,218,0,2046,1171
219,219,0,2047,1732
220,220,0,2046,2319
221,221,0,2047,2885
222,222,0,2046,3382
223,223,0,2047,3773
224,224,0,2046,4027
225,225,0,2047,4095
226,226,0,2046,4054
227,227,0,2046,3825
228,228,0,2046,3453
229,229,0,2046,2971
230,230,0,2047,2415
231,231,0,2046,1827
232,232,0,2046,1258
233,233,0,2046,751
234,234,0,2046,345
235,235,0,2047,73
236,236,0,2047,0
237,237,0,2047,6
238,238,0,2046,217
239,239,0,2046,572
240,240,0,2046,1042
241,241,0,2046,1593
242,242,0,2046,2177
243,243,0,2046,2751
244,244,0,2046,3270
245,245,0,2047,3690
246,246,0,2046,3978
247,247,0,2047,4095
248,248,0,2046,4085
249,249,0,2046,3894
250,250,0,2046,3554
251,251,0,2047,3096
252,252,0,2046,2553
253,253,0,2046,1970
254,254,0,2046,1392
255,255,0,2047,865
256,256,0,2047,431
257,257,0,2047,126
258,258,0,2046,0
259,259,0,2046,0
260,260,0,2047,152
261,261,0,2047,474
262,262,0,2046,920
263,263,0,2046,1454
264,264,0,2047,2035
265,265,0,2047,2617
266,266,0,2047,3152
267,267,0,2046,3600
268,268,0,2047,3922
269,269,0,2046,4095
270,270,0,2047,4095
271,271,0,2046,3954
272,272,0,2046,3649
273,273,0,2047,3216
274,274,0,2046,2690
275,275,0,2047,2112
276,276,0,2047,1528
277,277,0,2046,986
278,278,0,2047,526
279,279,0,2046,186
280,280,0,2046,0
281,281,0,2046,0
282,282,0,2047,96
283,283,0,2047,384
284,284,0,2047,802
285,285,0,2047,1319
286,286,0,2047,1892
287,287,0,2047,2478
288,288,0,2048,3029
289,289,0,2047,3501
290,290,0,2046,3858
291,291,0,2046,4069
292,292,0,2046,4095
293,293,0,2047,4006
294,294,0,2047,3735
295,295,0,2047,3331
296,296,0,2047,2823
297,297,0,2046,2255
298,298,0,2047,1668
299,299,0,2046,1111
300,300,0,2046,627
301,301,0,2047,256
302,302,0,2047,26
303,303,0,2046,0
304,304,0,2047,48
305,305,0,2046,301
306,306,0,2046,690
307,307,0,2046,1187
308,308,0,2046,1752
309,309,0,2047,2339
310,310,0,2047,2901
311,311,0,2047,3396
312,312,0,2047,3783
313,313,0,2048,4032
314,314,0,2047,4095
315,315,0,2047,4048
316,316,0,2047,3814
317,317,0,2046,3440
318,318,0,2046,2954
319,319,0,2046,2395
320,320,0,2046,1809
321,321,0,2047,1241
322,322,0,2047,736
323,323,0,2046,334
324,324,0,2047,67
325,325,0,2047,0
326,326,0,2046,11
327,327,0,2047,227
328,328,0,2046,585
329,329,0,2046,1059
330,330,0,2046,1611
331,331,0,2046,2197
332,332,0,2046,2770
333,333,0,2046,3285
334,334,0,2047,3702
335,335,0,2047,3986
336,336,0,2046,4095
337,337,0,2046,4082
338,338,0,2047,3885
339,339,0,2046,3540
340,340,0,2047,3080
341,341,0,2046,2535
342,342,0,2046,1952
343,343,0,2047,1374
344,344,0,2047,850
345,345,0,2047,420
346,346,0,2046,118
347,347,0,2046,0
348,348,0,2047,0
349,349,0,2046,159
350,350,0,2047,486
351,351,0,2046,935
352,352,0,2046,1473
353,353,0,2046,2055
354,354,0,2046,2635
355,355,0,2047,3167
356,356,0,2046,3612
357,357,0,2047,3930
358,358,0,2046,4095
359,359,0,2046,4095
360,360,0,2046,3946
361,361,0,2047,3636
362,362,0,2046,3201
363,363,0,2046,2672
364,364,0,2046,2094
365,365,0,2047,1510
366,366,0,2047,970
367,367,0,2046,513
368,368,0,2046,177
369,369,0,2046,0
370,370,0,2047,0
371,371,0,2047,103
372,372,0,2047,395
373,373,0,2047,817
374,374,0,2046,1337
375,375,0,2046,1912
376,376,0,2046,2497
377,377,0,2047,3045
378,378,0,2046,3514
379,379,0,2046,3866
380,380,0,2046,4073
381,381,0,2046,4095
382,382,0,2046,4000
383,383,0,2046,3725
384,384,0,2047,3316
385,385,0,2047,2806
386,386,0,2047,2236
387,387,0,2046,1650
388,388,0,2046,1094
389,389,0,2046,614
390,390,0,2046,247
391,391,0,2047,21
392,392,0,2047,0
393,393,0,2046,54
394,394,0,2046,312
395,395,0,2047,705
396,396,0,2047,1204
397,397,0,2047,1770
398,398,0,2047,2357
399,399,0,2046,2918
400,400,0,2047,3410
401,401,0,2047,3793
402,402,0,2046,4037
403,403,0,2046,4095
404,404,0,2047,4044
405,405,0,2046,3805
406,406,0,2047,3425
407,407,0,2047,2936
408,408,0,2047,2377
409,409,0,2046,1790
410,410,0,2047,1223
411,411,0,2046,721
412,412,0,2046,324
413,413,0,2046,60
414,414,0,2047,0
415,415,0,2047,16
416,416,0,2046,235
417,417,0,2046,599
418,418,0,2047,1075
419,419,0,2046,1629
420,420,0,2046,2216
421,421,0,2046,2787
422,422,0,2046,3300
423,423,0,2046,3713
424,424,0,2046,3993
425,425,0,2047,4095
426,426,0,2047,4078
427,427,0,2047,3876
428,428,0,2046,3528
429,429,0,2046,3063
430,430,0,2047,2517
431,431,0,2047,1933
432,432,0,2046,1357
433,433,0,2046,834
434,434,0,2047,408
435,435,0,2047,111
436,436,0,2047,0
437,437,0,2047,0
438,438,0,2046,168
439,439,0,2046,499
440,440,0,2046,951
441,441,0,2046,1491
442,442,0,2047,2073
443,443,0,2046,2652
444,444,0,2046,3184
445,445,0,2047,3624
446,446,0,2047,3938
447,447,0,2047,4095
448,448,0,2047,4095
449,449,0,2047,3939
450,450,0,2047,3625
451,451,0,2047,3185
452,452,0,2047,2654
453,453,0,2047,2074
454,454,0,2046,1492
455,455,0,2046,954
456,456,0,2046,501
457,457,0,2047,169
458,458,0,2047,0
459,459,0,2046,0
460,460,0,2046,109
461,461,0,2047,406
462,462,0,2046,832
463,463,0,2047,1353
464,464,0,2046,1931
465,465,0,2047,2515
466,466,0,2046,3062
467,467,0,2046,3527
468,468,0,2047,3876
469,469,0,2047,4077
470,470,0,2046,4095
471,471,0,2047,3993
472,472,0,2046,3714
473,473,0,2046,3302
474,474,0,2046,2789
475,475,0,2046,2217
476,476,0,2047,1631
477,477,0,2047,1077
478,478,0,2047,600
479,479,0,2046,237
480,480,0,2046,16
481,481,0,2046,0
482,482,0,2047,60
483,483,0,2046,322
484,484,0,2046,719
485,485,0,2047,1221
486,486,0,2047,1788
487,487,0,2046,2375
488,488,0,2046,2935
489,489,0,2046,3424
490,490,0,2046,3803
491,491,0,2046,4043
492,492,0,2046,4095
493,493,0,2046,4038
494,494,0,2046,3794
495,495,0,2046,3412
496,496,0,2046,2920
497,497,0,2046,2358
498,498,0,2046,1772
499,499,0,2046,1207
500,500,0,2046,707
501,501,0,2046,313
502,502,0,2047,55
503,503,0,2047,0
504,504,0,2046,19
505,505,0,2046,245
506,506,0,2046,612
507,507,0,2046,1092
508,508,0,2046,1647
509,509,0,2046,2234
510,510,0,2047,2805
511,511,0,2047,3315
512,512,0,2046,3724
513,513,0,2047,3999
514,514,0,2046,4095
515,515,0,2046,4074
516,516,0,2047,3867
517,517,0,2047,3515
518,518,0,2047,3047
519,519,0,2046,2499
520,520,0,2046,1914
521,521,0,2046,1340
522,522,0,2046,819
523,523,0,2046,397
524,524,0,2046,104
525,525,0,2047,0
526,526,0,2046,0
527,527,0,2047,176
528,528,0,2046,512
529,529,0,2046,967
530,530,0,2046,1508
531,531,0,2046,2092
532,532,0,2046,2670
533,533,0,2046,3199
534,534,0,2046,3636
535,535,0,2046,3946
536,536,0,2046,4095
537,537,0,2047,4095
538,538,0,2046,3932
539,539,0,2046,3612
540,540,0,2046,3169
541,541,0,2046,2636
542,542,0,2047,2057
543,543,0,2047,1474
544,544,0,2046,938
545,545,0,2046,489
546,546,0,2046,161
547,547,0,2046,0
548,548,0,2046,0
549,549,0,2047,116
550,550,0,2046,418
551,551,0,2047,848
552,552,0,2046,1371
553,553,0,2047,1949
554,554,0,2046,2533
555,555,0,2047,3078
556,556,0,2046,3540
557,557,0,2047,3885
558,558,0,2046,4081
559,559,0,2047,4095
560,560,0,2046,3987
561,561,0,2047,3701
562,562,0,2047,3286
563,563,0,2047,2772
564,564,0,2047,2198
565,565,0,2047,1613
566,566,0,2046,1061
567,567,0,2046,587
568,568,0,2047,228
569,569,0,2046,12
570,570,0,2047,0
571,571,0,2047,66
572,572,0,2046,332
573,573,0,2046,734
574,574,0,2046,1238
575,575,0,2047,1807
576,576,0,2046,2394
577,577,0,2046,2951
578,578,0,2046,3439
579,579,0,2047,3813
580,580,0,2046,4047
581,581,0,2046,4095
582,582,0,2046,4034
583,583,0,2047,3785
584,584,0,2046,3398
585,585,0,2046,2903
586,586,0,2047,2341
587,587,0,2046,1754
588,588,0,2046,1189
589,589,0,2046,692
590,590,0,2047,303
591,591,0,2047,49
592,592,0,2047,0
593,593,0,2046,25
594,594,0,2046,255
595,595,0,2047,625
596,596,0,2047,1109
597,597,0,2046,1665
598,598,0,2046,2252
599,599,0,2047,2821
600,600,0,2046,3329
601,601,0,2047,3735
602,602,0,2047,4006
603,603,0,2046,4095
604,604,0,2047,4069
605,605,0,2047,3858
606,606,0,2046,3503
607,607,0,2045,3030
608,608,0,2047,2480
609,609,0,2046,1896
610,610,0,2046,1321
611,611,0,2046,805
612,612,0,2046,385
613,613,0,2046,97
614,614,0,2046,0
615,615,0,2046,0
616,616,0,2046,185
617,617,0,2046,524
618,618,0,2046,983
619,619,0,2047,1526
620,620,0,2047,2110
621,621,0,2047,2688
622,622,0,2047,3214
623,623,0,2047,3647
624,624,0,2046,3954
625,625,0,2046,4095
626,626,0,2046,4095
627,627,0,2046,3924
628,628,0,2047,3601
629,629,0,2047,3153
630,630,0,2047,2618
631,631,0,2047,2037
632,632,0,2047,1457
633,633,0,2047,922
634,634,0,2047,475
635,635,0,2047,152
636,636,0,2047,0
637,637,0,2047,0
638,638,0,2046,123
639,639,0,2047,429
640,640,0,2046,864
641,641,0,2047,1389
642,642,0,2046,1967
643,643,0,2046,2551
644,644,0,2046,3093
645,645,0,2047,3553
646,646,0,2046,3892
647,647,0,2047,4084
648,648,0,2046,4095
649,649,0,2047,3980
650,650,0,2046,3691
651,651,0,2046,3271
652,652,0,2047,2753
653,653,0,2047,2180
654,654,0,2046,1595
655,655,0,2047,1044
656,656,0,2045,573
657,657,0,2046,218
658,658,0,2047,8
659,659,0,2046,0
660,660,0,2046,72
661,661,0,2046,343
662,662,0,2046,748
663,663,0,2047,1256
664,664,0,2047,1826
665,665,0,2046,2412
666,666,0,2046,2969
667,667,0,2047,3452
668,668,0,2047,3823
669,669,0,2046,4052
670,670,0,2047,4095
671,671,0,2046,4028
672,672,0,2047,3774
673,673,0,2046,3383
674,674,0,2046,2886
675,675,0,2046,2322
676,676,0,2046,1735
677,677,0,2046,1172
678,678,0,2046,678
679,679,0,2047,292
680,680,0,2046,44
681,681,0,2046,0
682,682,0,2047,29
683,683,0,2046,264
684,684,0,2046,640
685,685,0,2047,1126
686,686,0,2047,1684
687,687,0,2047,2271
688,688,0,2046,2839
689,689,0,2046,3344
690,690,0,2047,3745
691,691,0,2046,4012
692,692,0,2046,4095
693,693,0,2046,4066
694,694,0,2047,3849
695,695,0,2046,3489
696,696,0,2047,3015
697,697,0,2046,2463
698,698,0,2047,1876
699,699,0,2047,1304
700,700,0,2046,789
701,701,0,2046,374
702,702,0,2046,90
703,703,0,2047,0
704,704,0,2047,0
705,705,0,2047,193
706,706,0,2047,537
707,707,0,2046,1000
708,708,0,2046,1545
709,709,0,2047,2129
710,710,0,2047,2706
711,711,0,2047,3230
712,712,0,2047,3660
713,713,0,2046,3960
714,714,0,2046,4095
715,715,0,2046,4094
716,716,0,2047,3916
717,717,0,2046,3588
718,718,0,2046,3138
719,719,0,2047,2601
720,720,0,2047,2019
721,721,0,2046,1439
722,722,0,2046,906
723,723,0,2047,464
724,724,0,2047,145
725,725,0,2046,0
726,726,0,2046,0
727,727,0,2047,131
728,728,0,2046,442
729,729,0,2046,879
730,730,0,2047,1408
731,731,0,2046,1987
732,732,0,2047,2569
733,733,0,2046,3111
734,734,0,2046,3566
735,735,0,2047,3901
736,736,0,2047,4089
737,737,0,2046,4095
738,738,0,2046,3973
739,739,0,2047,3679
740,740,0,2047,3256
741,741,0,2046,2737
742,742,0,2046,2161
743,743,0,2046,1576
744,744,0,2046,1029
745,745,0,2046,560
746,746,0,2047,209
747,747,0,2047,4
748,748,0,2047,0
749,749,0,2046,79
750,750,0,2046,354
751,751,0,2046,763
752,752,0,2047,1273
753,753,0,2047,1844
754,754,0,2047,2431
755,755,0,2047,2986
756,756,0,2046,3466
757,757,0,2046,3832
758,758,0,2046,4058
759,759,0,2047,4095
760,760,0,2047,4021
761,761,0,2046,3763
762,762,0,2046,3369
763,763,0,2046,2869
764,764,0,2047,2304
765,765,0,2047,1716
766,766,0,2046,1155
767,767,0,2046,665
768,768,0,2046,283
769,769,0,2046,39
770,770,0,2046,0
771,771,0,2047,35
772,772,0,2046,274
773,773,0,2047,653
774,774,0,2047,1143
775,775,0,2047,1703
776,776,0,2046,2290
777,777,0,2046,2856
778,778,0,2047,3358
779,779,0,2047,3756
780,780,0,2047,4018
781,781,0,2046,4095
782,782,0,2047,4061
783,783,0,2046,3839
784,784,0,2046,3476
785,785,0,2046,2998
786,786,0,2047,2444
787,787,0,2047,1858
788,788,0,2046,1287
789,789,0,2047,775
790,790,0,2047,363
791,791,0,2047,83
792,792,0,2047,0
793,793,0,2047,0
794,794,0,2046,203
795,795,0,2047,550
796,796,0,2046,1015
797,797,0,2047,1562
798,798,0,2046,2147
799,799,0,2047,2723
800,800,0,2046,3245
801,801,0,2047,3672
802,802,0,2046,3968
803,803,0,2046,4095
804,804,0,2046,4090
805,805,0,2047,3908
806,806,0,2046,3576
807,807,0,2047,3122
808,808,0,2046,2583
809,809,0,2046,2000
810,810,0,2046,1421
811,811,0,2046,891
812,812,0,2046,451
813,813,0,2047,138
814,814,0,2046,0
815,815,0,2047,0
816,816,0,2047,139
817,817,0,2046,454
818,818,0,2047,894
819,819,0,2046,1425
820,820,0,2046,2005
821,821,0,2046,2587
822,822,0,2046,3126
823,823,0,2046,3579
824,824,0,2047,3910
825,825,0,2047,4092
826,826,0,2046,4095
827,827,0,2046,3966
828,828,0,2046,3668
829,829,0,2046,3241
830,830,0,2047,2719
831,831,0,2047,2143
832,832,0,2047,1558
833,833,0,2047,1012
834,834,0,2047,548
835,835,0,2047,200
836,836,0,2047,0
837,837,0,2047,0
838,838,0,2047,85
839,839,0,2047,365
840,840,0,2046,779
841,841,0,2046,1290
842,842,0,2046,1862
843,843,0,2046,2448
844,844,0,2046,3002
845,845,0,2047,3479
846,846,0,2046,3842
847,847,0,2047,4062
848,848,0,2046,4095
849,849,0,2047,4016
850,850,0,2047,3753
851,851,0,2047,3355
852,852,0,2047,2852
853,853,0,2046,2285
854,854,0,2046,1699
855,855,0,2047,1139
856,856,0,2046,650
857,857,0,2047,272
858,858,0,2046,34
859,859,0,2047,0
860,860,0,2046,40
861,861,0,2047,284
862,862,0,2046,667
863,863,0,2047,1160
864,864,0,2047,1721
865,865,0,2046,2308
866,866,0,2046,2873
867,867,0,2046,3373
868,868,0,2047,3766
869,869,0,2046,4023
870,870,0,2046,4095
871,871,0,2047,4056
872,872,0,2046,3830
873,873,0,2045,3462
874,874,0,2046,2981
875,875,0,2046,2426
876,876,0,2046,1839
877,877,0,2046,1269
878,878,0,2046,760
879,879,0,2046,351
880,880,0,2047,77
881,881,0,2046,0
882,882,0,2047,4
883,883,0,2046,212
884,884,0,2046,563
885,885,0,2047,1032
886,886,0,2046,1581
887,887,0,2047,2166
888,888,0,2046,2741
889,889,0,2046,3260
890,890,0,2046,3683
891,891,0,2046,3975
892,892,0,2046,4095
893,893,0,2047,4088
894,894,0,2046,3899
895,895,0,2047,3562
896,896,0,2046,3106
897,897,0,2046,2565
898,898,0,2047,1982
899,899,0,2046,1403
900,900,0,2047,876
901,901,0,2047,439
902,902,0,2046,130
903,903,0,2046,0
904,904,0,2046,0
905,905,0,2047,147
906,906,0,2046,467
907,907,0,2046,910
908,908,0,2047,1443
909,909,0,2046,2024
910,910,0,2047,2606
911,911,0,2047,3143
912,912,0,2046,3591
913,913,0,2047,3918
914,914,0,2047,4095
915,915,0,2047,4095
916,916,0,2047,3959
917,917,0,2046,3657
918,918,0,2046,3226
919,919,0,2046,2701
920,920,0,2046,2124
921,921,0,2047,1540
922,922,0,2046,996
923,923,0,2046,534
924,924,0,2047,192
925,925,0,2047,0
926,926,0,2046,0
927,927,0,2046,91
928,928,0,2047,377
929,929,0,2046,793
930,930,0,2046,1309
931,931,0,2046,1881
932,932,0,2047,2467
933,933,0,2046,3019
934,934,0,2046,3493
935,935,0,2046,3852
936,936,0,2046,4067
937,937,0,2046,4095
938,938,0,2046,4010
939,939,0,2046,3743
940,940,0,2047,3340
941,941,0,2046,2835
942,942,0,2047,2266
943,943,0,2046,1680
944,944,0,2046,1122
945,945,0,2047,636
946,946,0,2047,261
947,947,0,2046,29
948,948,0,2046,0
949,949,0,2046,45
950,950,0,2046,295
951,951,0,2047,682
952,952,0,2047,1177
953,953,0,2046,1739
954,954,0,2047,2327
955,955,0,2046,2891
956,956,0,2047,3387
957,957,0,2046,3777
958,958,0,2047,4029
959,959,0,2046,4095
960,960,0,2046,4052
961,961,0,2046,3820
962,962,0,2047,3449
963,963,0,2046,2965
964,964,0,2046,2407
965,965,0,2046,1821
966,966,0,2046,1251
967,967,0,2046,745
968,968,0,2046,341
969,969,0,2046,70
970,970,0,2047,0
971,971,0,2047,8
972,972,0,2046,221
973,973,0,2047,578
974,974,0,2047,1049
975,975,0,2047,1599
976,976,0,2046,2185
977,977,0,2047,2759
978,978,0,2047,3276
979,979,0,2047,3694
980,980,0,2046,3982
981,981,0,2046,4095
982,982,0,2046,4084
983,983,0,2047,3891
984,984,0,2046,3549
985,985,0,2047,3090
986,986,0,2047,2547
987,987,0,2047,1963
988,988,0,2047,1385
989,989,0,2046,859
990,990,0,2047,427
991,991,0,2046,122
992,992,0,2046,0
993,993,0,2046,0
994,994,0,2046,155
995,995,0,2046,480
996,996,0,2046,925
997,997,0,2046,1462
998,998,0,2046,2042
999,999,0,2047,2623
1000,1000,0,2046,3158
1001,1001,0,2047,3603
1002,1002,0,2046,3926
1003,1003,0,2047,4095
1004,1004,0,2046,4095
1005,1005,0,2046,3951
1006,1006,0,2046,3645
1007,1007,0,2046,3210
1008,1008,0,2047,2683
1009,1009,0,2046,2105
1010,1010,0,2046,1522
1011,1011,0,2046,979
1012,1012,0,2047,522
1013,1013,0,2046,183
1014,1014,0,2046,0
1015,1015,0,2046,0
1016,1016,0,2047,98
1017,1017,0,2047,388
1018,1018,0,2046,808
1019,1019,0,2047,1325
1020,1020,0,2047,1900
1021,1021,0,2046,2485
1022,1022,0,2046,3035
1023,1023,0,2047,3506
1024,1024,0,2047,3861
1025,1025,0,2047,4070
1026,1026,0,2046,4095
1027,1027,0,2046,4004
1028,1028,0,2046,3731
1029,1029,0,2046,3325
