Sample in Buffer,Sample in Window,TRIGGER,adc1_data_a_d0[11:0],adc1_data_b_d0[11:0]
0,0,0,2046,151
1,1,0,2047,306
2,2,0,2046,499
3,3,0,2047,729
4,4,0,2046,990
5,5,0,2046,1274
6,6,0,2047,1577
7,7,0,2046,1890
8,8,0,2047,2206
9,9,0,2047,2518
10,10,0,2047,2820
11,11,0,2047,3102
12,12,0,2047,3360
13,13,0,2046,3586
14,14,0,2047,3778
15,15,0,2047,3928
16,16,0,2047,4034
17,17,0,2047,4094
18,18,0,2046,4095
19,19,0,2047,4070
20,20,0,2046,3988
21,21,0,2047,3858
22,22,0,2047,3689
23,23,0,2046,3480
24,24,0,2046,3238
25,25,0,2047,2968
26,26,0,2046,2674
27,27,0,2048,2368
28,28,0,2046,2053
29,29,0,2046,1737
30,30,0,2047,1429
31,31,0,2046,1134
32,32,0,2047,860
33,33,0,2047,613
34,34,0,2047,400
35,35,0,2046,226
36,36,0,2046,93
37,37,0,2047,6
38,38,0,2047,0
39,39,0,2046,0
40,40,0,2046,33
41,41,0,2046,137
42,42,0,2046,285
43,43,0,2047,474
44,44,0,2047,700
45,45,0,2046,957
46,46,0,2046,1240
47,47,0,2046,1540
48,48,0,2046,1853
49,49,0,2046,2169
50,50,0,2046,2482
51,51,0,2047,2785
52,52,0,2047,3070
53,53,0,2046,3331
54,54,0,2047,3561
55,55,0,2047,3757
56,56,0,2046,3912
57,57,0,2047,4024
58,58,0,2046,4090
59,59,0,2047,4095
60,60,0,2047,4077
61,61,0,2047,4000
62,62,0,2046,3876
63,63,0,2046,3711
64,64,0,2046,3506
65,65,0,2047,3268
66,66,0,2046,3001
67,67,0,2046,2710
68,68,0,2046,2405
69,69,0,2047,2090
70,70,0,2047,1774
71,71,0,2046,1465
72,72,0,2047,1167
73,73,0,2046,892
74,74,0,2046,642
75,75,0,2047,425
76,76,0,2046,245
77,77,0,2045,107
78,78,0,2047,13
79,79,0,2046,0
80,80,0,2046,0
81,81,0,2047,23
82,82,0,2046,122
83,83,0,2046,265
84,84,0,2047,450
85,85,0,2046,671
86,86,0,2046,925
87,87,0,2046,1205
88,88,0,2046,1503
89,89,0,2047,1815
90,90,0,2047,2131
91,91,0,2046,2445
92,92,0,2046,2749
93,93,0,2047,3037
94,94,0,2046,3301
95,95,0,2046,3535
96,96,0,2047,3736
97,97,0,2047,3897
98,98,0,2046,4013
99,99,0,2046,4084
100,100,0,2046,4095
101,101,0,2047,4083
102,102,0,2046,4011
103,103,0,2046,3894
104,104,0,2046,3733
105,105,0,2046,3533
106,106,0,2046,3297
107,107,0,2047,3034
108,108,0,2047,2746
109,109,0,2047,2442
110,110,0,2047,2128
111,111,0,2047,1812
112,112,0,2047,1502
113,113,0,2047,1203
114,114,0,2047,923
115,115,0,2046,669
116,116,0,2046,449
117,117,0,2047,264
118,118,0,2046,120
119,119,0,2046,22
120,120,0,2047,0
121,121,0,2047,0
122,122,0,2047,14
123,123,0,2047,107
124,124,0,2046,246
125,125,0,2047,426
126,126,0,2046,644
127,127,0,2046,894
128,128,0,2047,1171
129,129,0,2047,1468
130,130,0,2047,1778
131,131,0,2047,2094
132,132,0,2046,2409
133,133,0,2047,2714
134,134,0,2046,3004
135,135,0,2046,3272
136,136,0,2046,3510
137,137,0,2047,3714
138,138,0,2047,3880
139,139,0,2047,4001
140,140,0,2046,4078
141,141,0,2047,4095
142,142,0,2047,4089
143,143,0,2047,4023
144,144,0,2047,3910
145,145,0,2046,3754
146,146,0,2047,3558
147,147,0,2047,3327
148,148,0,2047,3066
149,149,0,2046,2781
150,150,0,2046,2478
151,151,0,2046,2166
152,152,0,2047,1849
153,153,0,2046,1538
154,154,0,2047,1237
155,155,0,2046,955
156,156,0,2047,698
157,157,0,2046,472
158,158,0,2047,284
159,159,0,2046,135
160,160,0,2047,32
161,161,0,2047,0
162,162,0,2047,0
163,163,0,2046,7
164,164,0,2046,94
165,165,0,2047,227
166,166,0,2046,402
167,167,0,2046,616
168,168,0,2047,862
169,169,0,2047,1137
170,170,0,2047,1431
171,171,0,2047,1740
172,172,0,2047,2056
173,173,0,2046,2372
174,174,0,2047,2679
175,175,0,2046,2971
176,176,0,2047,3241
177,177,0,2046,3483
178,178,0,2046,3692
179,179,0,2046,3862
180,180,0,2046,3989
181,181,0,2047,4072
182,182,0,2046,4095
183,183,0,2046,4093
184,184,0,2046,4032
185,185,0,2047,3925
186,186,0,2046,3774
187,187,0,2047,3584
188,188,0,2046,3356
189,189,0,2047,3098
190,190,0,2047,2815
191,191,0,2047,2514
192,192,0,2047,2203
193,193,0,2046,1887
194,194,0,2047,1574
195,195,0,2046,1271
196,196,0,2047,987
197,197,0,2047,728
198,198,0,2047,498
199,199,0,2047,304
200,200,0,2046,151
201,201,0,2047,41
202,202,0,2047,0
203,203,0,2046,0
204,204,0,2046,0
205,205,0,2047,81
206,206,0,2047,209
207,207,0,2047,380
208,208,0,2047,589
209,209,0,2047,832
210,210,0,2047,1102
211,211,0,2047,1395
212,212,0,2047,1703
213,213,0,2046,2019
214,214,0,2047,2334
215,215,0,2046,2643
216,216,0,2047,2937
217,217,0,2047,3210
218,218,0,2046,3456
219,219,0,2046,3669
220,220,0,2047,3844
221,221,0,2046,3977
222,222,0,2047,4065
223,223,0,2046,4095
224,224,0,2047,4095
225,225,0,2047,4042
226,226,0,2046,3941
227,227,0,2047,3794
228,228,0,2047,3608
229,229,0,2047,3385
230,230,0,2047,3130
231,231,0,2047,2851
232,232,0,2047,2551
233,233,0,2047,2240
234,234,0,2047,1925
235,235,0,2046,1610
236,236,0,2047,1306
237,237,0,2046,1020
238,238,0,2047,756
239,239,0,2047,523
240,240,0,2047,325
241,241,0,2047,166
242,242,0,2046,52
243,243,0,2047,0
244,244,0,2047,0
245,245,0,2046,0
246,246,0,2047,69
247,247,0,2046,192
248,248,0,2047,357
249,249,0,2047,562
250,250,0,2047,802
251,251,0,2047,1070
252,252,0,2047,1360
253,253,0,2047,1666
254,254,0,2047,1981
255,255,0,2047,2297
256,256,0,2046,2607
257,257,0,2046,2903
258,258,0,2047,3179
259,259,0,2047,3429
260,260,0,2046,3646
261,261,0,2046,3826
262,262,0,2046,3963
263,263,0,2047,4057
264,264,0,2046,4095
265,265,0,2047,4095
266,266,0,2047,4051
267,267,0,2047,3955
268,268,0,2046,3814
269,269,0,2047,3632
270,270,0,2047,3413
271,271,0,2047,3162
272,272,0,2047,2884
273,273,0,2046,2587
274,274,0,2047,2277
275,275,0,2047,1961
276,276,0,2047,1647
277,277,0,2047,1342
278,278,0,2047,1052
279,279,0,2046,785
280,280,0,2046,548
281,281,0,2046,346
282,282,0,2046,183
283,283,0,2046,63
284,284,0,2046,0
285,285,0,2046,0
286,286,0,2047,0
287,287,0,2046,57
288,288,0,2047,175
289,289,0,2047,335
290,290,0,2047,536
291,291,0,2047,771
292,292,0,2047,1037
293,293,0,2047,1325
294,294,0,2046,1629
295,295,0,2046,1944
296,296,0,2047,2260
297,297,0,2046,2571
298,298,0,2047,2869
299,299,0,2047,3148
300,300,0,2047,3400
301,301,0,2046,3622
302,302,0,2047,3807
303,303,0,2046,3950
304,304,0,2047,4048
305,305,0,2047,4095
306,306,0,2046,4095
307,307,0,2047,4060
308,308,0,2047,3969
309,309,0,2047,3834
310,310,0,2047,3656
311,311,0,2046,3441
312,312,0,2046,3194
313,313,0,2047,2919
314,314,0,2047,2624
315,315,0,2047,2315
316,316,0,2046,2000
317,317,0,2047,1684
318,318,0,2046,1378
319,319,0,2046,1086
320,320,0,2047,817
321,321,0,2047,575
322,322,0,2047,368
323,323,0,2047,201
324,324,0,2047,76
325,325,0,2046,0
326,326,0,2047,0
327,327,0,2046,0
328,328,0,2046,46
329,329,0,2047,158
330,330,0,2047,314
331,331,0,2047,510
332,332,0,2046,742
333,333,0,2047,1003
334,334,0,2047,1289
335,335,0,2047,1593
336,336,0,2046,1906
337,337,0,2047,2223
338,338,0,2046,2535
339,339,0,2047,2834
340,340,0,2047,3116
341,341,0,2047,3373
342,342,0,2046,3597
343,343,0,2047,3787
344,344,0,2047,3934
345,345,0,2047,4038
346,346,0,2046,4095
347,347,0,2046,4095
348,348,0,2046,4067
349,349,0,2046,3982
350,350,0,2046,3851
351,351,0,2047,3679
352,352,0,2047,3468
353,353,0,2046,3225
354,354,0,2047,2953
355,355,0,2047,2659
356,356,0,2046,2352
357,357,0,2047,2037
358,358,0,2047,1721
359,359,0,2047,1413
360,360,0,2047,1119
361,361,0,2047,847
362,362,0,2047,603
363,363,0,2047,391
364,364,0,2047,219
365,365,0,2047,88
366,366,0,2046,2
367,367,0,2047,0
368,368,0,2047,0
369,369,0,2047,37
370,370,0,2047,143
371,371,0,2047,294
372,372,0,2046,486
373,373,0,2047,713
374,374,0,2047,971
375,375,0,2046,1255
376,376,0,2046,1557
377,377,0,2047,1868
378,378,0,2047,2185
379,379,0,2047,2498
380,380,0,2046,2800
381,381,0,2047,3084
382,382,0,2047,3344
383,383,0,2047,3573
384,384,0,2046,3765
385,385,0,2047,3919
386,386,0,2046,4028
387,387,0,2046,4092
388,388,0,2047,4095
389,389,0,2047,4074
390,390,0,2047,3995
391,391,0,2046,3870
392,392,0,2046,3701
393,393,0,2046,3495
394,394,0,2047,3255
395,395,0,2046,2986
396,396,0,2046,2695
397,397,0,2047,2388
398,398,0,2046,2074
399,399,0,2047,1758
400,400,0,2046,1449
401,401,0,2046,1153
402,402,0,2046,878
403,403,0,2047,630
404,404,0,2046,414
405,405,0,2048,236
406,406,0,2046,101
407,407,0,2047,11
408,408,0,2046,0
409,409,0,2047,0
410,410,0,2047,27
411,411,0,2046,128
412,412,0,2047,274
413,413,0,2046,460
414,414,0,2046,684
415,415,0,2047,940
416,416,0,2046,1220
417,417,0,2047,1520
418,418,0,2046,1831
419,419,0,2047,2148
420,420,0,2046,2462
421,421,0,2047,2764
422,422,0,2046,3051
423,423,0,2047,3314
424,424,0,2047,3547
425,425,0,2046,3745
426,426,0,2047,3903
427,427,0,2046,4018
428,428,0,2046,4087
429,429,0,2046,4095
430,430,0,2047,4081
431,431,0,2047,4006
432,432,0,2047,3886
433,433,0,2047,3724
434,434,0,2047,3521
435,435,0,2046,3285
436,436,0,2046,3019
437,437,0,2046,2731
438,438,0,2046,2426
439,439,0,2047,2111
440,440,0,2047,1796
441,441,0,2046,1485
442,442,0,2047,1188
443,443,0,2047,909
444,444,0,2047,657
445,445,0,2047,438
446,446,0,2047,255
447,447,0,2047,115
448,448,0,2047,19
449,449,0,2046,0
450,450,0,2046,0
451,451,0,2047,19
452,452,0,2047,114
453,453,0,2046,254
454,454,0,2047,437
455,455,0,2046,655
456,456,0,2046,908
457,457,0,2047,1186
458,458,0,2046,1483
459,459,0,2046,1794
460,460,0,2046,2110
461,461,0,2047,2425
462,462,0,2047,2729
463,463,0,2046,3018
464,464,0,2046,3284
465,465,0,2047,3522
466,466,0,2046,3723
467,467,0,2047,3886
468,468,0,2046,4007
469,469,0,2046,4081
470,470,0,2046,4095
471,471,0,2047,4087
472,472,0,2047,4018
473,473,0,2046,3904
474,474,0,2047,3745
475,475,0,2047,3547
476,476,0,2046,3315
477,477,0,2047,3052
478,478,0,2046,2766
479,479,0,2046,2463
480,480,0,2047,2150
481,481,0,2047,1832
482,482,0,2047,1521
483,483,0,2046,1222
484,484,0,2046,940
485,485,0,2047,685
486,486,0,2046,462
487,487,0,2046,275
488,488,0,2047,128
489,489,0,2047,28
490,490,0,2046,0
491,491,0,2047,0
492,492,0,2047,10
493,493,0,2047,99
494,494,0,2046,235
495,495,0,2047,413
496,496,0,2046,627
497,497,0,2046,876
498,498,0,2046,1152
499,499,0,2046,1448
500,500,0,2047,1757
501,501,0,2047,2073
502,502,0,2047,2388
503,503,0,2047,2694
504,504,0,2047,2985
505,505,0,2047,3255
506,506,0,2047,3495
507,507,0,2047,3702
508,508,0,2047,3870
509,509,0,2046,3995
510,510,0,2046,4075
511,511,0,2047,4095
512,512,0,2047,4091
513,513,0,2046,4029
514,514,0,2046,3919
515,515,0,2047,3766
516,516,0,2046,3572
517,517,0,2047,3343
518,518,0,2047,3084
519,519,0,2047,2801
520,520,0,2047,2500
521,521,0,2047,2186
522,522,0,2046,1870
523,523,0,2047,1559
524,524,0,2046,1256
525,525,0,2046,973
526,526,0,2047,715
527,527,0,2047,487
528,528,0,2046,295
529,529,0,2046,144
530,530,0,2047,38
531,531,0,2047,0
532,532,0,2046,0
533,533,0,2047,3
534,534,0,2046,87
535,535,0,2047,216
536,536,0,2046,389
537,537,0,2047,600
538,538,0,2047,845
539,539,0,2048,1117
540,540,0,2047,1411
541,541,0,2046,1719
542,542,0,2047,2036
543,543,0,2046,2350
544,544,0,2046,2658
545,545,0,2046,2952
546,546,0,2047,3223
547,547,0,2046,3469
548,548,0,2046,3679
549,549,0,2047,3852
550,550,0,2046,3982
551,551,0,2047,4068
552,552,0,2047,4095
553,553,0,2046,4095
554,554,0,2047,4038
555,555,0,2047,3934
556,556,0,2046,3786
557,557,0,2046,3597
558,558,0,2046,3372
559,559,0,2047,3116
560,560,0,2047,2835
561,561,0,2046,2536
562,562,0,2046,2224
563,563,0,2046,1908
564,564,0,2046,1595
565,565,0,2047,1291
566,566,0,2046,1005
567,567,0,2046,744
568,568,0,2046,512
569,569,0,2046,316
570,570,0,2046,160
571,571,0,2047,48
572,572,0,2046,0
573,573,0,2047,0
574,574,0,2046,0
575,575,0,2047,75
576,576,0,2046,199
577,577,0,2047,367
578,578,0,2047,574
579,579,0,2046,815
580,580,0,2047,1084
581,581,0,2046,1376
582,582,0,2047,1683
583,583,0,2047,1998
584,584,0,2046,2314
585,585,0,2046,2623
586,586,0,2047,2918
587,587,0,2046,3193
588,588,0,2046,3441
589,589,0,2046,3656
590,590,0,2047,3833
591,591,0,2047,3970
592,592,0,2046,4059
593,593,0,2047,4095
594,594,0,2047,4095
595,595,0,2047,4048
596,596,0,2046,3949
597,597,0,2046,3806
598,598,0,2046,3622
599,599,0,2046,3401
600,600,0,2046,3148
601,601,0,2047,2870
602,602,0,2047,2572
603,603,0,2046,2261
604,604,0,2047,1945
605,605,0,2046,1631
606,606,0,2046,1326
607,607,0,2047,1038
608,608,0,2046,773
609,609,0,2046,537
610,610,0,2047,338
611,611,0,2046,175
612,612,0,2047,59
613,613,0,2046,0
614,614,0,2046,0
615,615,0,2047,0
616,616,0,2047,62
617,617,0,2047,182
618,618,0,2046,345
619,619,0,2046,547
620,620,0,2046,784
621,621,0,2046,1051
622,622,0,2046,1341
623,623,0,2047,1645
624,624,0,2047,1960
625,625,0,2046,2276
626,626,0,2046,2587
627,627,0,2047,2884
628,628,0,2046,3162
629,629,0,2046,3414
630,630,0,2046,3632
631,631,0,2046,3814
632,632,0,2046,3956
633,633,0,2047,4052
634,634,0,2046,4095
635,635,0,2047,4095
636,636,0,2047,4056
637,637,0,2046,3964
638,638,0,2047,3826
639,639,0,2046,3645
640,640,0,2047,3429
641,641,0,2046,3180
642,642,0,2046,2904
643,643,0,2046,2608
644,644,0,2046,2299
645,645,0,2046,1983
646,646,0,2046,1669
647,647,0,2047,1362
648,648,0,2046,1071
649,649,0,2046,803
650,650,0,2047,564
651,651,0,2046,359
652,652,0,2047,193
653,653,0,2046,69
654,654,0,2046,0
655,655,0,2046,0
656,656,0,2046,0
657,657,0,2046,52
658,658,0,2047,165
659,659,0,2046,324
660,660,0,2047,522
661,661,0,2046,754
662,662,0,2047,1017
663,663,0,2046,1305
664,664,0,2046,1609
665,665,0,2046,1922
666,666,0,2046,2239
667,667,0,2046,2550
668,668,0,2046,2850
669,669,0,2046,3130
670,670,0,2046,3385
671,671,0,2046,3608
672,672,0,2046,3795
673,673,0,2046,3941
674,674,0,2046,4042
675,675,0,2046,4095
676,676,0,2046,4095
677,677,0,2046,4064
678,678,0,2047,3976
679,679,0,2046,3843
680,680,0,2047,3669
681,681,0,2047,3457
682,682,0,2046,3211
683,683,0,2047,2938
684,684,0,2047,2645
685,685,0,2046,2335
686,686,0,2046,2020
687,687,0,2047,1705
688,688,0,2047,1397
689,689,0,2046,1105
690,690,0,2047,833
691,691,0,2047,590
692,692,0,2047,381
693,693,0,2046,210
694,694,0,2047,82
695,695,0,2046,0
696,696,0,2046,0
697,697,0,2047,0
698,698,0,2047,41
699,699,0,2047,149
700,700,0,2047,303
701,701,0,2047,496
702,702,0,2047,725
703,703,0,2046,986
704,704,0,2047,1270
705,705,0,2047,1573
706,706,0,2046,1884
707,707,0,2046,2201
708,708,0,2046,2515
709,709,0,2047,2815
710,710,0,2047,3098
711,711,0,2046,3356
712,712,0,2047,3583
713,713,0,2046,3775
714,714,0,2047,3926
715,715,0,2047,4033
716,716,0,2047,4094
717,717,0,2046,4095
718,718,0,2047,4072
719,719,0,2047,3989
720,720,0,2047,3862
721,721,0,2047,3691
722,722,0,2047,3483
723,723,0,2046,3242
724,724,0,2047,2972
725,725,0,2047,2680
726,726,0,2046,2373
727,727,0,2047,2057
728,728,0,2047,1742
729,729,0,2047,1433
730,730,0,2046,1139
731,731,0,2046,865
732,732,0,2046,618
733,733,0,2046,404
734,734,0,2047,228
735,735,0,2047,95
736,736,0,2047,7
737,737,0,2047,0
738,738,0,2046,0
739,739,0,2047,32
740,740,0,2047,134
741,741,0,2046,282
742,742,0,2046,471
743,743,0,2047,696
744,744,0,2046,953
745,745,0,2046,1235
746,746,0,2046,1536
747,747,0,2046,1847
748,748,0,2047,2164
749,749,0,2047,2477
750,750,0,2046,2780
751,751,0,2046,3065
752,752,0,2047,3327
753,753,0,2046,3558
754,754,0,2047,3754
755,755,0,2046,3910
756,756,0,2047,4023
757,757,0,2046,4089
758,758,0,2046,4095
759,759,0,2046,4078
760,760,0,2046,4002
761,761,0,2047,3878
762,762,0,2046,3714
763,763,0,2047,3510
764,764,0,2046,3272
765,765,0,2047,3004
766,766,0,2046,2715
767,767,0,2047,2410
768,768,0,2047,2094
769,769,0,2047,1779
770,770,0,2047,1469
771,771,0,2047,1172
772,772,0,2046,895
773,773,0,2047,645
774,774,0,2046,428
775,775,0,2047,247
776,776,0,2046,108
777,777,0,2047,15
778,778,0,2046,0
779,779,0,2047,0
780,780,0,2046,23
781,781,0,2047,120
782,782,0,2047,263
783,783,0,2047,447
784,784,0,2045,668
785,785,0,2046,921
786,786,0,2046,1201
787,787,0,2046,1499
788,788,0,2046,1810
789,789,0,2047,2126
790,790,0,2047,2440
791,791,0,2046,2745
792,792,0,2047,3032
793,793,0,2047,3298
794,794,0,2046,3533
795,795,0,2046,3733
796,796,0,2047,3894
797,797,0,2046,4011
798,798,0,2047,4084
799,799,0,2046,4095
800,800,0,2047,4085
801,801,0,2047,4013
802,802,0,2047,3896
803,803,0,2047,3735
804,804,0,2046,3536
805,805,0,2046,3302
806,806,0,2047,3037
807,807,0,2046,2751
808,808,0,2047,2446
809,809,0,2046,2132
810,810,0,2046,1816
811,811,0,2046,1505
812,812,0,2047,1207
813,813,0,2046,927
814,814,0,2047,673
815,815,0,2047,451
816,816,0,2046,266
817,817,0,2047,122
818,818,0,2047,25
819,819,0,2047,0
820,820,0,2047,0
821,821,0,2047,13
822,822,0,2047,105
823,823,0,2046,243
824,824,0,2046,423
825,825,0,2046,639
826,826,0,2046,890
827,827,0,2046,1166
828,828,0,2046,1463
829,829,0,2047,1773
830,830,0,2047,2089
831,831,0,2047,2404
832,832,0,2046,2709
833,833,0,2047,2999
834,834,0,2046,3267
835,835,0,2047,3507
836,836,0,2047,3711
837,837,0,2047,3877
838,838,0,2047,4000
839,839,0,2047,4077
840,840,0,2046,4095
841,841,0,2046,4089
842,842,0,2046,4023
843,843,0,2046,3912
844,844,0,2046,3757
845,845,0,2047,3561
846,846,0,2047,3330
847,847,0,2047,3070
848,848,0,2047,2785
849,849,0,2046,2483
850,850,0,2046,2170
851,851,0,2047,1854
852,852,0,2047,1542
853,853,0,2047,1241
854,854,0,2047,959
855,855,0,2046,702
856,856,0,2047,476
857,857,0,2047,286
858,858,0,2046,137
859,859,0,2047,33
860,860,0,2047,0
861,861,0,2046,0
862,862,0,2047,5
863,863,0,2046,93
864,864,0,2047,225
865,865,0,2048,400
866,866,0,2047,612
867,867,0,2047,859
868,868,0,2047,1133
869,869,0,2047,1427
870,870,0,2046,1735
871,871,0,2047,2051
872,872,0,2047,2367
873,873,0,2047,2673
874,874,0,2047,2966
875,875,0,2047,3237
876,876,0,2047,3480
877,877,0,2047,3690
878,878,0,2047,3859
879,879,0,2046,3988
880,880,0,2046,4070
881,881,0,2047,4095
882,882,0,2047,4094
883,883,0,2046,4034
884,884,0,2047,3927
885,885,0,2046,3777
886,886,0,2047,3586
887,887,0,2047,3359
888,888,0,2047,3103
889,889,0,2047,2820
890,890,0,2047,2519
891,891,0,2046,2207
892,892,0,2047,1891
893,893,0,2047,1578
894,894,0,2047,1276
895,895,0,2046,991
896,896,0,2046,731
897,897,0,2046,500
898,898,0,2047,306
899,899,0,2046,152
900,900,0,2046,43
901,901,0,2046,0
902,902,0,2047,0
903,903,0,2046,0
904,904,0,2047,80
905,905,0,2046,207
906,906,0,2047,377
907,907,0,2047,586
908,908,0,2047,828
909,909,0,2047,1099
910,910,0,2047,1391
911,911,0,2047,1699
912,912,0,2047,2014
913,913,0,2046,2329
914,914,0,2047,2639
915,915,0,2047,2932
916,916,0,2047,3206
917,917,0,2047,3453
918,918,0,2046,3666
919,919,0,2046,3841
920,920,0,2047,3975
921,921,0,2047,4063
922,922,0,2047,4095
923,923,0,2047,4095
924,924,0,2047,4044
925,925,0,2047,3943
926,926,0,2047,3797
927,927,0,2046,3611
928,928,0,2046,3389
929,929,0,2046,3134
930,930,0,2047,2855
931,931,0,2047,2556
932,932,0,2046,2244
933,933,0,2046,1929
934,934,0,2047,1616
935,935,0,2047,1312
936,936,0,2046,1024
937,937,0,2047,761
938,938,0,2046,526
939,939,0,2047,328
940,940,0,2047,169
941,941,0,2046,54
942,942,0,2046,0
943,943,0,2047,0
944,944,0,2047,0
945,945,0,2046,68
946,946,0,2046,190
947,947,0,2046,355
948,948,0,2046,559
949,949,0,2047,797
950,950,0,2047,1065
951,951,0,2047,1355
952,952,0,2046,1661
953,953,0,2047,1976
954,954,0,2047,2292
955,955,0,2047,2603
956,956,0,2046,2898
957,957,0,2046,3176
958,958,0,2047,3425
959,959,0,2046,3642
960,960,0,2046,3822
961,961,0,2046,3961
962,962,0,2047,4055
963,963,0,2046,4095
964,964,0,2046,4095
965,965,0,2046,4053
966,966,0,2046,3957
967,967,0,2047,3817
968,968,0,2047,3635
969,969,0,2046,3417
970,970,0,2047,3166
971,971,0,2047,2889
972,972,0,2047,2592
973,973,0,2047,2282
974,974,0,2047,1966
975,975,0,2046,1652
976,976,0,2046,1346
977,977,0,2046,1057
978,978,0,2047,790
979,979,0,2047,552
980,980,0,2047,349
981,981,0,2046,186
982,982,0,2047,65
983,983,0,2046,0
984,984,0,2047,0
985,985,0,2046,0
986,986,0,2046,56
987,987,0,2047,173
988,988,0,2046,333
989,989,0,2046,533
990,990,0,2046,767
991,991,0,2046,1033
992,992,0,2046,1321
993,993,0,2047,1625
994,994,0,2046,1939
995,995,0,2046,2255
996,996,0,2047,2566
997,997,0,2047,2864
998,998,0,2047,3144
999,999,0,2047,3397
1000,1000,0,2046,3619
1001,1001,0,2047,3804
1002,1002,0,2047,3948
1003,1003,0,2046,4046
1004,1004,0,2047,4095
1005,1005,0,2047,4095
1006,1006,0,2047,4060
1007,1007,0,2047,3971
1008,1008,0,2047,3836
1009,1009,0,2046,3659
1010,1010,0,2046,3444
1011,1011,0,2047,3197
1012,1012,0,2046,2923
1013,1013,0,2047,2628
1014,1014,0,2046,2320
1015,1015,0,2046,2004
1016,1016,0,2047,1690
1017,1017,0,2046,1382
1018,1018,0,2046,1090
1019,1019,0,2047,820
1020,1020,0,2046,578
1021,1021,0,2046,372
1022,1022,0,2047,203
1023,1023,0,2047,77
1024,1024,0,2046,0
1025,1025,0,2047,0
1026,1026,0,2046,0
1027,1027,0,2046,46
1028,1028,0,2046,157
1029,1029,0,2046,312
