Sample in Buffer,Sample in Window,TRIGGER,adc1_data_a_d0[11:0],adc1_data_b_d0[11:0]
0,0,0,2046,1064
1,1,0,2046,306
2,2,0,2046,0
3,3,0,2046,188
4,4,0,2047,858
5,5,0,2047,1827
6,6,0,2046,2851
7,7,0,2047,3668
8,8,0,2046,4073
9,9,0,2046,3961
10,10,0,2047,3360
11,11,0,2046,2424
12,12,0,2046,1390
13,13,0,2047,521
14,14,0,2046,37
15,15,0,2046,61
16,16,0,2047,586
17,17,0,2046,1479
18,18,0,2046,2514
19,19,0,2047,3428
20,20,0,2047,3991
21,21,0,2047,4058
22,22,0,2046,3612
23,23,0,2047,2765
24,24,0,2047,1736
25,25,0,2047,784
26,26,0,2046,149
27,27,0,2046,0
28,28,0,2046,358
29,29,0,2047,1147
30,30,0,2046,2163
31,31,0,2047,3147
32,32,0,2046,3851
33,33,0,2046,4094
34,34,0,2047,3816
35,35,0,2047,3086
36,36,0,2046,2090
37,37,0,2047,1081
38,38,0,2046,316
39,39,0,2047,0
40,40,0,2046,179
41,41,0,2046,841
42,42,0,2047,1807
43,43,0,2047,2832
44,44,0,2046,3657
45,45,0,2046,4069
46,46,0,2047,3968
47,47,0,2046,3374
48,48,0,2046,2443
49,49,0,2047,1409
50,50,0,2046,536
51,51,0,2046,42
52,52,0,2047,56
53,53,0,2047,572
54,54,0,2047,1460
55,55,0,2047,2495
56,56,0,2046,3414
57,57,0,2047,3984
58,58,0,2046,4061
59,59,0,2046,3625
60,60,0,2046,2784
61,61,0,2046,1755
62,62,0,2046,799
63,63,0,2046,156
64,64,0,2047,0
65,65,0,2046,346
66,66,0,2047,1130
67,67,0,2046,2143
68,68,0,2046,3130
69,69,0,2046,3841
70,70,0,2047,4095
71,71,0,2047,3825
72,72,0,2046,3103
73,73,0,2046,2110
74,74,0,2047,1099
75,75,0,2047,327
76,76,0,2047,0
77,77,0,2046,171
78,78,0,2046,826
79,79,0,2047,1788
80,80,0,2047,2815
81,81,0,2046,3644
82,82,0,2046,4067
83,83,0,2046,3975
84,84,0,2047,3390
85,85,0,2047,2462
86,86,0,2046,1428
87,87,0,2046,548
88,88,0,2046,46
89,89,0,2047,51
90,90,0,2046,558
91,91,0,2047,1441
92,92,0,2047,2475
93,93,0,2047,3399
94,94,0,2046,3979
95,95,0,2046,4064
96,96,0,2046,3637
97,97,0,2046,2802
98,98,0,2047,1775
99,99,0,2046,815
100,100,0,2047,166
101,101,0,2046,0
102,102,0,2046,335
103,103,0,2047,1111
104,104,0,2046,2123
105,105,0,2046,3114
106,106,0,2047,3832
107,107,0,2046,4095
108,108,0,2047,3836
109,109,0,2047,3119
110,110,0,2046,2129
111,111,0,2046,1117
112,112,0,2046,338
113,113,0,2047,0
114,114,0,2046,162
115,115,0,2047,810
116,116,0,2047,1769
117,117,0,2047,2797
118,118,0,2047,3631
119,119,0,2047,4063
120,120,0,2047,3981
121,121,0,2047,3404
122,122,0,2047,2482
123,123,0,2047,1447
124,124,0,2046,563
125,125,0,2046,52
126,126,0,2046,46
127,127,0,2046,545
128,128,0,2046,1422
129,129,0,2046,2456
130,130,0,2047,3384
131,131,0,2047,3971
132,132,0,2046,4068
133,133,0,2046,3649
134,134,0,2046,2821
135,135,0,2047,1795
136,136,0,2046,831
137,137,0,2047,173
138,138,0,2046,0
139,139,0,2046,324
140,140,0,2046,1093
141,141,0,2047,2104
142,142,0,2047,3096
143,143,0,2046,3822
144,144,0,2046,4095
145,145,0,2046,3845
146,146,0,2047,3137
147,147,0,2046,2149
148,148,0,2046,1134
149,149,0,2046,350
150,150,0,2046,0
151,151,0,2047,154
152,152,0,2047,793
153,153,0,2047,1749
154,154,0,2046,2777
155,155,0,2047,3620
156,156,0,2046,4059
157,157,0,2047,3987
158,158,0,2047,3419
159,159,0,2046,2501
160,160,0,2047,1466
161,161,0,2047,577
162,162,0,2046,57
163,163,0,2046,41
164,164,0,2047,531
165,165,0,2047,1404
166,166,0,2046,2437
167,167,0,2046,3369
168,168,0,2046,3964
169,169,0,2047,4071
170,170,0,2046,3661
171,171,0,2046,2839
172,172,0,2046,1813
173,173,0,2047,847
174,174,0,2047,182
175,175,0,2047,0
176,176,0,2046,314
177,177,0,2047,1076
178,178,0,2046,2084
179,179,0,2046,3080
180,180,0,2046,3812
181,181,0,2047,4094
182,182,0,2046,3854
183,183,0,2047,3153
184,184,0,2046,2169
185,185,0,2046,1152
186,186,0,2046,361
187,187,0,2046,0
188,188,0,2047,146
189,189,0,2046,779
190,190,0,2046,1730
191,191,0,2046,2759
192,192,0,2047,3606
193,193,0,2046,4056
194,194,0,2047,3994
195,195,0,2046,3434
196,196,0,2046,2520
197,197,0,2046,1485
198,198,0,2046,590
199,199,0,2046,62
200,200,0,2047,36
201,201,0,2047,517
202,202,0,2046,1384
203,203,0,2047,2417
204,204,0,2046,3353
205,205,0,2046,3957
206,206,0,2047,4074
207,207,0,2047,3672
208,208,0,2046,2857
209,209,0,2047,1834
210,210,0,2046,862
211,211,0,2046,190
212,212,0,2046,0
213,213,0,2046,302
214,214,0,2046,1059
215,215,0,2047,2064
216,216,0,2046,3062
217,217,0,2046,3801
218,218,0,2046,4094
219,219,0,2046,3864
220,220,0,2046,3170
221,221,0,2046,2189
222,222,0,2047,1170
223,223,0,2047,372
224,224,0,2046,0
225,225,0,2046,138
226,226,0,2046,763
227,227,0,2046,1711
228,228,0,2046,2741
229,229,0,2046,3594
230,230,0,2047,4052
231,231,0,2046,4000
232,232,0,2047,3448
233,233,0,2047,2539
234,234,0,2046,1504
235,235,0,2047,604
236,236,0,2046,68
237,237,0,2047,31
238,238,0,2047,504
239,239,0,2047,1365
240,240,0,2047,2397
241,241,0,2047,3339
242,242,0,2047,3950
243,243,0,2046,4076
244,244,0,2047,3686
245,245,0,2047,2875
246,246,0,2046,1853
247,247,0,2046,878
248,248,0,2046,198
249,249,0,2046,0
250,250,0,2046,292
251,251,0,2046,1042
252,252,0,2046,2044
253,253,0,2047,3045
254,254,0,2047,3792
255,255,0,2047,4093
256,256,0,2047,3873
257,257,0,2046,3186
258,258,0,2046,2208
259,259,0,2047,1189
260,260,0,2046,384
261,261,0,2046,0
262,262,0,2047,131
263,263,0,2047,748
264,264,0,2047,1691
265,265,0,2047,2723
266,266,0,2046,3581
267,267,0,2046,4048
268,268,0,2047,4006
269,269,0,2046,3463
270,270,0,2046,2559
271,271,0,2047,1522
272,272,0,2047,619
273,273,0,2047,75
274,274,0,2046,28
275,275,0,2047,491
276,276,0,2046,1348
277,277,0,2047,2378
278,278,0,2047,3323
279,279,0,2046,3944
280,280,0,2046,4079
281,281,0,2046,3697
282,282,0,2046,2893
283,283,0,2047,1873
284,284,0,2046,895
285,285,0,2046,208
286,286,0,2046,0
287,287,0,2046,282
288,288,0,2047,1024
289,289,0,2047,2024
290,290,0,2046,3029
291,291,0,2046,3781
292,292,0,2046,4093
293,293,0,2047,3882
294,294,0,2046,3203
295,295,0,2046,2228
296,296,0,2047,1207
297,297,0,2047,396
298,298,0,2046,2
299,299,0,2046,125
300,300,0,2047,732
301,301,0,2046,1671
302,302,0,2047,2703
303,303,0,2047,3568
304,304,0,2046,4044
305,305,0,2047,4011
306,306,0,2046,3477
307,307,0,2046,2578
308,308,0,2047,1542
309,309,0,2047,633
310,310,0,2047,80
311,311,0,2046,24
312,312,0,2046,477
313,313,0,2047,1329
314,314,0,2046,2359
315,315,0,2046,3309
316,316,0,2047,3936
317,317,0,2047,4081
318,318,0,2046,3709
319,319,0,2046,2912
320,320,0,2046,1892
321,321,0,2046,911
322,322,0,2046,216
323,323,0,2046,0
324,324,0,2046,271
325,325,0,2046,1007
326,326,0,2046,2005
327,327,0,2047,3011
328,328,0,2046,3771
329,329,0,2046,4091
330,330,0,2046,3891
331,331,0,2047,3219
332,332,0,2046,2248
333,333,0,2047,1224
334,334,0,2046,408
335,335,0,2046,4
336,336,0,2046,118
337,337,0,2046,718
338,338,0,2046,1652
339,339,0,2047,2685
340,340,0,2047,3554
341,341,0,2046,4040
342,342,0,2046,4016
343,343,0,2047,3491
344,344,0,2047,2597
345,345,0,2047,1561
346,346,0,2047,647
347,347,0,2046,86
348,348,0,2047,20
349,349,0,2046,466
350,350,0,2047,1310
351,351,0,2047,2340
352,352,0,2046,3292
353,353,0,2047,3928
354,354,0,2046,4083
355,355,0,2047,3719
356,356,0,2047,2929
357,357,0,2046,1912
358,358,0,2046,928
359,359,0,2047,225
360,360,0,2046,0
361,361,0,2046,261
362,362,0,2046,990
363,363,0,2046,1985
364,364,0,2046,2993
365,365,0,2047,3760
366,366,0,2046,4089
367,367,0,2046,3898
368,368,0,2046,3235
369,369,0,2046,2267
370,370,0,2047,1243
371,371,0,2046,420
372,372,0,2046,8
373,373,0,2046,110
374,374,0,2046,701
375,375,0,2047,1633
376,376,0,2047,2666
377,377,0,2047,3540
378,378,0,2046,4034
379,379,0,2047,4021
380,380,0,2046,3505
381,381,0,2046,2615
382,382,0,2046,1580
383,383,0,2046,662
384,384,0,2047,92
385,385,0,2047,16
386,386,0,2046,453
387,387,0,2046,1292
388,388,0,2047,2320
389,389,0,2047,3278
390,390,0,2046,3920
391,391,0,2046,4086
392,392,0,2047,3731
393,393,0,2047,2947
394,394,0,2047,1932
395,395,0,2046,945
396,396,0,2046,235
397,397,0,2046,0
398,398,0,2046,252
399,399,0,2046,973
400,400,0,2046,1966
401,401,0,2046,2976
402,402,0,2046,3749
403,403,0,2047,4089
404,404,0,2046,3907
405,405,0,2047,3251
406,406,0,2047,2287
407,407,0,2046,1261
408,408,0,2047,432
409,409,0,2047,11
410,410,0,2046,104
411,411,0,2046,687
412,412,0,2046,1613
413,413,0,2046,2647
414,414,0,2047,3527
415,415,0,2047,4030
416,416,0,2046,4027
417,417,0,2047,3519
418,418,0,2047,2635
419,419,0,2046,1599
420,420,0,2046,676
421,421,0,2047,99
422,422,0,2046,13
423,423,0,2047,441
424,424,0,2047,1273
425,425,0,2047,2300
426,426,0,2046,3261
427,427,0,2047,3912
428,428,0,2046,4088
429,429,0,2046,3742
430,430,0,2046,2964
431,431,0,2046,1952
432,432,0,2046,961
433,433,0,2046,246
434,434,0,2046,0
435,435,0,2046,242
436,436,0,2047,956
437,437,0,2046,1946
438,438,0,2046,2958
439,439,0,2047,3738
440,440,0,2046,4086
441,441,0,2047,3915
442,442,0,2047,3266
443,443,0,2046,2307
444,444,0,2046,1278
445,445,0,2047,444
446,446,0,2047,14
447,447,0,2046,97
448,448,0,2046,673
449,449,0,2047,1594
450,450,0,2047,2628
451,451,0,2046,3513
452,452,0,2047,4025
453,453,0,2047,4032
454,454,0,2046,3533
455,455,0,2047,2654
456,456,0,2046,1618
457,457,0,2047,691
458,458,0,2047,106
459,459,0,2047,10
460,460,0,2047,428
461,461,0,2046,1256
462,462,0,2046,2281
463,463,0,2046,3245
464,464,0,2047,3904
465,465,0,2047,4089
466,466,0,2046,3753
467,467,0,2047,2981
468,468,0,2046,1971
469,469,0,2046,979
470,470,0,2046,254
471,471,0,2047,0
472,472,0,2046,233
473,473,0,2046,940
474,474,0,2046,1926
475,475,0,2047,2941
476,476,0,2046,3727
477,477,0,2047,4085
478,478,0,2047,3923
479,479,0,2047,3282
480,480,0,2046,2326
481,481,0,2047,1297
482,482,0,2046,456
483,483,0,2046,18
484,484,0,2047,91
485,485,0,2046,658
486,486,0,2047,1575
487,487,0,2047,2609
488,488,0,2047,3500
489,489,0,2046,4019
490,490,0,2046,4037
491,491,0,2046,3546
492,492,0,2046,2672
493,493,0,2047,1638
494,494,0,2046,706
495,495,0,2046,112
496,496,0,2046,7
497,497,0,2047,416
498,498,0,2046,1237
499,499,0,2046,2262
500,500,0,2047,3229
501,501,0,2047,3895
502,502,0,2046,4090
503,503,0,2046,3764
504,504,0,2047,2999
505,505,0,2047,1991
506,506,0,2046,996
507,507,0,2047,264
508,508,0,2046,0
509,509,0,2046,223
510,510,0,2047,923
511,511,0,2047,1906
512,512,0,2046,2923
513,513,0,2047,3715
514,514,0,2045,4083
515,515,0,2046,3931
516,516,0,2046,3298
517,517,0,2045,2345
518,518,0,2046,1316
519,519,0,2047,469
520,520,0,2046,21
521,521,0,2047,84
522,522,0,2046,643
523,523,0,2047,1556
524,524,0,2046,2591
525,525,0,2047,3486
526,526,0,2047,4014
527,527,0,2046,4041
528,528,0,2047,3559
529,529,0,2046,2690
530,530,0,2046,1658
531,531,0,2046,721
532,532,0,2046,119
533,533,0,2046,4
534,534,0,2047,404
535,535,0,2047,1219
536,536,0,2047,2242
537,537,0,2047,3213
538,538,0,2047,3887
539,539,0,2047,4092
540,540,0,2046,3775
541,541,0,2046,3017
542,542,0,2046,2011
543,543,0,2047,1013
544,544,0,2046,274
545,545,0,2046,0
546,546,0,2047,215
547,547,0,2047,907
548,548,0,2047,1886
549,549,0,2046,2905
550,550,0,2047,3704
551,551,0,2046,4080
552,552,0,2047,3939
553,553,0,2046,3313
554,554,0,2047,2366
555,555,0,2047,1334
556,556,0,2046,482
557,557,0,2047,25
558,558,0,2046,78
559,559,0,2047,629
560,560,0,2047,1537
561,561,0,2046,2571
562,562,0,2046,3472
563,563,0,2047,4008
564,564,0,2046,4046
565,565,0,2047,3573
566,566,0,2047,2710
567,567,0,2046,1677
568,568,0,2047,736
569,569,0,2046,126
570,570,0,2046,1
571,571,0,2046,392
572,572,0,2046,1201
573,573,0,2047,2222
574,574,0,2047,3197
575,575,0,2047,3877
576,576,0,2046,4093
577,577,0,2046,3785
578,578,0,2047,3035
579,579,0,2046,2031
580,580,0,2047,1029
581,581,0,2046,284
582,582,0,2046,0
583,583,0,2047,205
584,584,0,2047,890
585,585,0,2047,1867
586,586,0,2047,2887
587,587,0,2046,3693
588,588,0,2046,4078
589,589,0,2046,3946
590,590,0,2046,3329
591,591,0,2047,2385
592,592,0,2046,1353
593,593,0,2047,496
594,594,0,2047,29
595,595,0,2046,73
596,596,0,2046,614
597,597,0,2047,1517
598,598,0,2046,2553
599,599,0,2046,3457
600,600,0,2047,4003
601,601,0,2047,4049
602,602,0,2047,3586
603,603,0,2046,2728
604,604,0,2046,1697
605,605,0,2046,752
606,606,0,2046,133
607,607,0,2047,0
608,608,0,2047,380
609,609,0,2046,1183
610,610,0,2046,2203
611,611,0,2047,3180
612,612,0,2046,3869
613,613,0,2047,4093
614,614,0,2047,3796
615,615,0,2046,3052
616,616,0,2046,2050
617,617,0,2047,1047
618,618,0,2047,295
619,619,0,2046,0
620,620,0,2046,196
621,621,0,2046,874
622,622,0,2046,1848
623,623,0,2047,2869
624,624,0,2047,3680
625,625,0,2047,4075
626,626,0,2046,3952
627,627,0,2046,3344
628,628,0,2047,2404
629,629,0,2047,1372
630,630,0,2047,508
631,631,0,2047,33
632,632,0,2047,66
633,633,0,2047,600
634,634,0,2046,1498
635,635,0,2046,2534
636,636,0,2047,3443
637,637,0,2047,3996
638,638,0,2046,4053
639,639,0,2047,3598
640,640,0,2047,2747
641,641,0,2046,1716
642,642,0,2047,767
643,643,0,2047,141
644,644,0,2047,0
645,645,0,2047,369
646,646,0,2047,1165
647,647,0,2046,2183
648,648,0,2047,3164
649,649,0,2046,3860
650,650,0,2046,4094
651,651,0,2046,3806
652,652,0,2046,3069
653,653,0,2046,2071
654,654,0,2047,1065
655,655,0,2047,305
656,656,0,2047,0
657,657,0,2047,187
658,658,0,2046,858
659,659,0,2047,1827
660,660,0,2046,2851
661,661,0,2046,3669
662,662,0,2047,4072
663,663,0,2046,3960
664,664,0,2046,3359
665,665,0,2046,2424
666,666,0,2047,1391
667,667,0,2046,521
668,668,0,2046,38
669,669,0,2046,61
670,670,0,2047,586
671,671,0,2047,1479
672,672,0,2047,2514
673,673,0,2047,3428
674,674,0,2046,3991
675,675,0,2047,4057
676,676,0,2047,3612
677,677,0,2046,2766
678,678,0,2047,1735
679,679,0,2047,783
680,680,0,2046,148
681,681,0,2047,0
682,682,0,2047,357
683,683,0,2046,1147
684,684,0,2046,2163
685,685,0,2047,3147
686,686,0,2046,3851
687,687,0,2046,4094
688,688,0,2046,3816
689,689,0,2046,3086
690,690,0,2047,2090
691,691,0,2046,1082
692,692,0,2046,317
693,693,0,2046,0
694,694,0,2047,179
695,695,0,2047,841
696,696,0,2047,1807
697,697,0,2047,2832
698,698,0,2046,3656
699,699,0,2047,4070
700,700,0,2047,3967
701,701,0,2047,3376
702,702,0,2047,2442
703,703,0,2047,1409
704,704,0,2047,535
705,705,0,2047,43
706,706,0,2047,56
707,707,0,2047,572
708,708,0,2047,1460
709,709,0,2047,2495
710,710,0,2047,3414
711,711,0,2047,3984
712,712,0,2046,4061
713,713,0,2047,3625
714,714,0,2046,2784
715,715,0,2047,1755
716,716,0,2046,798
717,717,0,2046,156
718,718,0,2046,0
719,719,0,2046,347
720,720,0,2046,1129
721,721,0,2046,2143
722,722,0,2046,3131
723,723,0,2046,3841
724,724,0,2046,4095
725,725,0,2046,3826
726,726,0,2047,3104
727,727,0,2046,2110
728,728,0,2047,1099
729,729,0,2046,328
730,730,0,2047,0
731,731,0,2046,171
732,732,0,2047,825
733,733,0,2046,1789
734,734,0,2046,2814
735,735,0,2047,3644
736,736,0,2046,4067
737,737,0,2046,3975
738,738,0,2047,3390
739,739,0,2046,2462
740,740,0,2046,1428
741,741,0,2046,549
742,742,0,2047,48
743,743,0,2046,51
744,744,0,2047,558
745,745,0,2046,1441
746,746,0,2047,2475
747,747,0,2046,3400
748,748,0,2046,3979
749,749,0,2047,4065
750,750,0,2046,3637
751,751,0,2047,2802
752,752,0,2046,1775
753,753,0,2046,815
754,754,0,2047,165
755,755,0,2046,0
756,756,0,2047,335
757,757,0,2046,1111
758,758,0,2047,2123
759,759,0,2047,3114
760,760,0,2046,3832
761,761,0,2047,4095
762,762,0,2046,3836
763,763,0,2047,3120
764,764,0,2046,2129
765,765,0,2046,1117
766,766,0,2046,339
767,767,0,2046,0
768,768,0,2046,163
769,769,0,2047,810
770,770,0,2046,1769
771,771,0,2047,2796
772,772,0,2047,3632
773,773,0,2047,4063
774,774,0,2046,3981
775,775,0,2047,3405
776,776,0,2046,2481
777,777,0,2046,1448
778,778,0,2047,563
779,779,0,2047,52
780,780,0,2046,46
781,781,0,2047,545
782,782,0,2046,1422
783,783,0,2046,2456
784,784,0,2046,3384
785,785,0,2046,3972
786,786,0,2046,4068
787,787,0,2047,3650
788,788,0,2046,2821
789,789,0,2046,1795
790,790,0,2046,830
791,791,0,2047,173
792,792,0,2046,0
793,793,0,2046,324
794,794,0,2046,1094
795,795,0,2046,2103
796,796,0,2046,3097
797,797,0,2047,3822
798,798,0,2046,4095
799,799,0,2046,3845
800,800,0,2047,3137
801,801,0,2046,2149
802,802,0,2046,1135
803,803,0,2046,350
804,804,0,2046,0
805,805,0,2046,154
806,806,0,2046,794
807,807,0,2047,1749
808,808,0,2046,2778
809,809,0,2046,3619
810,810,0,2046,4060
811,811,0,2046,3987
812,812,0,2047,3419
813,813,0,2047,2501
814,814,0,2047,1466
815,815,0,2047,576
816,816,0,2047,57
817,817,0,2046,41
818,818,0,2046,531
819,819,0,2047,1403
820,820,0,2046,2437
821,821,0,2046,3369
822,822,0,2046,3964
823,823,0,2047,4071
824,824,0,2046,3661
825,825,0,2046,2839
826,826,0,2046,1815
827,827,0,2046,846
828,828,0,2046,182
829,829,0,2047,0
830,830,0,2046,313
831,831,0,2046,1077
832,832,0,2046,2084
833,833,0,2047,3080
834,834,0,2046,3811
835,835,0,2046,4094
836,836,0,2047,3855
837,837,0,2047,3154
838,838,0,2046,2169
839,839,0,2046,1152
840,840,0,2047,361
841,841,0,2046,0
842,842,0,2047,146
843,843,0,2046,778
844,844,0,2047,1730
845,845,0,2046,2759
846,846,0,2046,3607
847,847,0,2047,4056
848,848,0,2046,3993
849,849,0,2047,3434
850,850,0,2047,2520
851,851,0,2047,1485
852,852,0,2046,590
853,853,0,2046,63
854,854,0,2046,36
855,855,0,2046,519
856,856,0,2046,1384
857,857,0,2047,2417
858,858,0,2046,3354
859,859,0,2046,3957
860,860,0,2045,4074
861,861,0,2046,3674
862,862,0,2046,2857
863,863,0,2046,1834
864,864,0,2046,863
865,865,0,2046,190
866,866,0,2047,0
867,867,0,2046,302
868,868,0,2046,1059
869,869,0,2047,2064
870,870,0,2046,3063
871,871,0,2046,3802
872,872,0,2047,4094
873,873,0,2046,3864
874,874,0,2047,3170
875,875,0,2046,2189
876,876,0,2047,1170
877,877,0,2046,372
878,878,0,2046,0
879,879,0,2047,140
880,880,0,2047,764
881,881,0,2046,1710
882,882,0,2046,2742
883,883,0,2046,3594
884,884,0,2046,4052
885,885,0,2046,3999
886,886,0,2046,3448
887,887,0,2046,2539
888,888,0,2046,1504
889,889,0,2047,604
890,890,0,2046,69
891,891,0,2047,32
892,892,0,2046,504
893,893,0,2047,1366
894,894,0,2046,2398
895,895,0,2046,3340
896,896,0,2046,3950
897,897,0,2046,4077
898,898,0,2046,3685
899,899,0,2047,2875
900,900,0,2047,1853
901,901,0,2046,878
902,902,0,2046,198
903,903,0,2046,0
904,904,0,2046,292
905,905,0,2047,1042
906,906,0,2047,2045
907,907,0,2047,3045
908,908,0,2046,3791
909,909,0,2046,4093
910,910,0,2046,3872
911,911,0,2046,3186
912,912,0,2047,2208
913,913,0,2047,1188
914,914,0,2046,384
915,915,0,2047,0
916,916,0,2046,132
917,917,0,2046,748
918,918,0,2047,1691
919,919,0,2046,2722
920,920,0,2046,3581
921,921,0,2046,4048
922,922,0,2046,4006
923,923,0,2047,3463
924,924,0,2046,2558
925,925,0,2046,1523
926,926,0,2047,618
927,927,0,2047,74
928,928,0,2046,28
929,929,0,2047,492
930,930,0,2047,1347
931,931,0,2046,2379
932,932,0,2047,3324
933,933,0,2046,3943
934,934,0,2046,4079
935,935,0,2047,3697
936,936,0,2046,2893
937,937,0,2046,1873
938,938,0,2046,895
939,939,0,2047,207
940,940,0,2046,0
941,941,0,2046,282
942,942,0,2046,1024
943,943,0,2047,2025
944,944,0,2046,3028
945,945,0,2046,3782
946,946,0,2047,4092
947,947,0,2046,3881
948,948,0,2046,3203
949,949,0,2047,2228
950,950,0,2046,1206
951,951,0,2047,395
952,952,0,2046,2
953,953,0,2047,124
954,954,0,2047,732
955,955,0,2046,1671
956,956,0,2047,2703
957,957,0,2047,3567
958,958,0,2046,4044
959,959,0,2047,4011
960,960,0,2047,3478
961,961,0,2046,2577
962,962,0,2046,1542
963,963,0,2047,632
964,964,0,2046,80
965,965,0,2046,24
966,966,0,2046,478
967,967,0,2047,1329
968,968,0,2046,2359
969,969,0,2046,3309
970,970,0,2047,3935
971,971,0,2046,4082
972,972,0,2046,3708
973,973,0,2046,2911
974,974,0,2047,1893
975,975,0,2046,911
976,976,0,2046,217
977,977,0,2047,0
978,978,0,2046,272
979,979,0,2046,1008
980,980,0,2046,2005
981,981,0,2046,3011
982,982,0,2046,3771
983,983,0,2047,4091
984,984,0,2047,3890
985,985,0,2047,3218
986,986,0,2046,2247
987,987,0,2047,1224
988,988,0,2047,408
989,989,0,2046,4
990,990,0,2046,117
991,991,0,2046,718
992,992,0,2046,1652
993,993,0,2047,2685
994,994,0,2046,3554
995,995,0,2047,4039
996,996,0,2046,4017
997,997,0,2047,3491
998,998,0,2047,2597
999,999,0,2046,1562
1000,1000,0,2046,648
1001,1001,0,2046,86
1002,1002,0,2046,21
1003,1003,0,2047,466
1004,1004,0,2047,1310
1005,1005,0,2046,2340
1006,1006,0,2046,3293
1007,1007,0,2046,3928
1008,1008,0,2047,4084
1009,1009,0,2047,3720
1010,1010,0,2047,2929
1011,1011,0,2046,1912
1012,1012,0,2046,928
1013,1013,0,2047,226
1014,1014,0,2046,0
1015,1015,0,2047,261
1016,1016,0,2046,991
1017,1017,0,2046,1985
1018,1018,0,2047,2994
1019,1019,0,2046,3760
1020,1020,0,2047,4090
1021,1021,0,2046,3898
1022,1022,0,2046,3235
1023,1023,0,2047,2267
1024,1024,0,2046,1243
1025,1025,0,2047,420
1026,1026,0,2046,7
1027,1027,0,2047,111
1028,1028,0,2047,702
