Sample in Buffer,Sample in Window,TRIGGER,adc1_data_a_d0[11:0],adc1_data_b_d0[11:0]
0,0,0,2046,2009
1,1,0,2047,895
2,2,0,2046,154
3,3,0,2046,29
4,4,0,2046,559
5,5,0,2047,1573
6,6,0,2046,2738
7,7,0,2047,3676
8,8,0,2047,4078
9,9,0,2047,3814
10,10,0,2047,2970
11,11,0,2047,1823
12,12,0,2046,745
13,13,0,2047,90
14,14,0,2046,71
15,15,0,2046,695
16,16,0,2047,1758
17,17,0,2046,2912
18,18,0,2046,3781
19,19,0,2047,4081
20,20,0,2046,3714
21,21,0,2047,2799
22,22,0,2046,1637
23,23,0,2046,605
24,24,0,2047,42
25,25,0,2046,131
26,26,0,2046,842
27,27,0,2046,1944
28,28,0,2046,3078
29,29,0,2046,3872
30,30,0,2046,4066
31,31,0,2046,3599
32,32,0,2046,2622
33,33,0,2046,1455
34,34,0,2046,477
35,35,0,2046,10
36,36,0,2047,205
37,37,0,2046,999
38,38,0,2047,2132
39,39,0,2047,3235
40,40,0,2046,3947
41,41,0,2047,4034
42,42,0,2046,3471
43,43,0,2047,2439
44,44,0,2046,1277
45,45,0,2046,364
46,46,0,2046,0
47,47,0,2046,297
48,48,0,2047,1166
49,49,0,2046,2320
50,50,0,2046,3382
51,51,0,2046,4005
52,52,0,2046,3986
53,53,0,2046,3331
54,54,0,2046,2254
55,55,0,2047,1106
56,56,0,2046,263
57,57,0,2046,0
58,58,0,2046,402
59,59,0,2046,1339
60,60,0,2047,2504
61,61,0,2046,3517
62,62,0,2046,4049
63,63,0,2047,3922
64,64,0,2046,3181
65,65,0,2045,2066
66,66,0,2047,944
67,67,0,2047,178
68,68,0,2046,20
69,69,0,2046,521
70,70,0,2046,1517
71,71,0,2047,2684
72,72,0,2047,3641
73,73,0,2046,4073
74,74,0,2047,3841
75,75,0,2046,3020
76,76,0,2046,1878
77,77,0,2046,790
78,78,0,2046,108
79,79,0,2047,56
80,80,0,2047,653
81,81,0,2047,1702
82,82,0,2046,2860
83,83,0,2047,3750
84,84,0,2047,4082
85,85,0,2046,3745
86,86,0,2047,2852
87,87,0,2046,1693
88,88,0,2046,646
89,89,0,2046,55
90,90,0,2046,111
91,91,0,2046,797
92,92,0,2046,1888
93,93,0,2047,3028
94,94,0,2047,3846
95,95,0,2046,4072
96,96,0,2046,3635
97,97,0,2046,2676
98,98,0,2047,1509
99,99,0,2045,515
100,100,0,2046,19
101,101,0,2046,181
102,102,0,2047,951
103,103,0,2046,2075
104,104,0,2047,3188
105,105,0,2046,3926
106,106,0,2046,4046
107,107,0,2046,3511
108,108,0,2046,2495
109,109,0,2046,1330
110,110,0,2046,397
111,111,0,2047,0
112,112,0,2047,268
113,113,0,2046,1114
114,114,0,2046,2263
115,115,0,2047,3338
116,116,0,2046,3989
117,117,0,2046,4003
118,118,0,2047,3374
119,119,0,2047,2310
120,120,0,2046,1157
121,121,0,2046,292
122,122,0,2047,0
123,123,0,2046,368
124,124,0,2046,1285
125,125,0,2047,2449
126,126,0,2046,3478
127,127,0,2046,4037
128,128,0,2046,3943
129,129,0,2046,3227
130,130,0,2046,2123
131,131,0,2046,992
132,132,0,2047,201
133,133,0,2046,11
134,134,0,2046,483
135,135,0,2046,1463
136,136,0,2046,2630
137,137,0,2046,3605
138,138,0,2047,4068
139,139,0,2047,3867
140,140,0,2046,3069
141,141,0,2046,1935
142,142,0,2046,835
143,143,0,2046,127
144,144,0,2046,44
145,145,0,2046,611
146,146,0,2046,1645
147,147,0,2046,2808
148,148,0,2047,3719
149,149,0,2047,4081
150,150,0,2046,3776
151,151,0,2047,2903
152,152,0,2046,1748
153,153,0,2045,688
154,154,0,2046,70
155,155,0,2046,92
156,156,0,2047,752
157,157,0,2047,1832
158,158,0,2046,2979
159,159,0,2047,3819
160,160,0,2047,4077
161,161,0,2047,3669
162,162,0,2047,2730
163,163,0,2047,1564
164,164,0,2046,553
165,165,0,2046,27
166,166,0,2046,158
167,167,0,2047,903
168,168,0,2047,2019
169,169,0,2047,3141
170,170,0,2046,3903
171,171,0,2047,4056
172,172,0,2047,3549
173,173,0,2046,2550
174,174,0,2046,1383
175,175,0,2046,430
176,176,0,2047,3
177,177,0,2047,240
178,178,0,2047,1064
179,179,0,2047,2207
180,180,0,2046,3295
181,181,0,2047,3971
182,182,0,2047,4017
183,183,0,2047,3417
184,184,0,2047,2366
185,185,0,2046,1208
186,186,0,2047,321
187,187,0,2047,0
188,188,0,2046,335
189,189,0,2047,1233
190,190,0,2047,2393
191,191,0,2047,3437
192,192,0,2046,4024
193,193,0,2046,3963
194,194,0,2046,3273
195,195,0,2047,2179
196,196,0,2047,1041
197,197,0,2046,227
198,198,0,2046,5
199,199,0,2046,447
200,200,0,2046,1409
201,201,0,2046,2577
202,202,0,2046,3568
203,203,0,2046,4060
204,204,0,2047,3892
205,205,0,2047,3118
206,206,0,2046,1992
207,207,0,2047,882
208,208,0,2046,148
209,209,0,2047,32
210,210,0,2046,571
211,211,0,2046,1590
212,212,0,2047,2755
213,213,0,2046,3686
214,214,0,2047,4078
215,215,0,2047,3805
216,216,0,2046,2953
217,217,0,2046,1805
218,218,0,2046,731
219,219,0,2046,85
220,220,0,2046,76
221,221,0,2046,708
222,222,0,2046,1775
223,223,0,2046,2928
224,224,0,2046,3791
225,225,0,2046,4081
226,226,0,2046,3703
227,227,0,2046,2782
228,228,0,2046,1619
229,229,0,2046,592
230,230,0,2046,38
231,231,0,2046,137
232,232,0,2047,856
233,233,0,2046,1962
234,234,0,2046,3092
235,235,0,2047,3878
236,236,0,2046,4064
237,237,0,2045,3587
238,238,0,2046,2605
239,239,0,2046,1437
240,240,0,2047,466
241,241,0,2047,8
242,242,0,2046,214
243,243,0,2047,1015
244,244,0,2047,2150
245,245,0,2046,3249
246,246,0,2047,3953
247,247,0,2046,4031
248,248,0,2047,3458
249,249,0,2047,2422
250,250,0,2046,1260
251,251,0,2046,353
252,252,0,2046,0
253,253,0,2046,305
254,254,0,2046,1181
255,255,0,2047,2337
256,256,0,2046,3395
257,257,0,2046,4011
258,258,0,2047,3982
259,259,0,2047,3318
260,260,0,2046,2236
261,261,0,2047,1090
262,262,0,2047,254
263,263,0,2046,0
264,264,0,2046,412
265,265,0,2046,1356
266,266,0,2046,2521
267,267,0,2046,3530
268,268,0,2046,4051
269,269,0,2047,3914
270,270,0,2046,3165
271,271,0,2046,2048
272,272,0,2046,928
273,273,0,2046,170
274,274,0,2046,22
275,275,0,2046,532
276,276,0,2047,1535
277,277,0,2045,2701
278,278,0,2046,3652
279,279,0,2046,4074
280,280,0,2046,3833
281,281,0,2046,3004
282,282,0,2047,1861
283,283,0,2046,775
284,284,0,2046,102
285,285,0,2046,61
286,286,0,2046,666
287,287,0,2047,1719
288,288,0,2046,2876
289,289,0,2046,3760
290,290,0,2046,4082
291,291,0,2047,3735
292,292,0,2047,2836
293,293,0,2047,1675
294,294,0,2047,634
295,295,0,2046,50
296,296,0,2046,117
297,297,0,2046,811
298,298,0,2047,1906
299,299,0,2046,3043
300,300,0,2046,3853
301,301,0,2046,4071
302,302,0,2047,3623
303,303,0,2046,2659
304,304,0,2047,1492
305,305,0,2046,504
306,306,0,2046,16
307,307,0,2047,189
308,308,0,2047,966
309,309,0,2046,2093
310,310,0,2047,3202
311,311,0,2047,3931
312,312,0,2047,4043
313,313,0,2047,3498
314,314,0,2046,2478
315,315,0,2047,1313
316,316,0,2046,385
317,317,0,2047,0
318,318,0,2047,276
319,319,0,2047,1130
320,320,0,2047,2281
321,321,0,2047,3352
322,322,0,2046,3994
323,323,0,2047,3998
324,324,0,2047,3361
325,325,0,2046,2293
326,326,0,2046,1141
327,327,0,2046,283
328,328,0,2047,0
329,329,0,2046,379
330,330,0,2046,1302
331,331,0,2046,2466
332,332,0,2046,3490
333,333,0,2046,4040
334,334,0,2047,3937
335,335,0,2046,3213
336,336,0,2046,2105
337,337,0,2047,976
338,338,0,2046,194
339,339,0,2046,14
340,340,0,2047,495
341,341,0,2046,1479
342,342,0,2047,2648
343,343,0,2046,3616
344,344,0,2046,4070
345,345,0,2046,3859
346,346,0,2046,3055
347,347,0,2046,1918
348,348,0,2046,821
349,349,0,2046,121
350,350,0,2046,48
351,351,0,2046,624
352,352,0,2047,1663
353,353,0,2047,2824
354,354,0,2047,3728
355,355,0,2046,4081
356,356,0,2046,3766
357,357,0,2046,2887
358,358,0,2046,1731
359,359,0,2046,675
360,360,0,2046,64
361,361,0,2047,99
362,362,0,2046,765
363,363,0,2046,1849
364,364,0,2047,2994
365,365,0,2047,3827
366,366,0,2046,4075
367,367,0,2046,3659
368,368,0,2046,2713
369,369,0,2046,1547
370,370,0,2046,541
371,371,0,2046,24
372,372,0,2046,165
373,373,0,2047,917
374,374,0,2046,2037
375,375,0,2046,3156
376,376,0,2046,3910
377,377,0,2047,4053
378,378,0,2046,3538
379,379,0,2046,2533
380,380,0,2046,1367
381,381,0,2046,420
382,382,0,2046,2
383,383,0,2046,247
384,384,0,2046,1079
385,385,0,2046,2224
386,386,0,2046,3308
387,387,0,2046,3977
388,388,0,2046,4014
389,389,0,2047,3404
390,390,0,2046,2349
391,391,0,2046,1193
392,392,0,2047,313
393,393,0,2046,0
394,394,0,2046,345
395,395,0,2046,1249
396,396,0,2047,2409
397,397,0,2047,3449
398,398,0,2046,4029
399,399,0,2046,3957
400,400,0,2047,3259
401,401,0,2046,2162
402,402,0,2046,1026
403,403,0,2047,219
404,404,0,2046,6
405,405,0,2047,458
406,406,0,2046,1425
407,407,0,2046,2593
408,408,0,2046,3580
409,409,0,2046,4064
410,410,0,2047,3885
411,411,0,2046,3104
412,412,0,2046,1974
413,413,0,2046,867
414,414,0,2047,142
415,415,0,2047,35
416,416,0,2047,584
417,417,0,2047,1607
418,418,0,2047,2771
419,419,0,2046,3696
420,420,0,2047,4079
421,421,0,2047,3797
422,422,0,2047,2938
423,423,0,2046,1787
424,424,0,2046,718
425,425,0,2046,81
426,426,0,2046,81
427,427,0,2046,722
428,428,0,2046,1792
429,429,0,2047,2943
430,430,0,2047,3799
431,431,0,2047,4079
432,432,0,2046,3693
433,433,0,2047,2767
434,434,0,2047,1603
435,435,0,2047,581
436,436,0,2047,34
437,437,0,2046,143
438,438,0,2046,871
439,439,0,2047,1980
440,440,0,2047,3107
441,441,0,2046,3887
442,442,0,2046,4061
443,443,0,2046,3576
444,444,0,2047,2588
445,445,0,2047,1421
446,446,0,2046,456
447,447,0,2047,7
448,448,0,2046,221
449,449,0,2046,1029
450,450,0,2046,2167
451,451,0,2047,3263
452,452,0,2046,3959
453,453,0,2046,4027
454,454,0,2046,3445
455,455,0,2046,2405
456,456,0,2046,1244
457,457,0,2046,343
458,458,0,2046,0
459,459,0,2046,315
460,460,0,2047,1196
461,461,0,2047,2354
462,462,0,2047,3408
463,463,0,2046,4015
464,464,0,2046,3976
465,465,0,2047,3303
466,466,0,2046,2218
467,467,0,2047,1076
468,468,0,2047,246
469,469,0,2046,2
470,470,0,2047,423
471,471,0,2046,1371
472,472,0,2047,2537
473,473,0,2046,3541
474,474,0,2046,4054
475,475,0,2046,3908
476,476,0,2046,3151
477,477,0,2047,2031
478,478,0,2046,914
479,479,0,2046,164
480,480,0,2045,25
481,481,0,2046,544
482,482,0,2047,1552
483,483,0,2046,2718
484,484,0,2046,3662
485,485,0,2047,4076
486,486,0,2046,3824
487,487,0,2046,2989
488,488,0,2046,1844
489,489,0,2046,762
490,490,0,2047,96
491,491,0,2047,65
492,492,0,2046,678
493,493,0,2047,1736
494,494,0,2046,2892
495,495,0,2047,3769
496,496,0,2047,4082
497,497,0,2046,3726
498,498,0,2047,2819
499,499,0,2046,1658
500,500,0,2046,621
501,501,0,2047,46
502,502,0,2046,122
503,503,0,2047,825
504,504,0,2048,1922
505,505,0,2047,3058
506,506,0,2046,3861
507,507,0,2047,4069
508,508,0,2046,3613
509,509,0,2046,2642
510,510,0,2045,1475
511,511,0,2047,492
512,512,0,2047,13
513,513,0,2046,196
514,514,0,2046,980
515,515,0,2047,2111
516,516,0,2047,3217
517,517,0,2046,3939
518,518,0,2046,4039
519,519,0,2046,3486
520,520,0,2046,2461
521,521,0,2046,1297
522,522,0,2046,376
523,523,0,2046,0
524,524,0,2046,284
525,525,0,2046,1145
526,526,0,2046,2298
527,527,0,2046,3365
528,528,0,2046,3999
529,529,0,2046,3994
530,530,0,2046,3348
531,531,0,2047,2275
532,532,0,2046,1126
533,533,0,2047,274
534,534,0,2047,0
535,535,0,2047,388
536,536,0,2047,1318
537,537,0,2047,2482
538,538,0,2046,3502
539,539,0,2047,4044
540,540,0,2046,3931
541,541,0,2045,3198
542,542,0,2046,2087
543,543,0,2046,962
544,544,0,2046,187
545,545,0,2046,16
546,546,0,2046,506
547,547,0,2046,1496
548,548,0,2047,2664
549,549,0,2046,3627
550,550,0,2046,4071
551,551,0,2047,3851
552,552,0,2046,3039
553,553,0,2046,1900
554,554,0,2046,807
555,555,0,2046,115
556,556,0,2046,52
557,557,0,2046,637
558,558,0,2045,1680
559,559,0,2046,2840
560,560,0,2047,3738
561,561,0,2046,4081
562,562,0,2046,3757
563,563,0,2046,2872
564,564,0,2046,1714
565,565,0,2046,663
566,566,0,2046,60
567,567,0,2046,103
568,568,0,2046,780
569,569,0,2046,1866
570,570,0,2047,3009
571,571,0,2046,3835
572,572,0,2046,4074
573,573,0,2047,3648
574,574,0,2046,2697
575,575,0,2045,1530
576,576,0,2047,529
577,577,0,2046,20
578,578,0,2046,172
579,579,0,2046,932
580,580,0,2046,2053
581,581,0,2046,3170
582,582,0,2046,3916
583,583,0,2046,4050
584,584,0,2046,3526
585,585,0,2046,2517
586,586,0,2046,1351
587,587,0,2046,409
588,588,0,2046,0
589,589,0,2046,256
590,590,0,2046,1094
591,591,0,2046,2241
592,592,0,2046,3322
593,593,0,2046,3982
594,594,0,2046,4009
595,595,0,2047,3391
596,596,0,2047,2331
597,597,0,2047,1177
598,598,0,2046,303
599,599,0,2046,0
600,600,0,2045,356
601,601,0,2046,1266
602,602,0,2046,2427
603,603,0,2046,3462
604,604,0,2046,4032
605,605,0,2046,3950
606,606,0,2046,3244
607,607,0,2047,2145
608,608,0,2046,1010
609,609,0,2046,211
610,610,0,2046,9
611,611,0,2046,469
612,612,0,2046,1441
613,613,0,2046,2609
614,614,0,2046,3591
615,615,0,2046,4064
616,616,0,2046,3877
617,617,0,2046,3089
618,618,0,2047,1957
619,619,0,2047,853
620,620,0,2046,136
621,621,0,2047,39
622,622,0,2046,595
623,623,0,2047,1623
624,624,0,2047,2787
625,625,0,2046,3706
626,626,0,2046,4080
627,627,0,2046,3788
628,628,0,2046,2923
629,629,0,2047,1770
630,630,0,2047,705
631,631,0,2046,75
632,632,0,2046,85
633,633,0,2047,735
634,634,0,2046,1809
635,635,0,2046,2959
636,636,0,2046,3807
637,637,0,2046,4078
638,638,0,2046,3683
639,639,0,2047,2750
640,640,0,2046,1585
641,641,0,2046,568
642,642,0,2046,31
643,643,0,2046,149
644,644,0,2046,885
645,645,0,2046,1997
646,646,0,2046,3122
647,647,0,2046,3893
648,648,0,2045,4059
649,649,0,2047,3564
650,650,0,2046,2571
651,651,0,2046,1405
652,652,0,2047,445
653,653,0,2046,5
654,654,0,2046,229
655,655,0,2046,1045
656,656,0,2047,2185
657,657,0,2046,3277
658,658,0,2046,3965
659,659,0,2046,4023
660,660,0,2046,3433
661,661,0,2046,2388
662,662,0,2046,1228
663,663,0,2046,334
664,664,0,2046,0
665,665,0,2046,323
666,666,0,2047,1213
667,667,0,2046,2372
668,668,0,2046,3420
669,669,0,2046,4019
670,670,0,2046,3970
671,671,0,2046,3290
672,672,0,2046,2202
673,673,0,2047,1060
674,674,0,2046,238
675,675,0,2047,3
676,676,0,2046,434
677,677,0,2046,1388
678,678,0,2047,2555
679,679,0,2046,3553
680,680,0,2046,4057
681,681,0,2047,3901
682,682,0,2047,3136
683,683,0,2046,2014
684,684,0,2046,900
685,685,0,2047,157
686,686,0,2046,28
687,687,0,2046,556
688,688,0,2047,1568
689,689,0,2047,2734
690,690,0,2047,3672
691,691,0,2046,4077
692,692,0,2046,3816
693,693,0,2046,2973
694,694,0,2047,1827
695,695,0,2046,749
696,696,0,2046,91
697,697,0,2046,70
698,698,0,2046,691
699,699,0,2046,1753
700,700,0,2047,2908
701,701,0,2047,3778
702,702,0,2046,4081
703,703,0,2046,3716
704,704,0,2047,2803
705,705,0,2047,1641
706,706,0,2047,609
707,707,0,2046,42
708,708,0,2046,129
709,709,0,2048,838
710,710,0,2047,1940
711,711,0,2046,3074
712,712,0,2046,3869
713,713,0,2047,4067
714,714,0,2046,3602
715,715,0,2046,2626
716,716,0,2046,1458
717,717,0,2046,480
718,718,0,2047,11
719,719,0,2046,203
720,720,0,2047,995
721,721,0,2046,2128
722,722,0,2046,3230
723,723,0,2046,3945
724,724,0,2046,4035
725,725,0,2046,3475
726,726,0,2047,2444
727,727,0,2046,1282
728,728,0,2046,365
729,729,0,2047,0
730,730,0,2046,294
731,731,0,2047,1161
732,732,0,2046,2315
733,733,0,2047,3378
734,734,0,2047,4004
735,735,0,2046,3988
736,736,0,2046,3334
737,737,0,2046,2258
738,738,0,2046,1109
739,739,0,2046,266
740,740,0,2047,0
741,741,0,2047,400
742,742,0,2047,1334
743,743,0,2046,2499
744,744,0,2047,3514
745,745,0,2046,4048
746,746,0,2047,3924
747,747,0,2046,3184
748,748,0,2047,2071
749,749,0,2046,947
750,750,0,2046,179
751,751,0,2046,18
752,752,0,2047,518
753,753,0,2047,1514
754,754,0,2047,2680
755,755,0,2046,3638
756,756,0,2047,4073
757,757,0,2045,3843
758,758,0,2046,3024
759,759,0,2046,1883
760,760,0,2046,793
761,761,0,2046,109
762,762,0,2046,56
763,763,0,2046,649
764,764,0,2046,1697
765,765,0,2046,2856
766,766,0,2046,3748
767,767,0,2046,4082
768,768,0,2046,3747
769,769,0,2046,2855
770,770,0,2046,1697
771,771,0,2046,650
772,772,0,2046,56
773,773,0,2047,109
774,774,0,2046,793
775,775,0,2046,1883
776,776,0,2047,3024
777,777,0,2046,3843
778,778,0,2046,4072
779,779,0,2046,3637
780,780,0,2046,2680
781,781,0,2046,1514
782,782,0,2046,517
783,783,0,2047,19
784,784,0,2046,179
785,785,0,2046,947
786,786,0,2046,2072
787,787,0,2047,3185
788,788,0,2046,3924
789,789,0,2046,4046
790,790,0,2046,3514
791,791,0,2047,2499
792,792,0,2046,1335
793,793,0,2046,399
794,794,0,2046,0
795,795,0,2046,265
796,796,0,2046,1110
797,797,0,2046,2259
798,798,0,2046,3336
799,799,0,2046,3988
800,800,0,2046,4004
801,801,0,2046,3378
802,802,0,2045,2314
803,803,0,2046,1161
804,804,0,2046,294
805,805,0,2046,0
806,806,0,2046,365
807,807,0,2046,1281
808,808,0,2046,2445
809,809,0,2047,3475
810,810,0,2046,4035
811,811,0,2046,3944
812,812,0,2047,3230
813,813,0,2047,2128
814,814,0,2047,996
815,815,0,2046,204
816,816,0,2046,11
817,817,0,2047,480
818,818,0,2047,1459
819,819,0,2046,2627
820,820,0,2046,3602
821,821,0,2046,4067
822,822,0,2046,3869
823,823,0,2046,3073
824,824,0,2046,1940
825,825,0,2046,839
826,826,0,2046,129
827,827,0,2046,43
828,828,0,2046,608
829,829,0,2046,1641
830,830,0,2046,2803
831,831,0,2045,3716
832,832,0,2046,4081
833,833,0,2047,3778
834,834,0,2046,2907
835,835,0,2046,1752
836,836,0,2046,692
837,837,0,2046,71
838,838,0,2046,92
839,839,0,2047,748
840,840,0,2046,1827
841,841,0,2046,2974
842,842,0,2046,3816
843,843,0,2046,4078
844,844,0,2046,3672
845,845,0,2046,2734
846,846,0,2047,1568
847,847,0,2046,556
848,848,0,2046,28
849,849,0,2046,157
850,850,0,2046,900
851,851,0,2046,2014
852,852,0,2047,3137
853,853,0,2046,3901
854,854,0,2046,4057
855,855,0,2046,3553
856,856,0,2046,2554
857,857,0,2047,1388
858,858,0,2046,434
859,859,0,2047,3
860,860,0,2046,237
861,861,0,2047,1060
862,862,0,2046,2202
863,863,0,2047,3290
864,864,0,2046,3970
865,865,0,2046,4018
866,866,0,2046,3420
867,867,0,2046,2370
868,868,0,2046,1213
869,869,0,2046,324
870,870,0,2046,0
871,871,0,2046,333
872,872,0,2046,1229
873,873,0,2046,2389
874,874,0,2047,3433
875,875,0,2047,4023
876,876,0,2047,3964
877,877,0,2046,3276
878,878,0,2047,2184
879,879,0,2046,1045
880,880,0,2046,229
881,881,0,2046,4
882,882,0,2046,445
883,883,0,2046,1404
884,884,0,2046,2572
885,885,0,2047,3565
886,886,0,2046,4059
887,887,0,2046,3893
888,888,0,2046,3122
889,889,0,2046,1996
890,890,0,2046,886
891,891,0,2046,150
892,892,0,2046,32
893,893,0,2046,568
894,894,0,2046,1585
895,895,0,2046,2751
896,896,0,2046,3683
897,897,0,2047,4077
898,898,0,2046,3807
899,899,0,2046,2958
900,900,0,2046,1809
901,901,0,2046,735
902,902,0,2046,86
903,903,0,2046,75
904,904,0,2046,704
905,905,0,2046,1770
906,906,0,2045,2923
907,907,0,2046,3787
908,908,0,2046,4080
909,909,0,2046,3705
910,910,0,2047,2787
911,911,0,2046,1624
912,912,0,2046,597
913,913,0,2046,39
914,914,0,2046,135
915,915,0,2046,852
916,916,0,2046,1957
917,917,0,2046,3088
918,918,0,2046,3877
919,919,0,2047,4065
920,920,0,2046,3590
921,921,0,2047,2609
922,922,0,2047,1441
923,923,0,2046,469
924,924,0,2046,9
925,925,0,2046,211
926,926,0,2046,1011
927,927,0,2046,2144
928,928,0,2046,3245
929,929,0,2047,3951
930,930,0,2047,4032
931,931,0,2046,3462
932,932,0,2046,2427
933,933,0,2047,1265
934,934,0,2046,356
935,935,0,2047,0
936,936,0,2046,303
937,937,0,2046,1177
938,938,0,2047,2332
939,939,0,2046,3392
940,940,0,2046,4008
941,941,0,2047,3982
942,942,0,2046,3321
943,943,0,2047,2241
944,944,0,2046,1095
945,945,0,2046,255
946,946,0,2046,0
947,947,0,2046,410
948,948,0,2047,1350
949,949,0,2046,2516
950,950,0,2046,3527
951,951,0,2046,4050
952,952,0,2047,3916
953,953,0,2046,3170
954,954,0,2046,2054
955,955,0,2046,933
956,956,0,2046,172
957,957,0,2047,22
958,958,0,2046,529
959,959,0,2046,1530
960,960,0,2046,2698
961,961,0,2046,3648
962,962,0,2047,4074
963,963,0,2046,3834
964,964,0,2046,3009
965,965,0,2046,1866
966,966,0,2046,779
967,967,0,2046,104
968,968,0,2046,60
969,969,0,2047,662
970,970,0,2047,1714
971,971,0,2046,2872
972,972,0,2046,3757
973,973,0,2046,4081
974,974,0,2046,3738
975,975,0,2046,2839
976,976,0,2046,1680
977,977,0,2046,637
978,978,0,2046,52
979,979,0,2046,115
980,980,0,2046,807
981,981,0,2046,1901
982,982,0,2047,3039
983,983,0,2046,3851
984,984,0,2047,4071
985,985,0,2046,3626
986,986,0,2046,2663
987,987,0,2046,1496
988,988,0,2046,506
989,989,0,2046,16
990,990,0,2046,186
991,991,0,2046,962
992,992,0,2046,2089
993,993,0,2046,3198
994,994,0,2046,3931
995,995,0,2046,4044
996,996,0,2046,3502
997,997,0,2046,2482
998,998,0,2046,1318
999,999,0,2046,389
1000,1000,0,2046,0
1001,1001,0,2046,273
1002,1002,0,2046,1125
1003,1003,0,2046,2275
1004,1004,0,2046,3349
1005,1005,0,2047,3993
1006,1006,0,2047,3999
1007,1007,0,2046,3365
1008,1008,0,2046,2297
1009,1009,0,2046,1145
1010,1010,0,2046,285
1011,1011,0,2046,0
1012,1012,0,2046,376
1013,1013,0,2046,1298
1014,1014,0,2046,2461
1015,1015,0,2046,3488
1016,1016,0,2046,4039
1017,1017,0,2046,3938
1018,1018,0,2046,3216
1019,1019,0,2046,2110
1020,1020,0,2046,981
1021,1021,0,2046,195
1022,1022,0,2047,13
1023,1023,0,2046,492
1024,1024,0,2046,1476
1025,1025,0,2047,2643
1026,1026,0,2046,3613
1027,1027,0,2046,4070
