Sample in Buffer,Sample in Window,TRIGGER,adc1_data_a_d0[11:0],adc1_data_b_d0[11:0]
0,0,0,2046,2112
1,1,0,2046,3027
2,2,0,2046,3732
3,3,0,2047,4079
4,4,0,2047,3995
5,5,0,2046,3495
6,6,0,2046,2688
7,7,0,2046,1744
8,8,0,2046,860
9,9,0,2046,228
10,10,0,2046,0
11,11,0,2046,163
12,12,0,2046,747
13,13,0,2047,1604
14,14,0,2046,2552
15,15,0,2047,3391
16,16,0,2046,3946
17,17,0,2047,4095
18,18,0,2046,3810
19,19,0,2046,3149
20,20,0,2046,2254
21,21,0,2046,1313
22,22,0,2046,526
23,23,0,2047,58
24,24,0,2047,9
25,25,0,2046,391
26,26,0,2047,1121
27,27,0,2047,2045
28,28,0,2046,2967
29,29,0,2046,3693
30,30,0,2046,4069
31,31,0,2047,4015
32,32,0,2046,3543
33,33,0,2046,2753
34,34,0,2046,1810
35,35,0,2046,917
36,36,0,2047,262
37,37,0,2046,0
38,38,0,2046,136
39,39,0,2046,695
40,40,0,2047,1537
41,41,0,2047,2485
42,42,0,2046,3339
43,43,0,2046,3917
44,44,0,2047,4095
45,45,0,2047,3844
46,46,0,2047,3206
47,47,0,2047,2320
48,48,0,2046,1377
49,49,0,2046,573
50,50,0,2046,78
51,51,0,2047,0
52,52,0,2046,351
53,53,0,2046,1060
54,54,0,2047,1976
55,55,0,2047,2906
56,56,0,2046,3651
57,57,0,2046,4056
58,58,0,2047,4034
59,59,0,2047,3588
60,60,0,2046,2816
61,61,0,2046,1878
62,62,0,2046,974
63,63,0,2046,296
64,64,0,2047,0
65,65,0,2047,111
66,66,0,2047,644
67,67,0,2047,1471
68,68,0,2046,2418
69,69,0,2047,3286
70,70,0,2046,3889
71,71,0,2046,4095
72,72,0,2047,3876
73,73,0,2046,3261
74,74,0,2046,2389
75,75,0,2046,1442
76,76,0,2046,622
77,77,0,2047,100
78,78,0,2047,0
79,79,0,2047,313
80,80,0,2046,1001
81,81,0,2046,1909
82,82,0,2047,2843
83,83,0,2046,3608
84,84,0,2047,4041
85,85,0,2047,4050
86,86,0,2046,3633
87,87,0,2046,2878
88,88,0,2046,1946
89,89,0,2046,1033
90,90,0,2046,333
91,91,0,2046,0
92,92,0,2047,89
93,93,0,2047,593
94,94,0,2046,1406
95,95,0,2046,2352
96,96,0,2046,3231
97,97,0,2046,3858
98,98,0,2045,4095
99,99,0,2046,3906
100,100,0,2047,3315
101,101,0,2046,2456
102,102,0,2046,1508
103,103,0,2047,671
104,104,0,2047,124
105,105,0,2046,0
106,106,0,2046,276
107,107,0,2046,942
108,108,0,2046,1841
109,109,0,2046,2780
110,110,0,2047,3563
111,111,0,2046,4024
112,112,0,2047,4063
113,113,0,2046,3675
114,114,0,2047,2939
115,115,0,2046,2014
116,116,0,2046,1093
117,117,0,2046,373
118,118,0,2046,5
119,119,0,2046,68
120,120,0,2047,546
121,121,0,2046,1342
122,122,0,2046,2284
123,123,0,2046,3175
124,124,0,2046,3825
125,125,0,2046,4095
126,126,0,2046,3933
127,127,0,2046,3369
128,128,0,2046,2522
129,129,0,2046,1573
130,130,0,2046,723
131,131,0,2046,151
132,132,0,2046,0
133,133,0,2046,242
134,134,0,2046,886
135,135,0,2046,1773
136,136,0,2047,2717
137,137,0,2046,3517
138,138,0,2046,4004
139,139,0,2047,4075
140,140,0,2046,3715
141,141,0,2047,3000
142,142,0,2046,2082
143,143,0,2046,1154
144,144,0,2046,414
145,145,0,2046,17
146,146,0,2046,48
147,147,0,2047,500
148,148,0,2046,1279
149,149,0,2046,2216
150,150,0,2046,3118
151,151,0,2046,3790
152,152,0,2046,4092
153,153,0,2046,3959
154,154,0,2046,3419
155,155,0,2046,2588
156,156,0,2046,1639
157,157,0,2047,776
158,158,0,2047,179
159,159,0,2046,0
160,160,0,2047,210
161,161,0,2046,829
162,162,0,2046,1706
163,163,0,2046,2652
164,164,0,2045,3469
165,165,0,2046,3982
166,166,0,2046,4085
167,167,0,2047,3754
168,168,0,2046,3061
169,169,0,2047,2150
170,170,0,2046,1216
171,171,0,2047,456
172,172,0,2046,32
173,173,0,2046,32
174,174,0,2045,456
175,175,0,2046,1215
176,176,0,2046,2149
177,177,0,2046,3058
178,178,0,2047,3753
179,179,0,2046,4084
180,180,0,2046,3982
181,181,0,2046,3470
182,182,0,2046,2652
183,183,0,2047,1706
184,184,0,2046,831
185,185,0,2046,210
186,186,0,2046,0
187,187,0,2046,179
188,188,0,2046,775
189,189,0,2046,1639
190,190,0,2047,2587
191,191,0,2046,3419
192,192,0,2046,3959
193,193,0,2046,4092
194,194,0,2047,3791
195,195,0,2046,3119
196,196,0,2046,2218
197,197,0,2046,1279
198,198,0,2047,501
199,199,0,2046,48
200,200,0,2046,17
201,201,0,2046,412
202,202,0,2046,1153
203,203,0,2046,2081
204,204,0,2047,2999
205,205,0,2046,3714
206,206,0,2046,4075
207,207,0,2047,4004
208,208,0,2046,3517
209,209,0,2047,2718
210,210,0,2046,1774
211,211,0,2046,887
212,212,0,2046,242
213,213,0,2046,0
214,214,0,2047,151
215,215,0,2046,722
216,216,0,2047,1573
217,217,0,2046,2521
218,218,0,2046,3368
219,219,0,2046,3933
220,220,0,2047,4095
221,221,0,2046,3826
222,222,0,2047,3176
223,223,0,2046,2285
224,224,0,2046,1343
225,225,0,2046,547
226,226,0,2046,67
227,227,0,2046,5
228,228,0,2046,372
229,229,0,2047,1093
230,230,0,2046,2013
231,231,0,2046,2938
232,232,0,2047,3674
233,233,0,2046,4063
234,234,0,2047,4025
235,235,0,2046,3565
236,236,0,2046,2781
237,237,0,2046,1842
238,238,0,2047,943
239,239,0,2046,277
240,240,0,2046,0
241,241,0,2047,124
242,242,0,2046,670
243,243,0,2047,1506
244,244,0,2046,2454
245,245,0,2047,3315
246,246,0,2046,3905
247,247,0,2047,4095
248,248,0,2046,3859
249,249,0,2047,3232
250,250,0,2046,2352
251,251,0,2047,1407
252,252,0,2046,595
253,253,0,2046,88
254,254,0,2047,0
255,255,0,2046,333
256,256,0,2046,1032
257,257,0,2046,1945
258,258,0,2046,2878
259,259,0,2046,3632
260,260,0,2046,4049
261,261,0,2046,4041
262,262,0,2046,3609
263,263,0,2046,2844
264,264,0,2046,1909
265,265,0,2046,1001
266,266,0,2046,313
267,267,0,2046,0
268,268,0,2046,100
269,269,0,2047,621
270,270,0,2046,1441
271,271,0,2047,2388
272,272,0,2047,3261
273,273,0,2046,3875
274,274,0,2046,4095
275,275,0,2046,3890
276,276,0,2046,3287
277,277,0,2046,2420
278,278,0,2047,1472
279,279,0,2046,644
280,280,0,2046,111
281,281,0,2046,0
282,282,0,2046,296
283,283,0,2046,974
284,284,0,2046,1877
285,285,0,2047,2815
286,286,0,2046,3588
287,287,0,2046,4033
288,288,0,2046,4056
289,289,0,2046,3652
290,290,0,2046,2907
291,291,0,2047,1977
292,292,0,2047,1060
293,293,0,2046,351
294,294,0,2046,0
295,295,0,2046,78
296,296,0,2046,571
297,297,0,2046,1376
298,298,0,2046,2321
299,299,0,2047,3205
300,300,0,2046,3843
301,301,0,2046,4095
302,302,0,2045,3918
303,303,0,2046,3340
304,304,0,2046,2486
305,305,0,2046,1538
306,306,0,2046,695
307,307,0,2046,137
308,308,0,2046,0
309,309,0,2047,260
310,310,0,2046,916
311,311,0,2047,1810
312,312,0,2047,2751
313,313,0,2047,3542
314,314,0,2046,4014
315,315,0,2047,4070
316,316,0,2046,3694
317,317,0,2046,2968
318,318,0,2046,2045
319,319,0,2046,1121
320,320,0,2046,391
321,321,0,2046,10
322,322,0,2046,58
323,323,0,2047,524
324,324,0,2046,1312
325,325,0,2046,2254
326,326,0,2046,3148
327,327,0,2046,3809
328,328,0,2046,4095
329,329,0,2047,3945
330,330,0,2046,3392
331,331,0,2046,2552
332,332,0,2046,1604
333,333,0,2047,747
334,334,0,2047,164
335,335,0,2046,0
336,336,0,2046,227
337,337,0,2046,860
338,338,0,2046,1743
339,339,0,2046,2687
340,340,0,2046,3495
341,341,0,2046,3994
342,342,0,2046,4080
343,343,0,2047,3733
344,344,0,2047,3028
345,345,0,2046,2113
346,346,0,2046,1183
347,347,0,2046,433
348,348,0,2046,24
349,349,0,2046,39
350,350,0,2046,479
351,351,0,2046,1249
352,352,0,2046,2186
353,353,0,2046,3091
354,354,0,2047,3774
355,355,0,2046,4090
356,356,0,2046,3970
357,357,0,2046,3443
358,358,0,2047,2618
359,359,0,2047,1671
360,360,0,2046,802
361,361,0,2047,193
362,362,0,2046,0
363,363,0,2047,195
364,364,0,2047,805
365,365,0,2046,1675
366,366,0,2046,2622
367,367,0,2047,3446
368,368,0,2046,3971
369,369,0,2046,4088
370,370,0,2047,3772
371,371,0,2047,3087
372,372,0,2046,2180
373,373,0,2047,1246
374,374,0,2046,477
375,375,0,2046,39
376,376,0,2047,25
377,377,0,2047,436
378,378,0,2046,1186
379,379,0,2046,2118
380,380,0,2047,3031
381,381,0,2046,3736
382,382,0,2047,4080
383,383,0,2047,3993
384,384,0,2046,3491
385,385,0,2046,2683
386,386,0,2047,1737
387,387,0,2046,856
388,388,0,2046,225
389,389,0,2046,0
390,390,0,2047,166
391,391,0,2046,751
392,392,0,2046,1608
393,393,0,2046,2557
394,394,0,2046,3396
395,395,0,2047,3946
396,396,0,2046,4095
397,397,0,2046,3808
398,398,0,2046,3145
399,399,0,2046,2249
400,400,0,2047,1308
401,401,0,2046,522
402,402,0,2047,57
403,403,0,2046,10
404,404,0,2046,394
405,405,0,2047,1125
406,406,0,2046,2050
407,407,0,2046,2971
408,408,0,2047,3697
409,409,0,2047,4070
410,410,0,2046,4014
411,411,0,2046,3539
412,412,0,2046,2747
413,413,0,2047,1805
414,414,0,2046,913
415,415,0,2046,258
416,416,0,2046,0
417,417,0,2046,138
418,418,0,2046,698
419,419,0,2046,1541
420,420,0,2047,2491
421,421,0,2047,3343
422,422,0,2047,3921
423,423,0,2046,4095
424,424,0,2046,3841
425,425,0,2046,3201
426,426,0,2047,2316
427,427,0,2047,1372
428,428,0,2046,568
429,429,0,2047,77
430,430,0,2047,0
431,431,0,2046,354
432,432,0,2046,1065
433,433,0,2047,1982
434,434,0,2046,2911
435,435,0,2047,3655
436,436,0,2046,4056
437,437,0,2046,4033
438,438,0,2046,3585
439,439,0,2046,2811
440,440,0,2046,1873
441,441,0,2046,970
442,442,0,2046,294
443,443,0,2046,0
444,444,0,2047,113
445,445,0,2046,648
446,446,0,2046,1476
447,447,0,2047,2424
448,448,0,2047,3290
449,449,0,2047,3891
450,450,0,2046,4095
451,451,0,2046,3873
452,452,0,2047,3257
453,453,0,2046,2383
454,454,0,2047,1437
455,455,0,2046,617
456,456,0,2047,98
457,457,0,2046,0
458,458,0,2046,316
459,459,0,2046,1005
460,460,0,2046,1914
461,461,0,2046,2849
462,462,0,2047,3612
463,463,0,2046,4042
464,464,0,2046,4049
465,465,0,2046,3629
466,466,0,2046,2873
467,467,0,2047,1941
468,468,0,2047,1029
469,469,0,2046,330
470,470,0,2046,0
471,471,0,2047,90
472,472,0,2046,598
473,473,0,2046,1411
474,474,0,2047,2356
475,475,0,2046,3235
476,476,0,2046,3860
477,477,0,2047,4095
478,478,0,2046,3903
479,479,0,2047,3311
480,480,0,2047,2450
481,481,0,2046,1502
482,482,0,2047,668
483,483,0,2046,124
484,484,0,2046,0
485,485,0,2047,279
486,486,0,2047,947
487,487,0,2047,1846
488,488,0,2047,2785
489,489,0,2046,3567
490,490,0,2047,4025
491,491,0,2047,4062
492,492,0,2047,3672
493,493,0,2046,2935
494,494,0,2046,2008
495,495,0,2046,1089
496,496,0,2046,370
497,497,0,2047,4
498,498,0,2046,69
499,499,0,2047,550
500,500,0,2047,1347
501,501,0,2047,2289
502,502,0,2046,3179
503,503,0,2046,3827
504,504,0,2046,4095
505,505,0,2046,3931
506,506,0,2047,3365
507,507,0,2047,2516
508,508,0,2046,1568
509,509,0,2046,719
510,510,0,2046,149
511,511,0,2046,0
512,512,0,2046,245
513,513,0,2047,890
514,514,0,2046,1779
515,515,0,2046,2722
516,516,0,2047,3520
517,517,0,2046,4006
518,518,0,2046,4075
519,519,0,2047,3712
520,520,0,2046,2996
521,521,0,2046,2077
522,522,0,2046,1150
523,523,0,2046,411
524,524,0,2046,16
525,525,0,2046,50
526,526,0,2047,504
527,527,0,2046,1283
528,528,0,2046,2222
529,529,0,2046,3122
530,530,0,2047,3793
531,531,0,2046,4093
532,532,0,2046,3957
533,533,0,2046,3416
534,534,0,2046,2583
535,535,0,2046,1635
536,536,0,2046,772
537,537,0,2046,177
538,538,0,2046,0
539,539,0,2046,212
540,540,0,2046,834
541,541,0,2047,1711
542,542,0,2046,2657
543,543,0,2047,3472
544,544,0,2047,3984
545,545,0,2047,4084
546,546,0,2046,3751
547,547,0,2047,3056
548,548,0,2047,2145
549,549,0,2046,1212
550,550,0,2047,453
551,551,0,2046,31
552,552,0,2047,32
553,553,0,2047,459
554,554,0,2046,1221
555,555,0,2046,2155
556,556,0,2047,3064
557,557,0,2046,3756
558,558,0,2046,4085
559,559,0,2047,3981
560,560,0,2046,3466
561,561,0,2046,2648
562,562,0,2046,1701
563,563,0,2046,827
564,564,0,2047,208
565,565,0,2046,0
566,566,0,2046,181
567,567,0,2046,780
568,568,0,2046,1644
569,569,0,2046,2592
570,570,0,2046,3422
571,571,0,2046,3960
572,572,0,2046,4092
573,573,0,2046,3788
574,574,0,2047,3114
575,575,0,2047,2212
576,576,0,2046,1274
577,577,0,2046,497
578,578,0,2047,46
579,579,0,2046,18
580,580,0,2046,416
581,581,0,2046,1158
582,582,0,2046,2086
583,583,0,2047,3004
584,584,0,2046,3717
585,585,0,2047,4076
586,586,0,2047,4003
587,587,0,2047,3514
588,588,0,2046,2713
589,589,0,2046,1769
590,590,0,2046,882
591,591,0,2046,240
592,592,0,2047,0
593,593,0,2047,153
594,594,0,2046,726
595,595,0,2047,1578
596,596,0,2046,2526
597,597,0,2047,3371
598,598,0,2046,3935
599,599,0,2046,4095
600,600,0,2046,3823
601,601,0,2046,3171
602,602,0,2046,2280
603,603,0,2046,1338
604,604,0,2046,543
605,605,0,2046,65
606,606,0,2047,6
607,607,0,2047,376
608,608,0,2046,1098
609,609,0,2046,2018
610,610,0,2046,2944
611,611,0,2047,3677
612,612,0,2046,4064
613,613,0,2046,4022
614,614,0,2046,3561
615,615,0,2047,2777
616,616,0,2046,1836
617,617,0,2047,939
618,618,0,2046,275
619,619,0,2046,0
620,620,0,2046,126
621,621,0,2046,674
622,622,0,2046,1512
623,623,0,2046,2460
624,624,0,2046,3319
625,625,0,2046,3907
626,626,0,2047,4095
627,627,0,2046,3856
628,628,0,2046,3228
629,629,0,2046,2347
630,630,0,2046,1402
631,631,0,2046,592
632,632,0,2046,86
633,633,0,2046,0
634,634,0,2046,336
635,635,0,2046,1037
636,636,0,2046,1951
637,637,0,2047,2882
638,638,0,2046,3635
639,639,0,2047,4051
640,640,0,2046,4040
641,641,0,2047,3606
642,642,0,2046,2839
643,643,0,2047,1905
644,644,0,2047,997
645,645,0,2046,310
646,646,0,2046,0
647,647,0,2047,103
648,648,0,2046,625
649,649,0,2047,1446
650,650,0,2046,2393
651,651,0,2046,3265
652,652,0,2047,3877
653,653,0,2047,4095
654,654,0,2046,3887
655,655,0,2046,3282
656,656,0,2046,2414
657,657,0,2047,1467
658,658,0,2046,641
659,659,0,2046,110
660,660,0,2046,0
661,661,0,2047,298
662,662,0,2046,978
663,663,0,2046,1883
664,664,0,2046,2819
665,665,0,2046,3591
666,666,0,2047,4035
667,667,0,2046,4056
668,668,0,2046,3649
669,669,0,2046,2901
670,670,0,2046,1972
671,671,0,2046,1056
672,672,0,2047,348
673,673,0,2046,0
674,674,0,2046,79
675,675,0,2047,576
676,676,0,2046,1381
677,677,0,2046,2326
678,678,0,2046,3209
679,679,0,2047,3846
680,680,0,2046,4095
681,681,0,2046,3916
682,682,0,2046,3336
683,683,0,2046,2481
684,684,0,2046,1533
685,685,0,2046,691
686,686,0,2046,134
687,687,0,2047,0
688,688,0,2046,263
689,689,0,2047,921
690,690,0,2047,1815
691,691,0,2046,2756
692,692,0,2046,3546
693,693,0,2046,4016
694,694,0,2046,4068
695,695,0,2046,3691
696,696,0,2046,2963
697,697,0,2047,2040
698,698,0,2046,1116
699,699,0,2047,388
700,700,0,2046,10
701,701,0,2046,59
702,702,0,2046,529
703,703,0,2046,1317
704,704,0,2046,2259
705,705,0,2046,3153
706,706,0,2046,3813
707,707,0,2047,4095
708,708,0,2046,3944
709,709,0,2046,3387
710,710,0,2046,2547
711,711,0,2046,1599
712,712,0,2046,743
713,713,0,2046,162
714,714,0,2047,0
715,715,0,2047,230
716,716,0,2045,864
717,717,0,2046,1747
718,718,0,2047,2692
719,719,0,2046,3498
720,720,0,2046,3996
721,721,0,2047,4079
722,722,0,2046,3730
723,723,0,2047,3023
724,724,0,2047,2108
725,725,0,2046,1177
726,726,0,2046,430
727,727,0,2047,22
728,728,0,2046,42
729,729,0,2046,483
730,730,0,2046,1254
731,731,0,2046,2192
732,732,0,2046,3095
733,733,0,2047,3776
734,734,0,2047,4089
735,735,0,2046,3969
736,736,0,2046,3439
737,737,0,2046,2613
738,738,0,2047,1665
739,739,0,2046,797
740,740,0,2046,191
741,741,0,2047,0
742,742,0,2047,198
743,743,0,2046,809
744,744,0,2046,1681
745,745,0,2046,2627
746,746,0,2046,3449
747,747,0,2046,3973
748,748,0,2046,4087
749,749,0,2046,3769
750,750,0,2046,3083
751,751,0,2046,2176
752,752,0,2047,1240
753,753,0,2047,474
754,754,0,2046,38
755,755,0,2046,25
756,756,0,2046,439
757,757,0,2047,1192
758,758,0,2046,2123
759,759,0,2046,3036
760,760,0,2046,3738
761,761,0,2047,4081
762,762,0,2046,3991
763,763,0,2046,3488
764,764,0,2046,2677
765,765,0,2046,1732
766,766,0,2046,851
767,767,0,2046,222
768,768,0,2046,0
769,769,0,2046,168
770,770,0,2047,754
771,771,0,2046,1614
772,772,0,2046,2562
773,773,0,2047,3400
774,774,0,2047,3949
775,775,0,2046,4094
776,776,0,2046,3804
777,777,0,2046,3141
778,778,0,2046,2243
779,779,0,2046,1303
780,780,0,2047,518
781,781,0,2047,55
782,782,0,2046,12
783,783,0,2047,397
784,784,0,2046,1130
785,785,0,2046,2056
786,786,0,2046,2976
787,787,0,2047,3700
788,788,0,2046,4070
789,789,0,2046,4012
790,790,0,2046,3536
791,791,0,2046,2742
792,792,0,2047,1800
793,793,0,2046,908
794,794,0,2046,255
795,795,0,2047,0
796,796,0,2046,140
797,797,0,2047,702
798,798,0,2046,1547
799,799,0,2046,2496
800,800,0,2046,3348
801,801,0,2047,3922
802,802,0,2046,4095
803,803,0,2046,3838
804,804,0,2046,3197
805,805,0,2047,2310
806,806,0,2047,1368
807,807,0,2046,565
808,808,0,2046,74
809,809,0,2046,0
810,810,0,2047,357
811,811,0,2047,1069
812,812,0,2046,1987
813,813,0,2046,2915
814,814,0,2047,3658
815,815,0,2046,4058
816,816,0,2047,4032
817,817,0,2046,3582
818,818,0,2046,2806
819,819,0,2046,1867
820,820,0,2046,965
821,821,0,2046,291
822,822,0,2046,0
823,823,0,2047,115
824,824,0,2046,651
825,825,0,2046,1481
826,826,0,2046,2429
827,827,0,2046,3294
828,828,0,2046,3893
829,829,0,2047,4095
830,830,0,2046,3870
831,831,0,2046,3253
832,832,0,2046,2378
833,833,0,2047,1432
834,834,0,2047,614
835,835,0,2046,96
836,836,0,2047,0
837,837,0,2047,319
838,838,0,2046,1010
839,839,0,2046,1919
840,840,0,2046,2853
841,841,0,2046,3615
842,842,0,2047,4043
843,843,0,2046,4048
844,844,0,2046,3626
845,845,0,2046,2869
846,846,0,2046,1934
847,847,0,2047,1025
848,848,0,2046,328
849,849,0,2046,0
850,850,0,2046,92
851,851,0,2046,603
852,852,0,2046,1416
853,853,0,2046,2362
854,854,0,2047,3240
855,855,0,2047,3863
856,856,0,2047,4095
857,857,0,2046,3901
858,858,0,2046,3308
859,859,0,2046,2445
860,860,0,2046,1497
861,861,0,2046,663
862,862,0,2046,121
863,863,0,2047,0
864,864,0,2046,282
865,865,0,2047,951
866,866,0,2046,1851
867,867,0,2046,2790
868,868,0,2047,3570
869,869,0,2047,4026
870,870,0,2046,4062
871,871,0,2046,3669
872,872,0,2046,2930
873,873,0,2046,2003
874,874,0,2046,1083
875,875,0,2046,366
876,876,0,2047,3
877,877,0,2046,70
878,878,0,2047,554
879,879,0,2047,1351
880,880,0,2046,2295
881,881,0,2046,3183
882,882,0,2046,3831
883,883,0,2046,4095
884,884,0,2047,3929
885,885,0,2047,3360
886,886,0,2046,2511
887,887,0,2046,1563
888,888,0,2046,715
889,889,0,2046,147
890,890,0,2047,0
891,891,0,2046,247
892,892,0,2047,894
893,893,0,2047,1784
894,894,0,2047,2727
895,895,0,2047,3524
896,896,0,2047,4008
897,897,0,2047,4074
898,898,0,2046,3709
899,899,0,2046,2991
900,900,0,2046,2071
901,901,0,2047,1145
902,902,0,2046,407
903,903,0,2047,15
904,904,0,2047,51
905,905,0,2046,507
906,906,0,2046,1288
907,907,0,2046,2227
908,908,0,2046,3127
909,909,0,2046,3795
910,910,0,2047,4094
911,911,0,2047,3955
912,912,0,2046,3411
913,913,0,2046,2578
914,914,0,2046,1629
915,915,0,2046,768
916,916,0,2046,175
917,917,0,2046,0
918,918,0,2046,214
919,919,0,2046,838
920,920,0,2047,1717
921,921,0,2046,2662
922,922,0,2047,3476
923,923,0,2046,3986
924,924,0,2047,4084
925,925,0,2046,3748
926,926,0,2047,3051
927,927,0,2046,2139
928,928,0,2046,1206
929,929,0,2046,449
930,930,0,2046,29
931,931,0,2046,34
932,932,0,2047,463
933,933,0,2046,1225
934,934,0,2047,2159
935,935,0,2047,3068
936,936,0,2047,3758
937,937,0,2046,4086
938,938,0,2046,3979
939,939,0,2047,3462
940,940,0,2046,2643
941,941,0,2046,1696
942,942,0,2046,822
943,943,0,2046,205
944,944,0,2047,0
945,945,0,2047,184
946,946,0,2047,784
947,947,0,2046,1649
948,948,0,2046,2597
949,949,0,2046,3427
950,950,0,2046,3962
951,951,0,2046,4091
952,952,0,2047,3786
953,953,0,2046,3110
954,954,0,2046,2207
955,955,0,2047,1269
956,956,0,2046,493
957,957,0,2047,45
958,958,0,2046,18
959,959,0,2047,420
960,960,0,2046,1163
961,961,0,2047,2091
962,962,0,2046,3009
963,963,0,2047,3721
964,964,0,2046,4077
965,965,0,2046,4001
966,966,0,2047,3510
967,967,0,2047,2708
968,968,0,2046,1763
969,969,0,2047,878
970,970,0,2047,237
971,971,0,2047,0
972,972,0,2047,155
973,973,0,2046,731
974,974,0,2046,1583
975,975,0,2047,2531
976,976,0,2046,3376
977,977,0,2046,3937
978,978,0,2046,4095
979,979,0,2046,3820
980,980,0,2046,3168
981,981,0,2046,2275
982,982,0,2047,1332
983,983,0,2046,539
984,984,0,2047,64
985,985,0,2047,6
986,986,0,2046,379
987,987,0,2046,1102
988,988,0,2046,2024
989,989,0,2046,2949
990,990,0,2046,3680
991,991,0,2047,4066
992,992,0,2046,4021
993,993,0,2046,3557
994,994,0,2046,2771
995,995,0,2046,1831
996,996,0,2046,934
997,997,0,2046,271
998,998,0,2046,0
999,999,0,2046,128
1000,1000,0,2047,678
1001,1001,0,2047,1517
1002,1002,0,2046,2465
1003,1003,0,2045,3323
1004,1004,0,2046,3910
1005,1005,0,2045,4095
1006,1006,0,2046,3854
1007,1007,0,2047,3223
1008,1008,0,2047,2342
1009,1009,0,2046,1396
1010,1010,0,2046,587
1011,1011,0,2047,85
1012,1012,0,2046,0
1013,1013,0,2046,339
1014,1014,0,2047,1042
1015,1015,0,2047,1956
1016,1016,0,2047,2887
1017,1017,0,2047,3639
1018,1018,0,2047,4052
1019,1019,0,2047,4039
1020,1020,0,2045,3602
1021,1021,0,2047,2835
1022,1022,0,2047,1898
1023,1023,0,2046,992
1024,1024,0,2046,307
1025,1025,0,2046,0
1026,1026,0,2047,104
1027,1027,0,2046,629
1028,1028,0,2046,1452
