Sample in Buffer,Sample in Window,TRIGGER,adc1_data_a_d0[11:0],adc1_data_b_d0[11:0]
0,0,0,2046,2215
1,1,0,2046,2845
2,2,0,2046,3396
3,3,0,2046,3816
4,4,0,2046,4063
5,5,0,2046,4095
6,6,0,2046,3964
7,7,0,2046,3626
8,8,0,2047,3134
9,9,0,2046,2538
10,10,0,2047,1893
11,11,0,2046,1261
12,12,0,2046,705
13,13,0,2046,277
14,14,0,2046,22
15,15,0,2047,0
16,16,0,2047,102
17,17,0,2046,430
18,18,0,2046,914
19,19,0,2047,1508
20,20,0,2047,2152
21,21,0,2046,2786
22,22,0,2047,3347
23,23,0,2047,3782
24,24,0,2046,4047
25,25,0,2046,4095
26,26,0,2047,3987
27,27,0,2046,3666
28,28,0,2046,3188
29,29,0,2047,2598
30,30,0,2046,1955
31,31,0,2046,1320
32,32,0,2046,754
33,33,0,2046,313
34,34,0,2046,39
35,35,0,2046,0
36,36,0,2047,80
37,37,0,2046,391
38,38,0,2046,862
39,39,0,2046,1447
40,40,0,2046,2090
41,41,0,2046,2728
42,42,0,2046,3298
43,43,0,2046,3747
44,44,0,2046,4031
45,45,0,2046,4095
46,46,0,2046,4008
47,47,0,2046,3705
48,48,0,2046,3240
49,49,0,2046,2660
50,50,0,2046,2017
51,51,0,2046,1379
52,52,0,2046,804
53,53,0,2046,349
54,54,0,2046,57
55,55,0,2046,0
56,56,0,2046,59
57,57,0,2046,354
58,58,0,2046,811
59,59,0,2047,1387
60,60,0,2047,2026
61,61,0,2046,2667
62,62,0,2047,3247
63,63,0,2047,3710
64,64,0,2046,4011
65,65,0,2046,4095
66,66,0,2047,4027
67,67,0,2046,3742
68,68,0,2045,3291
69,69,0,2047,2719
70,70,0,2046,2081
71,71,0,2047,1439
72,72,0,2046,856
73,73,0,2046,386
74,74,0,2046,76
75,75,0,2046,0
76,76,0,2046,41
77,77,0,2046,318
78,78,0,2047,761
79,79,0,2046,1328
80,80,0,2046,1964
81,81,0,2046,2608
82,82,0,2046,3196
83,83,0,2047,3671
84,84,0,2047,3989
85,85,0,2047,4095
86,86,0,2047,4045
87,87,0,2046,3777
88,88,0,2046,3340
89,89,0,2047,2778
90,90,0,2046,2144
91,91,0,2046,1499
92,92,0,2046,908
93,93,0,2047,425
94,94,0,2047,99
95,95,0,2046,0
96,96,0,2046,23
97,97,0,2047,282
98,98,0,2046,712
99,99,0,2047,1269
100,100,0,2046,1901
101,101,0,2046,2546
102,102,0,2046,3143
103,103,0,2046,3632
104,104,0,2046,3967
105,105,0,2046,4095
106,106,0,2046,4061
107,107,0,2046,3811
108,108,0,2046,3389
109,109,0,2047,2836
110,110,0,2046,2207
111,111,0,2046,1560
112,112,0,2046,960
113,113,0,2046,465
114,114,0,2046,122
115,115,0,2047,0
116,116,0,2047,9
117,117,0,2047,250
118,118,0,2046,664
119,119,0,2046,1212
120,120,0,2046,1839
121,121,0,2046,2486
122,122,0,2047,3089
123,123,0,2046,3591
124,124,0,2047,3942
125,125,0,2046,4095
126,126,0,2046,4074
127,127,0,2046,3843
128,128,0,2047,3436
129,129,0,2047,2894
130,130,0,2047,2269
131,131,0,2046,1622
132,132,0,2047,1015
133,133,0,2046,507
134,134,0,2046,148
135,135,0,2047,0
136,136,0,2047,0
137,137,0,2046,218
138,138,0,2047,618
139,139,0,2046,1154
140,140,0,2047,1777
141,141,0,2047,2424
142,142,0,2046,3034
143,143,0,2047,3548
144,144,0,2047,3916
145,145,0,2047,4095
146,146,0,2047,4087
147,147,0,2046,3873
148,148,0,2047,3482
149,149,0,2046,2950
150,150,0,2046,2331
151,151,0,2046,1683
152,152,0,2047,1070
153,153,0,2046,551
154,154,0,2047,174
155,155,0,2047,0
156,156,0,2047,0
157,157,0,2046,189
158,158,0,2046,573
159,159,0,2047,1097
160,160,0,2046,1714
161,161,0,2047,2362
162,162,0,2046,2979
163,163,0,2047,3505
164,164,0,2046,3889
165,165,0,2047,4092
166,166,0,2047,4095
167,167,0,2047,3903
168,168,0,2046,3526
169,169,0,2046,3007
170,170,0,2047,2393
171,171,0,2047,1745
172,172,0,2046,1125
173,173,0,2046,594
174,174,0,2046,204
175,175,0,2046,0
176,176,0,2046,0
177,177,0,2046,160
178,178,0,2047,529
179,179,0,2046,1042
180,180,0,2046,1651
181,181,0,2046,2300
182,182,0,2046,2922
183,183,0,2046,3459
184,184,0,2047,3858
185,185,0,2046,4081
186,186,0,2046,4095
187,187,0,2046,3929
188,188,0,2047,3569
189,189,0,2046,3062
190,190,0,2046,2455
191,191,0,2047,1808
192,192,0,2046,1183
193,193,0,2046,641
194,194,0,2047,234
195,195,0,2046,2
196,196,0,2047,0
197,197,0,2046,135
198,198,0,2047,486
199,199,0,2046,987
200,200,0,2046,1591
201,201,0,2047,2238
202,202,0,2047,2866
203,203,0,2046,3412
204,204,0,2047,3827
205,205,0,2046,4068
206,206,0,2047,4095
207,207,0,2046,3955
208,208,0,2047,3612
209,209,0,2046,3116
210,210,0,2046,2516
211,211,0,2046,1870
212,212,0,2046,1240
213,213,0,2047,688
214,214,0,2047,267
215,215,0,2046,16
216,216,0,2047,0
217,217,0,2046,111
218,218,0,2046,444
219,219,0,2047,933
220,220,0,2047,1530
221,221,0,2045,2175
222,222,0,2047,2807
223,223,0,2046,3365
224,224,0,2047,3793
225,225,0,2046,4053
226,226,0,2047,4095
227,227,0,2046,3979
228,228,0,2047,3652
229,229,0,2046,3169
230,230,0,2047,2577
231,231,0,2047,1933
232,232,0,2046,1299
233,233,0,2047,736
234,234,0,2046,300
235,235,0,2046,32
236,236,0,2046,0
237,237,0,2046,87
238,238,0,2046,405
239,239,0,2046,881
240,240,0,2047,1469
241,241,0,2046,2112
242,242,0,2046,2749
243,243,0,2047,3315
244,244,0,2046,3760
245,245,0,2046,4036
246,246,0,2046,4095
247,247,0,2046,4000
248,248,0,2046,3691
249,249,0,2046,3221
250,250,0,2047,2637
251,251,0,2047,1996
252,252,0,2047,1358
253,253,0,2047,786
254,254,0,2047,335
255,255,0,2046,50
256,256,0,2046,0
257,257,0,2047,67
258,258,0,2046,367
259,259,0,2047,829
260,260,0,2047,1409
261,261,0,2046,2049
262,262,0,2047,2689
263,263,0,2047,3266
264,264,0,2046,3723
265,265,0,2047,4018
266,266,0,2047,4095
267,267,0,2046,4021
268,268,0,2047,3728
269,269,0,2046,3272
270,270,0,2046,2697
271,271,0,2046,2058
272,272,0,2046,1417
273,273,0,2046,837
274,274,0,2046,372
275,275,0,2047,69
276,276,0,2046,0
277,277,0,2047,47
278,278,0,2047,330
279,279,0,2046,778
280,280,0,2046,1349
281,281,0,2046,1986
282,282,0,2047,2630
283,283,0,2047,3214
284,284,0,2047,3685
285,285,0,2046,3997
286,286,0,2046,4095
287,287,0,2046,4039
288,288,0,2046,3765
289,289,0,2047,3322
290,290,0,2047,2756
291,291,0,2046,2121
292,292,0,2046,1478
293,293,0,2046,888
294,294,0,2046,410
295,295,0,2046,91
296,296,0,2046,0
297,297,0,2046,30
298,298,0,2046,295
299,299,0,2046,728
300,300,0,2046,1290
301,301,0,2047,1924
302,302,0,2046,2569
303,303,0,2047,3162
304,304,0,2047,3646
305,305,0,2046,3976
306,306,0,2046,4095
307,307,0,2047,4055
308,308,0,2046,3799
309,309,0,2047,3371
310,310,0,2046,2815
311,311,0,2046,2184
312,312,0,2047,1538
313,313,0,2046,942
314,314,0,2046,450
315,315,0,2046,114
316,316,0,2046,0
317,317,0,2047,14
318,318,0,2047,262
319,319,0,2046,682
320,320,0,2046,1231
321,321,0,2047,1862
322,322,0,2047,2508
323,323,0,2047,3109
324,324,0,2046,3606
325,325,0,2046,3952
326,326,0,2046,4095
327,327,0,2046,4070
328,328,0,2046,3831
329,329,0,2047,3419
330,330,0,2047,2873
331,331,0,2046,2247
332,332,0,2047,1600
333,333,0,2047,995
334,334,0,2046,491
335,335,0,2047,138
336,336,0,2046,0
337,337,0,2046,1
338,338,0,2047,230
339,339,0,2046,634
340,340,0,2047,1174
341,341,0,2046,1799
342,342,0,2047,2446
343,343,0,2046,3055
344,344,0,2046,3564
345,345,0,2046,3926
346,346,0,2046,4095
347,347,0,2046,4083
348,348,0,2047,3862
349,349,0,2046,3465
350,350,0,2047,2931
351,351,0,2046,2309
352,352,0,2047,1662
353,353,0,2047,1050
354,354,0,2046,534
355,355,0,2046,165
356,356,0,2046,0
357,357,0,2046,0
358,358,0,2047,199
359,359,0,2046,588
360,360,0,2046,1118
361,361,0,2046,1736
362,362,0,2047,2384
363,363,0,2046,2998
364,364,0,2047,3521
365,365,0,2047,3899
366,366,0,2046,4095
367,367,0,2047,4093
368,368,0,2046,3892
369,369,0,2046,3510
370,370,0,2046,2986
371,371,0,2046,2371
372,372,0,2046,1723
373,373,0,2047,1105
374,374,0,2046,578
375,375,0,2046,192
376,376,0,2046,0
377,377,0,2046,0
378,378,0,2046,170
379,379,0,2047,544
380,380,0,2045,1061
381,381,0,2046,1674
382,382,0,2046,2323
383,383,0,2046,2943
384,384,0,2047,3476
385,385,0,2047,3870
386,386,0,2047,4085
387,387,0,2047,4095
388,388,0,2046,3919
389,389,0,2047,3554
390,390,0,2046,3042
391,391,0,2046,2433
392,392,0,2046,1785
393,393,0,2047,1162
394,394,0,2047,624
395,395,0,2046,223
396,396,0,2046,0
397,397,0,2046,0
398,398,0,2047,144
399,399,0,2046,501
400,400,0,2046,1007
401,401,0,2046,1612
402,402,0,2047,2260
403,403,0,2047,2886
404,404,0,2047,3429
405,405,0,2046,3839
406,406,0,2047,4073
407,407,0,2047,4095
408,408,0,2046,3946
409,409,0,2047,3596
410,410,0,2046,3097
411,411,0,2046,2494
412,412,0,2046,1847
413,413,0,2047,1219
414,414,0,2047,671
415,415,0,2047,255
416,416,0,2047,11
417,417,0,2047,0
418,418,0,2047,118
419,419,0,2047,459
420,420,0,2046,952
421,421,0,2046,1552
422,422,0,2046,2198
423,423,0,2046,2829
424,424,0,2047,3383
425,425,0,2046,3806
426,426,0,2046,4059
427,427,0,2046,4095
428,428,0,2047,3970
429,429,0,2046,3638
430,430,0,2046,3150
431,431,0,2047,2556
432,432,0,2047,1911
433,433,0,2046,1278
434,434,0,2047,718
435,435,0,2045,288
436,436,0,2047,26
437,437,0,2047,0
438,438,0,2046,95
439,439,0,2046,420
440,440,0,2046,900
441,441,0,2046,1491
442,442,0,2046,2135
443,443,0,2046,2769
444,444,0,2046,3334
445,445,0,2046,3772
446,446,0,2046,4043
447,447,0,2047,4095
448,448,0,2047,3993
449,449,0,2046,3677
450,450,0,2047,3202
451,451,0,2046,2616
452,452,0,2046,1973
453,453,0,2046,1337
454,454,0,2046,768
455,455,0,2046,322
456,456,0,2046,43
457,457,0,2046,0
458,458,0,2047,73
459,459,0,2046,380
460,460,0,2046,848
461,461,0,2046,1430
462,462,0,2047,2072
463,463,0,2046,2711
464,464,0,2046,3285
465,465,0,2046,3736
466,466,0,2046,4025
467,467,0,2046,4095
468,468,0,2046,4014
469,469,0,2046,3715
470,470,0,2046,3255
471,471,0,2046,2676
472,472,0,2046,2036
473,473,0,2046,1396
474,474,0,2046,818
475,475,0,2046,359
476,476,0,2047,62
477,477,0,2046,0
478,478,0,2047,54
479,479,0,2047,343
480,480,0,2046,797
481,481,0,2046,1370
482,482,0,2046,2009
483,483,0,2046,2651
484,484,0,2047,3233
485,485,0,2046,3700
486,486,0,2046,4004
487,487,0,2046,4095
488,488,0,2046,4032
489,489,0,2046,3752
490,490,0,2047,3304
491,491,0,2046,2735
492,492,0,2047,2098
493,493,0,2046,1455
494,494,0,2046,870
495,495,0,2046,396
496,496,0,2047,83
497,497,0,2046,0
498,498,0,2046,36
499,499,0,2047,308
500,500,0,2047,747
501,501,0,2047,1311
502,502,0,2047,1947
503,503,0,2046,2591
504,504,0,2046,3181
505,505,0,2047,3661
506,506,0,2046,3984
507,507,0,2047,4095
508,508,0,2046,4050
509,509,0,2046,3786
510,510,0,2046,3354
511,511,0,2046,2794
512,512,0,2046,2162
513,513,0,2047,1516
514,514,0,2046,922
515,515,0,2046,437
516,516,0,2046,106
517,517,0,2047,0
518,518,0,2047,19
519,519,0,2046,273
520,520,0,2047,698
521,521,0,2046,1253
522,522,0,2046,1884
523,523,0,2047,2529
524,524,0,2046,3128
525,525,0,2046,3621
526,526,0,2046,3960
527,527,0,2047,4095
528,528,0,2046,4064
529,529,0,2046,3820
530,530,0,2046,3401
531,531,0,2047,2852
532,532,0,2047,2224
533,533,0,2046,1578
534,534,0,2047,976
535,535,0,2046,477
536,536,0,2046,129
537,537,0,2046,0
538,538,0,2046,5
539,539,0,2046,240
540,540,0,2046,650
541,541,0,2046,1196
542,542,0,2047,1821
543,543,0,2046,2468
544,544,0,2046,3073
545,545,0,2046,3580
546,546,0,2046,3936
547,547,0,2046,4095
548,548,0,2046,4078
549,549,0,2046,3852
550,550,0,2047,3449
551,551,0,2046,2909
552,552,0,2046,2286
553,553,0,2046,1638
554,554,0,2046,1030
555,555,0,2047,519
556,556,0,2047,155
557,557,0,2047,0
558,558,0,2046,0
559,559,0,2047,209
560,560,0,2046,604
561,561,0,2046,1138
562,562,0,2047,1758
563,563,0,2047,2407
564,564,0,2047,3019
565,565,0,2046,3536
566,566,0,2047,3908
567,567,0,2046,4095
568,568,0,2046,4089
569,569,0,2046,3881
570,570,0,2046,3494
571,571,0,2047,2966
572,572,0,2047,2349
573,573,0,2046,1700
574,574,0,2046,1085
575,575,0,2047,562
576,576,0,2047,183
577,577,0,2047,0
578,578,0,2047,0
579,579,0,2047,180
580,580,0,2046,560
581,581,0,2046,1081
582,582,0,2047,1696
583,583,0,2047,2345
584,584,0,2046,2963
585,585,0,2046,3492
586,586,0,2047,3880
587,587,0,2047,4090
588,588,0,2046,4095
589,589,0,2047,3910
590,590,0,2046,3538
591,591,0,2045,3022
592,592,0,2047,2410
593,593,0,2047,1763
594,594,0,2046,1141
595,595,0,2046,608
596,596,0,2046,212
597,597,0,2046,0
598,598,0,2046,0
599,599,0,2046,153
600,600,0,2046,516
601,601,0,2046,1027
602,602,0,2046,1634
603,603,0,2045,2283
604,604,0,2047,2906
605,605,0,2046,3446
606,606,0,2046,3850
607,607,0,2046,4077
608,608,0,2045,4095
609,609,0,2046,3936
610,610,0,2047,3581
611,611,0,2046,3077
612,612,0,2047,2472
613,613,0,2047,1825
614,614,0,2046,1199
615,615,0,2047,654
616,616,0,2046,243
617,617,0,2047,6
618,618,0,2047,0
619,619,0,2046,127
620,620,0,2047,475
621,621,0,2046,972
622,622,0,2046,1573
623,623,0,2046,2219
624,624,0,2046,2849
625,625,0,2046,3400
626,626,0,2046,3818
627,627,0,2046,4064
628,628,0,2047,4095
629,629,0,2046,3961
630,630,0,2046,3623
631,631,0,2046,3132
632,632,0,2047,2533
633,633,0,2046,1888
634,634,0,2046,1257
635,635,0,2046,701
636,636,0,2046,276
637,637,0,2046,20
638,638,0,2046,0
639,639,0,2047,104
640,640,0,2046,433
641,641,0,2046,918
642,642,0,2047,1512
643,643,0,2047,2157
644,644,0,2046,2791
645,645,0,2047,3351
646,646,0,2046,3784
647,647,0,2046,4049
648,648,0,2046,4095
649,649,0,2046,3985
650,650,0,2046,3663
651,651,0,2046,3183
652,652,0,2048,2594
653,653,0,2046,1951
654,654,0,2047,1315
655,655,0,2046,750
656,656,0,2046,309
657,657,0,2046,37
658,658,0,2046,0
659,659,0,2046,81
660,660,0,2046,394
661,661,0,2046,866
662,662,0,2047,1453
663,663,0,2047,2095
664,664,0,2046,2731
665,665,0,2047,3303
666,666,0,2046,3750
667,667,0,2046,4032
668,668,0,2046,4095
669,669,0,2046,4006
670,670,0,2046,3701
671,671,0,2046,3236
672,672,0,2046,2654
673,673,0,2046,2013
674,674,0,2047,1374
675,675,0,2047,800
676,676,0,2046,346
677,677,0,2046,56
678,678,0,2046,0
679,679,0,2046,61
680,680,0,2046,356
681,681,0,2046,815
682,682,0,2047,1392
683,683,0,2046,2032
684,684,0,2047,2672
685,685,0,2046,3251
686,686,0,2047,3712
687,687,0,2046,4012
688,688,0,2047,4095
689,689,0,2047,4026
690,690,0,2047,3739
691,691,0,2046,3286
692,692,0,2047,2714
693,693,0,2046,2076
694,694,0,2046,1434
695,695,0,2046,851
696,696,0,2046,382
697,697,0,2046,76
698,698,0,2046,0
699,699,0,2046,42
700,700,0,2046,320
701,701,0,2046,765
702,702,0,2046,1332
703,703,0,2046,1968
704,704,0,2046,2612
705,705,0,2047,3200
706,706,0,2046,3675
707,707,0,2046,3992
708,708,0,2047,4095
709,709,0,2047,4043
710,710,0,2047,3774
711,711,0,2047,3337
712,712,0,2047,2773
713,713,0,2047,2139
714,714,0,2046,1495
715,715,0,2046,903
716,716,0,2047,422
717,717,0,2046,97
718,718,0,2046,0
719,719,0,2046,25
720,720,0,2047,285
721,721,0,2046,716
722,722,0,2047,1274
723,723,0,2046,1907
724,724,0,2046,2551
725,725,0,2046,3148
726,726,0,2046,3635
727,727,0,2046,3969
728,728,0,2047,4095
729,729,0,2046,4059
730,730,0,2047,3808
731,731,0,2046,3385
732,732,0,2047,2832
733,733,0,2046,2202
734,734,0,2047,1556
735,735,0,2046,956
736,736,0,2046,462
737,737,0,2046,120
738,738,0,2046,0
739,739,0,2046,10
740,740,0,2046,252
741,741,0,2046,668
742,742,0,2046,1216
743,743,0,2046,1843
744,744,0,2047,2490
745,745,0,2046,3094
746,746,0,2047,3594
747,747,0,2047,3944
748,748,0,2046,4095
749,749,0,2047,4074
750,750,0,2046,3841
751,751,0,2046,3432
752,752,0,2046,2889
753,753,0,2046,2264
754,754,0,2046,1617
755,755,0,2046,1010
756,756,0,2046,504
757,757,0,2047,146
758,758,0,2047,0
759,759,0,2046,0
760,760,0,2046,221
761,761,0,2047,621
762,762,0,2047,1159
763,763,0,2046,1782
764,764,0,2047,2429
765,765,0,2046,3038
766,766,0,2046,3552
767,767,0,2046,3918
768,768,0,2046,4095
769,769,0,2047,4086
770,770,0,2046,3871
771,771,0,2046,3479
772,772,0,2047,2946
773,773,0,2046,2326
774,774,0,2046,1678
775,775,0,2046,1065
776,776,0,2046,546
777,777,0,2046,173
778,778,0,2046,0
779,779,0,2047,0
780,780,0,2046,190
781,781,0,2047,575
782,782,0,2046,1102
783,783,0,2046,1719
784,784,0,2046,2367
785,785,0,2046,2983
786,786,0,2047,3508
787,787,0,2046,3890
788,788,0,2046,4092
789,789,0,2047,4095
790,790,0,2047,3899
791,791,0,2046,3523
792,792,0,2047,3003
793,793,0,2047,2388
794,794,0,2047,1741
795,795,0,2046,1122
796,796,0,2046,591
797,797,0,2047,201
798,798,0,2045,0
799,799,0,2047,0
800,800,0,2046,162
801,801,0,2047,531
802,802,0,2047,1046
803,803,0,2046,1657
804,804,0,2047,2305
805,805,0,2046,2927
806,806,0,2046,3463
807,807,0,2046,3861
808,808,0,2047,4082
809,809,0,2046,4095
810,810,0,2046,3928
811,811,0,2046,3567
812,812,0,2047,3057
813,813,0,2046,2450
814,814,0,2046,1803
815,815,0,2047,1178
816,816,0,2046,638
817,817,0,2046,232
818,818,0,2046,1
819,819,0,2046,0
820,820,0,2046,136
821,821,0,2047,489
822,822,0,2046,991
823,823,0,2047,1595
824,824,0,2046,2242
825,825,0,2047,2870
826,826,0,2047,3417
827,827,0,2047,3830
828,828,0,2046,4069
829,829,0,2046,4095
830,830,0,2046,3953
831,831,0,2046,3609
832,832,0,2046,3112
833,833,0,2046,2511
834,834,0,2047,1865
835,835,0,2047,1235
836,836,0,2046,684
837,837,0,2046,264
838,838,0,2047,15
839,839,0,2046,0
840,840,0,2046,112
841,841,0,2047,447
842,842,0,2046,937
843,843,0,2046,1534
844,844,0,2046,2180
845,845,0,2047,2812
846,846,0,2046,3369
847,847,0,2046,3796
848,848,0,2046,4055
849,849,0,2046,4095
850,850,0,2046,3977
851,851,0,2046,3649
852,852,0,2047,3165
853,853,0,2047,2572
854,854,0,2046,1928
855,855,0,2047,1294
856,856,0,2046,733
857,857,0,2046,298
858,858,0,2046,31
859,859,0,2047,0
860,860,0,2046,89
861,861,0,2047,408
862,862,0,2046,885
863,863,0,2046,1474
864,864,0,2046,2117
865,865,0,2046,2753
866,866,0,2047,3320
867,867,0,2047,3762
868,868,0,2046,4038
869,869,0,2046,4095
870,870,0,2046,3999
871,871,0,2046,3688
872,872,0,2047,3218
873,873,0,2047,2633
874,874,0,2046,1991
875,875,0,2046,1354
876,876,0,2046,782
877,877,0,2045,333
878,878,0,2046,48
879,879,0,2046,0
880,880,0,2046,67
881,881,0,2047,370
882,882,0,2046,833
883,883,0,2047,1413
884,884,0,2047,2055
885,885,0,2046,2694
886,886,0,2046,3270
887,887,0,2046,3726
888,888,0,2047,4019
889,889,0,2046,4095
890,890,0,2046,4019
891,891,0,2046,3726
892,892,0,2046,3269
893,893,0,2047,2693
894,894,0,2047,2054
895,895,0,2046,1412
896,896,0,2047,832
897,897,0,2046,369
898,898,0,2047,68
899,899,0,2047,0
900,900,0,2046,48
901,901,0,2046,333
902,902,0,2046,783
903,903,0,2046,1354
904,904,0,2047,1992
905,905,0,2047,2634
906,906,0,2047,3219
907,907,0,2046,3689
908,908,0,2046,3999
909,909,0,2046,4095
910,910,0,2046,4037
911,911,0,2046,3762
912,912,0,2047,3319
913,913,0,2046,2753
914,914,0,2046,2116
915,915,0,2047,1473
916,916,0,2046,884
917,917,0,2046,408
918,918,0,2046,89
919,919,0,2046,0
920,920,0,2046,31
921,921,0,2046,298
922,922,0,2047,733
923,923,0,2046,1295
924,924,0,2047,1929
925,925,0,2046,2574
926,926,0,2046,3166
927,927,0,2046,3650
928,928,0,2046,3977
929,929,0,2046,4095
930,930,0,2047,4054
931,931,0,2046,3797
932,932,0,2046,3368
933,933,0,2046,2811
934,934,0,2046,2179
935,935,0,2046,1534
936,936,0,2046,938
937,937,0,2046,447
938,938,0,2046,112
939,939,0,2046,0
940,940,0,2046,16
941,941,0,2046,263
942,942,0,2047,685
943,943,0,2046,1236
944,944,0,2047,1866
945,945,0,2046,2513
946,946,0,2046,3113
947,947,0,2046,3609
948,948,0,2046,3954
949,949,0,2047,4095
950,950,0,2047,4069
951,951,0,2046,3829
952,952,0,2046,3415
953,953,0,2046,2869
954,954,0,2047,2241
955,955,0,2046,1594
956,956,0,2046,991
957,957,0,2047,488
958,958,0,2047,137
959,959,0,2047,0
960,960,0,2046,1
961,961,0,2046,232
962,962,0,2046,638
963,963,0,2046,1179
964,964,0,2047,1804
965,965,0,2046,2451
966,966,0,2046,3059
967,967,0,2046,3567
968,968,0,2046,3927
969,969,0,2046,4095
970,970,0,2046,4082
971,971,0,2046,3861
972,972,0,2046,3462
973,973,0,2046,2926
974,974,0,2047,2304
975,975,0,2046,1656
976,976,0,2046,1046
977,977,0,2046,530
978,978,0,2046,162
979,979,0,2046,0
980,980,0,2046,0
981,981,0,2045,201
982,982,0,2046,592
983,983,0,2046,1122
984,984,0,2046,1741
985,985,0,2046,2389
986,986,0,2047,3003
987,987,0,2046,3524
988,988,0,2046,3901
989,989,0,2046,4095
990,990,0,2047,4093
991,991,0,2046,3890
992,992,0,2046,3507
993,993,0,2046,2982
994,994,0,2046,2367
995,995,0,2046,1718
996,996,0,2047,1101
997,997,0,2046,575
998,998,0,2047,191
999,999,0,2046,0
1000,1000,0,2047,0
1001,1001,0,2047,173
1002,1002,0,2046,547
1003,1003,0,2046,1066
1004,1004,0,2046,1679
1005,1005,0,2046,2327
1006,1006,0,2046,2947
1007,1007,0,2046,3479
1008,1008,0,2046,3872
1009,1009,0,2046,4086
1010,1010,0,2047,4095
1011,1011,0,2047,3918
1012,1012,0,2046,3551
1013,1013,0,2046,3038
1014,1014,0,2046,2428
1015,1015,0,2047,1781
1016,1016,0,2047,1158
1017,1017,0,2046,621
1018,1018,0,2046,221
1019,1019,0,2046,0
1020,1020,0,2046,0
1021,1021,0,2046,146
1022,1022,0,2047,504
1023,1023,0,2046,1011
1024,1024,0,2046,1617
1025,1025,0,2047,2264
1026,1026,0,2046,2890
1027,1027,0,2046,3433
1028,1028,0,2045,3841
1029,1029,0,2046,4074
