Sample in Buffer,Sample in Window,TRIGGER,adc1_data_a_d0[11:0],adc1_data_b_d0[11:0]
0,0,0,2046,893
1,1,0,2046,514
2,2,0,2046,220
3,3,0,2047,29
4,4,0,2046,0
5,5,0,2047,0
6,6,0,2047,151
7,7,0,2047,416
8,8,0,2046,773
9,9,0,2047,1201
10,10,0,2047,1678
11,11,0,2046,2175
12,12,0,2046,2663
13,13,0,2046,3117
14,14,0,2046,3509
15,15,0,2047,3819
16,16,0,2047,4027
17,17,0,2047,4095
18,18,0,2046,4095
19,19,0,2046,3958
20,20,0,2046,3709
21,21,0,2046,3366
22,22,0,2047,2947
23,23,0,2046,2475
24,24,0,2046,1981
25,25,0,2046,1489
26,26,0,2046,1028
27,27,0,2046,625
28,28,0,2046,302
29,29,0,2047,77
30,30,0,2047,0
31,31,0,2047,0
32,32,0,2046,89
33,33,0,2047,322
34,34,0,2046,652
35,35,0,2046,1061
36,36,0,2046,1525
37,37,0,2046,2017
38,38,0,2046,2511
39,39,0,2047,2980
40,40,0,2046,3394
41,41,0,2046,3731
42,42,0,2046,3973
43,43,0,2046,4095
44,44,0,2047,4095
45,45,0,2046,4016
46,46,0,2047,3800
47,47,0,2047,3483
48,48,0,2046,3086
49,49,0,2046,2629
50,50,0,2046,2139
51,51,0,2046,1643
52,52,0,2046,1169
53,53,0,2047,744
54,54,0,2046,393
55,55,0,2046,135
56,56,0,2047,0
57,57,0,2046,0
58,58,0,2047,38
59,59,0,2047,237
60,60,0,2047,539
61,61,0,2046,924
62,62,0,2047,1373
63,63,0,2047,1860
64,64,0,2046,2357
65,65,0,2047,2836
66,66,0,2047,3270
67,67,0,2046,3635
68,68,0,2046,3908
69,69,0,2046,4076
70,70,0,2047,4095
71,71,0,2046,4060
72,72,0,2047,3879
73,73,0,2046,3593
74,74,0,2046,3219
75,75,0,2047,2779
76,76,0,2046,2295
77,77,0,2046,1798
78,78,0,2047,1314
79,79,0,2047,871
80,80,0,2046,496
81,81,0,2047,206
82,82,0,2047,22
83,83,0,2047,0
84,84,0,2046,0
85,85,0,2047,163
86,86,0,2047,433
87,87,0,2046,794
88,88,0,2046,1226
89,89,0,2047,1704
90,90,0,2047,2201
91,91,0,2046,2689
92,92,0,2047,3140
93,93,0,2046,3528
94,94,0,2046,3832
95,95,0,2046,4035
96,96,0,2046,4095
97,97,0,2047,4094
98,98,0,2046,3948
99,99,0,2046,3694
100,100,0,2046,3346
101,101,0,2046,2923
102,102,0,2046,2451
103,103,0,2046,1955
104,104,0,2046,1464
105,105,0,2046,1006
106,106,0,2046,606
107,107,0,2046,287
108,108,0,2046,68
109,109,0,2046,0
110,110,0,2046,0
111,111,0,2047,99
112,112,0,2047,336
113,113,0,2047,672
114,114,0,2047,1084
115,115,0,2047,1550
116,116,0,2047,2044
117,117,0,2047,2538
118,118,0,2047,3003
119,119,0,2046,3414
120,120,0,2047,3747
121,121,0,2046,3983
122,122,0,2046,4095
123,123,0,2046,4095
124,124,0,2046,4006
125,125,0,2047,3784
126,126,0,2046,3464
127,127,0,2046,3063
128,128,0,2046,2603
129,129,0,2047,2112
130,130,0,2046,1617
131,131,0,2046,1145
132,132,0,2047,724
133,133,0,2046,378
134,134,0,2046,125
135,135,0,2046,0
136,136,0,2046,0
137,137,0,2047,45
138,138,0,2046,250
139,139,0,2046,556
140,140,0,2047,945
141,141,0,2046,1397
142,142,0,2046,1886
143,143,0,2046,2383
144,144,0,2046,2860
145,145,0,2046,3290
146,146,0,2046,3651
147,147,0,2046,3919
148,148,0,2046,4081
149,149,0,2046,4095
150,150,0,2047,4053
151,151,0,2047,3867
152,152,0,2047,3575
153,153,0,2047,3197
154,154,0,2047,2754
155,155,0,2046,2270
156,156,0,2047,1773
157,157,0,2046,1290
158,158,0,2046,850
159,159,0,2046,477
160,160,0,2046,194
161,161,0,2046,15
162,162,0,2047,0
163,163,0,2047,3
164,164,0,2047,174
165,165,0,2046,450
166,166,0,2047,815
167,167,0,2047,1250
168,168,0,2046,1729
169,169,0,2046,2227
170,170,0,2047,2714
171,171,0,2047,3162
172,172,0,2046,3546
173,173,0,2046,3845
174,174,0,2046,4042
175,175,0,2047,4095
176,176,0,2046,4090
177,177,0,2046,3937
178,178,0,2047,3679
179,179,0,2046,3326
180,180,0,2046,2899
181,181,0,2046,2425
182,182,0,2046,1929
183,183,0,2046,1439
184,184,0,2047,983
185,185,0,2046,587
186,186,0,2046,273
187,187,0,2046,60
188,188,0,2047,0
189,189,0,2046,0
190,190,0,2047,109
191,191,0,2046,352
192,192,0,2046,691
193,193,0,2046,1107
194,194,0,2046,1575
195,195,0,2046,2069
196,196,0,2046,2562
197,197,0,2046,3026
198,198,0,2046,3433
199,199,0,2046,3762
200,200,0,2047,3992
201,201,0,2046,4095
202,202,0,2047,4095
203,203,0,2046,3998
204,204,0,2046,3771
205,205,0,2046,3445
206,206,0,2047,3041
207,207,0,2047,2579
208,208,0,2047,2086
209,209,0,2046,1591
210,210,0,2046,1122
211,211,0,2047,704
212,212,0,2046,362
213,213,0,2046,115
214,214,0,2046,0
215,215,0,2046,0
216,216,0,2046,54
217,217,0,2047,264
218,218,0,2047,574
219,219,0,2046,969
220,220,0,2047,1423
221,221,0,2047,1912
222,222,0,2046,2409
223,223,0,2047,2885
224,224,0,2046,3311
225,225,0,2046,3668
226,226,0,2046,3930
227,227,0,2045,4086
228,228,0,2046,4095
229,229,0,2046,4047
230,230,0,2047,3854
231,231,0,2046,3558
232,232,0,2047,3176
233,233,0,2046,2730
234,234,0,2047,2244
235,235,0,2046,1746
236,236,0,2047,1265
237,237,0,2046,829
238,238,0,2046,461
239,239,0,2046,182
240,240,0,2046,9
241,241,0,2046,0
242,242,0,2047,10
243,243,0,2046,186
244,244,0,2046,467
245,245,0,2046,836
246,246,0,2046,1274
247,247,0,2046,1755
248,248,0,2046,2252
249,249,0,2046,2738
250,250,0,2046,3183
251,251,0,2046,3564
252,252,0,2046,3859
253,253,0,2046,4049
254,254,0,2046,4095
255,255,0,2046,4085
256,256,0,2047,3927
257,257,0,2046,3661
258,258,0,2047,3305
259,259,0,2047,2875
260,260,0,2046,2399
261,261,0,2046,1903
262,262,0,2046,1414
263,263,0,2046,960
264,264,0,2046,567
265,265,0,2046,259
266,266,0,2046,51
267,267,0,2046,0
268,268,0,2046,0
269,269,0,2046,118
270,270,0,2046,368
271,271,0,2046,711
272,272,0,2046,1129
273,273,0,2046,1600
274,274,0,2046,2095
275,275,0,2047,2588
276,276,0,2046,3048
277,277,0,2046,3452
278,278,0,2046,3776
279,279,0,2047,4001
280,280,0,2046,4095
281,281,0,2046,4095
282,282,0,2046,3988
283,283,0,2046,3755
284,284,0,2046,3426
285,285,0,2047,3018
286,286,0,2047,2554
287,287,0,2046,2060
288,288,0,2047,1566
289,289,0,2047,1098
290,290,0,2046,683
291,291,0,2046,347
292,292,0,2047,105
293,293,0,2046,0
294,294,0,2047,0
295,295,0,2047,62
296,296,0,2046,277
297,297,0,2046,593
298,298,0,2047,990
299,299,0,2047,1448
300,300,0,2046,1938
301,301,0,2047,2435
302,302,0,2046,2908
303,303,0,2046,3333
304,304,0,2046,3684
305,305,0,2046,3941
306,306,0,2046,4092
307,307,0,2047,4095
308,308,0,2046,4040
309,309,0,2047,3841
310,310,0,2046,3539
311,311,0,2047,3153
312,312,0,2046,2704
313,313,0,2046,2218
314,314,0,2046,1720
315,315,0,2046,1242
316,316,0,2046,808
317,317,0,2046,444
318,318,0,2046,170
319,319,0,2046,3
320,320,0,2046,0
321,321,0,2046,16
322,322,0,2046,199
323,323,0,2047,484
324,324,0,2046,857
325,325,0,2047,1299
326,326,0,2047,1781
327,327,0,2046,2279
328,328,0,2047,2762
329,329,0,2047,3205
330,330,0,2046,3582
331,331,0,2046,3871
332,332,0,2047,4056
333,333,0,2046,4095
334,334,0,2046,4079
335,335,0,2046,3915
336,336,0,2046,3645
337,337,0,2046,3284
338,338,0,2047,2852
339,339,0,2046,2373
340,340,0,2047,1876
341,341,0,2047,1389
342,342,0,2047,938
343,343,0,2046,550
344,344,0,2046,245
345,345,0,2047,43
346,346,0,2047,0
347,347,0,2047,0
348,348,0,2046,129
349,349,0,2047,384
350,350,0,2046,731
351,351,0,2046,1153
352,352,0,2046,1626
353,353,0,2046,2121
354,354,0,2046,2613
355,355,0,2046,3071
356,356,0,2046,3471
357,357,0,2047,3791
358,358,0,2047,4010
359,359,0,2046,4095
360,360,0,2046,4095
361,361,0,2046,3979
362,362,0,2046,3741
363,363,0,2046,3407
364,364,0,2047,2995
365,365,0,2047,2528
366,366,0,2046,2034
367,367,0,2046,1540
368,368,0,2046,1075
369,369,0,2046,665
370,370,0,2047,332
371,371,0,2047,95
372,372,0,2047,0
373,373,0,2046,0
374,374,0,2046,71
375,375,0,2047,292
376,376,0,2046,612
377,377,0,2047,1013
378,378,0,2046,1473
379,379,0,2047,1964
380,380,0,2046,2460
381,381,0,2046,2932
382,382,0,2046,3353
383,383,0,2046,3699
384,384,0,2047,3952
385,385,0,2046,4095
386,386,0,2047,4095
387,387,0,2046,4032
388,388,0,2046,3827
389,389,0,2046,3522
390,390,0,2046,3131
391,391,0,2046,2679
392,392,0,2046,2191
393,393,0,2046,1695
394,394,0,2047,1217
395,395,0,2047,787
396,396,0,2047,427
397,397,0,2046,159
398,398,0,2046,0
399,399,0,2046,0
400,400,0,2047,24
401,401,0,2047,211
402,402,0,2046,502
403,403,0,2047,879
404,404,0,2047,1323
405,405,0,2047,1807
406,406,0,2047,2304
407,407,0,2047,2787
408,408,0,2046,3227
409,409,0,2046,3599
410,410,0,2047,3883
411,411,0,2047,4063
412,412,0,2047,4095
413,413,0,2046,4073
414,414,0,2046,3903
415,415,0,2046,3628
416,416,0,2047,3263
417,417,0,2046,2827
418,418,0,2047,2348
419,419,0,2046,1850
420,420,0,2046,1364
421,421,0,2046,916
422,422,0,2046,532
423,423,0,2046,232
424,424,0,2047,36
425,425,0,2046,0
426,426,0,2047,0
427,427,0,2046,140
428,428,0,2047,400
429,429,0,2047,751
430,430,0,2046,1177
431,431,0,2046,1652
432,432,0,2046,2148
433,433,0,2046,2637
434,434,0,2046,3094
435,435,0,2046,3490
436,436,0,2046,3804
437,437,0,2046,4018
438,438,0,2046,4095
439,439,0,2046,4095
440,440,0,2046,3969
441,441,0,2046,3726
442,442,0,2047,3386
443,443,0,2046,2971
444,444,0,2047,2503
445,445,0,2046,2008
446,446,0,2046,1515
447,447,0,2047,1052
448,448,0,2047,645
449,449,0,2046,316
450,450,0,2046,86
451,451,0,2046,0
452,452,0,2047,0
453,453,0,2047,80
454,454,0,2047,306
455,455,0,2047,631
456,456,0,2046,1036
457,457,0,2046,1498
458,458,0,2046,1990
459,459,0,2046,2485
460,460,0,2046,2955
461,461,0,2046,3373
462,462,0,2047,3715
463,463,0,2046,3962
464,464,0,2046,4095
465,465,0,2046,4095
466,466,0,2046,4024
467,467,0,2046,3814
468,468,0,2046,3503
469,469,0,2047,3109
470,470,0,2047,2655
471,471,0,2046,2165
472,472,0,2046,1669
473,473,0,2047,1193
474,474,0,2046,766
475,475,0,2046,410
476,476,0,2046,147
477,477,0,2047,0
478,478,0,2047,0
479,479,0,2046,30
480,480,0,2047,223
481,481,0,2046,519
482,482,0,2046,901
483,483,0,2046,1347
484,484,0,2046,1833
485,485,0,2046,2330
486,486,0,2046,2811
487,487,0,2046,3248
488,488,0,2046,3616
489,489,0,2046,3896
490,490,0,2046,4069
491,491,0,2046,4095
492,492,0,2046,4067
493,493,0,2046,3892
494,494,0,2046,3611
495,495,0,2046,3241
496,496,0,2046,2803
497,497,0,2046,2322
498,498,0,2047,1825
499,499,0,2047,1340
500,500,0,2047,894
501,501,0,2046,513
502,502,0,2047,219
503,503,0,2046,28
504,504,0,2046,0
505,505,0,2047,0
506,506,0,2046,150
507,507,0,2046,416
508,508,0,2046,772
509,509,0,2047,1201
510,510,0,2047,1677
511,511,0,2046,2173
512,512,0,2046,2662
513,513,0,2047,3117
514,514,0,2047,3509
515,515,0,2046,3818
516,516,0,2046,4026
517,517,0,2046,4095
518,518,0,2046,4095
519,519,0,2047,3959
520,520,0,2046,3710
521,521,0,2046,3366
522,522,0,2046,2948
523,523,0,2046,2477
524,524,0,2046,1982
525,525,0,2047,1489
526,526,0,2046,1029
527,527,0,2046,625
528,528,0,2046,302
529,529,0,2046,77
530,530,0,2047,0
531,531,0,2046,0
532,532,0,2046,89
533,533,0,2046,321
534,534,0,2046,651
535,535,0,2046,1059
536,536,0,2046,1523
537,537,0,2046,2016
538,538,0,2047,2511
539,539,0,2047,2978
540,540,0,2046,3393
541,541,0,2047,3731
542,542,0,2046,3972
543,543,0,2046,4095
544,544,0,2046,4095
545,545,0,2047,4015
546,546,0,2047,3799
547,547,0,2046,3484
548,548,0,2047,3087
549,549,0,2046,2629
550,550,0,2046,2139
551,551,0,2046,1642
552,552,0,2046,1170
553,553,0,2047,746
554,554,0,2046,394
555,555,0,2046,136
556,556,0,2046,0
557,557,0,2046,0
558,558,0,2047,37
559,559,0,2047,236
560,560,0,2046,537
561,561,0,2046,923
562,562,0,2046,1372
563,563,0,2046,1859
564,564,0,2047,2356
565,565,0,2046,2835
566,566,0,2046,3269
567,567,0,2046,3634
568,568,0,2046,3907
569,569,0,2046,4075
570,570,0,2046,4095
571,571,0,2046,4061
572,572,0,2047,3880
573,573,0,2046,3594
574,574,0,2047,3220
575,575,0,2046,2779
576,576,0,2046,2296
577,577,0,2046,1798
578,578,0,2046,1314
579,579,0,2046,871
580,580,0,2046,495
581,581,0,2047,207
582,582,0,2046,22
583,583,0,2045,0
584,584,0,2047,0
585,585,0,2046,162
586,586,0,2046,432
587,587,0,2047,793
588,588,0,2046,1224
589,589,0,2046,1702
590,590,0,2046,2200
591,591,0,2046,2687
592,592,0,2046,3139
593,593,0,2047,3527
594,594,0,2046,3832
595,595,0,2046,4034
596,596,0,2047,4095
597,597,0,2046,4094
598,598,0,2047,3948
599,599,0,2046,3694
600,600,0,2046,3347
601,601,0,2046,2924
602,602,0,2047,2451
603,603,0,2047,1956
604,604,0,2047,1464
605,605,0,2046,1006
606,606,0,2047,606
607,607,0,2046,288
608,608,0,2046,68
609,609,0,2046,0
610,610,0,2046,0
611,611,0,2047,99
612,612,0,2046,336
613,613,0,2047,670
614,614,0,2046,1082
615,615,0,2046,1549
616,616,0,2046,2043
617,617,0,2046,2537
618,618,0,2046,3001
619,619,0,2047,3413
620,620,0,2047,3746
621,621,0,2046,3983
622,622,0,2046,4095
623,623,0,2046,4095
624,624,0,2046,4006
625,625,0,2047,3786
626,626,0,2046,3465
627,627,0,2046,3063
628,628,0,2046,2604
629,629,0,2046,2113
630,630,0,2046,1618
631,631,0,2046,1145
632,632,0,2047,725
633,633,0,2045,378
634,634,0,2046,126
635,635,0,2046,0
636,636,0,2047,0
637,637,0,2047,46
638,638,0,2046,249
639,639,0,2047,556
640,640,0,2046,945
641,641,0,2046,1397
642,642,0,2046,1885
643,643,0,2046,2382
644,644,0,2046,2860
645,645,0,2046,3290
646,646,0,2047,3651
647,647,0,2047,3918
648,648,0,2046,4081
649,649,0,2046,4095
650,650,0,2047,4054
651,651,0,2046,3866
652,652,0,2046,3576
653,653,0,2046,3197
654,654,0,2046,2754
655,655,0,2046,2270
656,656,0,2046,1773
657,657,0,2046,1290
658,658,0,2046,850
659,659,0,2046,478
660,660,0,2047,194
661,661,0,2046,15
662,662,0,2047,0
663,663,0,2047,4
664,664,0,2047,173
665,665,0,2047,449
666,666,0,2046,814
667,667,0,2046,1248
668,668,0,2047,1729
669,669,0,2047,2226
670,670,0,2047,2713
671,671,0,2046,3160
672,672,0,2046,3546
673,673,0,2046,3844
674,674,0,2046,4041
675,675,0,2047,4095
676,676,0,2046,4089
677,677,0,2047,3937
678,678,0,2047,3678
679,679,0,2046,3325
680,680,0,2047,2900
681,681,0,2046,2425
682,682,0,2046,1929
683,683,0,2046,1439
684,684,0,2046,983
685,685,0,2046,587
686,686,0,2047,273
687,687,0,2046,60
688,688,0,2046,0
689,689,0,2047,0
690,690,0,2047,109
691,691,0,2047,351
692,692,0,2047,690
693,693,0,2046,1107
694,694,0,2047,1573
695,695,0,2047,2069
696,696,0,2046,2561
697,697,0,2047,3026
698,698,0,2046,3432
699,699,0,2046,3761
700,700,0,2046,3992
701,701,0,2046,4095
702,702,0,2047,4095
703,703,0,2046,3998
704,704,0,2046,3771
705,705,0,2046,3446
706,706,0,2047,3041
707,707,0,2047,2580
708,708,0,2047,2087
709,709,0,2046,1592
710,710,0,2047,1122
711,711,0,2046,705
712,712,0,2046,362
713,713,0,2047,115
714,714,0,2047,0
715,715,0,2046,0
716,716,0,2046,54
717,717,0,2046,264
718,718,0,2047,574
719,719,0,2047,968
720,720,0,2046,1422
721,721,0,2047,1912
722,722,0,2046,2408
723,723,0,2047,2883
724,724,0,2046,3311
725,725,0,2047,3667
726,726,0,2046,3930
727,727,0,2046,4086
728,728,0,2046,4095
729,729,0,2046,4047
730,730,0,2046,3854
731,731,0,2047,3558
732,732,0,2046,3176
733,733,0,2046,2730
734,734,0,2047,2245
735,735,0,2046,1747
736,736,0,2046,1266
737,737,0,2046,829
738,738,0,2046,461
739,739,0,2047,182
740,740,0,2047,9
741,741,0,2046,0
742,742,0,2046,10
743,743,0,2046,186
744,744,0,2046,466
745,745,0,2047,836
746,746,0,2047,1273
747,747,0,2047,1754
748,748,0,2046,2252
749,749,0,2046,2737
750,750,0,2047,3183
751,751,0,2046,3563
752,752,0,2047,3858
753,753,0,2047,4049
754,754,0,2047,4095
755,755,0,2046,4083
756,756,0,2046,3927
757,757,0,2047,3661
758,758,0,2047,3305
759,759,0,2047,2877
760,760,0,2047,2400
761,761,0,2047,1904
762,762,0,2046,1415
763,763,0,2046,961
764,764,0,2046,568
765,765,0,2045,259
766,766,0,2047,51
767,767,0,2046,0
768,768,0,2046,0
769,769,0,2046,119
770,770,0,2046,367
771,771,0,2046,711
772,772,0,2047,1129
773,773,0,2046,1599
774,774,0,2046,2095
775,775,0,2047,2586
776,776,0,2046,3047
777,777,0,2047,3452
778,778,0,2046,3775
779,779,0,2047,4001
780,780,0,2047,4095
781,781,0,2047,4095
782,782,0,2047,3988
783,783,0,2047,3756
784,784,0,2047,3426
785,785,0,2047,3018
786,786,0,2046,2555
787,787,0,2047,2061
788,788,0,2047,1566
789,789,0,2045,1098
790,790,0,2047,684
791,791,0,2047,347
792,792,0,2047,106
793,793,0,2047,0
794,794,0,2046,0
795,795,0,2046,62
796,796,0,2046,278
797,797,0,2046,593
798,798,0,2046,990
799,799,0,2047,1447
800,800,0,2046,1937
801,801,0,2047,2433
802,802,0,2047,2907
803,803,0,2046,3331
804,804,0,2046,3683
805,805,0,2047,3941
806,806,0,2046,4091
807,807,0,2047,4095
808,808,0,2047,4039
809,809,0,2046,3841
810,810,0,2047,3540
811,811,0,2046,3154
812,812,0,2046,2705
813,813,0,2047,2218
814,814,0,2046,1721
815,815,0,2046,1242
816,816,0,2046,808
817,817,0,2047,444
818,818,0,2046,170
819,819,0,2047,3
820,820,0,2047,0
821,821,0,2046,17
822,822,0,2046,198
823,823,0,2046,484
824,824,0,2046,857
825,825,0,2046,1297
826,826,0,2047,1780
827,827,0,2046,2278
828,828,0,2046,2762
829,829,0,2046,3205
830,830,0,2046,3581
831,831,0,2046,3870
832,832,0,2047,4055
833,833,0,2047,4095
834,834,0,2046,4080
835,835,0,2047,3915
836,836,0,2047,3645
837,837,0,2046,3284
838,838,0,2046,2853
839,839,0,2046,2374
840,840,0,2047,1877
841,841,0,2046,1389
842,842,0,2046,938
843,843,0,2047,550
844,844,0,2047,246
845,845,0,2047,43
846,846,0,2047,0
847,847,0,2046,0
848,848,0,2047,129
849,849,0,2046,383
850,850,0,2047,731
851,851,0,2046,1152
852,852,0,2047,1625
853,853,0,2046,2121
854,854,0,2047,2612
855,855,0,2046,3070
856,856,0,2047,3471
857,857,0,2046,3790
858,858,0,2046,4010
859,859,0,2047,4095
860,860,0,2047,4095
861,861,0,2047,3980
862,862,0,2047,3741
863,863,0,2047,3408
864,864,0,2046,2996
865,865,0,2046,2529
866,866,0,2047,2035
867,867,0,2047,1540
868,868,0,2046,1075
869,869,0,2046,665
870,870,0,2046,332
871,871,0,2046,96
872,872,0,2046,0
873,873,0,2046,0
874,874,0,2046,70
875,875,0,2046,291
876,876,0,2046,612
877,877,0,2046,1013
878,878,0,2045,1472
879,879,0,2047,1963
880,880,0,2046,2459
881,881,0,2046,2931
882,882,0,2047,3352
883,883,0,2046,3700
884,884,0,2046,3951
885,885,0,2046,4095
886,886,0,2047,4095
887,887,0,2046,4031
888,888,0,2046,3827
889,889,0,2047,3522
890,890,0,2046,3132
891,891,0,2046,2680
892,892,0,2046,2192
893,893,0,2046,1695
894,894,0,2047,1218
895,895,0,2046,787
896,896,0,2046,426
897,897,0,2046,159
898,898,0,2047,0
899,899,0,2046,0
900,900,0,2047,23
901,901,0,2046,210
902,902,0,2047,501
903,903,0,2046,879
904,904,0,2046,1322
905,905,0,2046,1806
906,906,0,2046,2304
907,907,0,2047,2786
908,908,0,2047,3227
909,909,0,2047,3599
910,910,0,2046,3883
911,911,0,2046,4062
912,912,0,2046,4095
913,913,0,2046,4073
914,914,0,2046,3903
915,915,0,2046,3629
916,916,0,2046,3263
917,917,0,2046,2828
918,918,0,2047,2349
919,919,0,2047,1851
920,920,0,2046,1364
921,921,0,2046,916
922,922,0,2047,532
923,923,0,2046,233
924,924,0,2046,36
925,925,0,2046,0
926,926,0,2046,0
927,927,0,2047,140
928,928,0,2046,399
929,929,0,2047,751
930,930,0,2047,1177
931,931,0,2046,1651
932,932,0,2046,2147
933,933,0,2047,2637
934,934,0,2047,3093
935,935,0,2046,3490
936,936,0,2046,3803
937,937,0,2046,4018
938,938,0,2047,4095
939,939,0,2046,4095
940,940,0,2046,3970
941,941,0,2046,3726
942,942,0,2046,3387
943,943,0,2046,2971
944,944,0,2047,2504
945,945,0,2047,2009
946,946,0,2046,1516
947,947,0,2046,1052
948,948,0,2047,645
949,949,0,2046,317
950,950,0,2047,86
951,951,0,2047,0
952,952,0,2046,0
953,953,0,2046,80
954,954,0,2047,306
955,955,0,2047,631
956,956,0,2047,1036
957,957,0,2047,1497
958,958,0,2047,1990
959,959,0,2046,2485
960,960,0,2047,2955
961,961,0,2047,3373
962,962,0,2046,3715
963,963,0,2047,3962
964,964,0,2046,4095
965,965,0,2046,4095
966,966,0,2047,4025
967,967,0,2046,3814
968,968,0,2047,3503
969,969,0,2046,3110
970,970,0,2046,2655
971,971,0,2046,2166
972,972,0,2046,1669
973,973,0,2046,1194
974,974,0,2046,767
975,975,0,2046,410
976,976,0,2046,147
977,977,0,2046,0
978,978,0,2047,0
979,979,0,2047,30
980,980,0,2046,223
981,981,0,2047,519
982,982,0,2047,901
983,983,0,2046,1347
984,984,0,2047,1833
985,985,0,2046,2330
986,986,0,2047,2810
987,987,0,2047,3248
988,988,0,2046,3616
989,989,0,2046,3895
990,990,0,2046,4069
991,991,0,2046,4095
992,992,0,2047,4067
993,993,0,2046,3891
994,994,0,2046,3612
995,995,0,2046,3242
996,996,0,2047,2804
997,997,0,2046,2323
998,998,0,2047,1825
999,999,0,2047,1340
1000,1000,0,2047,894
1001,1001,0,2046,514
1002,1002,0,2047,220
1003,1003,0,2046,29
1004,1004,0,2046,0
1005,1005,0,2046,0
1006,1006,0,2046,151
1007,1007,0,2046,415
1008,1008,0,2046,771
1009,1009,0,2046,1200
1010,1010,0,2047,1677
1011,1011,0,2046,2173
1012,1012,0,2046,2662
1013,1013,0,2046,3116
1014,1014,0,2047,3508
1015,1015,0,2047,3818
1016,1016,0,2046,4026
1017,1017,0,2046,4095
1018,1018,0,2046,4095
1019,1019,0,2046,3959
1020,1020,0,2046,3710
1021,1021,0,2046,3367
1022,1022,0,2046,2948
1023,1023,0,2046,2478
1024,1024,0,2046,1983
1025,1025,0,2047,1490
1026,1026,0,2047,1029
1027,1027,0,2047,625
1028,1028,0,2046,303
1029,1029,0,2047,77
1030,1030,0,2047,0
