Sample in Buffer,Sample in Window,TRIGGER,adc1_data_a_d0[11:0],adc1_data_b_d0[11:0]
0,0,0,2046,2282
1,1,0,2046,1495
2,2,0,2046,788
3,3,0,2046,261
4,4,0,2047,0
5,5,0,2046,16
6,6,0,2046,335
7,7,0,2046,898
8,8,0,2046,1628
9,9,0,2047,2416
10,10,0,2046,3150
11,11,0,2046,3723
12,12,0,2046,4054
13,13,0,2046,4092
14,14,0,2046,3833
15,15,0,2047,3314
16,16,0,2046,2612
17,17,0,2046,1827
18,18,0,2046,1072
19,19,0,2046,457
20,20,0,2047,71
21,21,0,2046,0
22,22,0,2046,165
23,23,0,2046,633
24,24,0,2047,1305
25,25,0,2047,2080
26,26,0,2046,2851
27,27,0,2046,3505
28,28,0,2046,3947
29,29,0,2046,4095
30,30,0,2047,3978
31,31,0,2046,3564
32,32,0,2047,2927
33,33,0,2046,2164
34,34,0,2046,1382
35,35,0,2046,696
36,36,0,2046,203
37,37,0,2047,0
38,38,0,2046,46
39,39,0,2046,404
40,40,0,2046,999
41,41,0,2046,1744
42,42,0,2046,2531
43,43,0,2047,3248
44,44,0,2046,3790
45,45,0,2046,4079
46,46,0,2046,4072
47,47,0,2046,3771
48,48,0,2046,3220
49,49,0,2046,2499
50,50,0,2046,1710
51,51,0,2046,970
52,52,0,2046,384
53,53,0,2046,37
54,54,0,2047,0
55,55,0,2046,218
56,56,0,2047,722
57,57,0,2046,1415
58,58,0,2047,2199
59,59,0,2046,2958
60,60,0,2046,3587
61,61,0,2046,3990
62,62,0,2046,4095
63,63,0,2046,3934
64,64,0,2046,3480
65,65,0,2046,2820
66,66,0,2046,2047
67,67,0,2046,1272
68,68,0,2047,607
69,69,0,2047,151
70,70,0,2046,0
71,71,0,2047,81
72,72,0,2047,479
73,73,0,2047,1103
74,74,0,2047,1861
75,75,0,2046,2645
76,76,0,2047,3341
77,77,0,2046,3849
78,78,0,2046,4095
79,79,0,2046,4045
80,80,0,2047,3704
81,81,0,2047,3121
82,82,0,2046,2383
83,83,0,2046,1595
84,84,0,2046,870
85,85,0,2046,316
86,86,0,2046,9
87,87,0,2047,0
88,88,0,2046,278
89,89,0,2047,815
90,90,0,2046,1528
91,91,0,2046,2316
92,92,0,2046,3062
93,93,0,2047,3662
94,94,0,2046,4026
95,95,0,2046,4095
96,96,0,2047,3882
97,97,0,2047,3394
98,98,0,2047,2710
99,99,0,2047,1929
100,100,0,2046,1164
101,101,0,2046,525
102,102,0,2046,105
103,103,0,2046,0
104,104,0,2046,124
105,105,0,2047,560
106,106,0,2046,1209
107,107,0,2046,1979
108,108,0,2047,2757
109,109,0,2046,3431
110,110,0,2046,3905
111,111,0,2046,4095
112,112,0,2046,4012
113,113,0,2046,3631
114,114,0,2046,3019
115,115,0,2046,2267
116,116,0,2047,1480
117,117,0,2046,775
118,118,0,2046,253
119,119,0,2046,0
120,120,0,2047,19
121,121,0,2046,343
122,122,0,2046,912
123,123,0,2047,1643
124,124,0,2046,2432
125,125,0,2046,3163
126,126,0,2047,3733
127,127,0,2046,4057
128,128,0,2046,4089
129,129,0,2046,3825
130,130,0,2047,3303
131,131,0,2046,2597
132,132,0,2046,1812
133,133,0,2046,1059
134,134,0,2047,447
135,135,0,2046,66
136,136,0,2046,0
137,137,0,2046,172
138,138,0,2046,645
139,139,0,2046,1319
140,140,0,2046,2095
141,141,0,2047,2866
142,142,0,2046,3516
143,143,0,2046,3953
144,144,0,2046,4095
145,145,0,2046,3972
146,146,0,2046,3553
147,147,0,2046,2914
148,148,0,2046,2148
149,149,0,2047,1368
150,150,0,2046,684
151,151,0,2046,196
152,152,0,2046,0
153,153,0,2047,50
154,154,0,2046,414
155,155,0,2047,1013
156,156,0,2047,1759
157,157,0,2046,2546
158,158,0,2046,3260
159,159,0,2046,3797
160,160,0,2047,4080
161,161,0,2046,4068
162,162,0,2046,3762
163,163,0,2047,3207
164,164,0,2046,2483
165,165,0,2047,1695
166,166,0,2046,957
167,167,0,2047,374
168,168,0,2047,33
169,169,0,2046,0
170,170,0,2046,226
171,171,0,2046,735
172,172,0,2046,1430
173,173,0,2046,2214
174,174,0,2047,2972
175,175,0,2046,3596
176,176,0,2046,3995
177,177,0,2047,4095
178,178,0,2047,3926
179,179,0,2047,3470
180,180,0,2046,2807
181,181,0,2047,2031
182,182,0,2046,1258
183,183,0,2046,597
184,184,0,2046,145
185,185,0,2047,0
186,186,0,2047,86
187,187,0,2046,490
188,188,0,2046,1117
189,189,0,2046,1877
190,190,0,2046,2659
191,191,0,2046,3353
192,192,0,2046,3858
193,193,0,2046,4095
194,194,0,2047,4041
195,195,0,2046,3694
196,196,0,2046,3109
197,197,0,2046,2367
198,198,0,2046,1580
199,199,0,2046,858
200,200,0,2046,306
201,201,0,2046,6
202,202,0,2046,0
203,203,0,2046,286
204,204,0,2046,828
205,205,0,2046,1543
206,206,0,2046,2331
207,207,0,2047,3076
208,208,0,2046,3671
209,209,0,2047,4030
210,210,0,2046,4095
211,211,0,2046,3875
212,212,0,2046,3382
213,213,0,2046,2695
214,214,0,2046,1914
215,215,0,2047,1150
216,216,0,2046,515
217,217,0,2046,99
218,218,0,2047,0
219,219,0,2046,130
220,220,0,2046,570
221,221,0,2046,1224
222,222,0,2046,1994
223,223,0,2047,2771
224,224,0,2046,3443
225,225,0,2047,3911
226,226,0,2047,4095
227,227,0,2046,4007
228,228,0,2046,3621
229,229,0,2045,3005
230,230,0,2046,2251
231,231,0,2046,1466
232,232,0,2047,764
233,233,0,2046,245
234,234,0,2047,0
235,235,0,2046,23
236,236,0,2046,352
237,237,0,2046,925
238,238,0,2047,1658
239,239,0,2046,2447
240,240,0,2047,3176
241,241,0,2046,3741
242,242,0,2046,4060
243,243,0,2047,4087
244,244,0,2046,3818
245,245,0,2048,3290
246,246,0,2047,2582
247,247,0,2046,1796
248,248,0,2047,1045
249,249,0,2046,438
250,250,0,2047,61
251,251,0,2047,0
252,252,0,2046,179
253,253,0,2046,656
254,254,0,2046,1332
255,255,0,2047,2111
256,256,0,2046,2880
257,257,0,2047,3527
258,258,0,2046,3958
259,259,0,2046,4095
260,260,0,2046,3966
261,261,0,2046,3542
262,262,0,2047,2899
263,263,0,2046,2133
264,264,0,2046,1353
265,265,0,2046,673
266,266,0,2046,189
267,267,0,2046,0
268,268,0,2046,54
269,269,0,2046,424
270,270,0,2046,1025
271,271,0,2046,1774
272,272,0,2046,2561
273,273,0,2047,3272
274,274,0,2047,3806
275,275,0,2046,4084
276,276,0,2047,4066
277,277,0,2046,3753
278,278,0,2047,3195
279,279,0,2046,2468
280,280,0,2046,1679
281,281,0,2046,943
282,282,0,2047,365
283,283,0,2046,29
284,284,0,2046,0
285,285,0,2046,234
286,286,0,2046,746
287,287,0,2046,1444
288,288,0,2046,2229
289,289,0,2046,2986
290,290,0,2045,3606
291,291,0,2046,3999
292,292,0,2047,4095
293,293,0,2046,3920
294,294,0,2047,3458
295,295,0,2046,2792
296,296,0,2047,2016
297,297,0,2046,1243
298,298,0,2046,586
299,299,0,2046,139
300,300,0,2046,0
301,301,0,2046,92
302,302,0,2046,500
303,303,0,2047,1130
304,304,0,2046,1891
305,305,0,2046,2674
306,306,0,2046,3365
307,307,0,2046,3864
308,308,0,2047,4095
309,309,0,2046,4037
310,310,0,2046,3685
311,311,0,2046,3094
312,312,0,2046,2353
313,313,0,2046,1564
314,314,0,2046,845
315,315,0,2046,298
316,316,0,2046,3
317,317,0,2046,2
318,318,0,2047,295
319,319,0,2046,840
320,320,0,2046,1558
321,321,0,2046,2345
322,322,0,2046,3089
323,323,0,2046,3681
324,324,0,2046,4035
325,325,0,2046,4095
326,326,0,2046,3868
327,327,0,2047,3371
328,328,0,2046,2680
329,329,0,2046,1898
330,330,0,2046,1136
331,331,0,2046,504
332,332,0,2046,94
333,333,0,2046,0
334,334,0,2046,136
335,335,0,2047,582
336,336,0,2047,1237
337,337,0,2047,2010
338,338,0,2046,2785
339,339,0,2047,3454
340,340,0,2047,3918
341,341,0,2046,4095
342,342,0,2046,4003
343,343,0,2047,3610
344,344,0,2047,2992
345,345,0,2046,2235
346,346,0,2046,1450
347,347,0,2046,751
348,348,0,2046,237
349,349,0,2046,0
350,350,0,2046,27
351,351,0,2046,361
352,352,0,2046,938
353,353,0,2046,1674
354,354,0,2046,2462
355,355,0,2046,3189
356,356,0,2047,3749
357,357,0,2045,4064
358,358,0,2047,4085
359,359,0,2047,3810
360,360,0,2047,3278
361,361,0,2046,2568
362,362,0,2046,1781
363,363,0,2046,1032
364,364,0,2046,428
365,365,0,2046,56
366,366,0,2046,0
367,367,0,2046,186
368,368,0,2046,668
369,369,0,2046,1347
370,370,0,2046,2127
371,371,0,2046,2894
372,372,0,2046,3538
373,373,0,2046,3964
374,374,0,2047,4095
375,375,0,2046,3961
376,376,0,2047,3531
377,377,0,2046,2885
378,378,0,2047,2118
379,379,0,2047,1338
380,380,0,2046,661
381,381,0,2046,182
382,382,0,2047,0
383,383,0,2046,59
384,384,0,2046,433
385,385,0,2046,1040
386,386,0,2046,1790
387,387,0,2047,2576
388,388,0,2046,3285
389,389,0,2046,3814
390,390,0,2047,4086
391,391,0,2047,4062
392,392,0,2047,3745
393,393,0,2046,3181
394,394,0,2046,2453
395,395,0,2046,1665
396,396,0,2046,931
397,397,0,2046,356
398,398,0,2046,25
399,399,0,2046,0
400,400,0,2047,241
401,401,0,2046,759
402,402,0,2046,1460
403,403,0,2047,2245
404,404,0,2046,3000
405,405,0,2046,3616
406,406,0,2047,4005
407,407,0,2046,4095
408,408,0,2047,3914
409,409,0,2046,3447
410,410,0,2047,2777
411,411,0,2046,2000
412,412,0,2046,1230
413,413,0,2046,575
414,414,0,2046,132
415,415,0,2047,0
416,416,0,2046,97
417,417,0,2046,510
418,418,0,2046,1144
419,419,0,2046,1907
420,420,0,2046,2689
421,421,0,2046,3377
422,422,0,2046,3871
423,423,0,2046,4095
424,424,0,2046,4033
425,425,0,2046,3676
426,426,0,2046,3082
427,427,0,2046,2337
428,428,0,2046,1549
429,429,0,2047,833
430,430,0,2046,290
431,431,0,2046,0
432,432,0,2046,4
433,433,0,2046,303
434,434,0,2046,853
435,435,0,2046,1574
436,436,0,2046,2361
437,437,0,2046,3102
438,438,0,2046,3690
439,439,0,2046,4039
440,440,0,2046,4095
441,441,0,2047,3860
442,442,0,2046,3359
443,443,0,2046,2666
444,444,0,2047,1883
445,445,0,2047,1122
446,446,0,2047,494
447,447,0,2046,89
448,448,0,2047,0
449,449,0,2046,142
450,450,0,2046,593
451,451,0,2046,1252
452,452,0,2046,2024
453,453,0,2046,2799
454,454,0,2047,3465
455,455,0,2046,3924
456,456,0,2046,4095
457,457,0,2046,3997
458,458,0,2046,3600
459,459,0,2046,2978
460,460,0,2046,2220
461,461,0,2047,1436
462,462,0,2046,739
463,463,0,2045,229
464,464,0,2046,0
465,465,0,2046,31
466,466,0,2047,370
467,467,0,2046,951
468,468,0,2047,1689
469,469,0,2046,2477
470,470,0,2046,3202
471,471,0,2046,3759
472,472,0,2046,4067
473,473,0,2046,4081
474,474,0,2046,3801
475,475,0,2046,3266
476,476,0,2046,2553
477,477,0,2047,1766
478,478,0,2046,1018
479,479,0,2047,418
480,480,0,2046,52
481,481,0,2047,0
482,482,0,2046,192
483,483,0,2046,678
484,484,0,2046,1361
485,485,0,2046,2142
486,486,0,2047,2909
487,487,0,2047,3548
488,488,0,2047,3970
489,489,0,2047,4095
490,490,0,2046,3954
491,491,0,2047,3521
492,492,0,2046,2871
493,493,0,2047,2103
494,494,0,2045,1324
495,495,0,2047,650
496,496,0,2046,175
497,497,0,2047,0
498,498,0,2046,64
499,499,0,2046,443
500,500,0,2047,1053
501,501,0,2046,1805
502,502,0,2046,2591
503,503,0,2047,3297
504,504,0,2046,3822
505,505,0,2047,4088
506,506,0,2047,4058
507,507,0,2046,3737
508,508,0,2046,3169
509,509,0,2046,2438
510,510,0,2046,1650
511,511,0,2046,917
512,512,0,2047,347
513,513,0,2046,22
514,514,0,2047,0
515,515,0,2046,250
516,516,0,2046,770
517,517,0,2047,1474
518,518,0,2046,2260
519,519,0,2046,3013
520,520,0,2047,3627
521,521,0,2046,4010
522,522,0,2046,4095
523,523,0,2046,3907
524,524,0,2046,3436
525,525,0,2046,2763
526,526,0,2046,1985
527,527,0,2046,1215
528,528,0,2046,565
529,529,0,2046,126
530,530,0,2046,0
531,531,0,2046,103
532,532,0,2047,521
533,533,0,2047,1158
534,534,0,2047,1922
535,535,0,2047,2704
536,536,0,2046,3389
537,537,0,2046,3879
538,538,0,2046,4095
539,539,0,2046,4029
540,540,0,2046,3666
541,541,0,2046,3068
542,542,0,2046,2322
543,543,0,2046,1535
544,544,0,2046,820
545,545,0,2046,282
546,546,0,2046,0
547,547,0,2046,7
548,548,0,2046,312
549,549,0,2046,865
550,550,0,2046,1588
551,551,0,2046,2376
552,552,0,2046,3116
553,553,0,2046,3700
554,554,0,2047,4044
555,555,0,2046,4095
556,556,0,2047,3853
557,557,0,2046,3347
558,558,0,2046,2651
559,559,0,2047,1868
560,560,0,2046,1108
561,561,0,2047,484
562,562,0,2046,83
563,563,0,2046,0
564,564,0,2046,148
565,565,0,2047,604
566,566,0,2046,1266
567,567,0,2046,2040
568,568,0,2047,2815
569,569,0,2046,3476
570,570,0,2047,3930
571,571,0,2047,4095
572,572,0,2047,3992
573,573,0,2047,3590
574,574,0,2047,2964
575,575,0,2046,2204
576,576,0,2046,1421
577,577,0,2046,727
578,578,0,2046,221
579,579,0,2046,0
580,580,0,2046,35
581,581,0,2046,379
582,582,0,2047,965
583,583,0,2046,1704
584,584,0,2046,2492
585,585,0,2047,3215
586,586,0,2046,3768
587,587,0,2046,4071
588,588,0,2046,4080
589,589,0,2046,3793
590,590,0,2047,3253
591,591,0,2046,2537
592,592,0,2047,1750
593,593,0,2046,1005
594,594,0,2046,408
595,595,0,2046,48
596,596,0,2046,0
597,597,0,2047,199
598,598,0,2046,690
599,599,0,2047,1376
600,600,0,2046,2157
601,601,0,2047,2921
602,602,0,2046,3559
603,603,0,2046,3975
604,604,0,2046,4095
605,605,0,2046,3950
606,606,0,2046,3509
607,607,0,2046,2858
608,608,0,2046,2087
609,609,0,2047,1310
610,610,0,2046,638
611,611,0,2046,169
612,612,0,2046,0
613,613,0,2047,69
614,614,0,2047,452
615,615,0,2047,1066
616,616,0,2046,1820
617,617,0,2046,2606
618,618,0,2046,3309
619,619,0,2046,3830
620,620,0,2047,4091
621,621,0,2047,4055
622,622,0,2047,3728
623,623,0,2046,3156
624,624,0,2046,2422
625,625,0,2047,1635
626,626,0,2046,904
627,627,0,2046,338
628,628,0,2046,18
629,629,0,2046,0
630,630,0,2046,257
631,631,0,2046,783
632,632,0,2047,1489
633,633,0,2047,2275
634,634,0,2047,3026
635,635,0,2046,3636
636,636,0,2046,4014
637,637,0,2046,4095
638,638,0,2046,3901
639,639,0,2045,3424
640,640,0,2046,2748
641,641,0,2046,1970
642,642,0,2046,1201
643,643,0,2046,553
644,644,0,2047,121
645,645,0,2045,0
646,646,0,2046,108
647,647,0,2046,531
648,648,0,2047,1172
649,649,0,2047,1937
650,650,0,2046,2718
651,651,0,2046,3401
652,652,0,2046,3885
653,653,0,2047,4095
654,654,0,2047,4024
655,655,0,2046,3656
656,656,0,2046,3055
657,657,0,2046,2307
658,658,0,2047,1520
659,659,0,2047,807
660,660,0,2047,274
661,661,0,2047,0
662,662,0,2046,11
663,663,0,2047,320
664,664,0,2046,878
665,665,0,2046,1603
666,666,0,2046,2391
667,667,0,2046,3128
668,668,0,2046,3708
669,669,0,2046,4047
670,670,0,2046,4095
671,671,0,2046,3845
672,672,0,2046,3335
673,673,0,2047,2636
674,674,0,2046,1852
675,675,0,2047,1095
676,676,0,2046,473
677,677,0,2047,80
678,678,0,2046,0
679,679,0,2046,155
680,680,0,2046,615
681,681,0,2046,1280
682,682,0,2046,2055
683,683,0,2046,2828
684,684,0,2046,3487
685,685,0,2046,3937
686,686,0,2046,4095
687,687,0,2047,3987
688,688,0,2046,3580
689,689,0,2046,2951
690,690,0,2046,2190
691,691,0,2046,1407
692,692,0,2046,715
693,693,0,2046,215
694,694,0,2047,0
695,695,0,2046,39
696,696,0,2046,388
697,697,0,2046,978
698,698,0,2047,1719
699,699,0,2046,2507
700,700,0,2046,3227
701,701,0,2046,3776
702,702,0,2047,4074
703,703,0,2046,4077
704,704,0,2046,3785
705,705,0,2046,3240
706,706,0,2046,2523
707,707,0,2047,1736
708,708,0,2046,992
709,709,0,2046,400
710,710,0,2046,45
711,711,0,2046,0
712,712,0,2047,206
713,713,0,2046,702
714,714,0,2046,1390
715,715,0,2047,2172
716,716,0,2046,2936
717,717,0,2046,3569
718,718,0,2047,3980
719,719,0,2046,4095
720,720,0,2046,3943
721,721,0,2046,3499
722,722,0,2046,2844
723,723,0,2046,2072
724,724,0,2047,1296
725,725,0,2047,627
726,726,0,2046,162
727,727,0,2047,0
728,728,0,2047,73
729,729,0,2047,463
730,730,0,2047,1080
731,731,0,2046,1835
732,732,0,2046,2620
733,733,0,2046,3321
734,734,0,2046,3837
735,735,0,2046,4093
736,736,0,2046,4051
737,737,0,2047,3719
738,738,0,2047,3143
739,739,0,2047,2408
740,740,0,2046,1619
741,741,0,2046,892
742,742,0,2046,329
743,743,0,2046,14
744,744,0,2047,0
745,745,0,2047,265
746,746,0,2046,795
747,747,0,2047,1503
748,748,0,2046,2290
749,749,0,2046,3040
750,750,0,2046,3646
751,751,0,2047,4019
752,752,0,2046,4095
753,753,0,2046,3893
754,754,0,2046,3413
755,755,0,2046,2734
756,756,0,2047,1954
757,757,0,2047,1187
758,758,0,2046,543
759,759,0,2046,115
760,760,0,2046,0
761,761,0,2047,114
762,762,0,2046,542
763,763,0,2047,1186
764,764,0,2046,1952
765,765,0,2047,2732
766,766,0,2047,3412
767,767,0,2046,3893
768,768,0,2047,4095
769,769,0,2046,4019
770,770,0,2047,3647
771,771,0,2046,3041
772,772,0,2047,2292
773,773,0,2046,1505
774,774,0,2046,796
775,775,0,2046,266
776,776,0,2046,0
777,777,0,2046,14
778,778,0,2046,329
779,779,0,2046,891
780,780,0,2047,1618
781,781,0,2046,2407
782,782,0,2047,3141
783,783,0,2046,3717
784,784,0,2046,4050
785,785,0,2046,4093
786,786,0,2046,3837
787,787,0,2046,3322
788,788,0,2046,2622
789,789,0,2046,1837
790,790,0,2046,1082
791,791,0,2047,464
792,792,0,2046,75
793,793,0,2046,0
794,794,0,2046,161
795,795,0,2046,626
796,796,0,2046,1295
797,797,0,2046,2071
798,798,0,2046,2842
799,799,0,2046,3498
800,800,0,2046,3943
801,801,0,2047,4095
802,802,0,2046,3982
803,803,0,2045,3570
804,804,0,2046,2937
805,805,0,2047,2173
806,806,0,2047,1392
807,807,0,2046,704
808,808,0,2046,209
809,809,0,2047,0
810,810,0,2047,43
811,811,0,2046,398
812,812,0,2046,990
813,813,0,2046,1734
814,814,0,2047,2522
815,815,0,2047,3239
816,816,0,2046,3784
817,817,0,2046,4076
818,818,0,2047,4074
819,819,0,2046,3777
820,820,0,2046,3228
821,821,0,2046,2509
822,822,0,2046,1721
823,823,0,2046,978
824,824,0,2046,390
825,825,0,2046,40
826,826,0,2047,0
827,827,0,2046,214
828,828,0,2046,714
829,829,0,2046,1405
830,830,0,2046,2189
831,831,0,2047,2950
832,832,0,2046,3579
833,833,0,2046,3987
834,834,0,2047,4095
835,835,0,2046,3937
836,836,0,2047,3488
837,837,0,2046,2829
838,838,0,2046,2057
839,839,0,2047,1282
840,840,0,2046,616
841,841,0,2046,155
842,842,0,2047,0
843,843,0,2046,78
844,844,0,2046,473
845,845,0,2046,1094
846,846,0,2046,1850
847,847,0,2046,2634
848,848,0,2047,3333
849,849,0,2046,3845
850,850,0,2047,4094
851,851,0,2047,4048
852,852,0,2046,3710
853,853,0,2047,3130
854,854,0,2046,2392
855,855,0,2046,1604
856,856,0,2047,879
857,857,0,2046,321
858,858,0,2046,12
859,859,0,2046,0
860,860,0,2047,273
861,861,0,2047,807
862,862,0,2046,1518
863,863,0,2046,2305
864,864,0,2046,3053
865,865,0,2047,3656
866,866,0,2046,4024
867,867,0,2046,4095
868,868,0,2047,3886
869,869,0,2046,3401
870,870,0,2046,2719
871,871,0,2046,1940
872,872,0,2047,1173
873,873,0,2046,532
874,874,0,2046,110
875,875,0,2047,0
876,876,0,2046,120
877,877,0,2046,553
878,878,0,2046,1199
879,879,0,2046,1969
880,880,0,2046,2747
881,881,0,2046,3424
882,882,0,2046,3899
883,883,0,2046,4095
884,884,0,2046,4015
885,885,0,2046,3638
886,886,0,2046,3028
887,887,0,2046,2276
888,888,0,2046,1490
889,889,0,2046,783
890,890,0,2046,258
891,891,0,2046,0
892,892,0,2046,17
893,893,0,2046,338
894,894,0,2046,903
895,895,0,2047,1633
896,896,0,2046,2421
897,897,0,2046,3154
898,898,0,2047,3727
899,899,0,2046,4055
900,900,0,2047,4091
901,901,0,2046,3830
902,902,0,2046,3311
903,903,0,2046,2607
904,904,0,2046,1822
905,905,0,2047,1067
906,906,0,2046,454
907,907,0,2046,69
908,908,0,2047,0
909,909,0,2046,167
910,910,0,2046,636
911,911,0,2047,1308
912,912,0,2046,2085
913,913,0,2046,2856
914,914,0,2046,3508
915,915,0,2046,3949
916,916,0,2046,4095
917,917,0,2046,3977
918,918,0,2046,3559
919,919,0,2046,2922
920,920,0,2047,2159
921,921,0,2046,1378
922,922,0,2046,692
923,923,0,2046,201
924,924,0,2047,0
925,925,0,2046,47
926,926,0,2047,407
927,927,0,2046,1004
928,928,0,2047,1749
929,929,0,2046,2536
930,930,0,2046,3251
931,931,0,2046,3792
932,932,0,2046,4079
933,933,0,2046,4071
934,934,0,2046,3768
935,935,0,2046,3216
936,936,0,2046,2493
937,937,0,2046,1705
938,938,0,2046,966
939,939,0,2046,381
940,940,0,2046,36
941,941,0,2046,0
942,942,0,2047,221
943,943,0,2046,725
944,944,0,2046,1420
945,945,0,2047,2204
946,946,0,2047,2963
947,947,0,2046,3589
948,948,0,2046,3991
949,949,0,2046,4095
950,950,0,2046,3932
951,951,0,2047,3476
952,952,0,2047,2815
953,953,0,2046,2041
954,954,0,2046,1268
955,955,0,2046,606
956,956,0,2047,149
957,957,0,2046,0
958,958,0,2046,83
959,959,0,2047,483
960,960,0,2046,1107
961,961,0,2047,1866
962,962,0,2046,2649
963,963,0,2046,3345
964,964,0,2046,3852
965,965,0,2047,4095
966,966,0,2046,4044
967,967,0,2046,3701
968,968,0,2046,3116
969,969,0,2046,2377
970,970,0,2046,1590
971,971,0,2046,867
972,972,0,2046,312
973,973,0,2047,8
974,974,0,2046,0
975,975,0,2046,281
976,976,0,2046,820
977,977,0,2046,1533
978,978,0,2046,2320
979,979,0,2046,3067
980,980,0,2046,3665
981,981,0,2046,4028
982,982,0,2047,4095
983,983,0,2046,3879
984,984,0,2046,3390
985,985,0,2046,2705
986,986,0,2046,1924
987,987,0,2046,1159
988,988,0,2046,522
989,989,0,2046,104
990,990,0,2046,0
991,991,0,2047,126
992,992,0,2046,563
993,993,0,2046,1213
994,994,0,2046,1984
995,995,0,2046,2761
996,996,0,2047,3435
997,997,0,2046,3906
998,998,0,2046,4095
999,999,0,2046,4010
1000,1000,0,2046,3627
1001,1001,0,2046,3015
1002,1002,0,2046,2261
1003,1003,0,2046,1476
1004,1004,0,2046,772
1005,1005,0,2047,250
1006,1006,0,2046,0
1007,1007,0,2046,21
1008,1008,0,2046,346
1009,1009,0,2046,917
1010,1010,0,2046,1648
1011,1011,0,2046,2437
1012,1012,0,2047,3168
1013,1013,0,2046,3735
1014,1014,0,2046,4058
1015,1015,0,2046,4088
1016,1016,0,2046,3823
1017,1017,0,2047,3299
1018,1018,0,2046,2593
1019,1019,0,2046,1807
1020,1020,0,2046,1055
1021,1021,0,2046,445
1022,1022,0,2046,64
1023,1023,0,2047,0
1024,1024,0,2047,176
1025,1025,0,2047,649
1026,1026,0,2047,1323
1027,1027,0,2046,2100
1028,1028,0,2047,2870
1029,1029,0,2046,3519
