Sample in Buffer,Sample in Window,TRIGGER,adc1_data_a_d0[11:0],adc1_data_b_d0[11:0]
0,0,0,2046,32
1,1,0,2046,181
2,2,0,2047,402
3,3,0,2047,683
4,4,0,2047,1015
5,5,0,2046,1385
6,6,0,2046,1780
7,7,0,2046,2185
8,8,0,2046,2583
9,9,0,2046,2962
10,10,0,2046,3307
11,11,0,2047,3603
12,12,0,2046,3841
13,13,0,2046,4012
14,14,0,2047,4095
15,15,0,2047,4095
16,16,0,2047,4069
17,17,0,2046,3934
18,18,0,2047,3727
19,19,0,2046,3459
20,20,0,2046,3136
21,21,0,2046,2771
22,22,0,2047,2381
23,23,0,2046,1977
24,24,0,2046,1576
25,25,0,2047,1192
26,26,0,2046,840
27,27,0,2046,532
28,28,0,2047,281
29,29,0,2046,96
30,30,0,2046,0
31,31,0,2047,0
32,32,0,2046,0
33,33,0,2047,108
34,34,0,2047,300
35,35,0,2047,557
36,36,0,2046,868
37,37,0,2046,1224
38,38,0,2047,1610
39,39,0,2046,2013
40,40,0,2046,2415
41,41,0,2046,2805
42,42,0,2046,3165
43,43,0,2046,3484
44,44,0,2046,3748
45,45,0,2046,3948
46,46,0,2047,4077
47,47,0,2047,4095
48,48,0,2047,4095
49,49,0,2047,4000
50,50,0,2046,3824
51,51,0,2046,3580
52,52,0,2047,3279
53,53,0,2046,2931
54,54,0,2047,2549
55,55,0,2046,2150
56,56,0,2046,1746
57,57,0,2047,1352
58,58,0,2047,985
59,59,0,2047,657
60,60,0,2047,381
61,61,0,2046,167
62,62,0,2046,21
63,63,0,2047,0
64,64,0,2046,0
65,65,0,2047,49
66,66,0,2046,210
67,67,0,2046,440
68,68,0,2046,729
69,69,0,2046,1068
70,70,0,2047,1442
71,71,0,2046,1840
72,72,0,2046,2245
73,73,0,2046,2642
74,74,0,2046,3016
75,75,0,2047,3354
76,76,0,2047,3643
77,77,0,2046,3871
78,78,0,2046,4031
79,79,0,2046,4095
80,80,0,2046,4095
81,81,0,2047,4054
82,82,0,2047,3908
83,83,0,2046,3691
84,84,0,2046,3413
85,85,0,2046,3083
86,86,0,2046,2715
87,87,0,2046,2322
88,88,0,2046,1917
89,89,0,2047,1517
90,90,0,2047,1137
91,91,0,2046,791
92,92,0,2047,491
93,93,0,2046,250
94,94,0,2046,74
95,95,0,2047,0
96,96,0,2047,0
97,97,0,2046,3
98,98,0,2047,133
99,99,0,2047,334
100,100,0,2047,599
101,101,0,2047,918
102,102,0,2047,1280
103,103,0,2046,1670
104,104,0,2047,2072
105,105,0,2046,2475
106,106,0,2046,2861
107,107,0,2047,3215
108,108,0,2046,3527
109,109,0,2046,3783
110,110,0,2046,3973
111,111,0,2046,4089
112,112,0,2046,4095
113,113,0,2046,4093
114,114,0,2046,3978
115,115,0,2047,3791
116,116,0,2046,3539
117,117,0,2046,3229
118,118,0,2046,2876
119,119,0,2047,2491
120,120,0,2046,2090
121,121,0,2047,1686
122,122,0,2046,1296
123,123,0,2046,934
124,124,0,2046,613
125,125,0,2046,344
126,126,0,2047,140
127,127,0,2046,7
128,128,0,2046,0
129,129,0,2046,0
130,130,0,2046,68
131,131,0,2047,240
132,132,0,2046,479
133,133,0,2046,777
134,134,0,2046,1121
135,135,0,2046,1500
136,136,0,2047,1900
137,137,0,2046,2305
138,138,0,2046,2700
139,139,0,2046,3069
140,140,0,2046,3401
141,141,0,2046,3681
142,142,0,2046,3900
143,143,0,2047,4049
144,144,0,2046,4095
145,145,0,2047,4095
146,146,0,2046,4036
147,147,0,2046,3879
148,148,0,2046,3654
149,149,0,2046,3367
150,150,0,2046,3031
151,151,0,2046,2658
152,152,0,2046,2261
153,153,0,2047,1858
154,154,0,2046,1459
155,155,0,2047,1083
156,156,0,2046,743
157,157,0,2046,452
158,158,0,2046,219
159,159,0,2047,55
160,160,0,2046,0
161,161,0,2046,0
162,162,0,2046,19
163,163,0,2046,159
164,164,0,2046,370
165,165,0,2047,643
166,166,0,2046,970
167,167,0,2047,1336
168,168,0,2046,1729
169,169,0,2046,2133
170,170,0,2046,2534
171,171,0,2047,2915
172,172,0,2046,3265
173,173,0,2046,3569
174,174,0,2046,3815
175,175,0,2047,3995
176,176,0,2046,4095
177,177,0,2047,4095
178,178,0,2046,4081
179,179,0,2046,3955
180,180,0,2047,3757
181,181,0,2046,3496
182,182,0,2047,3180
183,183,0,2047,2820
184,184,0,2047,2432
185,185,0,2046,2029
186,186,0,2046,1627
187,187,0,2047,1239
188,188,0,2047,883
189,189,0,2047,569
190,190,0,2047,310
191,191,0,2046,115
192,192,0,2046,0
193,193,0,2046,0
194,194,0,2046,0
195,195,0,2047,90
196,196,0,2047,272
197,197,0,2046,520
198,198,0,2046,826
199,199,0,2047,1176
200,200,0,2046,1560
201,201,0,2047,1961
202,202,0,2046,2365
203,203,0,2046,2757
204,204,0,2046,3121
205,205,0,2046,3446
206,206,0,2046,3718
207,207,0,2046,3927
208,208,0,2047,4065
209,209,0,2046,4095
210,210,0,2046,4095
211,211,0,2046,4018
212,212,0,2047,3850
213,213,0,2046,3615
214,214,0,2046,3320
215,215,0,2046,2978
216,216,0,2046,2600
217,217,0,2046,2201
218,218,0,2046,1796
219,219,0,2046,1401
220,220,0,2046,1030
221,221,0,2047,696
222,222,0,2046,412
223,223,0,2046,190
224,224,0,2047,37
225,225,0,2046,0
226,226,0,2047,0
227,227,0,2047,34
228,228,0,2047,186
229,229,0,2046,407
230,230,0,2046,690
231,231,0,2046,1023
232,232,0,2046,1394
233,233,0,2046,1789
234,234,0,2047,2193
235,235,0,2047,2592
236,236,0,2046,2970
237,237,0,2047,3313
238,238,0,2046,3610
239,239,0,2046,3846
240,240,0,2046,4015
241,241,0,2046,4095
242,242,0,2047,4095
243,243,0,2046,4067
244,244,0,2046,3931
245,245,0,2046,3722
246,246,0,2046,3451
247,247,0,2047,3128
248,248,0,2046,2764
249,249,0,2046,2373
250,250,0,2046,1969
251,251,0,2046,1568
252,252,0,2046,1185
253,253,0,2047,833
254,254,0,2046,526
255,255,0,2046,276
256,256,0,2046,93
257,257,0,2047,0
258,258,0,2046,0
259,259,0,2046,0
260,260,0,2046,112
261,261,0,2047,304
262,262,0,2046,562
263,263,0,2046,875
264,264,0,2047,1232
265,265,0,2046,1619
266,266,0,2046,2021
267,267,0,2047,2425
268,268,0,2046,2813
269,269,0,2047,3172
270,270,0,2047,3490
271,271,0,2046,3753
272,272,0,2046,3952
273,273,0,2046,4080
274,274,0,2046,4095
275,275,0,2046,4095
276,276,0,2046,3998
277,277,0,2046,3819
278,278,0,2046,3574
279,279,0,2046,3271
280,280,0,2046,2924
281,281,0,2046,2541
282,282,0,2046,2141
283,283,0,2046,1737
284,284,0,2047,1344
285,285,0,2047,977
286,286,0,2046,651
287,287,0,2047,376
288,288,0,2047,163
289,289,0,2047,19
290,290,0,2047,0
291,291,0,2046,0
292,292,0,2047,52
293,293,0,2047,214
294,294,0,2046,446
295,295,0,2047,736
296,296,0,2046,1076
297,297,0,2046,1451
298,298,0,2047,1848
299,299,0,2046,2253
300,300,0,2046,2650
301,301,0,2047,3024
302,302,0,2047,3361
303,303,0,2046,3649
304,304,0,2046,3876
305,305,0,2046,4034
306,306,0,2046,4095
307,307,0,2046,4095
308,308,0,2046,4052
309,309,0,2046,3904
310,310,0,2046,3686
311,311,0,2046,3407
312,312,0,2047,3077
313,313,0,2046,2707
314,314,0,2047,2313
315,315,0,2046,1909
316,316,0,2046,1510
317,317,0,2046,1130
318,318,0,2046,784
319,319,0,2046,486
320,320,0,2047,245
321,321,0,2047,71
322,322,0,2046,0
323,323,0,2047,0
324,324,0,2046,5
325,325,0,2047,136
326,326,0,2047,340
327,327,0,2046,605
328,328,0,2047,926
329,329,0,2046,1288
330,330,0,2046,1677
331,331,0,2047,2082
332,332,0,2047,2483
333,333,0,2047,2869
334,334,0,2046,3223
335,335,0,2046,3533
336,336,0,2047,3788
337,337,0,2046,3976
338,338,0,2047,4092
339,339,0,2046,4095
340,340,0,2046,4093
341,341,0,2046,3976
342,342,0,2046,3787
343,343,0,2046,3533
344,344,0,2047,3222
345,345,0,2047,2868
346,346,0,2047,2482
347,347,0,2046,2081
348,348,0,2047,1678
349,349,0,2046,1288
350,350,0,2047,926
351,351,0,2046,607
352,352,0,2047,340
353,353,0,2047,136
354,354,0,2046,5
355,355,0,2047,0
356,356,0,2047,0
357,357,0,2047,72
358,358,0,2047,245
359,359,0,2046,486
360,360,0,2047,784
361,361,0,2047,1130
362,362,0,2046,1510
363,363,0,2047,1908
364,364,0,2046,2314
365,365,0,2047,2708
366,366,0,2046,3077
367,367,0,2046,3408
368,368,0,2046,3686
369,369,0,2046,3904
370,370,0,2046,4051
371,371,0,2047,4095
372,372,0,2047,4095
373,373,0,2047,4035
374,374,0,2046,3875
375,375,0,2046,3648
376,376,0,2046,3361
377,377,0,2047,3023
378,378,0,2046,2650
379,379,0,2046,2253
380,380,0,2046,1848
381,381,0,2047,1451
382,382,0,2046,1076
383,383,0,2047,736
384,384,0,2046,445
385,385,0,2046,215
386,386,0,2046,51
387,387,0,2047,0
388,388,0,2047,0
389,389,0,2046,20
390,390,0,2046,162
391,391,0,2046,375
392,392,0,2047,651
393,393,0,2046,977
394,394,0,2046,1344
395,395,0,2047,1737
396,396,0,2046,2142
397,397,0,2046,2542
398,398,0,2047,2923
399,399,0,2046,3272
400,400,0,2047,3574
401,401,0,2046,3820
402,402,0,2047,3998
403,403,0,2046,4095
404,404,0,2046,4095
405,405,0,2046,4079
406,406,0,2047,3952
407,407,0,2046,3752
408,408,0,2046,3490
409,409,0,2046,3172
410,410,0,2046,2812
411,411,0,2046,2424
412,412,0,2046,2021
413,413,0,2046,1618
414,414,0,2046,1232
415,415,0,2046,876
416,416,0,2047,562
417,417,0,2046,305
418,418,0,2046,112
419,419,0,2046,0
420,420,0,2047,0
421,421,0,2046,0
422,422,0,2047,93
423,423,0,2046,276
424,424,0,2046,526
425,425,0,2046,832
426,426,0,2046,1184
427,427,0,2046,1567
428,428,0,2047,1969
429,429,0,2046,2373
430,430,0,2046,2765
431,431,0,2046,3129
432,432,0,2046,3452
433,433,0,2046,3723
434,434,0,2046,3930
435,435,0,2046,4067
436,436,0,2047,4095
437,437,0,2046,4095
438,438,0,2046,4016
439,439,0,2047,3846
440,440,0,2047,3609
441,441,0,2046,3312
442,442,0,2046,2970
443,443,0,2046,2592
444,444,0,2046,2193
445,445,0,2046,1789
446,446,0,2046,1393
447,447,0,2047,1022
448,448,0,2046,690
449,449,0,2046,407
450,450,0,2046,186
451,451,0,2046,34
452,452,0,2047,0
453,453,0,2046,0
454,454,0,2046,36
455,455,0,2047,189
456,456,0,2046,413
457,457,0,2046,696
458,458,0,2047,1030
459,459,0,2047,1402
460,460,0,2046,1797
461,461,0,2047,2202
462,462,0,2046,2600
463,463,0,2046,2978
464,464,0,2047,3321
465,465,0,2046,3615
466,466,0,2046,3850
467,467,0,2047,4018
468,468,0,2046,4095
469,469,0,2046,4095
470,470,0,2046,4065
471,471,0,2047,3927
472,472,0,2047,3717
473,473,0,2046,3445
474,474,0,2046,3121
475,475,0,2047,2756
476,476,0,2047,2365
477,477,0,2046,1959
478,478,0,2047,1560
479,479,0,2046,1176
480,480,0,2047,827
481,481,0,2047,520
482,482,0,2046,272
483,483,0,2046,90
484,484,0,2046,0
485,485,0,2046,0
486,486,0,2046,0
487,487,0,2047,115
488,488,0,2046,310
489,489,0,2046,569
490,490,0,2046,882
491,491,0,2046,1240
492,492,0,2046,1627
493,493,0,2046,2029
494,494,0,2047,2432
495,495,0,2047,2821
496,496,0,2047,3180
497,497,0,2046,3496
498,498,0,2046,3758
499,499,0,2047,3956
500,500,0,2047,4081
501,501,0,2047,4095
502,502,0,2047,4095
503,503,0,2046,3995
504,504,0,2047,3815
505,505,0,2046,3569
506,506,0,2046,3265
507,507,0,2046,2915
508,508,0,2047,2533
509,509,0,2047,2133
510,510,0,2047,1729
511,511,0,2046,1337
512,512,0,2046,971
513,513,0,2046,644
514,514,0,2046,370
515,515,0,2046,159
516,516,0,2047,17
517,517,0,2046,0
518,518,0,2046,0
519,519,0,2046,54
520,520,0,2046,219
521,521,0,2047,452
522,522,0,2047,743
523,523,0,2046,1083
524,524,0,2046,1460
525,525,0,2046,1857
526,526,0,2046,2262
527,527,0,2047,2658
528,528,0,2046,3031
529,529,0,2046,3367
530,530,0,2046,3654
531,531,0,2047,3880
532,532,0,2047,4037
533,533,0,2047,4095
534,534,0,2047,4095
535,535,0,2046,4049
536,536,0,2047,3900
537,537,0,2047,3680
538,538,0,2046,3400
539,539,0,2046,3069
540,540,0,2047,2699
541,541,0,2046,2304
542,542,0,2046,1901
543,543,0,2047,1501
544,544,0,2046,1122
545,545,0,2047,777
546,546,0,2047,480
547,547,0,2046,241
548,548,0,2047,68
549,549,0,2046,0
550,550,0,2046,0
551,551,0,2046,7
552,552,0,2046,140
553,553,0,2047,344
554,554,0,2046,612
555,555,0,2047,933
556,556,0,2047,1296
557,557,0,2046,1686
558,558,0,2047,2090
559,559,0,2046,2491
560,560,0,2046,2876
561,561,0,2046,3229
562,562,0,2046,3540
563,563,0,2046,3792
564,564,0,2046,3979
565,565,0,2046,4094
566,566,0,2047,4095
567,567,0,2047,4089
568,568,0,2047,3972
569,569,0,2046,3782
570,570,0,2046,3526
571,571,0,2046,3216
572,572,0,2046,2861
573,573,0,2047,2474
574,574,0,2045,2072
575,575,0,2046,1669
576,576,0,2046,1280
577,577,0,2047,918
578,578,0,2046,599
579,579,0,2047,334
580,580,0,2046,133
581,581,0,2046,3
582,582,0,2047,0
583,583,0,2045,0
584,584,0,2046,75
585,585,0,2046,249
586,586,0,2047,491
587,587,0,2046,790
588,588,0,2046,1137
589,589,0,2046,1518
590,590,0,2047,1918
591,591,0,2046,2322
592,592,0,2047,2716
593,593,0,2047,3084
594,594,0,2046,3413
595,595,0,2046,3691
596,596,0,2046,3908
597,597,0,2046,4054
598,598,0,2047,4095
599,599,0,2047,4095
600,600,0,2046,4032
601,601,0,2047,3871
602,602,0,2046,3643
603,603,0,2047,3354
604,604,0,2046,3016
605,605,0,2046,2642
606,606,0,2045,2244
607,607,0,2047,1840
608,608,0,2046,1443
609,609,0,2047,1068
610,610,0,2046,730
611,611,0,2046,441
612,612,0,2047,211
613,613,0,2046,49
614,614,0,2046,0
615,615,0,2046,0
616,616,0,2046,22
617,617,0,2047,166
618,618,0,2046,381
619,619,0,2047,657
620,620,0,2047,985
621,621,0,2047,1353
622,622,0,2047,1746
623,623,0,2047,2150
624,624,0,2047,2550
625,625,0,2047,2932
626,626,0,2047,3279
627,627,0,2046,3580
628,628,0,2046,3824
629,629,0,2046,4000
630,630,0,2047,4095
631,631,0,2047,4095
632,632,0,2046,4077
633,633,0,2047,3948
634,634,0,2047,3747
635,635,0,2046,3484
636,636,0,2047,3165
637,637,0,2047,2804
638,638,0,2047,2415
639,639,0,2046,2012
640,640,0,2047,1609
641,641,0,2046,1223
642,642,0,2047,868
643,643,0,2046,556
644,644,0,2046,300
645,645,0,2047,108
646,646,0,2046,0
647,647,0,2046,0
648,648,0,2046,0
649,649,0,2046,96
650,650,0,2047,282
651,651,0,2046,532
652,652,0,2047,840
653,653,0,2047,1192
654,654,0,2046,1576
655,655,0,2046,1978
656,656,0,2047,2381
657,657,0,2046,2772
658,658,0,2047,3137
659,659,0,2046,3459
660,660,0,2047,3728
661,661,0,2047,3934
662,662,0,2047,4069
663,663,0,2047,4095
664,664,0,2046,4095
665,665,0,2046,4012
666,666,0,2046,3841
667,667,0,2046,3603
668,668,0,2047,3307
669,669,0,2046,2962
670,670,0,2046,2583
671,671,0,2046,2184
672,672,0,2046,1780
673,673,0,2047,1385
674,674,0,2047,1015
675,675,0,2046,683
676,676,0,2047,402
677,677,0,2046,182
678,678,0,2047,32
679,679,0,2046,0
680,680,0,2047,0
681,681,0,2046,39
682,682,0,2047,194
683,683,0,2047,418
684,684,0,2046,702
685,685,0,2047,1038
686,686,0,2047,1410
687,687,0,2046,1805
688,688,0,2046,2210
689,689,0,2047,2609
690,690,0,2047,2985
691,691,0,2046,3327
692,692,0,2046,3620
693,693,0,2046,3854
694,694,0,2047,4021
695,695,0,2046,4095
696,696,0,2047,4095
697,697,0,2046,4063
698,698,0,2046,3923
699,699,0,2046,3712
700,700,0,2046,3439
701,701,0,2046,3114
702,702,0,2046,2747
703,703,0,2046,2356
704,704,0,2046,1951
705,705,0,2046,1552
706,706,0,2047,1169
707,707,0,2046,820
708,708,0,2047,515
709,709,0,2046,268
710,710,0,2047,86
711,711,0,2045,0
712,712,0,2046,0
713,713,0,2046,0
714,714,0,2046,120
715,715,0,2046,314
716,716,0,2046,574
717,717,0,2047,889
718,718,0,2046,1247
719,719,0,2046,1635
720,720,0,2046,2037
721,721,0,2046,2440
722,722,0,2047,2829
723,723,0,2047,3187
724,724,0,2046,3501
725,725,0,2047,3762
726,726,0,2047,3958
727,727,0,2047,4082
728,728,0,2047,4095
729,729,0,2046,4095
730,730,0,2046,3991
731,731,0,2046,3810
732,732,0,2046,3562
733,733,0,2046,3258
734,734,0,2046,2907
735,735,0,2046,2525
736,736,0,2047,2124
737,737,0,2046,1720
738,738,0,2047,1329
739,739,0,2047,963
740,740,0,2046,638
741,741,0,2046,365
742,742,0,2046,155
743,743,0,2047,15
744,744,0,2047,0
745,745,0,2046,0
746,746,0,2047,57
747,747,0,2047,222
748,748,0,2047,456
749,749,0,2046,750
750,750,0,2047,1091
751,751,0,2046,1468
752,752,0,2047,1866
753,753,0,2047,2270
754,754,0,2046,2667
755,755,0,2046,3039
756,756,0,2047,3375
757,757,0,2047,3660
758,758,0,2046,3883
759,759,0,2046,4039
760,760,0,2047,4095
761,761,0,2047,4095
762,762,0,2046,4047
763,763,0,2046,3895
764,764,0,2046,3676
765,765,0,2047,3394
766,766,0,2047,3061
767,767,0,2046,2691
768,768,0,2046,2296
769,769,0,2047,1891
770,770,0,2046,1492
771,771,0,2046,1114
772,772,0,2046,771
773,773,0,2047,474
774,774,0,2046,236
775,775,0,2047,66
776,776,0,2046,0
777,777,0,2046,0
778,778,0,2046,8
779,779,0,2046,144
780,780,0,2046,350
781,781,0,2047,618
782,782,0,2046,940
783,783,0,2047,1304
784,784,0,2046,1695
785,785,0,2046,2098
786,786,0,2047,2500
787,787,0,2046,2885
788,788,0,2046,3237
789,789,0,2046,3545
790,790,0,2046,3796
791,791,0,2046,3982
792,792,0,2046,4095
793,793,0,2046,4095
794,794,0,2047,4088
795,795,0,2046,3969
796,796,0,2046,3778
797,797,0,2047,3521
798,798,0,2046,3208
799,799,0,2047,2852
800,800,0,2047,2466
801,801,0,2047,2064
802,802,0,2046,1660
803,803,0,2047,1272
804,804,0,2047,912
805,805,0,2046,593
806,806,0,2046,329
807,807,0,2046,130
808,808,0,2046,1
809,809,0,2047,0
810,810,0,2046,0
811,811,0,2046,77
812,812,0,2047,254
813,813,0,2046,497
814,814,0,2046,798
815,815,0,2047,1145
816,816,0,2046,1526
817,817,0,2046,1925
818,818,0,2046,2331
819,819,0,2047,2724
820,820,0,2046,3092
821,821,0,2046,3421
822,822,0,2046,3697
823,823,0,2046,3912
824,824,0,2046,4056
825,825,0,2046,4095
826,826,0,2046,4095
827,827,0,2046,4029
828,828,0,2046,3867
829,829,0,2047,3638
830,830,0,2046,3347
831,831,0,2046,3008
832,832,0,2046,2633
833,833,0,2047,2236
834,834,0,2046,1832
835,835,0,2047,1435
836,836,0,2046,1061
837,837,0,2046,723
838,838,0,2046,435
839,839,0,2046,207
840,840,0,2047,46
841,841,0,2047,0
842,842,0,2046,0
843,843,0,2046,24
844,844,0,2046,170
845,845,0,2047,386
846,846,0,2046,663
847,847,0,2046,992
848,848,0,2046,1360
849,849,0,2046,1754
850,850,0,2046,2159
851,851,0,2046,2559
852,852,0,2046,2939
853,853,0,2046,3286
854,854,0,2046,3586
855,855,0,2047,3829
856,856,0,2046,4004
857,857,0,2047,4095
858,858,0,2046,4095
859,859,0,2046,4076
860,860,0,2046,3945
861,861,0,2046,3743
862,862,0,2047,3477
863,863,0,2046,3158
864,864,0,2047,2796
865,865,0,2046,2407
866,866,0,2047,2003
867,867,0,2046,1601
868,868,0,2046,1215
869,869,0,2047,861
870,870,0,2047,550
871,871,0,2047,294
872,872,0,2046,105
873,873,0,2046,0
874,874,0,2047,0
875,875,0,2047,0
876,876,0,2047,99
877,877,0,2047,286
878,878,0,2046,538
879,879,0,2046,846
880,880,0,2046,1200
881,881,0,2046,1585
882,882,0,2046,1986
883,883,0,2047,2390
884,884,0,2046,2780
885,885,0,2046,3143
886,886,0,2046,3464
887,887,0,2046,3733
888,888,0,2046,3937
889,889,0,2046,4072
890,890,0,2046,4095
891,891,0,2046,4095
892,892,0,2047,4010
893,893,0,2047,3837
894,894,0,2046,3597
895,895,0,2047,3300
896,896,0,2047,2955
897,897,0,2047,2575
898,898,0,2046,2175
899,899,0,2046,1771
900,900,0,2046,1377
901,901,0,2047,1008
902,902,0,2047,677
903,903,0,2046,397
904,904,0,2046,179
905,905,0,2046,30
906,906,0,2046,0
907,907,0,2046,0
908,908,0,2046,41
909,909,0,2046,197
910,910,0,2046,424
911,911,0,2046,709
912,912,0,2046,1046
913,913,0,2047,1418
914,914,0,2046,1814
915,915,0,2046,2219
916,916,0,2046,2617
917,917,0,2047,2994
918,918,0,2047,3334
919,919,0,2046,3626
920,920,0,2046,3858
921,921,0,2047,4024
922,922,0,2046,4095
923,923,0,2046,4095
924,924,0,2047,4061
925,925,0,2046,3919
926,926,0,2047,3707
927,927,0,2046,3433
928,928,0,2046,3106
929,929,0,2046,2740
930,930,0,2046,2347
931,931,0,2047,1943
932,932,0,2046,1543
933,933,0,2047,1161
934,934,0,2047,812
935,935,0,2046,509
936,936,0,2046,263
937,937,0,2046,84
938,938,0,2047,0
939,939,0,2046,0
940,940,0,2046,0
941,941,0,2046,123
942,942,0,2046,319
943,943,0,2046,581
944,944,0,2046,896
945,945,0,2047,1255
946,946,0,2046,1644
947,947,0,2046,2047
948,948,0,2047,2449
949,949,0,2046,2836
950,950,0,2047,3193
951,951,0,2047,3509
952,952,0,2046,3767
953,953,0,2046,3961
954,954,0,2046,4085
955,955,0,2047,4095
956,956,0,2047,4095
957,957,0,2047,3988
958,958,0,2047,3805
959,959,0,2047,3557
960,960,0,2047,3251
961,961,0,2046,2900
962,962,0,2046,2517
963,963,0,2046,2116
964,964,0,2046,1711
965,965,0,2046,1320
966,966,0,2046,956
967,967,0,2047,631
968,968,0,2046,359
969,969,0,2046,151
970,970,0,2046,13
971,971,0,2047,0
972,972,0,2046,0
973,973,0,2047,60
974,974,0,2046,227
975,975,0,2047,463
976,976,0,2046,757
977,977,0,2046,1099
978,978,0,2047,1477
979,979,0,2045,1874
980,980,0,2047,2279
981,981,0,2046,2675
982,982,0,2047,3047
983,983,0,2046,3381
984,984,0,2046,3665
985,985,0,2046,3888
986,986,0,2046,4042
987,987,0,2047,4095
988,988,0,2045,4095
989,989,0,2046,4044
990,990,0,2046,3892
991,991,0,2046,3671
992,992,0,2046,3387
993,993,0,2047,3054
994,994,0,2046,2682
995,995,0,2047,2287
996,996,0,2046,1882
997,997,0,2046,1484
998,998,0,2047,1106
999,999,0,2047,763
1000,1000,0,2046,468
1001,1001,0,2047,232
1002,1002,0,2046,63
1003,1003,0,2046,0
1004,1004,0,2046,0
1005,1005,0,2047,11
1006,1006,0,2047,147
1007,1007,0,2047,354
1008,1008,0,2047,625
1009,1009,0,2047,947
1010,1010,0,2046,1312
1011,1011,0,2047,1702
1012,1012,0,2047,2107
1013,1013,0,2047,2508
1014,1014,0,2046,2892
1015,1015,0,2047,3243
1016,1016,0,2047,3551
1017,1017,0,2046,3802
1018,1018,0,2047,3985
1019,1019,0,2046,4095
1020,1020,0,2047,4095
1021,1021,0,2047,4086
1022,1022,0,2046,3965
1023,1023,0,2046,3772
1024,1024,0,2047,3514
1025,1025,0,2047,3201
1026,1026,0,2046,2845
1027,1027,0,2046,2457
1028,1028,0,2046,2055
1029,1029,0,2047,1652
