Sample in Buffer,Sample in Window,TRIGGER,adc1_data_a_d0[11:0],adc1_data_b_d0[11:0]
0,0,0,2047,3203
1,1,0,2047,3638
2,2,0,2046,3947
3,3,0,2046,4095
4,4,0,2046,4095
5,5,0,2047,3932
6,6,0,2046,3613
7,7,0,2047,3172
8,8,0,2046,2640
9,9,0,2046,2060
10,10,0,2047,1481
11,11,0,2046,944
12,12,0,2047,494
13,13,0,2047,165
14,14,0,2046,0
15,15,0,2046,0
16,16,0,2046,112
17,17,0,2047,410
18,18,0,2046,837
19,19,0,2046,1357
20,20,0,2047,1933
21,21,0,2046,2516
22,22,0,2046,3062
23,23,0,2047,3527
24,24,0,2047,3875
25,25,0,2046,4077
26,26,0,2046,4095
27,27,0,2046,3994
28,28,0,2047,3717
29,29,0,2047,3307
30,30,0,2047,2796
31,31,0,2047,2226
32,32,0,2046,1642
33,33,0,2046,1087
34,34,0,2047,609
35,35,0,2047,244
36,36,0,2046,20
37,37,0,2047,0
38,38,0,2046,55
39,39,0,2047,311
40,40,0,2047,704
41,41,0,2047,1203
42,42,0,2047,1768
43,43,0,2047,2353
44,44,0,2047,2915
45,45,0,2048,3406
46,46,0,2046,3790
47,47,0,2047,4036
48,48,0,2046,4095
49,49,0,2047,4046
50,50,0,2047,3810
51,51,0,2046,3434
52,52,0,2046,2948
53,53,0,2046,2391
54,54,0,2046,1805
55,55,0,2047,1238
56,56,0,2046,734
57,57,0,2047,333
58,58,0,2047,67
59,59,0,2047,0
60,60,0,2047,10
61,61,0,2046,225
62,62,0,2047,583
63,63,0,2046,1054
64,64,0,2046,1604
65,65,0,2047,2189
66,66,0,2047,2762
67,67,0,2047,3277
68,68,0,2047,3695
69,69,0,2047,3982
70,70,0,2046,4095
71,71,0,2046,4085
72,72,0,2046,3892
73,73,0,2047,3552
74,74,0,2046,3094
75,75,0,2046,2552
76,76,0,2046,1970
77,77,0,2047,1393
78,78,0,2046,867
79,79,0,2047,433
80,80,0,2046,127
81,81,0,2047,0
82,82,0,2047,0
83,83,0,2046,148
84,84,0,2047,468
85,85,0,2047,912
86,86,0,2047,1444
87,87,0,2047,2023
88,88,0,2046,2604
89,89,0,2047,3140
90,90,0,2047,3590
91,91,0,2047,3915
92,92,0,2046,4093
93,93,0,2046,4095
94,94,0,2047,3962
95,95,0,2046,3662
96,96,0,2047,3233
97,97,0,2046,2712
98,98,0,2047,2136
99,99,0,2047,1552
100,100,0,2047,1008
101,101,0,2046,544
102,102,0,2046,199
103,103,0,2047,0
104,104,0,2047,0
105,105,0,2046,84
106,106,0,2046,364
107,107,0,2047,776
108,108,0,2046,1287
109,109,0,2046,1857
110,110,0,2046,2443
111,111,0,2047,2996
112,112,0,2047,3474
113,113,0,2046,3838
114,114,0,2047,4059
115,115,0,2046,4095
116,116,0,2046,4020
117,117,0,2047,3760
118,118,0,2046,3365
119,119,0,2047,2865
120,120,0,2046,2300
121,121,0,2047,1715
122,122,0,2046,1154
123,123,0,2046,664
124,124,0,2046,283
125,125,0,2046,39
126,126,0,2046,0
127,127,0,2047,34
128,128,0,2047,271
129,129,0,2046,648
130,130,0,2046,1136
131,131,0,2047,1694
132,132,0,2046,2281
133,133,0,2046,2846
134,134,0,2046,3349
135,135,0,2047,3748
136,136,0,2046,4013
137,137,0,2046,4095
138,138,0,2047,4065
139,139,0,2047,3847
140,140,0,2047,3488
141,141,0,2047,3015
142,142,0,2047,2465
143,143,0,2046,1879
144,144,0,2047,1307
145,145,0,2046,793
146,146,0,2047,377
147,147,0,2047,92
148,148,0,2047,0
149,149,0,2047,0
150,150,0,2047,189
151,151,0,2047,529
152,152,0,2047,989
153,153,0,2046,1531
154,154,0,2047,2115
155,155,0,2047,2691
156,156,0,2047,3216
157,157,0,2046,3649
158,158,0,2047,3953
159,159,0,2046,4095
160,160,0,2046,4095
161,161,0,2046,3925
162,162,0,2046,3603
163,163,0,2046,3157
164,164,0,2046,2624
165,165,0,2047,2045
166,166,0,2046,1464
167,167,0,2047,930
168,168,0,2046,482
169,169,0,2046,158
170,170,0,2046,0
171,171,0,2047,0
172,172,0,2046,118
173,173,0,2046,420
174,174,0,2047,850
175,175,0,2046,1372
176,176,0,2047,1949
177,177,0,2046,2533
178,178,0,2047,3076
179,179,0,2046,3538
180,180,0,2047,3882
181,181,0,2046,4079
182,182,0,2046,4095
183,183,0,2047,3989
184,184,0,2046,3707
185,185,0,2047,3294
186,186,0,2046,2782
187,187,0,2046,2210
188,188,0,2047,1625
189,189,0,2047,1073
190,190,0,2047,597
191,191,0,2047,234
192,192,0,2046,15
193,193,0,2046,0
194,194,0,2047,60
195,195,0,2047,320
196,196,0,2047,717
197,197,0,2046,1219
198,198,0,2047,1785
199,199,0,2047,2369
200,200,0,2047,2929
201,201,0,2047,3418
202,202,0,2046,3798
203,203,0,2046,4040
204,204,0,2047,4095
205,205,0,2046,4041
206,206,0,2047,3801
207,207,0,2046,3421
208,208,0,2046,2932
209,209,0,2046,2374
210,210,0,2046,1788
211,211,0,2047,1223
212,212,0,2047,721
213,213,0,2046,323
214,214,0,2047,61
215,215,0,2046,0
216,216,0,2047,15
217,217,0,2046,232
218,218,0,2047,594
219,219,0,2046,1069
220,220,0,2047,1621
221,221,0,2046,2205
222,222,0,2047,2777
223,223,0,2047,3291
224,224,0,2047,3705
225,225,0,2047,3987
226,226,0,2046,4095
227,227,0,2046,4081
228,228,0,2046,3884
229,229,0,2046,3541
230,230,0,2047,3080
231,231,0,2047,2536
232,232,0,2046,1953
233,233,0,2047,1378
234,234,0,2047,853
235,235,0,2046,423
236,236,0,2046,121
237,237,0,2047,0
238,238,0,2046,0
239,239,0,2046,156
240,240,0,2046,480
241,241,0,2047,925
242,242,0,2047,1460
243,243,0,2046,2040
244,244,0,2047,2620
245,245,0,2046,3154
246,246,0,2046,3600
247,247,0,2046,3923
248,248,0,2046,4095
249,249,0,2047,4095
250,250,0,2046,3955
251,251,0,2047,3651
252,252,0,2046,3220
253,253,0,2047,2696
254,254,0,2046,2119
255,255,0,2046,1536
256,256,0,2046,994
257,257,0,2046,533
258,258,0,2047,191
259,259,0,2046,0
260,260,0,2046,0
261,261,0,2046,90
262,262,0,2046,374
263,263,0,2047,789
264,264,0,2047,1303
265,265,0,2046,1875
266,266,0,2046,2460
267,267,0,2046,3011
268,268,0,2047,3486
269,269,0,2046,3845
270,270,0,2046,4064
271,271,0,2046,4095
272,272,0,2046,4014
273,273,0,2046,3751
274,274,0,2047,3352
275,275,0,2046,2850
276,276,0,2046,2284
277,277,0,2046,1699
278,278,0,2047,1139
279,279,0,2046,652
280,280,0,2046,274
281,281,0,2047,34
282,282,0,2047,0
283,283,0,2046,38
284,284,0,2046,280
285,285,0,2047,661
286,286,0,2047,1151
287,287,0,2046,1710
288,288,0,2046,2296
289,289,0,2047,2861
290,290,0,2047,3362
291,291,0,2046,3758
292,292,0,2046,4017
293,293,0,2047,4095
294,294,0,2046,4061
295,295,0,2046,3839
296,296,0,2047,3476
297,297,0,2046,3000
298,298,0,2046,2448
299,299,0,2046,1863
300,300,0,2047,1292
301,301,0,2047,780
302,302,0,2046,368
303,303,0,2047,87
304,304,0,2047,0
305,305,0,2047,0
306,306,0,2046,196
307,307,0,2046,541
308,308,0,2047,1004
309,309,0,2046,1548
310,310,0,2046,2130
311,311,0,2047,2707
312,312,0,2047,3230
313,313,0,2047,3659
314,314,0,2047,3960
315,315,0,2047,4095
316,316,0,2046,4094
317,317,0,2046,3918
318,318,0,2047,3591
319,319,0,2046,3143
320,320,0,2046,2608
321,321,0,2047,2028
322,322,0,2047,1449
323,323,0,2046,916
324,324,0,2047,471
325,325,0,2046,151
326,326,0,2047,0
327,327,0,2047,0
328,328,0,2047,125
329,329,0,2046,431
330,330,0,2047,863
331,331,0,2046,1388
332,332,0,2046,1966
333,333,0,2046,2548
334,334,0,2046,3091
335,335,0,2046,3550
336,336,0,2046,3890
337,337,0,2046,4083
338,338,0,2047,4095
339,339,0,2046,3984
340,340,0,2046,3697
341,341,0,2046,3281
342,342,0,2046,2766
343,343,0,2047,2193
344,344,0,2046,1609
345,345,0,2046,1058
346,346,0,2046,585
347,347,0,2047,227
348,348,0,2047,11
349,349,0,2046,0
350,350,0,2046,65
351,351,0,2047,330
352,352,0,2047,730
353,353,0,2046,1234
354,354,0,2047,1801
355,355,0,2046,2386
356,356,0,2046,2944
357,357,0,2046,3431
358,358,0,2046,3807
359,359,0,2047,4044
360,360,0,2046,4095
361,361,0,2047,4037
362,362,0,2047,3792
363,363,0,2046,3409
364,364,0,2047,2918
365,365,0,2046,2357
366,366,0,2047,1772
367,367,0,2046,1207
368,368,0,2047,709
369,369,0,2046,315
370,370,0,2046,57
371,371,0,2046,0
372,372,0,2046,18
373,373,0,2047,241
374,374,0,2046,606
375,375,0,2046,1084
376,376,0,2046,1637
377,377,0,2046,2221
378,378,0,2046,2792
379,379,0,2046,3303
380,380,0,2046,3715
381,381,0,2046,3994
382,382,0,2047,4095
383,383,0,2047,4076
384,384,0,2046,3876
385,385,0,2047,3530
386,386,0,2046,3066
387,387,0,2046,2521
388,388,0,2046,1937
389,389,0,2047,1362
390,390,0,2046,840
391,391,0,2047,413
392,392,0,2046,114
393,393,0,2046,0
394,394,0,2046,0
395,395,0,2046,163
396,396,0,2046,490
397,397,0,2046,940
398,398,0,2046,1476
399,399,0,2046,2057
400,400,0,2046,2635
401,401,0,2047,3168
402,402,0,2046,3611
403,403,0,2047,3929
404,404,0,2046,4095
405,405,0,2046,4095
406,406,0,2047,3949
407,407,0,2046,3640
408,408,0,2046,3206
409,409,0,2047,2680
410,410,0,2046,2102
411,411,0,2046,1520
412,412,0,2046,979
413,413,0,2046,522
414,414,0,2047,184
415,415,0,2046,0
416,416,0,2047,0
417,417,0,2046,96
418,418,0,2046,384
419,419,0,2046,803
420,420,0,2046,1318
421,421,0,2046,1891
422,422,0,2047,2475
423,423,0,2047,3025
424,424,0,2047,3498
425,425,0,2046,3855
426,426,0,2047,4068
427,427,0,2046,4095
428,428,0,2046,4009
429,429,0,2046,3741
430,430,0,2047,3340
431,431,0,2047,2836
432,432,0,2046,2268
433,433,0,2047,1683
434,434,0,2047,1124
435,435,0,2047,639
436,436,0,2046,266
437,437,0,2046,30
438,438,0,2047,0
439,439,0,2047,43
440,440,0,2047,289
441,441,0,2046,673
442,442,0,2047,1165
443,443,0,2046,1727
444,444,0,2046,2313
445,445,0,2047,2876
446,446,0,2046,3375
447,447,0,2047,3767
448,448,0,2047,4024
449,449,0,2046,4095
450,450,0,2046,4057
451,451,0,2046,3831
452,452,0,2047,3464
453,453,0,2046,2985
454,454,0,2047,2431
455,455,0,2046,1846
456,456,0,2046,1276
457,457,0,2046,767
458,458,0,2047,357
459,459,0,2047,81
460,460,0,2046,0
461,461,0,2046,1
462,462,0,2046,205
463,463,0,2046,552
464,464,0,2047,1018
465,465,0,2047,1563
466,466,0,2046,2147
467,467,0,2047,2722
468,468,0,2047,3244
469,469,0,2046,3669
470,470,0,2046,3967
471,471,0,2047,4095
472,472,0,2046,4091
473,473,0,2046,3910
474,474,0,2046,3581
475,475,0,2047,3130
476,476,0,2046,2593
477,477,0,2046,2011
478,478,0,2046,1433
479,479,0,2047,902
480,480,0,2046,461
481,481,0,2047,144
482,482,0,2046,0
483,483,0,2047,0
484,484,0,2046,131
485,485,0,2046,441
486,486,0,2047,877
487,487,0,2047,1405
488,488,0,2047,1982
489,489,0,2046,2564
490,490,0,2046,3104
491,491,0,2047,3561
492,492,0,2046,3898
493,493,0,2046,4086
494,494,0,2046,4095
495,495,0,2046,3977
496,496,0,2047,3687
497,497,0,2046,3267
498,498,0,2046,2750
499,499,0,2047,2178
500,500,0,2046,1592
501,501,0,2046,1044
502,502,0,2047,574
503,503,0,2046,219
504,504,0,2046,8
505,505,0,2047,0
506,506,0,2047,71
507,507,0,2047,340
508,508,0,2047,743
509,509,0,2046,1249
510,510,0,2047,1817
511,511,0,2046,2403
512,512,0,2047,2959
513,513,0,2046,3443
514,514,0,2046,3816
515,515,0,2046,4049
516,516,0,2046,4095
517,517,0,2047,4032
518,518,0,2046,3782
519,519,0,2047,3397
520,520,0,2047,2904
521,521,0,2046,2342
522,522,0,2047,1756
523,523,0,2046,1192
524,524,0,2046,696
525,525,0,2046,305
526,526,0,2047,51
527,527,0,2046,0
528,528,0,2046,22
529,529,0,2046,249
530,530,0,2046,618
531,531,0,2047,1099
532,532,0,2046,1653
533,533,0,2046,2238
534,534,0,2047,2808
535,535,0,2046,3317
536,536,0,2046,3725
537,537,0,2047,3999
538,538,0,2047,4095
539,539,0,2047,4074
540,540,0,2046,3868
541,541,0,2046,3518
542,542,0,2046,3052
543,543,0,2046,2505
544,544,0,2046,1921
545,545,0,2046,1347
546,546,0,2047,827
547,547,0,2046,403
548,548,0,2047,108
549,549,0,2046,0
550,550,0,2047,0
551,551,0,2046,170
552,552,0,2047,501
553,553,0,2047,954
554,554,0,2047,1492
555,555,0,2047,2073
556,556,0,2046,2651
557,557,0,2047,3182
558,558,0,2047,3621
559,559,0,2047,3936
560,560,0,2047,4095
561,561,0,2046,4095
562,562,0,2046,3942
563,563,0,2046,3630
564,564,0,2046,3193
565,565,0,2046,2664
566,566,0,2046,2086
567,567,0,2047,1504
568,568,0,2047,965
569,569,0,2046,511
570,570,0,2046,176
571,571,0,2047,0
572,572,0,2046,0
573,573,0,2046,102
574,574,0,2046,395
575,575,0,2047,816
576,576,0,2047,1333
577,577,0,2047,1907
578,578,0,2047,2492
579,579,0,2046,3040
580,580,0,2047,3510
581,581,0,2046,3862
582,582,0,2046,4071
583,583,0,2047,4095
584,584,0,2047,4003
585,585,0,2046,3732
586,586,0,2046,3326
587,587,0,2046,2820
588,588,0,2046,2251
589,589,0,2047,1666
590,590,0,2046,1110
591,591,0,2046,627
592,592,0,2047,257
593,593,0,2046,26
594,594,0,2046,0
595,595,0,2046,47
596,596,0,2046,297
597,597,0,2047,685
598,598,0,2046,1180
599,599,0,2047,1743
600,600,0,2046,2328
601,601,0,2046,2891
602,602,0,2046,3387
603,603,0,2046,3776
604,604,0,2046,4028
605,605,0,2046,4095
606,606,0,2046,4052
607,607,0,2046,3823
608,608,0,2046,3453
609,609,0,2046,2971
610,610,0,2047,2416
611,611,0,2046,1830
612,612,0,2046,1261
613,613,0,2047,754
614,614,0,2046,348
615,615,0,2047,75
616,616,0,2045,0
617,617,0,2046,6
618,618,0,2047,212
619,619,0,2046,564
620,620,0,2047,1032
621,621,0,2046,1580
622,622,0,2047,2164
623,623,0,2046,2738
624,624,0,2046,3257
625,625,0,2046,3680
626,626,0,2047,3972
627,627,0,2046,4095
628,628,0,2047,4088
629,629,0,2047,3903
630,630,0,2047,3569
631,631,0,2046,3116
632,632,0,2047,2576
633,633,0,2045,1995
634,634,0,2047,1417
635,635,0,2046,888
636,636,0,2046,450
637,637,0,2046,137
638,638,0,2047,0
639,639,0,2046,0
640,640,0,2046,137
641,641,0,2046,451
642,642,0,2046,890
643,643,0,2047,1420
644,644,0,2046,1999
645,645,0,2047,2580
646,646,0,2047,3118
647,647,0,2047,3572
648,648,0,2046,3905
649,649,0,2046,4089
650,650,0,2046,4095
651,651,0,2046,3972
652,652,0,2046,3677
653,653,0,2046,3253
654,654,0,2046,2734
655,655,0,2046,2161
656,656,0,2046,1577
657,657,0,2046,1029
658,658,0,2047,562
659,659,0,2046,211
660,660,0,2046,4
661,661,0,2046,0
662,662,0,2046,77
663,663,0,2046,349
664,664,0,2047,756
665,665,0,2047,1264
666,666,0,2046,1832
667,667,0,2047,2418
668,668,0,2046,2973
669,669,0,2047,3455
670,670,0,2047,3825
671,671,0,2046,4053
672,672,0,2046,4095
673,673,0,2046,4027
674,674,0,2046,3774
675,675,0,2046,3385
676,676,0,2046,2888
677,677,0,2046,2326
678,678,0,2047,1739
679,679,0,2046,1178
680,680,0,2046,683
681,681,0,2047,296
682,682,0,2047,46
683,683,0,2047,0
684,684,0,2047,27
685,685,0,2046,258
686,686,0,2046,629
687,687,0,2047,1112
688,688,0,2047,1669
689,689,0,2046,2255
690,690,0,2047,2823
691,691,0,2047,3329
692,692,0,2046,3734
693,693,0,2046,4005
694,694,0,2046,4095
695,695,0,2046,4070
696,696,0,2046,3860
697,697,0,2046,3506
698,698,0,2046,3037
699,699,0,2046,2489
700,700,0,2047,1904
701,701,0,2047,1331
702,702,0,2047,813
703,703,0,2047,392
704,704,0,2046,102
705,705,0,2047,0
706,706,0,2046,0
707,707,0,2047,177
708,708,0,2046,513
709,709,0,2047,968
710,710,0,2047,1508
711,711,0,2046,2090
712,712,0,2047,2667
713,713,0,2046,3195
714,714,0,2047,3632
715,715,0,2047,3943
716,716,0,2047,4095
717,717,0,2046,4095
718,718,0,2046,3935
719,719,0,2047,3620
720,720,0,2046,3179
721,721,0,2046,2648
722,722,0,2045,2070
723,723,0,2047,1488
724,724,0,2046,951
725,725,0,2046,500
726,726,0,2046,168
727,727,0,2046,0
728,728,0,2047,0
729,729,0,2046,108
730,730,0,2047,405
731,731,0,2047,829
732,732,0,2046,1349
733,733,0,2047,1924
734,734,0,2046,2508
735,735,0,2047,3054
736,736,0,2046,3520
737,737,0,2046,3870
738,738,0,2046,4075
739,739,0,2047,4095
740,740,0,2046,3998
741,741,0,2047,3722
742,742,0,2046,3313
743,743,0,2046,2804
744,744,0,2046,2235
745,745,0,2045,1650
746,746,0,2046,1096
747,747,0,2046,616
748,748,0,2046,249
749,749,0,2046,22
750,750,0,2046,0
751,751,0,2046,52
752,752,0,2046,307
753,753,0,2047,698
754,754,0,2047,1196
755,755,0,2046,1759
756,756,0,2046,2345
757,757,0,2047,2906
758,758,0,2046,3400
759,759,0,2047,3785
760,760,0,2047,4033
761,761,0,2047,4095
762,762,0,2046,4048
763,763,0,2047,3814
764,764,0,2047,3440
765,765,0,2046,2956
766,766,0,2046,2399
767,767,0,2046,1813
768,768,0,2046,1246
769,769,0,2046,740
770,770,0,2046,338
771,771,0,2046,69
772,772,0,2046,0
773,773,0,2046,8
774,774,0,2047,220
775,775,0,2046,575
776,776,0,2047,1046
777,777,0,2046,1596
778,778,0,2047,2180
779,779,0,2046,2753
780,780,0,2046,3270
781,781,0,2046,3689
782,782,0,2046,3978
783,783,0,2046,4095
784,784,0,2047,4085
785,785,0,2046,3896
786,786,0,2046,3558
787,787,0,2046,3101
788,788,0,2046,2561
789,789,0,2046,1979
790,790,0,2046,1401
791,791,0,2046,875
792,792,0,2046,439
793,793,0,2047,130
794,794,0,2046,0
795,795,0,2046,0
796,796,0,2047,145
797,797,0,2047,463
798,798,0,2046,904
799,799,0,2047,1436
800,800,0,2047,2015
801,801,0,2046,2596
802,802,0,2046,3132
803,803,0,2046,3584
804,804,0,2046,3912
805,805,0,2046,4092
806,806,0,2047,4095
807,807,0,2046,3964
808,808,0,2046,3666
809,809,0,2046,3241
810,810,0,2046,2719
811,811,0,2046,2144
812,812,0,2046,1560
813,813,0,2046,1015
814,814,0,2046,551
815,815,0,2047,204
816,816,0,2046,0
817,817,0,2046,0
818,818,0,2046,82
819,819,0,2046,359
820,820,0,2047,769
821,821,0,2047,1279
822,822,0,2046,1849
823,823,0,2046,2434
824,824,0,2046,2989
825,825,0,2046,3467
826,826,0,2046,3833
827,827,0,2046,4057
828,828,0,2046,4095
829,829,0,2046,4022
830,830,0,2047,3765
831,831,0,2046,3372
832,832,0,2046,2873
833,833,0,2046,2309
834,834,0,2046,1723
835,835,0,2047,1162
836,836,0,2046,671
837,837,0,2046,287
838,838,0,2046,41
839,839,0,2046,0
840,840,0,2047,32
841,841,0,2047,266
842,842,0,2047,642
843,843,0,2046,1128
844,844,0,2047,1685
845,845,0,2047,2270
846,846,0,2046,2839
847,847,0,2046,3342
848,848,0,2047,3743
849,849,0,2047,4009
850,850,0,2047,4095
851,851,0,2047,4066
852,852,0,2046,3852
853,853,0,2046,3495
854,854,0,2046,3022
855,855,0,2047,2472
856,856,0,2046,1888
857,857,0,2047,1315
858,858,0,2046,800
859,859,0,2047,383
860,860,0,2046,95
861,861,0,2046,0
862,862,0,2046,0
863,863,0,2046,185
864,864,0,2046,524
865,865,0,2046,982
866,866,0,2046,1523
867,867,0,2046,2105
868,868,0,2047,2683
869,869,0,2046,3210
870,870,0,2046,3642
871,871,0,2046,3951
872,872,0,2046,4095
873,873,0,2046,4095
874,874,0,2046,3928
875,875,0,2047,3608
876,876,0,2046,3166
877,877,0,2046,2632
878,878,0,2046,2053
879,879,0,2047,1473
880,880,0,2046,937
881,881,0,2047,488
882,882,0,2047,161
883,883,0,2046,0
884,884,0,2047,0
885,885,0,2046,115
886,886,0,2046,414
887,887,0,2046,842
888,888,0,2047,1364
889,889,0,2046,1940
890,890,0,2046,2524
891,891,0,2046,3069
892,892,0,2046,3532
893,893,0,2046,3878
894,894,0,2046,4079
895,895,0,2046,4095
896,896,0,2047,3992
897,897,0,2047,3712
898,898,0,2046,3300
899,899,0,2047,2790
900,900,0,2046,2218
901,901,0,2047,1634
902,902,0,2046,1081
903,903,0,2046,604
904,904,0,2046,240
905,905,0,2046,18
906,906,0,2047,0
907,907,0,2047,57
908,908,0,2046,316
909,909,0,2047,710
910,910,0,2046,1210
911,911,0,2046,1775
912,912,0,2045,2361
913,913,0,2047,2921
914,914,0,2046,3412
915,915,0,2047,3793
916,916,0,2047,4038
917,917,0,2047,4095
918,918,0,2046,4043
919,919,0,2046,3806
920,920,0,2046,3428
921,921,0,2047,2941
922,922,0,2047,2383
923,923,0,2047,1797
924,924,0,2046,1231
925,925,0,2047,728
926,926,0,2046,329
927,927,0,2047,65
928,928,0,2047,0
929,929,0,2046,12
930,930,0,2046,228
931,931,0,2046,588
932,932,0,2046,1061
933,933,0,2047,1612
934,934,0,2047,2196
935,935,0,2046,2769
936,936,0,2046,3283
937,937,0,2046,3700
938,938,0,2047,3985
939,939,0,2046,4095
940,940,0,2047,4082
941,941,0,2046,3888
942,942,0,2046,3547
943,943,0,2047,3088
944,944,0,2046,2545
945,945,0,2046,1962
946,946,0,2046,1385
947,947,0,2046,860
948,948,0,2046,429
949,949,0,2046,124
950,950,0,2046,0
951,951,0,2046,0
952,952,0,2046,152
953,953,0,2047,474
954,954,0,2046,919
955,955,0,2047,1452
956,956,0,2047,2032
957,957,0,2047,2611
958,958,0,2046,3146
959,959,0,2046,3595
960,960,0,2046,3919
961,961,0,2047,4094
962,962,0,2046,4095
963,963,0,2046,3958
964,964,0,2046,3656
965,965,0,2047,3226
966,966,0,2047,2704
967,967,0,2046,2128
968,968,0,2046,1545
969,969,0,2046,1001
970,970,0,2047,539
971,971,0,2046,195
972,972,0,2046,0
973,973,0,2047,0
974,974,0,2046,87
975,975,0,2047,369
976,976,0,2047,782
977,977,0,2046,1294
978,978,0,2046,1865
979,979,0,2046,2451
980,980,0,2046,3003
981,981,0,2047,3479
982,982,0,2047,3842
983,983,0,2047,4061
984,984,0,2046,4095
985,985,0,2046,4017
986,986,0,2046,3756
987,987,0,2046,3359
988,988,0,2046,2858
989,989,0,2046,2293
990,990,0,2046,1708
991,991,0,2047,1147
992,992,0,2047,659
993,993,0,2046,279
994,994,0,2047,37
995,995,0,2046,0
996,996,0,2046,35
997,997,0,2046,275
998,998,0,2047,654
999,999,0,2046,1143
1000,1000,0,2046,1702
1001,1001,0,2047,2287
1002,1002,0,2047,2853
1003,1003,0,2047,3355
1004,1004,0,2046,3752
1005,1005,0,2047,4015
1006,1006,0,2046,4095
1007,1007,0,2046,4063
1008,1008,0,2046,3844
1009,1009,0,2046,3483
1010,1010,0,2047,3008
1011,1011,0,2046,2457
1012,1012,0,2047,1872
1013,1013,0,2047,1300
1014,1014,0,2047,786
1015,1015,0,2047,373
1016,1016,0,2046,90
1017,1017,0,2047,0
1018,1018,0,2046,0
1019,1019,0,2046,193
1020,1020,0,2046,535
1021,1021,0,2047,996
1022,1022,0,2046,1539
1023,1023,0,2046,2121
1024,1024,0,2047,2698
1025,1025,0,2047,3223
1026,1026,0,2046,3654
1027,1027,0,2047,3957
1028,1028,0,2047,4095
1029,1029,0,2046,4095
