Sample in Buffer,Sample in Window,TRIGGER,adc1_data_a_d0[11:0],adc1_data_b_d0[11:0]
0,0,0,2046,2182
1,1,0,2047,1255
2,2,0,2046,490
3,3,0,2047,47
4,4,0,2046,14
5,5,0,2046,404
6,6,0,2047,1132
7,7,0,2046,2048
8,8,0,2046,2961
9,9,0,2047,3683
10,10,0,2046,4065
11,11,0,2047,4026
12,12,0,2046,3575
13,13,0,2046,2805
14,14,0,2046,1876
15,15,0,2046,981
16,16,0,2047,304
17,17,0,2047,0
18,18,0,2046,97
19,19,0,2046,609
20,20,0,2046,1417
21,21,0,2046,2353
22,22,0,2046,3225
23,23,0,2047,3850
24,24,0,2046,4095
25,25,0,2046,3922
26,26,0,2046,3354
27,27,0,2046,2512
28,28,0,2046,1573
29,29,0,2047,730
30,30,0,2046,158
31,31,0,2047,0
32,32,0,2046,222
33,33,0,2046,845
34,34,0,2046,1714
35,35,0,2046,2652
36,36,0,2046,3462
37,37,0,2046,3977
38,38,0,2047,4090
39,39,0,2047,3776
40,40,0,2046,3103
41,41,0,2046,2209
42,42,0,2046,1280
43,43,0,2047,508
44,44,0,2046,53
45,45,0,2047,10
46,46,0,2046,388
47,47,0,2046,1108
48,48,0,2047,2020
49,49,0,2047,2937
50,50,0,2047,3667
51,51,0,2046,4060
52,52,0,2046,4034
53,53,0,2046,3593
54,54,0,2047,2830
55,55,0,2047,1903
56,56,0,2046,1004
57,57,0,2046,319
58,58,0,2046,0
59,59,0,2046,88
60,60,0,2046,589
61,61,0,2047,1391
62,62,0,2047,2326
63,63,0,2046,3202
64,64,0,2047,3837
65,65,0,2046,4095
66,66,0,2046,3933
67,67,0,2046,3375
68,68,0,2047,2538
69,69,0,2046,1599
70,70,0,2046,751
71,71,0,2046,170
72,72,0,2046,0
73,73,0,2046,209
74,74,0,2046,823
75,75,0,2046,1688
76,76,0,2046,2626
77,77,0,2046,3442
78,78,0,2046,3967
79,79,0,2046,4092
80,80,0,2046,3791
81,81,0,2046,3127
82,82,0,2047,2236
83,83,0,2047,1305
84,84,0,2047,526
85,85,0,2046,61
86,86,0,2046,5
87,87,0,2046,372
88,88,0,2047,1084
89,89,0,2047,1993
90,90,0,2047,2913
91,91,0,2046,3651
92,92,0,2046,4054
93,93,0,2046,4041
94,94,0,2047,3610
95,95,0,2046,2855
96,96,0,2046,1930
97,97,0,2047,1028
98,98,0,2047,335
99,99,0,2046,0
100,100,0,2047,80
101,101,0,2046,570
102,102,0,2047,1364
103,103,0,2046,2300
104,104,0,2046,3180
105,105,0,2046,3823
106,106,0,2046,4095
107,107,0,2046,3944
108,108,0,2046,3395
109,109,0,2046,2564
110,110,0,2046,1625
111,111,0,2046,772
112,112,0,2045,181
113,113,0,2047,0
114,114,0,2046,197
115,115,0,2046,801
116,116,0,2046,1661
117,117,0,2046,2600
118,118,0,2046,3422
119,119,0,2046,3958
120,120,0,2047,4094
121,121,0,2046,3805
122,122,0,2046,3149
123,123,0,2047,2263
124,124,0,2046,1331
125,125,0,2046,545
126,126,0,2046,67
127,127,0,2046,0
128,128,0,2046,356
129,129,0,2046,1059
130,130,0,2046,1967
131,131,0,2046,2888
132,132,0,2047,3633
133,133,0,2046,4049
134,134,0,2047,4047
135,135,0,2046,3628
136,136,0,2047,2879
137,137,0,2046,1956
138,138,0,2046,1050
139,139,0,2047,350
140,140,0,2047,0
141,141,0,2046,72
142,142,0,2046,551
143,143,0,2046,1339
144,144,0,2046,2272
145,145,0,2047,3157
146,146,0,2047,3810
147,147,0,2046,4095
148,148,0,2046,3954
149,149,0,2047,3415
150,150,0,2047,2591
151,151,0,2046,1652
152,152,0,2046,793
153,153,0,2046,193
154,154,0,2046,0
155,155,0,2047,186
156,156,0,2047,779
157,157,0,2047,1634
158,158,0,2046,2574
159,159,0,2046,3402
160,160,0,2046,3947
161,161,0,2047,4095
162,162,0,2047,3819
163,163,0,2046,3172
164,164,0,2047,2291
165,165,0,2046,1356
166,166,0,2047,563
167,167,0,2046,77
168,168,0,2047,0
169,169,0,2047,340
170,170,0,2047,1035
171,171,0,2047,1940
172,172,0,2047,2864
173,173,0,2047,3616
174,174,0,2047,4042
175,175,0,2046,4053
176,176,0,2046,3646
177,177,0,2047,2904
178,178,0,2047,1983
179,179,0,2047,1075
180,180,0,2047,366
181,181,0,2047,4
182,182,0,2046,63
183,183,0,2046,532
184,184,0,2047,1313
185,185,0,2047,2245
186,186,0,2047,3134
187,187,0,2047,3796
188,188,0,2046,4093
189,189,0,2047,3963
190,190,0,2046,3435
191,191,0,2047,2616
192,192,0,2047,1678
193,193,0,2046,815
194,194,0,2047,205
195,195,0,2046,0
196,196,0,2047,174
197,197,0,2047,758
198,198,0,2047,1609
199,199,0,2046,2548
200,200,0,2047,3382
201,201,0,2046,3936
202,202,0,2046,4095
203,203,0,2047,3833
204,204,0,2046,3195
205,205,0,2046,2317
206,206,0,2046,1382
207,207,0,2046,582
208,208,0,2046,85
209,209,0,2046,0
210,210,0,2047,325
211,211,0,2046,1013
212,212,0,2046,1912
213,213,0,2046,2839
214,214,0,2046,3599
215,215,0,2046,4035
216,216,0,2046,4057
217,217,0,2046,3661
218,218,0,2047,2928
219,219,0,2046,2011
220,220,0,2046,1099
221,221,0,2046,382
222,222,0,2046,8
223,223,0,2047,56
224,224,0,2047,513
225,225,0,2046,1289
226,226,0,2046,2219
227,227,0,2047,3112
228,228,0,2046,3781
229,229,0,2047,4091
230,230,0,2046,3973
231,231,0,2047,3454
232,232,0,2047,2642
233,233,0,2046,1705
234,234,0,2047,837
235,235,0,2046,218
236,236,0,2046,0
237,237,0,2046,162
238,238,0,2046,737
239,239,0,2046,1582
240,240,0,2047,2521
241,241,0,2046,3361
242,242,0,2047,3926
243,243,0,2046,4095
244,244,0,2046,3846
245,245,0,2046,3217
246,246,0,2047,2343
247,247,0,2047,1407
248,248,0,2046,602
249,249,0,2047,94
250,250,0,2047,0
251,251,0,2046,310
252,252,0,2047,989
253,253,0,2046,1885
254,254,0,2046,2813
255,255,0,2046,3581
256,256,0,2046,4029
257,257,0,2046,4063
258,258,0,2046,3678
259,259,0,2046,2952
260,260,0,2046,2037
261,261,0,2046,1123
262,262,0,2046,398
263,263,0,2046,14
264,264,0,2047,48
265,265,0,2046,496
266,266,0,2047,1263
267,267,0,2046,2192
268,268,0,2046,3088
269,269,0,2046,3767
270,270,0,2047,4088
271,271,0,2046,3982
272,272,0,2046,3474
273,273,0,2047,2668
274,274,0,2046,1731
275,275,0,2047,859
276,276,0,2046,230
277,277,0,2047,0
278,278,0,2046,151
279,279,0,2046,716
280,280,0,2046,1556
281,281,0,2046,2495
282,282,0,2047,3340
283,283,0,2046,3915
284,284,0,2047,4095
285,285,0,2046,3859
286,286,0,2047,3239
287,287,0,2046,2370
288,288,0,2047,1433
289,289,0,2046,621
290,290,0,2046,103
291,291,0,2046,0
292,292,0,2047,296
293,293,0,2046,966
294,294,0,2047,1858
295,295,0,2046,2788
296,296,0,2047,3563
297,297,0,2046,4022
298,298,0,2047,4069
299,299,0,2046,3695
300,300,0,2046,2976
301,301,0,2047,2065
302,302,0,2046,1147
303,303,0,2046,415
304,304,0,2047,18
305,305,0,2046,41
306,306,0,2047,478
307,307,0,2046,1239
308,308,0,2047,2165
309,309,0,2047,3065
310,310,0,2047,3752
311,311,0,2047,4084
312,312,0,2047,3991
313,313,0,2047,3494
314,314,0,2046,2694
315,315,0,2047,1759
316,316,0,2046,881
317,317,0,2046,244
318,318,0,2046,0
319,319,0,2046,140
320,320,0,2047,696
321,321,0,2046,1530
322,322,0,2046,2469
323,323,0,2047,3319
324,324,0,2047,3903
325,325,0,2046,4095
326,326,0,2046,3871
327,327,0,2046,3261
328,328,0,2046,2397
329,329,0,2046,1459
330,330,0,2046,642
331,331,0,2046,113
332,332,0,2047,0
333,333,0,2047,281
334,334,0,2046,943
335,335,0,2047,1832
336,336,0,2047,2763
337,337,0,2047,3544
338,338,0,2047,4014
339,339,0,2047,4073
340,340,0,2047,3710
341,341,0,2046,3001
342,342,0,2047,2092
343,343,0,2046,1172
344,344,0,2047,432
345,345,0,2047,24
346,346,0,2046,34
347,347,0,2047,461
348,348,0,2046,1214
349,349,0,2046,2137
350,350,0,2046,3041
351,351,0,2046,3737
352,352,0,2047,4080
353,353,0,2045,4000
354,354,0,2046,3513
355,355,0,2046,2720
356,356,0,2046,1786
357,357,0,2046,905
358,358,0,2046,258
359,359,0,2046,0
360,360,0,2046,130
361,361,0,2047,676
362,362,0,2046,1504
363,363,0,2047,2442
364,364,0,2046,3297
365,365,0,2046,3892
366,366,0,2047,4095
367,367,0,2047,3884
368,368,0,2046,3283
369,369,0,2045,2423
370,370,0,2046,1484
371,371,0,2046,661
372,372,0,2047,123
373,373,0,2046,0
374,374,0,2046,267
375,375,0,2047,920
376,376,0,2046,1805
377,377,0,2047,2738
378,378,0,2047,3526
379,379,0,2047,4005
380,380,0,2047,4078
381,381,0,2047,3726
382,382,0,2046,3025
383,383,0,2047,2119
384,384,0,2046,1197
385,385,0,2047,449
386,386,0,2046,31
387,387,0,2047,28
388,388,0,2046,443
389,389,0,2046,1189
390,390,0,2046,2112
391,391,0,2047,3017
392,392,0,2046,3722
393,393,0,2046,4076
394,394,0,2046,4008
395,395,0,2046,3531
396,396,0,2046,2746
397,397,0,2046,1813
398,398,0,2046,926
399,399,0,2046,271
400,400,0,2047,0
401,401,0,2046,120
402,402,0,2046,655
403,403,0,2046,1478
404,404,0,2047,2416
405,405,0,2046,3276
406,406,0,2047,3880
407,407,0,2047,4095
408,408,0,2046,3895
409,409,0,2046,3304
410,410,0,2046,2451
411,411,0,2046,1511
412,412,0,2047,681
413,413,0,2046,134
414,414,0,2046,0
415,415,0,2046,253
416,416,0,2046,897
417,417,0,2046,1778
418,418,0,2046,2712
419,419,0,2047,3507
420,420,0,2047,3998
421,421,0,2046,4082
422,422,0,2046,3741
423,423,0,2047,3049
424,424,0,2046,2145
425,425,0,2047,1221
426,426,0,2046,466
427,427,0,2047,37
428,428,0,2046,23
429,429,0,2046,426
430,430,0,2047,1165
431,431,0,2046,2084
432,432,0,2047,2994
433,433,0,2046,3706
434,434,0,2046,4071
435,435,0,2047,4015
436,436,0,2046,3550
437,437,0,2046,2771
438,438,0,2046,1839
439,439,0,2046,949
440,440,0,2046,286
441,441,0,2047,0
442,442,0,2046,110
443,443,0,2046,635
444,444,0,2046,1451
445,445,0,2046,2389
446,446,0,2046,3254
447,447,0,2047,3867
448,448,0,2047,4095
449,449,0,2047,3907
450,450,0,2047,3325
451,451,0,2047,2477
452,452,0,2047,1537
453,453,0,2046,701
454,454,0,2047,142
455,455,0,2046,0
456,456,0,2046,240
457,457,0,2046,875
458,458,0,2047,1751
459,459,0,2047,2687
460,460,0,2046,3487
461,461,0,2046,3988
462,462,0,2047,4085
463,463,0,2047,3757
464,464,0,2047,3072
465,465,0,2046,2173
466,466,0,2046,1246
467,467,0,2046,484
468,468,0,2046,43
469,469,0,2046,17
470,470,0,2046,409
471,471,0,2046,1140
472,472,0,2047,2058
473,473,0,2047,2970
474,474,0,2047,3690
475,475,0,2047,4066
476,476,0,2046,4023
477,477,0,2047,3569
478,478,0,2047,2795
479,479,0,2047,1866
480,480,0,2047,972
481,481,0,2046,300
482,482,0,2046,0
483,483,0,2046,100
484,484,0,2046,615
485,485,0,2047,1425
486,486,0,2046,2363
487,487,0,2046,3232
488,488,0,2046,3854
489,489,0,2047,4095
490,490,0,2046,3919
491,491,0,2046,3346
492,492,0,2046,2503
493,493,0,2047,1564
494,494,0,2046,722
495,495,0,2047,155
496,496,0,2046,0
497,497,0,2046,226
498,498,0,2047,852
499,499,0,2047,1724
500,500,0,2046,2662
501,501,0,2046,3469
502,502,0,2047,3980
503,503,0,2046,4088
504,504,0,2046,3772
505,505,0,2047,3095
506,506,0,2047,2200
507,507,0,2047,1272
508,508,0,2046,502
509,509,0,2047,50
510,510,0,2046,12
511,511,0,2046,393
512,512,0,2047,1116
513,513,0,2047,2030
514,514,0,2047,2945
515,515,0,2047,3673
516,516,0,2046,4062
517,517,0,2046,4031
518,518,0,2046,3587
519,519,0,2046,2821
520,520,0,2047,1894
521,521,0,2046,995
522,522,0,2046,315
523,523,0,2047,0
524,524,0,2046,92
525,525,0,2046,596
526,526,0,2046,1399
527,527,0,2047,2336
528,528,0,2047,3209
529,529,0,2047,3842
530,530,0,2047,4095
531,531,0,2046,3930
532,532,0,2047,3367
533,533,0,2046,2529
534,534,0,2047,1590
535,535,0,2047,744
536,536,0,2047,166
537,537,0,2047,0
538,538,0,2047,214
539,539,0,2047,831
540,540,0,2047,1697
541,541,0,2046,2635
542,542,0,2046,3449
543,543,0,2047,3971
544,544,0,2046,4091
545,545,0,2047,3786
546,546,0,2047,3119
547,547,0,2046,2227
548,548,0,2046,1296
549,549,0,2046,520
550,550,0,2046,58
551,551,0,2047,6
552,552,0,2047,377
553,553,0,2046,1092
554,554,0,2046,2003
555,555,0,2047,2921
556,556,0,2047,3656
557,557,0,2046,4056
558,558,0,2047,4038
559,559,0,2046,3605
560,560,0,2046,2846
561,561,0,2046,1920
562,562,0,2047,1019
563,563,0,2046,329
564,564,0,2046,0
565,565,0,2046,83
566,566,0,2046,576
567,567,0,2046,1374
568,568,0,2046,2309
569,569,0,2047,3187
570,570,0,2047,3828
571,571,0,2046,4095
572,572,0,2046,3940
573,573,0,2047,3388
574,574,0,2047,2556
575,575,0,2047,1617
576,576,0,2047,765
577,577,0,2046,177
578,578,0,2046,0
579,579,0,2046,201
580,580,0,2046,809
581,581,0,2046,1671
582,582,0,2047,2609
583,583,0,2047,3429
584,584,0,2047,3960
585,585,0,2046,4093
586,586,0,2047,3801
587,587,0,2046,3142
588,588,0,2047,2254
589,589,0,2047,1322
590,590,0,2047,539
591,591,0,2046,66
592,592,0,2047,2
593,593,0,2046,361
594,594,0,2046,1068
595,595,0,2047,1975
596,596,0,2047,2897
597,597,0,2046,3639
598,598,0,2047,4051
599,599,0,2047,4044
600,600,0,2047,3622
601,601,0,2047,2871
602,602,0,2046,1947
603,603,0,2046,1043
604,604,0,2046,345
605,605,0,2046,0
606,606,0,2047,74
607,607,0,2047,557
608,608,0,2047,1349
609,609,0,2047,2281
610,610,0,2047,3165
611,611,0,2047,3815
612,612,0,2047,4095
613,613,0,2046,3951
614,614,0,2047,3408
615,615,0,2046,2582
616,616,0,2046,1643
617,617,0,2046,785
618,618,0,2046,190
619,619,0,2047,0
620,620,0,2047,190
621,621,0,2046,787
622,622,0,2046,1643
623,623,0,2047,2583
624,624,0,2047,3409
625,625,0,2047,3951
626,626,0,2047,4095
627,627,0,2046,3814
628,628,0,2046,3164
629,629,0,2047,2281
630,630,0,2047,1347
631,631,0,2047,557
632,632,0,2046,73
633,633,0,2047,0
634,634,0,2046,346
635,635,0,2046,1043
636,636,0,2047,1948
637,637,0,2047,2872
638,638,0,2046,3622
639,639,0,2046,4044
640,640,0,2047,4051
641,641,0,2047,3640
642,642,0,2047,2896
643,643,0,2046,1975
644,644,0,2046,1067
645,645,0,2047,360
646,646,0,2047,3
647,647,0,2046,66
648,648,0,2046,539
649,649,0,2046,1323
650,650,0,2047,2255
651,651,0,2046,3142
652,652,0,2047,3801
653,653,0,2046,4094
654,654,0,2046,3960
655,655,0,2047,3428
656,656,0,2047,2608
657,657,0,2047,1670
658,658,0,2047,808
659,659,0,2046,200
660,660,0,2047,0
661,661,0,2047,178
662,662,0,2046,765
663,663,0,2047,1617
664,664,0,2047,2555
665,665,0,2047,3388
666,666,0,2046,3940
667,667,0,2047,4095
668,668,0,2047,3828
669,669,0,2046,3187
670,670,0,2047,2308
671,671,0,2046,1374
672,672,0,2046,577
673,673,0,2046,82
674,674,0,2047,0
675,675,0,2047,330
676,676,0,2046,1020
677,677,0,2046,1921
678,678,0,2046,2847
679,679,0,2047,3604
680,680,0,2046,4038
681,681,0,2046,4057
682,682,0,2047,3656
683,683,0,2046,2920
684,684,0,2046,2002
685,685,0,2046,1091
686,686,0,2047,376
687,687,0,2047,7
688,688,0,2046,58
689,689,0,2046,521
690,690,0,2046,1297
691,691,0,2046,2228
692,692,0,2047,3120
693,693,0,2046,3787
694,694,0,2047,4091
695,695,0,2047,3970
696,696,0,2047,3449
697,697,0,2046,2634
698,698,0,2046,1696
699,699,0,2046,830
700,700,0,2046,214
701,701,0,2046,0
702,702,0,2046,166
703,703,0,2046,744
704,704,0,2046,1591
705,705,0,2047,2530
706,706,0,2046,3368
707,707,0,2047,3929
708,708,0,2046,4095
709,709,0,2047,3842
710,710,0,2046,3209
711,711,0,2046,2335
712,712,0,2046,1398
713,713,0,2046,596
714,714,0,2047,90
715,715,0,2046,0
716,716,0,2047,315
717,717,0,2046,996
718,718,0,2047,1895
719,719,0,2047,2821
720,720,0,2047,3587
721,721,0,2046,4031
722,722,0,2047,4062
723,723,0,2047,3674
724,724,0,2047,2945
725,725,0,2046,2029
726,726,0,2046,1115
727,727,0,2046,392
728,728,0,2047,12
729,729,0,2046,51
730,730,0,2047,502
731,731,0,2046,1272
732,732,0,2047,2200
733,733,0,2047,3096
734,734,0,2046,3772
735,735,0,2047,4089
736,736,0,2047,3980
737,737,0,2046,3468
738,738,0,2047,2661
739,739,0,2046,1723
740,740,0,2047,852
741,741,0,2046,226
742,742,0,2046,0
743,743,0,2047,154
744,744,0,2046,723
745,745,0,2047,1564
746,746,0,2046,2503
747,747,0,2047,3347
748,748,0,2047,3918
749,749,0,2046,4095
750,750,0,2046,3854
751,751,0,2047,3232
752,752,0,2046,2362
753,753,0,2046,1425
754,754,0,2047,615
755,755,0,2046,101
756,756,0,2046,0
757,757,0,2047,300
758,758,0,2047,973
759,759,0,2047,1867
760,760,0,2047,2796
761,761,0,2046,3568
762,762,0,2047,4023
763,763,0,2047,4067
764,764,0,2047,3690
765,765,0,2047,2968
766,766,0,2045,2056
767,767,0,2046,1140
768,768,0,2046,409
769,769,0,2046,17
770,770,0,2046,43
771,771,0,2047,484
772,772,0,2046,1247
773,773,0,2046,2174
774,774,0,2046,3072
775,775,0,2046,3757
776,776,0,2046,4086
777,777,0,2046,3988
778,778,0,2047,3488
779,779,0,2047,2686
780,780,0,2046,1750
781,781,0,2047,875
782,782,0,2046,240
783,783,0,2046,0
784,784,0,2046,143
785,785,0,2046,701
786,786,0,2046,1538
787,787,0,2047,2477
788,788,0,2047,3325
789,789,0,2047,3907
790,790,0,2046,4095
791,791,0,2047,3867
792,792,0,2046,3254
793,793,0,2047,2389
794,794,0,2046,1450
795,795,0,2047,634
796,796,0,2046,110
797,797,0,2046,0
798,798,0,2047,285
799,799,0,2046,950
800,800,0,2047,1841
801,801,0,2046,2771
802,802,0,2047,3550
803,803,0,2047,4016
804,804,0,2046,4072
805,805,0,2046,3706
806,806,0,2047,2994
807,807,0,2046,2083
808,808,0,2046,1164
809,809,0,2047,426
810,810,0,2046,22
811,811,0,2047,37
812,812,0,2047,466
813,813,0,2046,1222
814,814,0,2047,2147
815,815,0,2047,3048
816,816,0,2046,3742
817,817,0,2046,4082
818,818,0,2047,3997
819,819,0,2047,3507
820,820,0,2046,2712
821,821,0,2047,1777
822,822,0,2046,897
823,823,0,2047,254
824,824,0,2047,0
825,825,0,2046,134
826,826,0,2046,682
827,827,0,2047,1512
828,828,0,2047,2451
829,829,0,2047,3304
830,830,0,2046,3896
831,831,0,2047,4095
832,832,0,2047,3880
833,833,0,2046,3276
834,834,0,2046,2415
835,835,0,2047,1477
836,836,0,2047,655
837,837,0,2046,119
838,838,0,2046,0
839,839,0,2047,271
840,840,0,2046,927
841,841,0,2047,1813
842,842,0,2046,2746
843,843,0,2046,3531
844,844,0,2046,4008
845,845,0,2046,4076
846,846,0,2046,3722
847,847,0,2047,3018
848,848,0,2046,2111
849,849,0,2046,1188
850,850,0,2046,443
851,851,0,2046,28
852,852,0,2046,30
853,853,0,2046,449
854,854,0,2047,1197
855,855,0,2046,2120
856,856,0,2047,3025
857,857,0,2046,3726
858,858,0,2046,4077
859,859,0,2047,4006
860,860,0,2047,3526
861,861,0,2046,2738
862,862,0,2046,1804
863,863,0,2046,920
864,864,0,2047,267
865,865,0,2046,0
866,866,0,2046,123
867,867,0,2047,661
868,868,0,2046,1485
869,869,0,2047,2424
870,870,0,2047,3283
871,871,0,2047,3883
872,872,0,2046,4095
873,873,0,2046,3892
874,874,0,2046,3297
875,875,0,2046,2442
876,876,0,2046,1503
877,877,0,2047,675
878,878,0,2047,130
879,879,0,2046,0
880,880,0,2047,257
881,881,0,2047,904
882,882,0,2046,1787
883,883,0,2046,2720
884,884,0,2047,3512
885,885,0,2047,4000
886,886,0,2047,4081
887,887,0,2046,3737
888,888,0,2046,3041
889,889,0,2047,2137
890,890,0,2046,1213
891,891,0,2046,460
892,892,0,2047,35
893,893,0,2046,24
894,894,0,2046,432
895,895,0,2047,1172
896,896,0,2046,2093
897,897,0,2047,3001
898,898,0,2046,3711
899,899,0,2047,4073
900,900,0,2046,4013
901,901,0,2047,3544
902,902,0,2046,2763
903,903,0,2047,1831
904,904,0,2046,943
905,905,0,2046,281
906,906,0,2047,0
907,907,0,2046,113
908,908,0,2046,641
909,909,0,2047,1459
910,910,0,2046,2397
911,911,0,2046,3261
912,912,0,2047,3871
913,913,0,2046,4095
914,914,0,2046,3904
915,915,0,2046,3319
916,916,0,2046,2468
917,917,0,2047,1530
918,918,0,2047,695
919,919,0,2046,140
920,920,0,2047,0
921,921,0,2046,243
922,922,0,2046,881
923,923,0,2046,1760
924,924,0,2046,2695
925,925,0,2047,3493
926,926,0,2047,3992
927,927,0,2046,4084
928,928,0,2047,3752
929,929,0,2047,3066
930,930,0,2046,2165
931,931,0,2046,1239
932,932,0,2047,478
933,933,0,2046,41
934,934,0,2046,18
935,935,0,2047,414
936,936,0,2046,1148
937,937,0,2047,2065
938,938,0,2046,2977
939,939,0,2046,3695
940,940,0,2046,4068
941,941,0,2046,4021
942,942,0,2046,3563
943,943,0,2046,2788
944,944,0,2046,1858
945,945,0,2046,966
946,946,0,2046,296
947,947,0,2046,0
948,948,0,2046,104
949,949,0,2046,621
950,950,0,2046,1433
951,951,0,2047,2371
952,952,0,2046,3238
953,953,0,2046,3859
954,954,0,2046,4095
955,955,0,2047,3916
956,956,0,2046,3340
957,957,0,2047,2495
958,958,0,2046,1556
959,959,0,2046,716
960,960,0,2046,151
961,961,0,2046,0
962,962,0,2047,231
963,963,0,2047,859
964,964,0,2047,1732
965,965,0,2047,2668
966,966,0,2047,3474
967,967,0,2046,3982
968,968,0,2046,4088
969,969,0,2046,3767
970,970,0,2046,3089
971,971,0,2047,2191
972,972,0,2047,1264
973,973,0,2046,496
974,974,0,2047,48
975,975,0,2046,12
976,976,0,2046,398
977,977,0,2046,1123
978,978,0,2047,2038
979,979,0,2046,2952
980,980,0,2047,3678
981,981,0,2047,4064
982,982,0,2047,4029
983,983,0,2046,3581
984,984,0,2047,2814
985,985,0,2047,1885
986,986,0,2046,989
987,987,0,2046,309
988,988,0,2046,0
989,989,0,2047,94
990,990,0,2047,602
991,991,0,2047,1407
992,992,0,2046,2343
993,993,0,2047,3216
994,994,0,2047,3845
995,995,0,2046,4095
996,996,0,2047,3926
997,997,0,2046,3361
998,998,0,2046,2521
999,999,0,2046,1582
1000,1000,0,2046,737
1001,1001,0,2046,162
1002,1002,0,2047,0
1003,1003,0,2047,217
1004,1004,0,2047,836
1005,1005,0,2046,1705
1006,1006,0,2047,2643
1007,1007,0,2046,3454
1008,1008,0,2046,3974
1009,1009,0,2046,4090
1010,1010,0,2046,3782
1011,1011,0,2047,3112
1012,1012,0,2046,2219
1013,1013,0,2046,1289
1014,1014,0,2046,513
1015,1015,0,2047,56
1016,1016,0,2046,9
1017,1017,0,2047,381
1018,1018,0,2046,1099
1019,1019,0,2046,2011
1020,1020,0,2047,2928
1021,1021,0,2047,3661
1022,1022,0,2046,4058
1023,1023,0,2046,4037
1024,1024,0,2046,3599
1025,1025,0,2047,2839
1026,1026,0,2046,1912
1027,1027,0,2046,1012
1028,1028,0,2046,325
