Sample in Buffer,Sample in Window,TRIGGER,adc1_data_a_d0[11:0],adc1_data_b_d0[11:0]
0,0,0,2046,2585
1,1,0,2047,2125
2,2,0,2047,1661
3,3,0,2046,1215
4,4,0,2047,810
5,5,0,2046,465
6,6,0,2046,200
7,7,0,2047,26
8,8,0,2046,0
9,9,0,2046,0
10,10,0,2046,110
11,11,0,2047,337
12,12,0,2046,647
13,13,0,2047,1026
14,14,0,2046,1457
15,15,0,2047,1915
16,16,0,2046,2380
17,17,0,2046,2828
18,18,0,2046,3237
19,19,0,2046,3587
20,20,0,2047,3859
21,21,0,2047,4042
22,22,0,2047,4095
23,23,0,2046,4095
24,24,0,2046,3980
25,25,0,2046,3761
26,26,0,2046,3456
27,27,0,2047,3081
28,28,0,2047,2654
29,29,0,2046,2196
30,30,0,2047,1731
31,31,0,2046,1282
32,32,0,2046,868
33,33,0,2046,514
34,34,0,2047,235
35,35,0,2046,47
36,36,0,2047,0
37,37,0,2046,0
38,38,0,2047,83
39,39,0,2047,296
40,40,0,2046,594
41,41,0,2046,964
42,42,0,2046,1389
43,43,0,2046,1844
44,44,0,2047,2309
45,45,0,2046,2761
46,46,0,2046,3178
47,47,0,2046,3537
48,48,0,2046,3823
49,49,0,2046,4019
50,50,0,2047,4095
51,51,0,2046,4095
52,52,0,2047,4006
53,53,0,2046,3801
54,54,0,2047,3507
55,55,0,2047,3142
56,56,0,2047,2721
57,57,0,2047,2268
58,58,0,2046,1802
59,59,0,2046,1347
60,60,0,2046,928
61,61,0,2046,564
62,62,0,2047,273
63,63,0,2046,69
64,64,0,2046,0
65,65,0,2047,0
66,66,0,2046,59
67,67,0,2047,258
68,68,0,2047,544
69,69,0,2047,903
70,70,0,2047,1321
71,71,0,2047,1773
72,72,0,2046,2239
73,73,0,2046,2694
74,74,0,2046,3117
75,75,0,2047,3487
76,76,0,2046,3784
77,77,0,2046,3996
78,78,0,2047,4095
79,79,0,2046,4095
80,80,0,2046,4029
81,81,0,2047,3839
82,82,0,2047,3557
83,83,0,2047,3203
84,84,0,2046,2790
85,85,0,2046,2338
86,86,0,2047,1873
87,87,0,2046,1416
88,88,0,2047,990
89,89,0,2046,616
90,90,0,2046,312
91,91,0,2047,94
92,92,0,2046,0
93,93,0,2047,0
94,94,0,2046,37
95,95,0,2047,221
96,96,0,2047,494
97,97,0,2047,844
98,98,0,2046,1253
99,99,0,2046,1702
100,100,0,2047,2167
101,101,0,2046,2626
102,102,0,2047,3056
103,103,0,2046,3434
104,104,0,2047,3745
105,105,0,2047,3970
106,106,0,2046,4095
107,107,0,2047,4095
108,108,0,2047,4049
109,109,0,2046,3874
110,110,0,2047,3606
111,111,0,2047,3261
112,112,0,2046,2855
113,113,0,2047,2409
114,114,0,2046,1944
115,115,0,2047,1484
116,116,0,2047,1052
117,117,0,2047,669
118,118,0,2046,353
119,119,0,2046,122
120,120,0,2046,0
121,121,0,2046,0
122,122,0,2046,18
123,123,0,2046,186
124,124,0,2046,447
125,125,0,2047,787
126,126,0,2046,1188
127,127,0,2046,1632
128,128,0,2046,2096
129,129,0,2046,2557
130,130,0,2046,2993
131,131,0,2047,3381
132,132,0,2047,3702
133,133,0,2046,3941
134,134,0,2046,4086
135,135,0,2046,4095
136,136,0,2047,4068
137,137,0,2047,3907
138,138,0,2046,3653
139,139,0,2046,3318
140,140,0,2046,2920
141,141,0,2046,2479
142,142,0,2046,2016
143,143,0,2046,1554
144,144,0,2047,1115
145,145,0,2046,724
146,146,0,2046,397
147,147,0,2046,151
148,148,0,2046,0
149,149,0,2046,0
150,150,0,2046,1
151,151,0,2047,155
152,152,0,2047,402
153,153,0,2046,730
154,154,0,2047,1123
155,155,0,2047,1562
156,156,0,2047,2024
157,157,0,2046,2487
158,158,0,2046,2928
159,159,0,2046,3325
160,160,0,2046,3658
161,161,0,2046,3910
162,162,0,2046,4070
163,163,0,2047,4095
164,164,0,2046,4085
165,165,0,2047,3938
166,166,0,2047,3697
167,167,0,2047,3374
168,168,0,2046,2985
169,169,0,2046,2550
170,170,0,2046,2087
171,171,0,2046,1624
172,172,0,2046,1181
173,173,0,2046,780
174,174,0,2047,441
175,175,0,2047,182
176,176,0,2046,16
177,177,0,2046,0
178,178,0,2047,0
179,179,0,2046,125
180,180,0,2046,359
181,181,0,2046,676
182,182,0,2047,1059
183,183,0,2047,1492
184,184,0,2047,1953
185,185,0,2047,2417
186,186,0,2047,2863
187,187,0,2047,3268
188,188,0,2046,3612
189,189,0,2046,3877
190,190,0,2046,4053
191,191,0,2046,4095
192,192,0,2046,4095
193,193,0,2045,3966
194,194,0,2046,3739
195,195,0,2046,3428
196,196,0,2047,3048
197,197,0,2047,2618
198,198,0,2046,2159
199,199,0,2047,1694
200,200,0,2046,1247
201,201,0,2046,838
202,202,0,2046,489
203,203,0,2046,216
204,204,0,2046,35
205,205,0,2046,0
206,206,0,2046,0
207,207,0,2046,97
208,208,0,2047,317
209,209,0,2046,622
210,210,0,2046,997
211,211,0,2046,1424
212,212,0,2046,1882
213,213,0,2046,2347
214,214,0,2046,2796
215,215,0,2047,3208
216,216,0,2046,3563
217,217,0,2046,3842
218,218,0,2047,4031
219,219,0,2047,4095
220,220,0,2046,4095
221,221,0,2047,3993
222,222,0,2046,3781
223,223,0,2046,3482
224,224,0,2047,3111
225,225,0,2047,2686
226,226,0,2047,2230
227,227,0,2046,1765
228,228,0,2047,1313
229,229,0,2046,897
230,230,0,2046,538
231,231,0,2046,253
232,232,0,2047,57
233,233,0,2047,0
234,234,0,2047,0
235,235,0,2046,71
236,236,0,2047,277
237,237,0,2047,570
238,238,0,2046,936
239,239,0,2046,1356
240,240,0,2047,1811
241,241,0,2047,2276
242,242,0,2046,2729
243,243,0,2046,3149
244,244,0,2046,3513
245,245,0,2046,3805
246,246,0,2047,4008
247,247,0,2046,4095
248,248,0,2046,4095
249,249,0,2046,4017
250,250,0,2047,3818
251,251,0,2046,3532
252,252,0,2046,3171
253,253,0,2046,2754
254,254,0,2047,2302
255,255,0,2047,1836
256,256,0,2046,1381
257,257,0,2047,958
258,258,0,2047,588
259,259,0,2046,291
260,260,0,2047,81
261,261,0,2047,0
262,262,0,2047,0
263,263,0,2047,49
264,264,0,2046,240
265,265,0,2046,520
266,266,0,2046,876
267,267,0,2046,1288
268,268,0,2046,1739
269,269,0,2047,2205
270,270,0,2046,2661
271,271,0,2046,3088
272,272,0,2046,3462
273,273,0,2046,3766
274,274,0,2046,3983
275,275,0,2046,4095
276,276,0,2046,4095
277,277,0,2047,4040
278,278,0,2046,3855
279,279,0,2046,3581
280,280,0,2047,3230
281,281,0,2047,2821
282,282,0,2046,2372
283,283,0,2047,1907
284,284,0,2046,1448
285,285,0,2046,1020
286,286,0,2046,641
287,287,0,2047,331
288,288,0,2047,107
289,289,0,2047,0
290,290,0,2047,0
291,291,0,2047,28
292,292,0,2046,205
293,293,0,2046,472
294,294,0,2047,817
295,295,0,2046,1222
296,296,0,2047,1669
297,297,0,2046,2133
298,298,0,2046,2593
299,299,0,2047,3025
300,300,0,2046,3408
301,301,0,2047,3725
302,302,0,2046,3955
303,303,0,2046,4093
304,304,0,2047,4095
305,305,0,2046,4059
306,306,0,2046,3890
307,307,0,2047,3628
308,308,0,2046,3288
309,309,0,2047,2887
310,310,0,2047,2442
311,311,0,2046,1977
312,312,0,2046,1517
313,313,0,2047,1082
314,314,0,2046,695
315,315,0,2046,374
316,316,0,2047,136
317,317,0,2047,0
318,318,0,2047,0
319,319,0,2046,10
320,320,0,2047,171
321,321,0,2046,425
322,322,0,2047,759
323,323,0,2047,1157
324,324,0,2046,1598
325,325,0,2046,2062
326,326,0,2047,2523
327,327,0,2047,2962
328,328,0,2046,3354
329,329,0,2046,3681
330,330,0,2046,3926
331,331,0,2046,4079
332,332,0,2046,4095
333,333,0,2046,4076
334,334,0,2047,3921
335,335,0,2046,3673
336,336,0,2047,3345
337,337,0,2046,2951
338,338,0,2046,2512
339,339,0,2047,2050
340,340,0,2046,1587
341,341,0,2046,1146
342,342,0,2047,750
343,343,0,2047,418
344,344,0,2047,166
345,345,0,2046,7
346,346,0,2046,0
347,347,0,2046,0
348,348,0,2046,140
349,349,0,2047,381
350,350,0,2046,704
351,351,0,2046,1094
352,352,0,2047,1529
353,353,0,2047,1990
354,354,0,2046,2454
355,355,0,2046,2897
356,356,0,2047,3297
357,357,0,2046,3637
358,358,0,2046,3895
359,359,0,2046,4062
360,360,0,2047,4095
361,361,0,2046,4091
362,362,0,2047,3952
363,363,0,2046,3717
364,364,0,2046,3400
365,365,0,2047,3016
366,366,0,2047,2582
367,367,0,2047,2121
368,368,0,2046,1657
369,369,0,2047,1211
370,370,0,2046,807
371,371,0,2046,464
372,372,0,2047,199
373,373,0,2047,25
374,374,0,2046,0
375,375,0,2047,0
376,376,0,2046,112
377,377,0,2047,338
378,378,0,2047,649
379,379,0,2046,1030
380,380,0,2046,1460
381,381,0,2046,1919
382,382,0,2046,2383
383,383,0,2046,2831
384,384,0,2047,3240
385,385,0,2046,3588
386,386,0,2046,3861
387,387,0,2047,4042
388,388,0,2046,4095
389,389,0,2046,4095
390,390,0,2046,3980
391,391,0,2046,3759
392,392,0,2047,3453
393,393,0,2047,3078
394,394,0,2046,2652
395,395,0,2046,2193
396,396,0,2047,1727
397,397,0,2046,1278
398,398,0,2046,866
399,399,0,2047,512
400,400,0,2046,233
401,401,0,2046,45
402,402,0,2047,0
403,403,0,2046,0
404,404,0,2046,85
405,405,0,2046,298
406,406,0,2047,597
407,407,0,2046,967
408,408,0,2047,1392
409,409,0,2047,1848
410,410,0,2047,2313
411,411,0,2046,2765
412,412,0,2046,3181
413,413,0,2047,3540
414,414,0,2047,3825
415,415,0,2046,4021
416,416,0,2047,4095
417,417,0,2046,4095
418,418,0,2047,4005
419,419,0,2047,3799
420,420,0,2046,3506
421,421,0,2047,3140
422,422,0,2047,2718
423,423,0,2046,2264
424,424,0,2047,1798
425,425,0,2047,1345
426,426,0,2047,925
427,427,0,2046,562
428,428,0,2046,270
429,429,0,2047,68
430,430,0,2046,0
431,431,0,2047,0
432,432,0,2046,60
433,433,0,2046,259
434,434,0,2047,547
435,435,0,2047,906
436,436,0,2047,1324
437,437,0,2047,1776
438,438,0,2046,2242
439,439,0,2046,2697
440,440,0,2046,3120
441,441,0,2046,3490
442,442,0,2047,3787
443,443,0,2047,3997
444,444,0,2046,4095
445,445,0,2046,4095
446,446,0,2047,4028
447,447,0,2047,3837
448,448,0,2047,3556
449,449,0,2046,3199
450,450,0,2047,2785
451,451,0,2047,2334
452,452,0,2046,1870
453,453,0,2046,1413
454,454,0,2046,987
455,455,0,2045,614
456,456,0,2046,311
457,457,0,2047,93
458,458,0,2046,0
459,459,0,2046,0
460,460,0,2046,39
461,461,0,2046,222
462,462,0,2047,497
463,463,0,2047,848
464,464,0,2046,1258
465,465,0,2046,1706
466,466,0,2046,2170
467,467,0,2047,2628
468,468,0,2046,3058
469,469,0,2047,3436
470,470,0,2046,3746
471,471,0,2046,3971
472,472,0,2046,4095
473,473,0,2046,4095
474,474,0,2046,4049
475,475,0,2046,3872
476,476,0,2046,3604
477,477,0,2047,3258
478,478,0,2046,2852
479,479,0,2047,2406
480,480,0,2047,1941
481,481,0,2046,1481
482,482,0,2047,1049
483,483,0,2046,666
484,484,0,2046,352
485,485,0,2046,120
486,486,0,2047,0
487,487,0,2046,0
488,488,0,2046,18
489,489,0,2047,188
490,490,0,2046,450
491,491,0,2047,790
492,492,0,2047,1191
493,493,0,2046,1635
494,494,0,2046,2098
495,495,0,2046,2561
496,496,0,2046,2995
497,497,0,2046,3383
498,498,0,2047,3705
499,499,0,2046,3943
500,500,0,2046,4086
501,501,0,2046,4095
502,502,0,2046,4068
503,503,0,2046,3906
504,504,0,2046,3651
505,505,0,2046,3316
506,506,0,2046,2918
507,507,0,2046,2475
508,508,0,2046,2013
509,509,0,2047,1551
510,510,0,2047,1113
511,511,0,2046,722
512,512,0,2046,394
513,513,0,2046,150
514,514,0,2047,0
515,515,0,2046,0
516,516,0,2046,2
517,517,0,2047,156
518,518,0,2046,404
519,519,0,2047,734
520,520,0,2046,1126
521,521,0,2046,1565
522,522,0,2046,2028
523,523,0,2047,2490
524,524,0,2047,2931
525,525,0,2047,3327
526,526,0,2047,3660
527,527,0,2047,3912
528,528,0,2046,4071
529,529,0,2046,4095
530,530,0,2047,4083
531,531,0,2047,3937
532,532,0,2046,3695
533,533,0,2046,3372
534,534,0,2047,2982
535,535,0,2046,2545
536,536,0,2046,2084
537,537,0,2046,1621
538,538,0,2046,1177
539,539,0,2046,778
540,540,0,2046,439
541,541,0,2046,181
542,542,0,2047,16
543,543,0,2046,0
544,544,0,2046,0
545,545,0,2046,126
546,546,0,2046,360
547,547,0,2046,678
548,548,0,2046,1062
549,549,0,2047,1496
550,550,0,2046,1956
551,551,0,2047,2421
552,552,0,2047,2865
553,553,0,2047,3270
554,554,0,2046,3614
555,555,0,2047,3879
556,556,0,2046,4053
557,557,0,2046,4095
558,558,0,2046,4095
559,559,0,2046,3965
560,560,0,2046,3738
561,561,0,2046,3426
562,562,0,2047,3045
563,563,0,2047,2615
564,564,0,2047,2156
565,565,0,2046,1690
566,566,0,2046,1243
567,567,0,2047,835
568,568,0,2046,487
569,569,0,2046,215
570,570,0,2046,34
571,571,0,2046,0
572,572,0,2046,0
573,573,0,2046,99
574,574,0,2046,319
575,575,0,2047,624
576,576,0,2046,999
577,577,0,2046,1427
578,578,0,2047,1885
579,579,0,2046,2349
580,580,0,2046,2800
581,581,0,2046,3212
582,582,0,2046,3565
583,583,0,2046,3844
584,584,0,2046,4032
585,585,0,2046,4095
586,586,0,2046,4095
587,587,0,2046,3992
588,588,0,2046,3778
589,589,0,2046,3479
590,590,0,2046,3107
591,591,0,2046,2683
592,592,0,2047,2226
593,593,0,2046,1761
594,594,0,2046,1310
595,595,0,2046,894
596,596,0,2046,535
597,597,0,2047,251
598,598,0,2046,56
599,599,0,2046,0
600,600,0,2046,0
601,601,0,2046,73
602,602,0,2046,279
603,603,0,2047,573
604,604,0,2047,939
605,605,0,2047,1359
606,606,0,2046,1814
607,607,0,2047,2279
608,608,0,2047,2733
609,609,0,2047,3153
610,610,0,2047,3516
611,611,0,2047,3807
612,612,0,2046,4010
613,613,0,2046,4095
614,614,0,2046,4095
615,615,0,2047,4015
616,616,0,2047,3817
617,617,0,2046,3529
618,618,0,2046,3168
619,619,0,2046,2751
620,620,0,2047,2298
621,621,0,2047,1833
622,622,0,2047,1377
623,623,0,2047,954
624,624,0,2046,586
625,625,0,2047,289
626,626,0,2047,79
627,627,0,2047,0
628,628,0,2046,0
629,629,0,2046,50
630,630,0,2046,241
631,631,0,2047,522
632,632,0,2046,879
633,633,0,2046,1292
634,634,0,2046,1743
635,635,0,2046,2208
636,636,0,2047,2665
637,637,0,2046,3090
638,638,0,2047,3465
639,639,0,2046,3767
640,640,0,2046,3985
641,641,0,2046,4095
642,642,0,2047,4095
643,643,0,2046,4039
644,644,0,2047,3854
645,645,0,2046,3579
646,646,0,2046,3227
647,647,0,2046,2818
648,648,0,2046,2369
649,649,0,2047,1904
650,650,0,2046,1445
651,651,0,2046,1017
652,652,0,2046,637
653,653,0,2047,329
654,654,0,2047,105
655,655,0,2047,0
656,656,0,2046,0
657,657,0,2047,28
658,658,0,2047,205
659,659,0,2046,475
660,660,0,2047,820
661,661,0,2046,1226
662,662,0,2047,1672
663,663,0,2047,2136
664,664,0,2047,2596
665,665,0,2047,3029
666,666,0,2047,3411
667,667,0,2046,3727
668,668,0,2047,3958
669,669,0,2046,4094
670,670,0,2047,4095
671,671,0,2046,4058
672,672,0,2046,3888
673,673,0,2046,3626
674,674,0,2046,3286
675,675,0,2047,2884
676,676,0,2047,2439
677,677,0,2046,1976
678,678,0,2046,1514
679,679,0,2047,1079
680,680,0,2046,692
681,681,0,2046,372
682,682,0,2046,134
683,683,0,2046,0
684,684,0,2047,0
685,685,0,2046,10
686,686,0,2047,173
687,687,0,2047,429
688,688,0,2046,762
689,689,0,2047,1161
690,690,0,2047,1603
691,691,0,2047,2065
692,692,0,2046,2527
693,693,0,2046,2965
694,694,0,2046,3357
695,695,0,2047,3683
696,696,0,2047,3928
697,697,0,2047,4080
698,698,0,2046,4095
699,699,0,2046,4075
700,700,0,2046,3920
701,701,0,2046,3672
702,702,0,2047,3342
703,703,0,2046,2948
704,704,0,2046,2509
705,705,0,2047,2047
706,706,0,2046,1584
707,707,0,2046,1143
708,708,0,2046,747
709,709,0,2047,416
710,710,0,2046,164
711,711,0,2046,6
712,712,0,2047,0
713,713,0,2046,0
714,714,0,2046,142
715,715,0,2046,383
716,716,0,2047,707
717,717,0,2047,1096
718,718,0,2046,1532
719,719,0,2046,1994
720,720,0,2046,2458
721,721,0,2047,2901
722,722,0,2047,3300
723,723,0,2047,3639
724,724,0,2047,3897
725,725,0,2047,4063
726,726,0,2047,4095
727,727,0,2045,4091
728,728,0,2047,3951
729,729,0,2046,3716
730,730,0,2047,3397
731,731,0,2046,3013
732,732,0,2046,2578
733,733,0,2046,2118
734,734,0,2047,1653
735,735,0,2046,1208
736,736,0,2046,804
737,737,0,2047,461
738,738,0,2046,197
739,739,0,2047,23
740,740,0,2046,0
741,741,0,2046,0
742,742,0,2047,113
743,743,0,2046,341
744,744,0,2046,653
745,745,0,2047,1033
746,746,0,2046,1463
747,747,0,2046,1922
748,748,0,2046,2387
749,749,0,2046,2835
750,750,0,2046,3243
751,751,0,2046,3591
752,752,0,2046,3863
753,753,0,2046,4044
754,754,0,2047,4095
755,755,0,2046,4095
756,756,0,2046,3977
757,757,0,2047,3757
758,758,0,2046,3452
759,759,0,2046,3075
760,760,0,2046,2647
761,761,0,2046,2189
762,762,0,2046,1725
763,763,0,2046,1275
764,764,0,2047,863
765,765,0,2046,509
766,766,0,2046,233
767,767,0,2047,44
768,768,0,2046,0
769,769,0,2047,0
770,770,0,2046,86
771,771,0,2046,300
772,772,0,2046,600
773,773,0,2046,971
774,774,0,2046,1394
775,775,0,2047,1851
776,776,0,2046,2317
777,777,0,2046,2768
778,778,0,2046,3184
779,779,0,2047,3542
780,780,0,2046,3827
781,781,0,2046,4021
782,782,0,2046,4095
783,783,0,2047,4095
784,784,0,2046,4004
785,785,0,2046,3797
786,786,0,2047,3503
787,787,0,2046,3137
788,788,0,2046,2715
789,789,0,2047,2260
790,790,0,2047,1795
791,791,0,2046,1342
792,792,0,2046,922
793,793,0,2046,559
794,794,0,2046,269
795,795,0,2046,67
796,796,0,2047,0
797,797,0,2046,0
798,798,0,2046,62
799,799,0,2046,261
800,800,0,2046,549
801,801,0,2046,910
802,802,0,2046,1328
803,803,0,2046,1780
804,804,0,2047,2246
805,805,0,2046,2700
806,806,0,2047,3122
807,807,0,2046,3492
808,808,0,2046,3789
809,809,0,2047,3999
810,810,0,2047,4095
811,811,0,2046,4095
812,812,0,2047,4027
813,813,0,2047,3835
814,814,0,2046,3553
815,815,0,2046,3197
816,816,0,2046,2783
817,817,0,2046,2331
818,818,0,2046,1866
819,819,0,2046,1409
820,820,0,2046,983
821,821,0,2046,610
822,822,0,2046,308
823,823,0,2046,91
824,824,0,2046,0
825,825,0,2047,0
826,826,0,2046,39
827,827,0,2046,225
828,828,0,2047,500
829,829,0,2047,851
830,830,0,2047,1260
831,831,0,2046,1709
832,832,0,2046,2174
833,833,0,2046,2632
834,834,0,2047,3061
835,835,0,2046,3440
836,836,0,2046,3749
837,837,0,2047,3973
838,838,0,2046,4095
839,839,0,2046,4095
840,840,0,2047,4048
841,841,0,2047,3870
842,842,0,2046,3602
843,843,0,2046,3255
844,844,0,2046,2849
845,845,0,2046,2402
846,846,0,2046,1937
847,847,0,2046,1477
848,848,0,2046,1046
849,849,0,2047,664
850,850,0,2046,350
851,851,0,2046,118
852,852,0,2047,0
853,853,0,2047,0
854,854,0,2047,20
855,855,0,2047,190
856,856,0,2047,452
857,857,0,2047,793
858,858,0,2046,1195
859,859,0,2046,1639
860,860,0,2046,2103
861,861,0,2046,2564
862,862,0,2046,2998
863,863,0,2047,3386
864,864,0,2047,3706
865,865,0,2046,3943
866,866,0,2046,4088
867,867,0,2046,4095
868,868,0,2046,4067
869,869,0,2047,3903
870,870,0,2047,3648
871,871,0,2046,3313
872,872,0,2047,2914
873,873,0,2047,2472
874,874,0,2046,2009
875,875,0,2046,1547
876,876,0,2046,1110
877,877,0,2047,718
878,878,0,2047,393
879,879,0,2047,148
880,880,0,2046,0
881,881,0,2047,0
882,882,0,2046,2
883,883,0,2046,158
884,884,0,2046,406
885,885,0,2046,736
886,886,0,2047,1130
887,887,0,2046,1569
888,888,0,2046,2032
889,889,0,2046,2494
890,890,0,2047,2934
891,891,0,2046,3330
892,892,0,2046,3662
893,893,0,2046,3913
894,894,0,2046,4072
895,895,0,2046,4095
896,896,0,2047,4083
897,897,0,2046,3935
898,898,0,2046,3693
899,899,0,2047,3369
900,900,0,2047,2979
901,901,0,2046,2542
902,902,0,2047,2081
903,903,0,2046,1617
904,904,0,2045,1174
905,905,0,2046,775
906,906,0,2047,437
907,907,0,2047,179
908,908,0,2046,14
909,909,0,2046,0
910,910,0,2046,0
911,911,0,2047,128
912,912,0,2046,363
913,913,0,2046,680
914,914,0,2046,1066
915,915,0,2046,1499
916,916,0,2046,1960
917,917,0,2047,2424
918,918,0,2046,2869
919,919,0,2046,3273
920,920,0,2046,3617
921,921,0,2046,3881
922,922,0,2046,4054
923,923,0,2047,4095
924,924,0,2046,4095
925,925,0,2046,3964
926,926,0,2047,3736
927,927,0,2047,3422
928,928,0,2047,3042
929,929,0,2047,2611
930,930,0,2047,2152
931,931,0,2046,1687
932,932,0,2047,1240
933,933,0,2046,832
934,934,0,2047,484
935,935,0,2046,213
936,936,0,2047,33
937,937,0,2047,0
938,938,0,2047,0
939,939,0,2046,100
940,940,0,2046,321
941,941,0,2047,627
942,942,0,2046,1004
943,943,0,2047,1431
944,944,0,2046,1889
945,945,0,2046,2354
946,946,0,2047,2803
947,947,0,2046,3215
948,948,0,2047,3568
949,949,0,2046,3846
950,950,0,2046,4034
951,951,0,2046,4095
952,952,0,2046,4095
953,953,0,2046,3990
954,954,0,2046,3776
955,955,0,2047,3476
956,956,0,2046,3105
957,957,0,2047,2680
958,958,0,2047,2223
959,959,0,2047,1758
960,960,0,2046,1306
961,961,0,2046,891
962,962,0,2046,533
963,963,0,2047,249
964,964,0,2047,54
965,965,0,2046,0
966,966,0,2047,0
967,967,0,2046,74
968,968,0,2047,281
969,969,0,2046,575
970,970,0,2046,942
971,971,0,2046,1363
972,972,0,2047,1817
973,973,0,2047,2282
974,974,0,2046,2736
975,975,0,2046,3156
976,976,0,2047,3518
977,977,0,2046,3809
978,978,0,2047,4011
979,979,0,2046,4095
980,980,0,2047,4095
981,981,0,2046,4015
982,982,0,2046,3815
983,983,0,2046,3527
984,984,0,2046,3165
985,985,0,2046,2747
986,986,0,2046,2294
987,987,0,2046,1829
988,988,0,2047,1373
989,989,0,2046,952
990,990,0,2046,583
991,991,0,2046,286
992,992,0,2046,78
993,993,0,2047,0
994,994,0,2046,0
995,995,0,2047,51
996,996,0,2046,244
997,997,0,2046,525
998,998,0,2046,882
999,999,0,2046,1295
1000,1000,0,2046,1746
1001,1001,0,2046,2212
1002,1002,0,2047,2668
1003,1003,0,2046,3094
1004,1004,0,2046,3468
1005,1005,0,2047,3770
1006,1006,0,2047,3986
1007,1007,0,2046,4095
1008,1008,0,2047,4095
1009,1009,0,2047,4037
1010,1010,0,2046,3852
1011,1011,0,2046,3576
1012,1012,0,2046,3224
1013,1013,0,2046,2814
1014,1014,0,2046,2365
1015,1015,0,2047,1900
1016,1016,0,2047,1441
1017,1017,0,2047,1013
1018,1018,0,2046,636
1019,1019,0,2047,328
1020,1020,0,2047,104
1021,1021,0,2047,0
1022,1022,0,2047,0
1023,1023,0,2047,30
1024,1024,0,2046,208
1025,1025,0,2047,477
1026,1026,0,2047,823
1027,1027,0,2047,1229
1028,1028,0,2047,1676
1029,1029,0,2046,2140
1030,1030,0,2046,2600
