Sample in Buffer,Sample in Window,TRIGGER,adc1_data_a_d0[11:0],adc1_data_b_d0[11:0]
0,0,0,2047,730
1,1,0,2047,1184
2,2,0,2047,1695
3,3,0,2046,2228
4,4,0,2047,2749
5,5,0,2047,3224
6,6,0,2046,3620
7,7,0,2047,3914
8,8,0,2046,4085
9,9,0,2046,4095
10,10,0,2046,4023
11,11,0,2046,3794
12,12,0,2046,3450
13,13,0,2046,3015
14,14,0,2046,2516
15,15,0,2046,1984
16,16,0,2046,1457
17,17,0,2047,967
18,18,0,2047,549
19,19,0,2047,227
20,20,0,2047,23
21,21,0,2046,0
22,22,0,2046,16
23,23,0,2046,213
24,24,0,2046,529
25,25,0,2047,944
26,26,0,2047,1430
27,27,0,2047,1956
28,28,0,2046,2488
29,29,0,2047,2990
30,30,0,2046,3430
31,31,0,2046,3779
32,32,0,2047,4015
33,33,0,2046,4095
34,34,0,2046,4091
35,35,0,2047,3926
36,36,0,2046,3639
37,37,0,2046,3246
38,38,0,2046,2776
39,39,0,2047,2257
40,40,0,2046,1723
41,41,0,2046,1210
42,42,0,2047,751
43,43,0,2046,378
44,44,0,2047,111
45,45,0,2046,0
46,46,0,2046,0
47,47,0,2046,96
48,48,0,2046,354
49,49,0,2046,721
50,50,0,2047,1175
51,51,0,2047,1685
52,52,0,2047,2218
53,53,0,2046,2739
54,54,0,2047,3215
55,55,0,2047,3614
56,56,0,2046,3909
57,57,0,2046,4083
58,58,0,2046,4095
59,59,0,2046,4026
60,60,0,2046,3799
61,61,0,2046,3458
62,62,0,2047,3023
63,63,0,2047,2525
64,64,0,2046,1994
65,65,0,2047,1467
66,66,0,2046,977
67,67,0,2046,556
68,68,0,2047,232
69,69,0,2047,27
70,70,0,2046,0
71,71,0,2046,13
72,72,0,2047,208
73,73,0,2046,522
74,74,0,2046,935
75,75,0,2047,1419
76,76,0,2047,1946
77,77,0,2046,2477
78,78,0,2047,2980
79,79,0,2046,3422
80,80,0,2046,3773
81,81,0,2047,4010
82,82,0,2046,4095
83,83,0,2047,4092
84,84,0,2046,3930
85,85,0,2046,3645
86,86,0,2047,3255
87,87,0,2046,2786
88,88,0,2046,2267
89,89,0,2047,1733
90,90,0,2047,1219
91,91,0,2046,760
92,92,0,2047,384
93,93,0,2047,115
94,94,0,2046,0
95,95,0,2047,0
96,96,0,2046,93
97,97,0,2046,348
98,98,0,2046,713
99,99,0,2047,1165
100,100,0,2046,1674
101,101,0,2047,2208
102,102,0,2047,2729
103,103,0,2047,3206
104,104,0,2046,3608
105,105,0,2046,3905
106,106,0,2047,4080
107,107,0,2046,4095
108,108,0,2046,4029
109,109,0,2047,3806
110,110,0,2046,3466
111,111,0,2046,3033
112,112,0,2047,2535
113,113,0,2046,2005
114,114,0,2046,1477
115,115,0,2047,986
116,116,0,2047,564
117,117,0,2047,238
118,118,0,2046,29
119,119,0,2046,0
120,120,0,2047,10
121,121,0,2047,202
122,122,0,2046,515
123,123,0,2046,926
124,124,0,2047,1410
125,125,0,2046,1936
126,126,0,2046,2467
127,127,0,2046,2971
128,128,0,2047,3414
129,129,0,2046,3767
130,130,0,2046,4007
131,131,0,2047,4095
132,132,0,2047,4094
133,133,0,2046,3935
134,134,0,2046,3652
135,135,0,2047,3264
136,136,0,2047,2796
137,137,0,2047,2277
138,138,0,2046,1744
139,139,0,2046,1230
140,140,0,2046,769
141,141,0,2046,390
142,142,0,2047,120
143,143,0,2047,0
144,144,0,2047,0
145,145,0,2047,89
146,146,0,2047,341
147,147,0,2046,706
148,148,0,2046,1156
149,149,0,2046,1664
150,150,0,2047,2197
151,151,0,2046,2720
152,152,0,2046,3198
153,153,0,2047,3600
154,154,0,2047,3899
155,155,0,2047,4078
156,156,0,2046,4095
157,157,0,2046,4032
158,158,0,2046,3811
159,159,0,2046,3473
160,160,0,2046,3042
161,161,0,2046,2546
162,162,0,2046,2016
163,163,0,2046,1487
164,164,0,2046,995
165,165,0,2047,571
166,166,0,2046,243
167,167,0,2046,32
168,168,0,2046,0
169,169,0,2046,8
170,170,0,2046,198
171,171,0,2046,507
172,172,0,2046,917
173,173,0,2046,1399
174,174,0,2046,1925
175,175,0,2046,2456
176,176,0,2047,2961
177,177,0,2046,3406
178,178,0,2046,3761
179,179,0,2046,4003
180,180,0,2046,4095
181,181,0,2046,4095
182,182,0,2046,3939
183,183,0,2046,3659
184,184,0,2046,3271
185,185,0,2047,2804
186,186,0,2046,2288
187,187,0,2046,1755
188,188,0,2047,1240
189,189,0,2046,778
190,190,0,2047,397
191,191,0,2046,125
192,192,0,2046,0
193,193,0,2047,0
194,194,0,2046,85
195,195,0,2046,336
196,196,0,2046,697
197,197,0,2047,1146
198,198,0,2047,1654
199,199,0,2046,2187
200,200,0,2047,2710
201,201,0,2047,3188
202,202,0,2046,3593
203,203,0,2046,3895
204,204,0,2047,4076
205,205,0,2046,4095
206,206,0,2047,4036
207,207,0,2046,3817
208,208,0,2046,3482
209,209,0,2046,3052
210,210,0,2046,2556
211,211,0,2047,2027
212,212,0,2046,1497
213,213,0,2046,1005
214,214,0,2047,579
215,215,0,2047,248
216,216,0,2046,35
217,217,0,2047,0
218,218,0,2047,6
219,219,0,2047,193
220,220,0,2046,500
221,221,0,2046,907
222,222,0,2047,1389
223,223,0,2047,1914
224,224,0,2046,2446
225,225,0,2046,2952
226,226,0,2046,3398
227,227,0,2047,3754
228,228,0,2046,3999
229,229,0,2046,4095
230,230,0,2046,4095
231,231,0,2047,3943
232,232,0,2046,3666
233,233,0,2047,3281
234,234,0,2046,2815
235,235,0,2046,2298
236,236,0,2047,1765
237,237,0,2046,1249
238,238,0,2047,786
239,239,0,2047,404
240,240,0,2046,128
241,241,0,2046,0
242,242,0,2047,0
243,243,0,2047,82
244,244,0,2047,330
245,245,0,2047,689
246,246,0,2046,1137
247,247,0,2047,1643
248,248,0,2046,2175
249,249,0,2046,2700
250,250,0,2047,3179
251,251,0,2046,3585
252,252,0,2046,3890
253,253,0,2046,4073
254,254,0,2046,4095
255,255,0,2047,4039
256,256,0,2046,3822
257,257,0,2046,3489
258,258,0,2046,3062
259,259,0,2046,2567
260,260,0,2046,2036
261,261,0,2046,1508
262,262,0,2046,1014
263,263,0,2047,586
264,264,0,2046,253
265,265,0,2046,38
266,266,0,2046,0
267,267,0,2046,3
268,268,0,2047,188
269,269,0,2046,493
270,270,0,2046,899
271,271,0,2046,1380
272,272,0,2046,1903
273,273,0,2046,2435
274,274,0,2046,2942
275,275,0,2046,3390
276,276,0,2046,3749
277,277,0,2046,3997
278,278,0,2047,4095
279,279,0,2046,4095
280,280,0,2047,3948
281,281,0,2046,3672
282,282,0,2046,3289
283,283,0,2046,2824
284,284,0,2046,2309
285,285,0,2046,1776
286,286,0,2046,1260
287,287,0,2046,794
288,288,0,2046,410
289,289,0,2046,132
290,290,0,2046,0
291,291,0,2047,0
292,292,0,2047,78
293,293,0,2047,323
294,294,0,2047,681
295,295,0,2046,1128
296,296,0,2047,1633
297,297,0,2046,2165
298,298,0,2047,2689
299,299,0,2047,3171
300,300,0,2046,3577
301,301,0,2047,3886
302,302,0,2046,4072
303,303,0,2046,4095
304,304,0,2046,4042
305,305,0,2046,3828
306,306,0,2046,3497
307,307,0,2047,3070
308,308,0,2047,2576
309,309,0,2046,2047
310,310,0,2047,1518
311,311,0,2046,1023
312,312,0,2046,594
313,313,0,2046,259
314,314,0,2046,41
315,315,0,2047,0
316,316,0,2046,1
317,317,0,2047,183
318,318,0,2046,486
319,319,0,2046,891
320,320,0,2046,1369
321,321,0,2047,1893
322,322,0,2046,2425
323,323,0,2047,2932
324,324,0,2047,3382
325,325,0,2046,3743
326,326,0,2046,3992
327,327,0,2046,4095
328,328,0,2046,4095
329,329,0,2046,3952
330,330,0,2047,3679
331,331,0,2046,3298
332,332,0,2046,2835
333,333,0,2047,2319
334,334,0,2047,1786
335,335,0,2046,1269
336,336,0,2046,803
337,337,0,2046,417
338,338,0,2046,137
339,339,0,2047,0
340,340,0,2046,0
341,341,0,2046,74
342,342,0,2046,318
343,343,0,2046,673
344,344,0,2047,1118
345,345,0,2046,1622
346,346,0,2046,2155
347,347,0,2046,2679
348,348,0,2046,3162
349,349,0,2047,3571
350,350,0,2047,3881
351,351,0,2047,4069
352,352,0,2046,4095
353,353,0,2046,4045
354,354,0,2046,3833
355,355,0,2046,3503
356,356,0,2046,3079
357,357,0,2046,2587
358,358,0,2047,2058
359,359,0,2046,1528
360,360,0,2046,1033
361,361,0,2046,602
362,362,0,2046,265
363,363,0,2047,44
364,364,0,2046,0
365,365,0,2046,0
366,366,0,2046,179
367,367,0,2046,478
368,368,0,2047,881
369,369,0,2046,1360
370,370,0,2046,1882
371,371,0,2046,2415
372,372,0,2046,2923
373,373,0,2047,3373
374,374,0,2046,3737
375,375,0,2046,3988
376,376,0,2046,4095
377,377,0,2046,4095
378,378,0,2046,3956
379,379,0,2046,3685
380,380,0,2047,3306
381,381,0,2047,2844
382,382,0,2047,2330
383,383,0,2046,1797
384,384,0,2047,1279
385,385,0,2046,812
386,386,0,2047,423
387,387,0,2046,141
388,388,0,2047,0
389,389,0,2047,0
390,390,0,2046,70
391,391,0,2046,311
392,392,0,2047,665
393,393,0,2046,1109
394,394,0,2047,1612
395,395,0,2046,2144
396,396,0,2046,2669
397,397,0,2046,3152
398,398,0,2047,3564
399,399,0,2046,3876
400,400,0,2046,4066
401,401,0,2047,4095
402,402,0,2046,4047
403,403,0,2046,3838
404,404,0,2046,3512
405,405,0,2046,3089
406,406,0,2046,2597
407,407,0,2046,2068
408,408,0,2046,1539
409,409,0,2046,1041
410,410,0,2046,610
411,411,0,2047,270
412,412,0,2047,47
413,413,0,2046,0
414,414,0,2047,0
415,415,0,2046,174
416,416,0,2047,471
417,417,0,2046,873
418,418,0,2047,1349
419,419,0,2047,1871
420,420,0,2046,2404
421,421,0,2047,2913
422,422,0,2046,3365
423,423,0,2046,3730
424,424,0,2047,3985
425,425,0,2046,4095
426,426,0,2046,4095
427,427,0,2047,3961
428,428,0,2046,3691
429,429,0,2046,3314
430,430,0,2047,2854
431,431,0,2046,2341
432,432,0,2046,1807
433,433,0,2047,1289
434,434,0,2046,819
435,435,0,2046,431
436,436,0,2046,146
437,437,0,2047,0
438,438,0,2047,0
439,439,0,2047,67
440,440,0,2046,306
441,441,0,2046,658
442,442,0,2047,1099
443,443,0,2046,1602
444,444,0,2047,2133
445,445,0,2046,2659
446,446,0,2047,3144
447,447,0,2047,3556
448,448,0,2046,3871
449,449,0,2046,4065
450,450,0,2046,4095
451,451,0,2046,4051
452,452,0,2046,3843
453,453,0,2047,3519
454,454,0,2046,3097
455,455,0,2046,2608
456,456,0,2047,2079
457,457,0,2047,1549
458,458,0,2046,1051
459,459,0,2046,616
460,460,0,2047,276
461,461,0,2047,51
462,462,0,2047,0
463,463,0,2046,0
464,464,0,2046,169
465,465,0,2046,465
466,466,0,2047,864
467,467,0,2047,1340
468,468,0,2046,1861
469,469,0,2046,2394
470,470,0,2046,2904
471,471,0,2046,3357
472,472,0,2047,3724
473,473,0,2046,3981
474,474,0,2046,4095
475,475,0,2046,4095
476,476,0,2046,3965
477,477,0,2046,3697
478,478,0,2046,3323
479,479,0,2046,2863
480,480,0,2047,2351
481,481,0,2047,1819
482,482,0,2046,1299
483,483,0,2046,828
484,484,0,2047,437
485,485,0,2047,150
486,486,0,2046,0
487,487,0,2047,0
488,488,0,2046,64
489,489,0,2046,300
490,490,0,2047,649
491,491,0,2046,1090
492,492,0,2047,1592
493,493,0,2047,2123
494,494,0,2046,2649
495,495,0,2047,3135
496,496,0,2046,3549
497,497,0,2046,3865
498,498,0,2047,4061
499,499,0,2047,4095
500,500,0,2046,4053
501,501,0,2047,3849
502,502,0,2046,3526
503,503,0,2047,3107
504,504,0,2046,2617
505,505,0,2047,2091
506,506,0,2046,1559
507,507,0,2047,1060
508,508,0,2047,625
509,509,0,2047,282
510,510,0,2046,53
511,511,0,2046,0
512,512,0,2047,0
513,513,0,2046,164
514,514,0,2047,458
515,515,0,2047,855
516,516,0,2046,1330
517,517,0,2046,1850
518,518,0,2046,2383
519,519,0,2046,2894
520,520,0,2046,3349
521,521,0,2046,3717
522,522,0,2047,3978
523,523,0,2046,4095
524,524,0,2046,4095
525,525,0,2047,3969
526,526,0,2047,3704
527,527,0,2047,3331
528,528,0,2047,2874
529,529,0,2047,2361
530,530,0,2047,1828
531,531,0,2046,1308
532,532,0,2046,837
533,533,0,2047,443
534,534,0,2046,154
535,535,0,2046,0
536,536,0,2046,0
537,537,0,2047,60
538,538,0,2046,294
539,539,0,2047,641
540,540,0,2047,1080
541,541,0,2046,1581
542,542,0,2046,2113
543,543,0,2046,2639
544,544,0,2047,3126
545,545,0,2046,3542
546,546,0,2047,3860
547,547,0,2047,4059
548,548,0,2046,4095
549,549,0,2046,4055
550,550,0,2046,3854
551,551,0,2046,3534
552,552,0,2046,3116
553,553,0,2047,2627
554,554,0,2046,2100
555,555,0,2046,1570
556,556,0,2047,1069
557,557,0,2046,632
558,558,0,2047,287
559,559,0,2046,57
560,560,0,2046,0
561,561,0,2046,0
562,562,0,2047,160
563,563,0,2046,452
564,564,0,2047,847
565,565,0,2047,1320
566,566,0,2046,1840
567,567,0,2046,2373
568,568,0,2046,2884
569,569,0,2047,3341
570,570,0,2046,3712
571,571,0,2046,3973
572,572,0,2046,4095
573,573,0,2046,4095
574,574,0,2046,3973
575,575,0,2047,3710
576,576,0,2047,3340
577,577,0,2046,2884
578,578,0,2047,2372
579,579,0,2047,1839
580,580,0,2047,1318
581,581,0,2046,846
582,582,0,2046,450
583,583,0,2047,159
584,584,0,2046,0
585,585,0,2047,0
586,586,0,2046,57
587,587,0,2047,288
588,588,0,2047,633
589,589,0,2046,1070
590,590,0,2046,1571
591,591,0,2047,2102
592,592,0,2047,2629
593,593,0,2047,3117
594,594,0,2047,3535
595,595,0,2046,3855
596,596,0,2046,4056
597,597,0,2047,4095
598,598,0,2046,4059
599,599,0,2046,3859
600,600,0,2046,3540
601,601,0,2047,3125
602,602,0,2046,2637
603,603,0,2047,2111
604,604,0,2046,1579
605,605,0,2046,1078
606,606,0,2046,640
607,607,0,2047,294
608,608,0,2046,60
609,609,0,2046,0
610,610,0,2046,0
611,611,0,2046,155
612,612,0,2046,445
613,613,0,2046,838
614,614,0,2047,1310
615,615,0,2046,1829
616,616,0,2047,2363
617,617,0,2047,2875
618,618,0,2047,3332
619,619,0,2046,3705
620,620,0,2046,3969
621,621,0,2047,4095
622,622,0,2046,4095
623,623,0,2046,3977
624,624,0,2047,3717
625,625,0,2046,3347
626,626,0,2047,2893
627,627,0,2046,2382
628,628,0,2047,1849
629,629,0,2046,1328
630,630,0,2046,853
631,631,0,2046,457
632,632,0,2047,163
633,633,0,2047,0
634,634,0,2046,0
635,635,0,2047,54
636,636,0,2046,282
637,637,0,2047,625
638,638,0,2047,1061
639,639,0,2046,1561
640,640,0,2047,2091
641,641,0,2047,2618
642,642,0,2047,3108
643,643,0,2046,3528
644,644,0,2047,3850
645,645,0,2047,4053
646,646,0,2047,4095
647,647,0,2047,4061
648,648,0,2046,3865
649,649,0,2046,3548
650,650,0,2047,3134
651,651,0,2047,2648
652,652,0,2047,2122
653,653,0,2047,1590
654,654,0,2047,1088
655,655,0,2047,648
656,656,0,2047,299
657,657,0,2046,63
658,658,0,2046,0
659,659,0,2046,0
660,660,0,2046,151
661,661,0,2047,437
662,662,0,2046,829
663,663,0,2047,1299
664,664,0,2046,1819
665,665,0,2047,2353
666,666,0,2046,2865
667,667,0,2046,3324
668,668,0,2046,3699
669,669,0,2046,3965
670,670,0,2046,4095
671,671,0,2047,4095
672,672,0,2046,3980
673,673,0,2046,3723
674,674,0,2047,3356
675,675,0,2046,2903
676,676,0,2047,2392
677,677,0,2047,1859
678,678,0,2046,1339
679,679,0,2047,862
680,680,0,2047,464
681,681,0,2047,167
682,682,0,2046,0
683,683,0,2047,0
684,684,0,2046,50
685,685,0,2047,277
686,686,0,2046,618
687,687,0,2046,1052
688,688,0,2046,1550
689,689,0,2046,2080
690,690,0,2047,2609
691,691,0,2047,3099
692,692,0,2047,3519
693,693,0,2046,3845
694,694,0,2046,4051
695,695,0,2046,4095
696,696,0,2046,4064
697,697,0,2047,3870
698,698,0,2046,3556
699,699,0,2046,3143
700,700,0,2046,2658
701,701,0,2046,2132
702,702,0,2047,1600
703,703,0,2046,1097
704,704,0,2046,655
705,705,0,2048,305
706,706,0,2047,67
707,707,0,2046,0
708,708,0,2047,0
709,709,0,2046,146
710,710,0,2047,431
711,711,0,2047,820
712,712,0,2047,1290
713,713,0,2046,1808
714,714,0,2047,2342
715,715,0,2046,2856
716,716,0,2046,3316
717,717,0,2047,3692
718,718,0,2046,3961
719,719,0,2046,4095
720,720,0,2046,4095
721,721,0,2047,3984
722,722,0,2046,3729
723,723,0,2046,3364
724,724,0,2047,2912
725,725,0,2047,2403
726,726,0,2046,1870
727,727,0,2047,1348
728,728,0,2047,872
729,729,0,2047,472
730,730,0,2047,174
731,731,0,2047,0
732,732,0,2047,0
733,733,0,2047,47
734,734,0,2046,271
735,735,0,2046,610
736,736,0,2046,1043
737,737,0,2046,1540
738,738,0,2047,2070
739,739,0,2047,2599
740,740,0,2046,3090
741,741,0,2046,3512
742,742,0,2047,3839
743,743,0,2047,4048
744,744,0,2046,4095
745,745,0,2046,4066
746,746,0,2046,3875
747,747,0,2046,3563
748,748,0,2046,3152
749,749,0,2046,2667
750,750,0,2047,2142
751,751,0,2046,1611
752,752,0,2046,1107
753,753,0,2046,664
754,754,0,2047,310
755,755,0,2046,70
756,756,0,2047,0
757,757,0,2047,0
758,758,0,2046,142
759,759,0,2046,425
760,760,0,2047,812
761,761,0,2046,1280
762,762,0,2047,1798
763,763,0,2046,2331
764,764,0,2046,2846
765,765,0,2046,3308
766,766,0,2046,3686
767,767,0,2046,3957
768,768,0,2047,4095
769,769,0,2047,4095
770,770,0,2047,3988
771,771,0,2047,3735
772,772,0,2047,3373
773,773,0,2047,2922
774,774,0,2046,2413
775,775,0,2047,1881
776,776,0,2047,1358
777,777,0,2046,880
778,778,0,2047,478
779,779,0,2047,178
780,780,0,2046,0
781,781,0,2046,0
782,782,0,2046,44
783,783,0,2046,266
784,784,0,2046,603
785,785,0,2047,1034
786,786,0,2047,1530
787,787,0,2046,2059
788,788,0,2047,2589
789,789,0,2046,3080
790,790,0,2047,3505
791,791,0,2046,3834
792,792,0,2046,4045
793,793,0,2046,4095
794,794,0,2046,4069
795,795,0,2046,3880
796,796,0,2047,3570
797,797,0,2046,3161
798,798,0,2046,2678
799,799,0,2046,2153
800,800,0,2046,1621
801,801,0,2046,1117
802,802,0,2047,672
803,803,0,2046,317
804,804,0,2047,73
805,805,0,2047,0
806,806,0,2046,0
807,807,0,2047,137
808,808,0,2046,417
809,809,0,2046,804
810,810,0,2047,1270
811,811,0,2047,1788
812,812,0,2047,2321
813,813,0,2046,2836
814,814,0,2047,3299
815,815,0,2047,3680
816,816,0,2046,3954
817,817,0,2047,4095
818,818,0,2047,4095
819,819,0,2047,3992
820,820,0,2046,3741
821,821,0,2046,3380
822,822,0,2046,2931
823,823,0,2047,2424
824,824,0,2047,1891
825,825,0,2047,1368
826,826,0,2047,889
827,827,0,2046,485
828,828,0,2046,182
829,829,0,2046,1
830,830,0,2046,0
831,831,0,2046,41
832,832,0,2047,260
833,833,0,2047,595
834,834,0,2047,1024
835,835,0,2046,1519
836,836,0,2046,2049
837,837,0,2046,2578
838,838,0,2046,3071
839,839,0,2047,3498
840,840,0,2046,3828
841,841,0,2046,4042
842,842,0,2046,4095
843,843,0,2046,4071
844,844,0,2047,3885
845,845,0,2046,3577
846,846,0,2047,3169
847,847,0,2047,2688
848,848,0,2047,2164
849,849,0,2046,1632
850,850,0,2046,1126
851,851,0,2046,680
852,852,0,2046,324
853,853,0,2046,78
854,854,0,2047,0
855,855,0,2046,0
856,856,0,2046,133
857,857,0,2046,411
858,858,0,2046,795
859,859,0,2047,1260
860,860,0,2046,1777
861,861,0,2046,2311
862,862,0,2047,2826
863,863,0,2047,3290
864,864,0,2046,3674
865,865,0,2046,3948
866,866,0,2046,4095
867,867,0,2046,4095
868,868,0,2047,3996
869,869,0,2046,3748
870,870,0,2047,3388
871,871,0,2046,2941
872,872,0,2047,2434
873,873,0,2046,1902
874,874,0,2046,1378
875,875,0,2047,899
876,876,0,2046,493
877,877,0,2047,187
878,878,0,2047,4
879,879,0,2046,0
880,880,0,2046,38
881,881,0,2046,255
882,882,0,2046,587
883,883,0,2047,1015
884,884,0,2047,1510
885,885,0,2046,2038
886,886,0,2046,2568
887,887,0,2046,3062
888,888,0,2046,3490
889,889,0,2046,3823
890,890,0,2046,4039
891,891,0,2047,4095
892,892,0,2047,4074
893,893,0,2046,3890
894,894,0,2046,3585
895,895,0,2047,3179
896,896,0,2046,2698
897,897,0,2046,2174
898,898,0,2046,1642
899,899,0,2046,1136
900,900,0,2047,688
901,901,0,2047,329
902,902,0,2046,81
903,903,0,2046,0
904,904,0,2047,0
905,905,0,2046,129
906,906,0,2047,405
907,907,0,2046,786
908,908,0,2046,1250
909,909,0,2047,1766
910,910,0,2046,2300
911,911,0,2046,2816
912,912,0,2046,3282
913,913,0,2047,3666
914,914,0,2046,3944
915,915,0,2046,4095
916,916,0,2046,4095
917,917,0,2046,4000
918,918,0,2045,3753
919,919,0,2046,3396
920,920,0,2046,2950
921,921,0,2046,2445
922,922,0,2047,1913
923,923,0,2046,1389
924,924,0,2046,907
925,925,0,2047,500
926,926,0,2046,192
927,927,0,2046,6
928,928,0,2046,0
929,929,0,2047,35
930,930,0,2046,248
931,931,0,2047,580
932,932,0,2046,1006
933,933,0,2047,1499
934,934,0,2047,2028
935,935,0,2046,2557
936,936,0,2047,3054
937,937,0,2047,3482
938,938,0,2047,3818
939,939,0,2046,4036
940,940,0,2047,4095
941,941,0,2047,4076
942,942,0,2047,3895
943,943,0,2047,3592
944,944,0,2047,3187
945,945,0,2046,2708
946,946,0,2047,2186
947,947,0,2046,1652
948,948,0,2046,1145
949,949,0,2046,696
950,950,0,2047,336
951,951,0,2047,85
952,952,0,2046,0
953,953,0,2047,0
954,954,0,2046,123
955,955,0,2047,397
956,956,0,2047,779
957,957,0,2046,1241
958,958,0,2046,1756
959,959,0,2046,2290
960,960,0,2047,2807
961,961,0,2047,3274
962,962,0,2046,3660
963,963,0,2046,3941
964,964,0,2046,4095
965,965,0,2046,4095
966,966,0,2046,4004
967,967,0,2046,3760
968,968,0,2047,3405
969,969,0,2046,2960
970,970,0,2046,2455
971,971,0,2047,1923
972,972,0,2046,1399
973,973,0,2047,916
974,974,0,2046,506
975,975,0,2046,197
976,976,0,2047,9
977,977,0,2047,0
978,978,0,2046,32
979,979,0,2047,244
980,980,0,2046,572
981,981,0,2046,997
982,982,0,2046,1489
983,983,0,2047,2017
984,984,0,2046,2547
985,985,0,2046,3044
986,986,0,2046,3475
987,987,0,2046,3812
988,988,0,2047,4033
989,989,0,2046,4095
990,990,0,2046,4078
991,991,0,2046,3899
992,992,0,2046,3599
993,993,0,2047,3196
994,994,0,2047,2718
995,995,0,2046,2196
996,996,0,2046,1663
997,997,0,2046,1155
998,998,0,2046,704
999,999,0,2046,341
1000,1000,0,2046,88
1001,1001,0,2047,0
1002,1002,0,2047,0
1003,1003,0,2046,120
1004,1004,0,2047,391
1005,1005,0,2046,769
1006,1006,0,2046,1231
1007,1007,0,2047,1746
1008,1008,0,2047,2279
1009,1009,0,2046,2797
1010,1010,0,2046,3265
1011,1011,0,2046,3653
1012,1012,0,2046,3937
1013,1013,0,2046,4094
1014,1014,0,2046,4095
1015,1015,0,2047,4006
1016,1016,0,2047,3766
1017,1017,0,2047,3413
1018,1018,0,2046,2970
1019,1019,0,2047,2466
1020,1020,0,2047,1934
1021,1021,0,2046,1409
1022,1022,0,2047,925
1023,1023,0,2046,515
1024,1024,0,2047,202
1025,1025,0,2047,11
1026,1026,0,2046,0
1027,1027,0,2046,29
1028,1028,0,2046,238
1029,1029,0,2046,564
1030,1030,0,2046,987
