Sample in Buffer,Sample in Window,TRIGGER,adc1_data_a_d0[11:0],adc1_data_b_d0[11:0]
0,0,0,2046,346
1,1,0,2046,522
2,2,0,2047,723
3,3,0,2047,947
4,4,0,2047,1192
5,5,0,2046,1450
6,6,0,2047,1718
7,7,0,2046,1992
8,8,0,2047,2266
9,9,0,2047,2538
10,10,0,2046,2799
11,11,0,2046,3047
12,12,0,2047,3278
13,13,0,2047,3488
14,14,0,2047,3672
15,15,0,2046,3828
16,16,0,2046,3952
17,17,0,2047,4042
18,18,0,2046,4095
19,19,0,2046,4095
20,20,0,2047,4095
21,21,0,2047,4052
22,22,0,2046,3965
23,23,0,2047,3844
24,24,0,2046,3693
25,25,0,2047,3512
26,26,0,2046,3306
27,27,0,2047,3077
28,28,0,2046,2830
29,29,0,2047,2569
30,30,0,2047,2299
31,31,0,2047,2024
32,32,0,2047,1750
33,33,0,2047,1480
34,34,0,2047,1219
35,35,0,2046,973
36,36,0,2046,746
37,37,0,2046,541
38,38,0,2047,362
39,39,0,2047,213
40,40,0,2046,96
41,41,0,2047,12
42,42,0,2046,0
43,43,0,2047,0
44,44,0,2046,0
45,45,0,2047,39
46,46,0,2047,136
47,47,0,2047,265
48,48,0,2046,425
49,49,0,2046,613
50,50,0,2046,827
51,51,0,2047,1061
52,52,0,2046,1312
53,53,0,2046,1576
54,54,0,2046,1847
55,55,0,2047,2122
56,56,0,2046,2395
57,57,0,2046,2662
58,58,0,2047,2919
59,59,0,2046,3160
60,60,0,2047,3380
61,61,0,2046,3579
62,62,0,2046,3749
63,63,0,2047,3891
64,64,0,2047,3999
65,65,0,2047,4074
66,66,0,2046,4095
67,67,0,2046,4095
68,68,0,2046,4084
69,69,0,2047,4015
70,70,0,2046,3913
71,71,0,2047,3777
72,72,0,2047,3611
73,73,0,2046,3418
74,74,0,2047,3200
75,75,0,2046,2962
76,76,0,2046,2709
77,77,0,2047,2443
78,78,0,2047,2170
79,79,0,2046,1895
80,80,0,2047,1622
81,81,0,2046,1356
82,82,0,2046,1102
83,83,0,2046,864
84,84,0,2046,647
85,85,0,2046,453
86,86,0,2047,288
87,87,0,2047,153
88,88,0,2047,52
89,89,0,2047,0
90,90,0,2047,0
91,91,0,2046,0
92,92,0,2047,3
93,93,0,2046,81
94,94,0,2047,192
95,95,0,2047,337
96,96,0,2046,510
97,97,0,2047,710
98,98,0,2047,935
99,99,0,2046,1177
100,100,0,2046,1435
101,101,0,2046,1703
102,102,0,2046,1976
103,103,0,2047,2250
104,104,0,2046,2522
105,105,0,2046,2784
106,106,0,2047,3034
107,107,0,2047,3266
108,108,0,2046,3477
109,109,0,2047,3662
110,110,0,2047,3820
111,111,0,2046,3946
112,112,0,2047,4039
113,113,0,2047,4095
114,114,0,2047,4095
115,115,0,2046,4095
116,116,0,2046,4055
117,117,0,2047,3971
118,118,0,2047,3853
119,119,0,2046,3701
120,120,0,2046,3523
121,121,0,2047,3318
122,122,0,2046,3091
123,123,0,2046,2845
124,124,0,2047,2584
125,125,0,2047,2314
126,126,0,2046,2041
127,127,0,2047,1766
128,128,0,2047,1495
129,129,0,2047,1234
130,130,0,2046,987
131,131,0,2047,759
132,132,0,2046,552
133,133,0,2046,372
134,134,0,2046,221
135,135,0,2047,101
136,136,0,2046,16
137,137,0,2046,0
138,138,0,2046,0
139,139,0,2047,0
140,140,0,2046,35
141,141,0,2047,130
142,142,0,2046,257
143,143,0,2047,415
144,144,0,2046,602
145,145,0,2046,813
146,146,0,2046,1047
147,147,0,2046,1297
148,148,0,2046,1560
149,149,0,2046,1831
150,150,0,2046,2105
151,151,0,2046,2380
152,152,0,2047,2646
153,153,0,2046,2904
154,154,0,2046,3146
155,155,0,2046,3368
156,156,0,2046,3568
157,157,0,2047,3741
158,158,0,2047,3883
159,159,0,2046,3994
160,160,0,2046,4071
161,161,0,2046,4095
162,162,0,2047,4095
163,163,0,2046,4087
164,164,0,2046,4019
165,165,0,2046,3919
166,166,0,2046,3785
167,167,0,2046,3621
168,168,0,2046,3429
169,169,0,2046,3213
170,170,0,2046,2977
171,171,0,2046,2724
172,172,0,2046,2459
173,173,0,2046,2187
174,174,0,2046,1910
175,175,0,2046,1637
176,176,0,2047,1370
177,177,0,2047,1116
178,178,0,2047,876
179,179,0,2046,659
180,180,0,2047,464
181,181,0,2047,297
182,182,0,2047,161
183,183,0,2046,57
184,184,0,2047,0
185,185,0,2046,0
186,186,0,2046,0
187,187,0,2047,0
188,188,0,2046,75
189,189,0,2046,185
190,190,0,2047,328
191,191,0,2047,500
192,192,0,2047,699
193,193,0,2047,922
194,194,0,2046,1163
195,195,0,2046,1420
196,196,0,2046,1688
197,197,0,2047,1961
198,198,0,2046,2235
199,199,0,2046,2507
200,200,0,2047,2770
201,201,0,2046,3021
202,202,0,2046,3254
203,203,0,2047,3466
204,204,0,2046,3652
205,205,0,2046,3811
206,206,0,2046,3940
207,207,0,2046,4034
208,208,0,2046,4095
209,209,0,2047,4095
210,210,0,2047,4095
211,211,0,2047,4060
212,212,0,2046,3976
213,213,0,2046,3860
214,214,0,2046,3712
215,215,0,2047,3534
216,216,0,2046,3330
217,217,0,2047,3104
218,218,0,2046,2858
219,219,0,2046,2600
220,220,0,2047,2330
221,221,0,2047,2056
222,222,0,2046,1780
223,223,0,2047,1510
224,224,0,2047,1249
225,225,0,2046,1001
226,226,0,2046,770
227,227,0,2047,563
228,228,0,2046,381
229,229,0,2047,229
230,230,0,2046,107
231,231,0,2047,20
232,232,0,2046,0
233,233,0,2047,0
234,234,0,2046,0
235,235,0,2046,31
236,236,0,2046,123
237,237,0,2047,249
238,238,0,2047,405
239,239,0,2046,591
240,240,0,2046,801
241,241,0,2047,1033
242,242,0,2047,1282
243,243,0,2046,1544
244,244,0,2047,1816
245,245,0,2047,2090
246,246,0,2046,2364
247,247,0,2046,2632
248,248,0,2047,2889
249,249,0,2046,3133
250,250,0,2047,3356
251,251,0,2046,3557
252,252,0,2046,3731
253,253,0,2047,3876
254,254,0,2047,3989
255,255,0,2046,4067
256,256,0,2046,4095
257,257,0,2047,4095
258,258,0,2046,4090
259,259,0,2047,4024
260,260,0,2047,3926
261,261,0,2046,3794
262,262,0,2047,3631
263,263,0,2046,3441
264,264,0,2047,3226
265,265,0,2046,2991
266,266,0,2046,2738
267,267,0,2046,2474
268,268,0,2047,2202
269,269,0,2046,1926
270,270,0,2046,1653
271,271,0,2046,1385
272,272,0,2047,1130
273,273,0,2046,890
274,274,0,2046,669
275,275,0,2046,475
276,276,0,2046,306
277,277,0,2046,167
278,278,0,2047,62
279,279,0,2046,0
280,280,0,2046,0
281,281,0,2047,0
282,282,0,2046,0
283,283,0,2047,70
284,284,0,2047,177
285,285,0,2046,319
286,286,0,2047,489
287,287,0,2046,687
288,288,0,2046,908
289,289,0,2046,1149
290,290,0,2046,1404
291,291,0,2047,1672
292,292,0,2046,1945
293,293,0,2046,2220
294,294,0,2047,2491
295,295,0,2046,2755
296,296,0,2046,3006
297,297,0,2047,3240
298,298,0,2046,3454
299,299,0,2046,3642
300,300,0,2046,3803
301,301,0,2046,3933
302,302,0,2047,4029
303,303,0,2047,4091
304,304,0,2047,4095
305,305,0,2047,4095
306,306,0,2047,4063
307,307,0,2047,3981
308,308,0,2047,3868
309,309,0,2046,3721
310,310,0,2046,3545
311,311,0,2047,3343
312,312,0,2046,3118
313,313,0,2047,2874
314,314,0,2046,2615
315,315,0,2047,2346
316,316,0,2046,2072
317,317,0,2046,1796
318,318,0,2046,1526
319,319,0,2046,1263
320,320,0,2046,1015
321,321,0,2047,784
322,322,0,2046,575
323,323,0,2046,391
324,324,0,2046,236
325,325,0,2047,114
326,326,0,2047,25
327,327,0,2046,0
328,328,0,2046,0
329,329,0,2047,0
330,330,0,2047,27
331,331,0,2047,116
332,332,0,2047,241
333,333,0,2046,396
334,334,0,2046,579
335,335,0,2046,788
336,336,0,2047,1020
337,337,0,2046,1268
338,338,0,2047,1530
339,339,0,2046,1800
340,340,0,2046,2075
341,341,0,2047,2348
342,342,0,2046,2617
343,343,0,2046,2876
344,344,0,2046,3119
345,345,0,2047,3344
346,346,0,2046,3546
347,347,0,2047,3721
348,348,0,2047,3868
349,349,0,2047,3983
350,350,0,2047,4063
351,351,0,2047,4095
352,352,0,2046,4095
353,353,0,2047,4092
354,354,0,2046,4030
355,355,0,2047,3932
356,356,0,2046,3802
357,357,0,2046,3642
358,358,0,2047,3453
359,359,0,2047,3239
360,360,0,2046,3005
361,361,0,2046,2753
362,362,0,2047,2489
363,363,0,2046,2217
364,364,0,2046,1942
365,365,0,2047,1668
366,366,0,2047,1400
367,367,0,2047,1145
368,368,0,2047,904
369,369,0,2046,682
370,370,0,2046,484
371,371,0,2047,315
372,372,0,2046,174
373,373,0,2047,67
374,374,0,2047,0
375,375,0,2047,0
376,376,0,2046,0
377,377,0,2046,0
378,378,0,2046,65
379,379,0,2047,171
380,380,0,2047,310
381,381,0,2046,479
382,382,0,2046,674
383,383,0,2047,895
384,384,0,2046,1135
385,385,0,2047,1389
386,386,0,2046,1656
387,387,0,2046,1930
388,388,0,2047,2204
389,389,0,2046,2476
390,390,0,2046,2741
391,391,0,2046,2992
392,392,0,2047,3228
393,393,0,2046,3443
394,394,0,2047,3632
395,395,0,2047,3795
396,396,0,2047,3927
397,397,0,2046,4025
398,398,0,2047,4089
399,399,0,2046,4095
400,400,0,2046,4095
401,401,0,2046,4067
402,402,0,2047,3988
403,403,0,2047,3875
404,404,0,2046,3730
405,405,0,2046,3556
406,406,0,2046,3355
407,407,0,2047,3131
408,408,0,2046,2888
409,409,0,2046,2631
410,410,0,2046,2362
411,411,0,2046,2088
412,412,0,2047,1812
413,413,0,2047,1541
414,414,0,2046,1278
415,415,0,2046,1028
416,416,0,2046,797
417,417,0,2046,586
418,418,0,2047,401
419,419,0,2046,245
420,420,0,2046,120
421,421,0,2046,29
422,422,0,2046,0
423,423,0,2046,0
424,424,0,2046,0
425,425,0,2046,23
426,426,0,2046,111
427,427,0,2046,233
428,428,0,2046,386
429,429,0,2046,568
430,430,0,2046,776
431,431,0,2046,1006
432,432,0,2046,1253
433,433,0,2046,1514
434,434,0,2046,1785
435,435,0,2046,2059
436,436,0,2046,2333
437,437,0,2046,2602
438,438,0,2046,2861
439,439,0,2046,3106
440,440,0,2046,3331
441,441,0,2046,3535
442,442,0,2047,3713
443,443,0,2046,3861
444,444,0,2046,3977
445,445,0,2047,4060
446,446,0,2046,4095
447,447,0,2046,4095
448,448,0,2046,4094
449,449,0,2047,4034
450,450,0,2047,3939
451,451,0,2047,3811
452,452,0,2047,3651
453,453,0,2047,3465
454,454,0,2047,3252
455,455,0,2046,3018
456,456,0,2046,2768
457,457,0,2047,2504
458,458,0,2047,2233
459,459,0,2046,1958
460,460,0,2047,1684
461,461,0,2046,1416
462,462,0,2046,1158
463,463,0,2047,917
464,464,0,2047,695
465,465,0,2046,495
466,466,0,2046,323
467,467,0,2047,182
468,468,0,2046,73
469,469,0,2046,0
470,470,0,2047,0
471,471,0,2046,0
472,472,0,2047,0
473,473,0,2047,60
474,474,0,2047,164
475,475,0,2046,301
476,476,0,2046,468
477,477,0,2046,663
478,478,0,2047,882
479,479,0,2046,1120
480,480,0,2047,1375
481,481,0,2046,1641
482,482,0,2046,1914
483,483,0,2047,2188
484,484,0,2046,2461
485,485,0,2046,2726
486,486,0,2047,2978
487,487,0,2046,3215
488,488,0,2046,3431
489,489,0,2047,3622
490,490,0,2046,3786
491,491,0,2047,3920
492,492,0,2047,4020
493,493,0,2046,4088
494,494,0,2047,4095
495,495,0,2046,4095
496,496,0,2047,4070
497,497,0,2046,3993
498,498,0,2046,3883
499,499,0,2046,3740
500,500,0,2047,3567
501,501,0,2046,3367
502,502,0,2047,3144
503,503,0,2047,2902
504,504,0,2046,2644
505,505,0,2047,2377
506,506,0,2047,2102
507,507,0,2046,1828
508,508,0,2047,1556
509,509,0,2046,1293
510,510,0,2047,1042
511,511,0,2047,809
512,512,0,2047,597
513,513,0,2047,411
514,514,0,2046,253
515,515,0,2046,126
516,516,0,2047,33
517,517,0,2047,0
518,518,0,2046,0
519,519,0,2046,0
520,520,0,2047,18
521,521,0,2047,105
522,522,0,2046,225
523,523,0,2045,376
524,524,0,2047,557
525,525,0,2046,763
526,526,0,2046,992
527,527,0,2046,1239
528,528,0,2046,1499
529,529,0,2046,1769
530,530,0,2046,2043
531,531,0,2046,2318
532,532,0,2046,2587
533,533,0,2046,2847
534,534,0,2046,3092
535,535,0,2047,3319
536,536,0,2046,3525
537,537,0,2046,3703
538,538,0,2046,3853
539,539,0,2046,3971
540,540,0,2047,4056
541,541,0,2047,4095
542,542,0,2047,4095
543,543,0,2047,4095
544,544,0,2047,4038
545,545,0,2047,3945
546,546,0,2047,3819
547,547,0,2046,3661
548,548,0,2046,3476
549,549,0,2047,3265
550,550,0,2046,3032
551,551,0,2046,2782
552,552,0,2047,2520
553,553,0,2047,2248
554,554,0,2046,1973
555,555,0,2046,1700
556,556,0,2047,1431
557,557,0,2047,1173
558,558,0,2046,930
559,559,0,2046,706
560,560,0,2046,506
561,561,0,2046,333
562,562,0,2046,189
563,563,0,2047,78
564,564,0,2047,1
565,565,0,2046,0
566,566,0,2046,0
567,567,0,2047,0
568,568,0,2047,55
569,569,0,2047,157
570,570,0,2047,292
571,571,0,2046,458
572,572,0,2046,651
573,573,0,2047,868
574,574,0,2046,1106
575,575,0,2046,1359
576,576,0,2046,1625
577,577,0,2046,1898
578,578,0,2047,2173
579,579,0,2047,2445
580,580,0,2046,2710
581,581,0,2046,2964
582,582,0,2047,3201
583,583,0,2046,3419
584,584,0,2047,3612
585,585,0,2047,3777
586,586,0,2046,3913
587,587,0,2047,4016
588,588,0,2047,4085
589,589,0,2046,4095
590,590,0,2046,4095
591,591,0,2047,4074
592,592,0,2047,3998
593,593,0,2047,3889
594,594,0,2046,3748
595,595,0,2047,3577
596,596,0,2046,3378
597,597,0,2046,3157
598,598,0,2046,2916
599,599,0,2046,2660
600,600,0,2047,2392
601,601,0,2047,2119
602,602,0,2046,1843
603,603,0,2046,1572
604,604,0,2046,1307
605,605,0,2047,1056
606,606,0,2046,822
607,607,0,2047,608
608,608,0,2046,421
609,609,0,2046,262
610,610,0,2046,132
611,611,0,2046,37
612,612,0,2046,0
613,613,0,2046,0
614,614,0,2046,0
615,615,0,2048,15
616,616,0,2046,99
617,617,0,2047,217
618,618,0,2046,367
619,619,0,2047,545
620,620,0,2046,751
621,621,0,2046,978
622,622,0,2047,1223
623,623,0,2047,1484
624,624,0,2047,1753
625,625,0,2046,2027
626,626,0,2046,2302
627,627,0,2047,2571
628,628,0,2046,2832
629,629,0,2046,3079
630,630,0,2047,3307
631,631,0,2046,3513
632,632,0,2046,3694
633,633,0,2046,3846
634,634,0,2046,3966
635,635,0,2046,4052
636,636,0,2046,4095
637,637,0,2047,4095
638,638,0,2046,4095
639,639,0,2047,4043
640,640,0,2047,3952
641,641,0,2046,3827
642,642,0,2046,3671
643,643,0,2046,3487
644,644,0,2046,3277
645,645,0,2046,3047
646,646,0,2047,2797
647,647,0,2046,2536
648,648,0,2046,2264
649,649,0,2047,1989
650,650,0,2046,1715
651,651,0,2047,1446
652,652,0,2047,1188
653,653,0,2047,943
654,654,0,2046,718
655,655,0,2046,517
656,656,0,2047,342
657,657,0,2046,196
658,658,0,2047,83
659,659,0,2046,4
660,660,0,2046,0
661,661,0,2046,0
662,662,0,2046,0
663,663,0,2046,50
664,664,0,2047,149
665,665,0,2046,284
666,666,0,2047,448
667,667,0,2046,639
668,668,0,2046,856
669,669,0,2046,1092
670,670,0,2046,1345
671,671,0,2047,1609
672,672,0,2046,1882
673,673,0,2046,2157
674,674,0,2046,2429
675,675,0,2046,2695
676,676,0,2046,2950
677,677,0,2046,3188
678,678,0,2047,3406
679,679,0,2047,3602
680,680,0,2046,3769
681,681,0,2046,3907
682,682,0,2046,4010
683,683,0,2047,4082
684,684,0,2046,4095
685,685,0,2046,4095
686,686,0,2046,4077
687,687,0,2046,4004
688,688,0,2046,3897
689,689,0,2046,3757
690,690,0,2046,3588
691,691,0,2046,3391
692,692,0,2046,3171
693,693,0,2047,2930
694,694,0,2047,2675
695,695,0,2046,2408
696,696,0,2047,2135
697,697,0,2047,1859
698,698,0,2047,1587
699,699,0,2046,1323
700,700,0,2046,1070
701,701,0,2047,835
702,702,0,2046,620
703,703,0,2046,431
704,704,0,2046,270
705,705,0,2046,139
706,706,0,2046,41
707,707,0,2046,0
708,708,0,2046,0
709,709,0,2046,0
710,710,0,2046,11
711,711,0,2046,92
712,712,0,2047,209
713,713,0,2047,356
714,714,0,2046,535
715,715,0,2046,739
716,716,0,2047,965
717,717,0,2047,1210
718,718,0,2047,1469
719,719,0,2046,1738
720,720,0,2046,2012
721,721,0,2046,2286
722,722,0,2046,2557
723,723,0,2046,2817
724,724,0,2047,3065
725,725,0,2047,3294
726,726,0,2047,3502
727,727,0,2047,3685
728,728,0,2047,3838
729,729,0,2046,3959
730,730,0,2047,4048
731,731,0,2046,4095
732,732,0,2047,4095
733,733,0,2046,4095
734,734,0,2046,4046
735,735,0,2046,3958
736,736,0,2046,3835
737,737,0,2046,3681
738,738,0,2046,3498
739,739,0,2046,3290
740,740,0,2047,3060
741,741,0,2047,2811
742,742,0,2047,2551
743,743,0,2046,2280
744,744,0,2047,2005
745,745,0,2047,1731
746,746,0,2046,1461
747,747,0,2047,1201
748,748,0,2046,956
749,749,0,2046,730
750,750,0,2046,528
751,751,0,2046,351
752,752,0,2046,204
753,753,0,2046,89
754,754,0,2047,9
755,755,0,2047,0
756,756,0,2047,0
757,757,0,2047,0
758,758,0,2046,45
759,759,0,2046,143
760,760,0,2046,275
761,761,0,2046,438
762,762,0,2047,627
763,763,0,2047,842
764,764,0,2046,1078
765,765,0,2047,1330
766,766,0,2047,1594
767,767,0,2047,1866
768,768,0,2046,2141
769,769,0,2046,2414
770,770,0,2047,2680
771,771,0,2047,2935
772,772,0,2046,3175
773,773,0,2046,3394
774,774,0,2046,3591
775,775,0,2046,3760
776,776,0,2046,3899
777,777,0,2047,4006
778,778,0,2046,4078
779,779,0,2046,4095
780,780,0,2046,4095
781,781,0,2046,4080
782,782,0,2047,4009
783,783,0,2046,3904
784,784,0,2047,3766
785,785,0,2047,3599
786,786,0,2046,3402
787,787,0,2046,3184
788,788,0,2046,2945
789,789,0,2047,2690
790,790,0,2046,2424
791,791,0,2046,2151
792,792,0,2047,1874
793,793,0,2046,1603
794,794,0,2047,1337
795,795,0,2047,1084
796,796,0,2046,848
797,797,0,2047,632
798,798,0,2046,441
799,799,0,2047,278
800,800,0,2046,146
801,801,0,2046,47
802,802,0,2047,0
803,803,0,2046,0
804,804,0,2046,0
805,805,0,2046,8
806,806,0,2047,88
807,807,0,2046,201
808,808,0,2046,348
809,809,0,2046,524
810,810,0,2047,726
811,811,0,2046,951
812,812,0,2047,1195
813,813,0,2047,1452
814,814,0,2046,1722
815,815,0,2046,1996
816,816,0,2047,2270
817,817,0,2046,2540
818,818,0,2047,2802
819,819,0,2046,3050
820,820,0,2047,3281
821,821,0,2047,3491
822,822,0,2046,3675
823,823,0,2047,3830
824,824,0,2047,3954
825,825,0,2046,4044
826,826,0,2046,4095
827,827,0,2047,4095
828,828,0,2047,4095
829,829,0,2046,4051
830,830,0,2046,3963
831,831,0,2046,3843
832,832,0,2046,3690
833,833,0,2046,3510
834,834,0,2046,3303
835,835,0,2047,3074
836,836,0,2047,2826
837,837,0,2047,2566
838,838,0,2047,2296
839,839,0,2046,2021
840,840,0,2046,1747
841,841,0,2047,1477
842,842,0,2046,1216
843,843,0,2046,970
844,844,0,2047,743
845,845,0,2047,539
846,846,0,2046,361
847,847,0,2046,212
848,848,0,2047,95
849,849,0,2046,11
850,850,0,2047,0
851,851,0,2046,0
852,852,0,2046,0
853,853,0,2046,40
854,854,0,2046,137
855,855,0,2046,267
856,856,0,2046,427
857,857,0,2047,616
858,858,0,2046,829
859,859,0,2047,1063
860,860,0,2046,1315
861,861,0,2047,1579
862,862,0,2046,1850
863,863,0,2046,2126
864,864,0,2046,2399
865,865,0,2047,2665
866,866,0,2047,2922
867,867,0,2046,3163
868,868,0,2046,3383
869,869,0,2047,3580
870,870,0,2046,3751
871,871,0,2047,3892
872,872,0,2047,4001
873,873,0,2047,4075
874,874,0,2047,4095
875,875,0,2046,4095
876,876,0,2046,4083
877,877,0,2046,4015
878,878,0,2047,3911
879,879,0,2045,3775
880,880,0,2047,3609
881,881,0,2046,3415
882,882,0,2047,3197
883,883,0,2046,2960
884,884,0,2046,2705
885,885,0,2046,2440
886,886,0,2047,2166
887,887,0,2046,1891
888,888,0,2046,1618
889,889,0,2046,1352
890,890,0,2047,1098
891,891,0,2046,860
892,892,0,2046,644
893,893,0,2046,452
894,894,0,2046,286
895,895,0,2046,152
896,896,0,2046,51
897,897,0,2046,0
898,898,0,2046,0
899,899,0,2046,0
900,900,0,2047,3
901,901,0,2046,82
902,902,0,2046,193
903,903,0,2046,340
904,904,0,2046,513
905,905,0,2046,713
906,906,0,2046,937
907,907,0,2046,1180
908,908,0,2045,1438
909,909,0,2047,1706
910,910,0,2047,1980
911,911,0,2046,2255
912,912,0,2046,2526
913,913,0,2046,2787
914,914,0,2047,3037
915,915,0,2046,3268
916,916,0,2047,3479
917,917,0,2047,3665
918,918,0,2047,3821
919,919,0,2047,3947
920,920,0,2046,4039
921,921,0,2046,4095
922,922,0,2047,4095
923,923,0,2047,4095
924,924,0,2047,4055
925,925,0,2046,3969
926,926,0,2046,3850
927,927,0,2046,3700
928,928,0,2046,3521
929,929,0,2047,3315
930,930,0,2047,3087
931,931,0,2047,2841
932,932,0,2046,2581
933,933,0,2046,2311
934,934,0,2046,2037
935,935,0,2047,1762
936,936,0,2046,1492
937,937,0,2047,1231
938,938,0,2046,984
939,939,0,2046,756
940,940,0,2047,550
941,941,0,2046,370
942,942,0,2046,219
943,943,0,2046,100
944,944,0,2046,14
945,945,0,2046,0
946,946,0,2046,0
947,947,0,2046,0
948,948,0,2046,35
949,949,0,2046,130
950,950,0,2046,258
951,951,0,2047,417
952,952,0,2046,604
953,953,0,2047,816
954,954,0,2047,1049
955,955,0,2047,1301
956,956,0,2046,1563
957,957,0,2046,1835
958,958,0,2047,2109
959,959,0,2046,2383
960,960,0,2047,2650
961,961,0,2047,2907
962,962,0,2047,3148
963,963,0,2047,3370
964,964,0,2047,3570
965,965,0,2046,3742
966,966,0,2047,3885
967,967,0,2046,3995
968,968,0,2046,4072
969,969,0,2047,4095
970,970,0,2046,4095
971,971,0,2047,4086
972,972,0,2046,4019
973,973,0,2047,3917
974,974,0,2047,3783
975,975,0,2046,3619
976,976,0,2047,3427
977,977,0,2047,3210
978,978,0,2047,2974
979,979,0,2047,2721
980,980,0,2046,2454
981,981,0,2046,2183
982,982,0,2046,1907
983,983,0,2046,1633
984,984,0,2047,1367
985,985,0,2046,1113
986,986,0,2047,874
987,987,0,2047,656
988,988,0,2046,462
989,989,0,2046,295
990,990,0,2046,159
991,991,0,2046,56
992,992,0,2047,0
993,993,0,2047,0
994,994,0,2046,0
995,995,0,2047,0
996,996,0,2046,77
997,997,0,2046,187
998,998,0,2047,329
999,999,0,2046,502
1000,1000,0,2046,701
1001,1001,0,2046,924
1002,1002,0,2046,1166
1003,1003,0,2047,1423
1004,1004,0,2047,1691
1005,1005,0,2046,1964
1006,1006,0,2047,2238
1007,1007,0,2046,2511
1008,1008,0,2046,2774
1009,1009,0,2046,3023
1010,1010,0,2047,3256
1011,1011,0,2046,3467
1012,1012,0,2046,3654
1013,1013,0,2047,3813
1014,1014,0,2047,3941
1015,1015,0,2047,4035
1016,1016,0,2047,4095
1017,1017,0,2047,4095
1018,1018,0,2047,4095
1019,1019,0,2047,4058
1020,1020,0,2046,3975
1021,1021,0,2047,3858
1022,1022,0,2046,3709
1023,1023,0,2046,3532
1024,1024,0,2046,3328
1025,1025,0,2046,3102
1026,1026,0,2046,2856
1027,1027,0,2046,2597
1028,1028,0,2046,2327
1029,1029,0,2046,2052
