Sample in Buffer,Sample in Window,TRIGGER,adc1_data_a_d0[11:0],adc1_data_b_d0[11:0]
0,0,0,2047,3579
1,1,0,2046,3971
2,2,0,2046,4095
3,3,0,2046,4024
4,4,0,2047,3680
5,5,0,2046,3134
6,6,0,2047,2455
7,7,0,2047,1725
8,8,0,2046,1032
9,9,0,2046,464
10,10,0,2047,88
11,11,0,2047,0
12,12,0,2046,69
13,13,0,2046,430
14,14,0,2047,987
15,15,0,2047,1673
16,16,0,2047,2404
17,17,0,2046,3090
18,18,0,2047,3647
19,19,0,2046,4008
20,20,0,2047,4095
21,21,0,2047,3989
22,22,0,2046,3613
23,23,0,2046,3043
24,24,0,2046,2351
25,25,0,2046,1620
26,26,0,2047,941
27,27,0,2047,396
28,28,0,2047,53
29,29,0,2046,0
30,30,0,2047,107
31,31,0,2046,499
32,32,0,2047,1079
33,33,0,2046,1776
34,34,0,2046,2507
35,35,0,2046,3179
36,36,0,2046,3712
37,37,0,2047,4040
38,38,0,2046,4095
39,39,0,2047,3950
40,40,0,2046,3542
41,41,0,2047,2951
42,42,0,2046,2248
43,43,0,2046,1519
44,44,0,2046,854
45,45,0,2047,334
46,46,0,2047,23
47,47,0,2046,0
48,48,0,2047,149
49,49,0,2047,572
50,50,0,2046,1173
51,51,0,2047,1881
52,52,0,2046,2608
53,53,0,2046,3266
54,54,0,2047,3773
55,55,0,2046,4068
56,56,0,2046,4095
57,57,0,2047,3904
58,58,0,2047,3467
59,59,0,2047,2855
60,60,0,2047,2143
61,61,0,2046,1418
62,62,0,2047,769
63,63,0,2047,276
64,64,0,2046,0
65,65,0,2046,0
66,66,0,2046,196
67,67,0,2046,648
68,68,0,2047,1270
69,69,0,2046,1986
70,70,0,2047,2709
71,71,0,2046,3350
72,72,0,2047,3829
73,73,0,2046,4090
74,74,0,2046,4095
75,75,0,2047,3856
76,76,0,2047,3389
77,77,0,2046,2757
78,78,0,2046,2037
79,79,0,2047,1318
80,80,0,2047,687
81,81,0,2046,222
82,82,0,2047,0
83,83,0,2046,0
84,84,0,2047,247
85,85,0,2046,728
86,86,0,2047,1368
87,87,0,2046,2091
88,88,0,2046,2807
89,89,0,2046,3429
90,90,0,2047,3881
91,91,0,2046,4095
92,92,0,2047,4080
93,93,0,2046,3802
94,94,0,2047,3308
95,95,0,2047,2659
96,96,0,2046,1933
97,97,0,2046,1221
98,98,0,2047,609
99,99,0,2047,173
100,100,0,2047,0
101,101,0,2047,10
102,102,0,2047,304
103,103,0,2047,812
104,104,0,2047,1469
105,105,0,2046,2196
106,106,0,2047,2904
107,107,0,2046,3505
108,108,0,2046,3928
109,109,0,2047,4095
110,110,0,2047,4054
111,111,0,2046,3742
112,112,0,2046,3223
113,113,0,2046,2557
114,114,0,2047,1829
115,115,0,2047,1125
116,116,0,2046,534
117,117,0,2046,128
118,118,0,2047,0
119,119,0,2046,38
120,120,0,2047,365
121,121,0,2046,897
122,122,0,2047,1570
123,123,0,2047,2299
124,124,0,2047,2998
125,125,0,2047,3579
126,126,0,2047,3971
127,127,0,2047,4095
128,128,0,2046,4024
129,129,0,2047,3680
130,130,0,2047,3135
131,131,0,2046,2456
132,132,0,2046,1724
133,133,0,2047,1032
134,134,0,2047,463
135,135,0,2046,87
136,136,0,2046,0
137,137,0,2047,70
138,138,0,2046,430
139,139,0,2046,986
140,140,0,2047,1673
141,141,0,2047,2403
142,142,0,2047,3089
143,143,0,2046,3647
144,144,0,2046,4008
145,145,0,2047,4095
146,146,0,2047,3990
147,147,0,2047,3614
148,148,0,2047,3044
149,149,0,2046,2352
150,150,0,2047,1621
151,151,0,2047,942
152,152,0,2047,396
153,153,0,2047,53
154,154,0,2046,0
155,155,0,2047,107
156,156,0,2047,499
157,157,0,2046,1078
158,158,0,2046,1777
159,159,0,2046,2507
160,160,0,2046,3179
161,161,0,2046,3713
162,162,0,2046,4040
163,163,0,2047,4095
164,164,0,2046,3950
165,165,0,2046,3542
166,166,0,2046,2950
167,167,0,2047,2247
168,168,0,2047,1519
169,169,0,2045,854
170,170,0,2047,334
171,171,0,2046,23
172,172,0,2046,0
173,173,0,2046,150
174,174,0,2046,572
175,175,0,2047,1172
176,176,0,2047,1881
177,177,0,2047,2607
178,178,0,2047,3266
179,179,0,2046,3773
180,180,0,2047,4067
181,181,0,2046,4095
182,182,0,2046,3905
183,183,0,2047,3467
184,184,0,2047,2855
185,185,0,2046,2143
186,186,0,2046,1418
187,187,0,2046,769
188,188,0,2047,276
189,189,0,2046,0
190,190,0,2046,0
191,191,0,2046,196
192,192,0,2046,647
193,193,0,2046,1269
194,194,0,2047,1986
195,195,0,2047,2708
196,196,0,2046,3349
197,197,0,2047,3830
198,198,0,2047,4091
199,199,0,2046,4095
200,200,0,2046,3856
201,201,0,2047,3389
202,202,0,2046,2757
203,203,0,2047,2038
204,204,0,2047,1318
205,205,0,2046,687
206,206,0,2046,222
207,207,0,2046,0
208,208,0,2046,0
209,209,0,2046,248
210,210,0,2047,728
211,211,0,2046,1368
212,212,0,2046,2091
213,213,0,2046,2807
214,214,0,2046,3430
215,215,0,2046,3881
216,216,0,2046,4095
217,217,0,2047,4080
218,218,0,2047,3802
219,219,0,2047,3308
220,220,0,2047,2659
221,221,0,2047,1933
222,222,0,2046,1221
223,223,0,2046,609
224,224,0,2047,172
225,225,0,2046,0
226,226,0,2046,10
227,227,0,2047,304
228,228,0,2047,811
229,229,0,2046,1468
230,230,0,2047,2195
231,231,0,2047,2904
232,232,0,2047,3505
233,233,0,2046,3928
234,234,0,2046,4095
235,235,0,2047,4054
236,236,0,2046,3743
237,237,0,2047,3223
238,238,0,2046,2557
239,239,0,2046,1829
240,240,0,2046,1126
241,241,0,2047,535
242,242,0,2046,128
243,243,0,2046,0
244,244,0,2046,37
245,245,0,2047,364
246,246,0,2047,898
247,247,0,2046,1570
248,248,0,2047,2300
249,249,0,2046,2997
250,250,0,2046,3578
251,251,0,2047,3970
252,252,0,2047,4095
253,253,0,2046,4025
254,254,0,2047,3680
255,255,0,2047,3134
256,256,0,2046,2455
257,257,0,2046,1725
258,258,0,2046,1033
259,259,0,2046,464
260,260,0,2046,88
261,261,0,2046,0
262,262,0,2047,70
263,263,0,2047,430
264,264,0,2046,986
265,265,0,2046,1673
266,266,0,2046,2404
267,267,0,2046,3089
268,268,0,2047,3647
269,269,0,2046,4008
270,270,0,2047,4095
271,271,0,2046,3990
272,272,0,2047,3613
273,273,0,2047,3044
274,274,0,2046,2353
275,275,0,2046,1621
276,276,0,2047,941
277,277,0,2047,397
278,278,0,2046,54
279,279,0,2046,0
280,280,0,2047,107
281,281,0,2047,499
282,282,0,2046,1078
283,283,0,2046,1776
284,284,0,2046,2506
285,285,0,2047,3179
286,286,0,2046,3712
287,287,0,2046,4039
288,288,0,2047,4095
289,289,0,2046,3950
290,290,0,2047,3543
291,291,0,2046,2951
292,292,0,2046,2248
293,293,0,2047,1519
294,294,0,2046,854
295,295,0,2046,335
296,296,0,2046,23
297,297,0,2046,0
298,298,0,2047,149
299,299,0,2047,572
300,300,0,2047,1173
301,301,0,2046,1881
302,302,0,2046,2608
303,303,0,2046,3265
304,304,0,2047,3773
305,305,0,2046,4068
306,306,0,2047,4095
307,307,0,2046,3905
308,308,0,2046,3468
309,309,0,2046,2854
310,310,0,2047,2143
311,311,0,2047,1418
312,312,0,2046,769
313,313,0,2046,276
314,314,0,2047,0
315,315,0,2047,0
316,316,0,2046,197
317,317,0,2047,648
318,318,0,2047,1269
319,319,0,2047,1985
320,320,0,2047,2708
321,321,0,2046,3349
322,322,0,2046,3829
323,323,0,2046,4090
324,324,0,2046,4095
325,325,0,2047,3856
326,326,0,2046,3389
327,327,0,2046,2757
328,328,0,2047,2039
329,329,0,2046,1319
330,330,0,2046,688
331,331,0,2046,222
332,332,0,2047,0
333,333,0,2046,0
334,334,0,2046,248
335,335,0,2046,728
336,336,0,2047,1368
337,337,0,2047,2090
338,338,0,2047,2806
339,339,0,2047,3428
340,340,0,2046,3881
341,341,0,2046,4095
342,342,0,2047,4080
343,343,0,2046,3802
344,344,0,2046,3307
345,345,0,2047,2659
346,346,0,2046,1933
347,347,0,2047,1221
348,348,0,2046,609
349,349,0,2046,172
350,350,0,2046,0
351,351,0,2047,10
352,352,0,2047,303
353,353,0,2046,811
354,354,0,2046,1467
355,355,0,2046,2195
356,356,0,2047,2903
357,357,0,2047,3505
358,358,0,2046,3928
359,359,0,2046,4095
360,360,0,2046,4055
361,361,0,2046,3744
362,362,0,2046,3223
363,363,0,2046,2558
364,364,0,2046,1829
365,365,0,2047,1126
366,366,0,2046,535
367,367,0,2047,128
368,368,0,2046,0
369,369,0,2046,37
370,370,0,2046,364
371,371,0,2046,897
372,372,0,2046,1569
373,373,0,2046,2299
374,374,0,2047,2998
375,375,0,2046,3578
376,376,0,2046,3970
377,377,0,2046,4095
378,378,0,2046,4025
379,379,0,2047,3681
380,380,0,2046,3135
381,381,0,2046,2455
382,382,0,2047,1725
383,383,0,2047,1034
384,384,0,2046,464
385,385,0,2046,88
386,386,0,2046,0
387,387,0,2047,69
388,388,0,2047,429
389,389,0,2047,986
390,390,0,2046,1672
391,391,0,2046,2403
392,392,0,2047,3089
393,393,0,2046,3647
394,394,0,2047,4008
395,395,0,2046,4095
396,396,0,2046,3990
397,397,0,2046,3613
398,398,0,2046,3045
399,399,0,2046,2352
400,400,0,2046,1621
401,401,0,2046,942
402,402,0,2046,398
403,403,0,2046,54
404,404,0,2047,0
405,405,0,2046,107
406,406,0,2046,499
407,407,0,2046,1077
408,408,0,2047,1775
409,409,0,2046,2506
410,410,0,2047,3179
411,411,0,2046,3712
412,412,0,2046,4040
413,413,0,2046,4095
414,414,0,2047,3950
415,415,0,2047,3542
416,416,0,2046,2951
417,417,0,2046,2248
418,418,0,2047,1520
419,419,0,2047,854
420,420,0,2047,334
421,421,0,2047,23
422,422,0,2046,0
423,423,0,2046,149
424,424,0,2047,570
425,425,0,2047,1172
426,426,0,2047,1881
427,427,0,2046,2607
428,428,0,2046,3265
429,429,0,2047,3772
430,430,0,2046,4068
431,431,0,2047,4095
432,432,0,2046,3905
433,433,0,2046,3468
434,434,0,2046,2856
435,435,0,2047,2143
436,436,0,2047,1418
437,437,0,2046,770
438,438,0,2047,276
439,439,0,2046,0
440,440,0,2046,0
441,441,0,2046,196
442,442,0,2047,647
443,443,0,2047,1270
444,444,0,2046,1985
445,445,0,2046,2707
446,446,0,2046,3348
447,447,0,2047,3829
448,448,0,2046,4090
449,449,0,2046,4095
450,450,0,2046,3857
451,451,0,2046,3390
452,452,0,2046,2758
453,453,0,2047,2039
454,454,0,2047,1319
455,455,0,2046,687
456,456,0,2047,222
457,457,0,2047,0
458,458,0,2046,0
459,459,0,2046,248
460,460,0,2047,728
461,461,0,2047,1367
462,462,0,2046,2089
463,463,0,2047,2806
464,464,0,2046,3428
465,465,0,2047,3880
466,466,0,2046,4095
467,467,0,2047,4079
468,468,0,2047,3802
469,469,0,2047,3308
470,470,0,2046,2659
471,471,0,2047,1934
472,472,0,2046,1222
473,473,0,2046,610
474,474,0,2046,173
475,475,0,2046,0
476,476,0,2047,9
477,477,0,2047,304
478,478,0,2047,811
479,479,0,2046,1467
480,480,0,2046,2194
481,481,0,2046,2903
482,482,0,2046,3505
483,483,0,2047,3928
484,484,0,2047,4095
485,485,0,2047,4054
486,486,0,2047,3743
487,487,0,2047,3223
488,488,0,2046,2558
489,489,0,2046,1830
490,490,0,2047,1126
491,491,0,2046,535
492,492,0,2046,128
493,493,0,2047,0
494,494,0,2046,37
495,495,0,2047,364
496,496,0,2046,896
497,497,0,2047,1569
498,498,0,2047,2299
499,499,0,2046,2997
500,500,0,2047,3578
501,501,0,2047,3970
502,502,0,2047,4095
503,503,0,2046,4025
504,504,0,2047,3681
505,505,0,2046,3135
506,506,0,2047,2456
507,507,0,2047,1725
508,508,0,2046,1033
509,509,0,2046,464
510,510,0,2046,89
511,511,0,2047,0
512,512,0,2047,69
513,513,0,2046,428
514,514,0,2046,986
515,515,0,2046,1672
516,516,0,2046,2403
517,517,0,2046,3089
518,518,0,2047,3647
519,519,0,2047,4007
520,520,0,2046,4095
521,521,0,2047,3990
522,522,0,2047,3614
523,523,0,2047,3045
524,524,0,2047,2352
525,525,0,2047,1622
526,526,0,2046,943
527,527,0,2046,397
528,528,0,2047,54
529,529,0,2047,0
530,530,0,2046,106
531,531,0,2046,499
532,532,0,2047,1077
533,533,0,2046,1776
534,534,0,2046,2505
535,535,0,2047,3178
536,536,0,2047,3712
537,537,0,2046,4040
538,538,0,2047,4095
539,539,0,2047,3950
540,540,0,2047,3543
541,541,0,2047,2951
542,542,0,2046,2248
543,543,0,2047,1520
544,544,0,2047,855
545,545,0,2046,335
546,546,0,2047,23
547,547,0,2046,0
548,548,0,2046,149
549,549,0,2047,571
550,550,0,2047,1172
551,551,0,2046,1880
552,552,0,2046,2607
553,553,0,2047,3265
554,554,0,2046,3773
555,555,0,2046,4067
556,556,0,2046,4095
557,557,0,2046,3906
558,558,0,2047,3469
559,559,0,2046,2856
560,560,0,2046,2144
561,561,0,2047,1419
562,562,0,2046,770
563,563,0,2047,276
564,564,0,2046,0
565,565,0,2047,0
566,566,0,2047,196
567,567,0,2047,647
568,568,0,2047,1269
569,569,0,2047,1985
570,570,0,2047,2708
571,571,0,2047,3348
572,572,0,2047,3828
573,573,0,2047,4090
574,574,0,2047,4095
575,575,0,2046,3856
576,576,0,2047,3390
577,577,0,2047,2759
578,578,0,2046,2040
579,579,0,2047,1319
580,580,0,2047,688
581,581,0,2046,223
582,582,0,2046,0
583,583,0,2046,0
584,584,0,2047,248
585,585,0,2047,727
586,586,0,2047,1367
587,587,0,2047,2089
588,588,0,2046,2806
589,589,0,2047,3428
590,590,0,2046,3881
591,591,0,2047,4095
592,592,0,2046,4080
593,593,0,2047,3802
594,594,0,2047,3309
595,595,0,2047,2659
596,596,0,2046,1934
597,597,0,2047,1222
598,598,0,2047,610
599,599,0,2047,173
600,600,0,2047,0
601,601,0,2047,10
602,602,0,2047,303
603,603,0,2047,810
604,604,0,2047,1467
605,605,0,2046,2194
606,606,0,2046,2903
607,607,0,2047,3505
608,608,0,2046,3928
609,609,0,2047,4095
610,610,0,2047,4055
611,611,0,2046,3744
612,612,0,2046,3224
613,613,0,2047,2559
614,614,0,2046,1829
615,615,0,2046,1127
616,616,0,2046,535
617,617,0,2046,128
618,618,0,2047,0
619,619,0,2046,37
620,620,0,2047,364
621,621,0,2047,897
622,622,0,2047,1568
623,623,0,2046,2299
624,624,0,2047,2997
625,625,0,2046,3578
626,626,0,2046,3970
627,627,0,2047,4095
628,628,0,2047,4025
629,629,0,2047,3681
630,630,0,2047,3135
631,631,0,2046,2457
632,632,0,2046,1726
633,633,0,2046,1033
634,634,0,2047,464
635,635,0,2046,88
636,636,0,2047,0
637,637,0,2047,69
638,638,0,2047,429
639,639,0,2047,986
640,640,0,2047,1673
641,641,0,2046,2402
642,642,0,2046,3089
643,643,0,2046,3647
644,644,0,2046,4008
645,645,0,2047,4095
646,646,0,2046,3991
647,647,0,2046,3614
648,648,0,2047,3045
649,649,0,2047,2353
650,650,0,2046,1623
651,651,0,2047,943
652,652,0,2047,397
653,653,0,2046,54
654,654,0,2047,0
655,655,0,2046,107
656,656,0,2046,499
657,657,0,2046,1078
658,658,0,2046,1774
659,659,0,2046,2505
660,660,0,2046,3178
661,661,0,2046,3711
662,662,0,2047,4040
663,663,0,2047,4095
664,664,0,2046,3950
665,665,0,2046,3544
666,666,0,2046,2951
667,667,0,2046,2249
668,668,0,2046,1520
669,669,0,2047,855
670,670,0,2047,335
671,671,0,2046,24
672,672,0,2047,0
673,673,0,2047,149
674,674,0,2047,571
675,675,0,2047,1171
676,676,0,2046,1880
677,677,0,2047,2607
678,678,0,2047,3265
679,679,0,2047,3773
680,680,0,2046,4068
681,681,0,2046,4095
682,682,0,2046,3906
683,683,0,2047,3468
684,684,0,2046,2857
685,685,0,2046,2144
686,686,0,2047,1419
687,687,0,2046,771
688,688,0,2047,277
689,689,0,2046,0
690,690,0,2046,0
691,691,0,2047,196
692,692,0,2046,647
693,693,0,2047,1268
694,694,0,2047,1984
695,695,0,2046,2708
696,696,0,2046,3349
697,697,0,2046,3828
698,698,0,2047,4090
699,699,0,2047,4095
700,700,0,2046,3857
701,701,0,2047,3390
702,702,0,2046,2758
703,703,0,2047,2040
704,704,0,2047,1320
705,705,0,2046,688
706,706,0,2046,223
707,707,0,2047,0
708,708,0,2047,0
709,709,0,2046,248
710,710,0,2046,726
711,711,0,2047,1367
712,712,0,2047,2089
713,713,0,2046,2806
714,714,0,2047,3428
715,715,0,2047,3880
716,716,0,2046,4095
717,717,0,2046,4080
718,718,0,2046,3803
719,719,0,2047,3308
720,720,0,2046,2660
721,721,0,2046,1934
722,722,0,2046,1222
723,723,0,2047,610
724,724,0,2046,173
725,725,0,2047,0
726,726,0,2046,10
727,727,0,2047,303
728,728,0,2046,811
729,729,0,2047,1466
730,730,0,2047,2194
731,731,0,2046,2902
732,732,0,2046,3504
733,733,0,2047,3929
734,734,0,2046,4095
735,735,0,2047,4055
736,736,0,2047,3744
737,737,0,2046,3224
738,738,0,2046,2559
739,739,0,2047,1830
740,740,0,2047,1127
741,741,0,2047,536
742,742,0,2047,128
743,743,0,2046,0
744,744,0,2046,37
745,745,0,2046,363
746,746,0,2046,897
747,747,0,2046,1568
748,748,0,2046,2299
749,749,0,2047,2997
750,750,0,2047,3578
751,751,0,2046,3971
752,752,0,2047,4095
753,753,0,2046,4025
754,754,0,2046,3681
755,755,0,2046,3136
756,756,0,2047,2456
757,757,0,2046,1726
758,758,0,2047,1034
759,759,0,2047,465
760,760,0,2046,89
761,761,0,2047,0
762,762,0,2046,69
763,763,0,2047,428
764,764,0,2047,985
765,765,0,2046,1671
766,766,0,2047,2401
767,767,0,2046,3088
768,768,0,2046,3646
769,769,0,2046,4008
770,770,0,2046,4095
771,771,0,2046,3990
772,772,0,2046,3614
773,773,0,2047,3045
774,774,0,2046,2353
775,775,0,2046,1622
776,776,0,2046,943
777,777,0,2046,398
778,778,0,2047,54
779,779,0,2046,0
780,780,0,2046,107
781,781,0,2046,498
782,782,0,2046,1077
783,783,0,2046,1775
784,784,0,2046,2505
785,785,0,2046,3178
786,786,0,2047,3711
787,787,0,2046,4040
788,788,0,2047,4095
789,789,0,2047,3951
790,790,0,2046,3543
791,791,0,2047,2952
792,792,0,2046,2249
793,793,0,2046,1520
794,794,0,2047,855
795,795,0,2047,334
796,796,0,2047,24
797,797,0,2046,0
798,798,0,2047,149
799,799,0,2047,571
800,800,0,2047,1171
801,801,0,2047,1879
802,802,0,2047,2607
803,803,0,2047,3264
804,804,0,2046,3772
805,805,0,2047,4067
806,806,0,2046,4095
807,807,0,2047,3905
808,808,0,2046,3468
809,809,0,2046,2856
810,810,0,2046,2144
811,811,0,2047,1420
812,812,0,2047,771
813,813,0,2047,277
814,814,0,2046,0
815,815,0,2046,0
816,816,0,2047,196
817,817,0,2046,646
818,818,0,2046,1268
819,819,0,2046,1984
820,820,0,2046,2707
821,821,0,2047,3347
822,822,0,2047,3828
823,823,0,2046,4090
824,824,0,2046,4095
825,825,0,2047,3856
826,826,0,2046,3390
827,827,0,2046,2759
828,828,0,2046,2040
829,829,0,2046,1320
830,830,0,2047,689
831,831,0,2046,223
832,832,0,2046,0
833,833,0,2047,0
834,834,0,2047,247
835,835,0,2046,727
836,836,0,2046,1366
837,837,0,2047,2089
838,838,0,2047,2805
839,839,0,2046,3428
840,840,0,2046,3880
841,841,0,2047,4095
842,842,0,2046,4080
843,843,0,2047,3802
844,844,0,2046,3309
845,845,0,2045,2660
846,846,0,2046,1935
847,847,0,2047,1222
848,848,0,2046,610
849,849,0,2046,173
850,850,0,2046,0
851,851,0,2046,9
852,852,0,2046,303
853,853,0,2047,809
854,854,0,2047,1467
855,855,0,2047,2193
856,856,0,2046,2902
857,857,0,2047,3505
858,858,0,2046,3927
859,859,0,2046,4095
860,860,0,2046,4055
861,861,0,2046,3744
862,862,0,2047,3224
863,863,0,2046,2558
864,864,0,2046,1830
865,865,0,2046,1127
866,866,0,2046,536
867,867,0,2047,128
868,868,0,2046,0
869,869,0,2047,37
870,870,0,2046,364
871,871,0,2046,896
872,872,0,2046,1568
873,873,0,2046,2297
874,874,0,2046,2996
875,875,0,2046,3577
876,876,0,2046,3969
877,877,0,2047,4095
878,878,0,2046,4025
879,879,0,2047,3682
880,880,0,2046,3136
881,881,0,2047,2457
882,882,0,2047,1726
883,883,0,2047,1035
884,884,0,2046,465
885,885,0,2046,89
886,886,0,2046,0
887,887,0,2047,69
888,888,0,2046,428
889,889,0,2047,985
890,890,0,2047,1671
891,891,0,2046,2402
892,892,0,2046,3088
893,893,0,2047,3646
894,894,0,2046,4007
895,895,0,2046,4095
896,896,0,2047,3991
897,897,0,2046,3614
898,898,0,2047,3045
899,899,0,2046,2354
900,900,0,2047,1623
901,901,0,2047,943
902,902,0,2047,399
903,903,0,2047,54
904,904,0,2046,0
905,905,0,2046,106
906,906,0,2047,498
907,907,0,2046,1077
908,908,0,2047,1775
909,909,0,2046,2505
910,910,0,2047,3178
911,911,0,2046,3711
912,912,0,2046,4040
913,913,0,2046,4095
914,914,0,2046,3950
915,915,0,2047,3543
916,916,0,2047,2952
917,917,0,2047,2249
918,918,0,2046,1521
919,919,0,2046,856
920,920,0,2046,335
921,921,0,2046,23
922,922,0,2047,0
923,923,0,2047,149
924,924,0,2046,570
925,925,0,2046,1170
926,926,0,2047,1879
927,927,0,2046,2606
928,928,0,2046,3264
929,929,0,2046,3772
930,930,0,2047,4067
931,931,0,2046,4095
932,932,0,2046,3905
933,933,0,2046,3469
934,934,0,2046,2857
935,935,0,2047,2145
936,936,0,2046,1420
937,937,0,2047,771
938,938,0,2046,276
939,939,0,2046,0
940,940,0,2047,0
941,941,0,2046,195
942,942,0,2047,646
943,943,0,2046,1267
944,944,0,2047,1984
945,945,0,2047,2707
946,946,0,2046,3348
947,947,0,2046,3828
948,948,0,2047,4090
949,949,0,2047,4095
950,950,0,2046,3857
951,951,0,2046,3391
952,952,0,2046,2759
953,953,0,2047,2040
954,954,0,2046,1320
955,955,0,2046,688
956,956,0,2046,223
957,957,0,2046,0
958,958,0,2046,0
959,959,0,2047,247
960,960,0,2046,726
961,961,0,2047,1366
962,962,0,2046,2089
963,963,0,2046,2805
964,964,0,2046,3428
965,965,0,2047,3880
966,966,0,2046,4095
967,967,0,2047,4080
968,968,0,2047,3802
969,969,0,2047,3308
970,970,0,2046,2660
971,971,0,2047,1935
972,972,0,2047,1223
973,973,0,2046,610
974,974,0,2046,173
975,975,0,2046,0
976,976,0,2047,10
977,977,0,2046,303
978,978,0,2047,809
979,979,0,2046,1466
980,980,0,2047,2194
981,981,0,2046,2902
982,982,0,2047,3504
983,983,0,2047,3927
984,984,0,2047,4095
985,985,0,2047,4055
986,986,0,2047,3744
987,987,0,2047,3224
988,988,0,2046,2559
989,989,0,2046,1830
990,990,0,2047,1127
991,991,0,2047,536
992,992,0,2046,128
993,993,0,2046,0
994,994,0,2046,37
995,995,0,2046,364
996,996,0,2047,896
997,997,0,2046,1568
998,998,0,2047,2298
999,999,0,2046,2996
1000,1000,0,2047,3578
1001,1001,0,2046,3970
1002,1002,0,2046,4095
1003,1003,0,2046,4025
1004,1004,0,2046,3681
1005,1005,0,2047,3137
1006,1006,0,2046,2457
1007,1007,0,2047,1726
1008,1008,0,2047,1034
1009,1009,0,2046,465
1010,1010,0,2046,88
1011,1011,0,2047,0
1012,1012,0,2047,69
1013,1013,0,2046,429
1014,1014,0,2046,985
1015,1015,0,2047,1670
1016,1016,0,2047,2401
1017,1017,0,2046,3088
1018,1018,0,2046,3646
1019,1019,0,2047,4007
1020,1020,0,2046,4095
1021,1021,0,2046,3990
1022,1022,0,2046,3615
1023,1023,0,2046,3046
1024,1024,0,2046,2354
1025,1025,0,2046,1622
1026,1026,0,2046,943
1027,1027,0,2047,398
1028,1028,0,2046,54
1029,1029,0,2046,0
1030,1030,0,2047,107
