Sample in Buffer,Sample in Window,TRIGGER,adc1_data_a_d0[11:0],adc1_data_b_d0[11:0]
0,0,0,2047,893
1,1,0,2047,629
2,2,0,2046,401
3,3,0,2047,217
4,4,0,2047,81
5,5,0,2046,0
6,6,0,2046,0
7,7,0,2046,0
8,8,0,2047,71
9,9,0,2047,202
10,10,0,2047,383
11,11,0,2047,608
12,12,0,2047,870
13,13,0,2046,1164
14,14,0,2047,1480
15,15,0,2046,1812
16,16,0,2047,2148
17,17,0,2046,2482
18,18,0,2046,2805
19,19,0,2046,3106
20,20,0,2046,3379
21,21,0,2047,3617
22,22,0,2046,3813
23,23,0,2046,3962
24,24,0,2046,4060
25,25,0,2047,4095
26,26,0,2046,4094
27,27,0,2046,4029
28,28,0,2047,3912
29,29,0,2046,3746
30,30,0,2046,3535
31,31,0,2046,3284
32,32,0,2046,3001
33,33,0,2046,2691
34,34,0,2046,2366
35,35,0,2047,2031
36,36,0,2046,1695
37,37,0,2046,1369
38,38,0,2047,1060
39,39,0,2046,777
40,40,0,2046,528
41,41,0,2046,318
42,42,0,2046,154
43,43,0,2047,39
44,44,0,2046,0
45,45,0,2046,0
46,46,0,2046,19
47,47,0,2046,120
48,48,0,2047,273
49,49,0,2046,472
50,50,0,2046,714
51,51,0,2047,990
52,52,0,2046,1294
53,53,0,2047,1618
54,54,0,2047,1952
55,55,0,2046,2290
56,56,0,2046,2620
57,57,0,2046,2933
58,58,0,2046,3224
59,59,0,2046,3484
60,60,0,2047,3705
61,61,0,2047,3881
62,62,0,2046,4008
63,63,0,2047,4085
64,64,0,2047,4095
65,65,0,2047,4073
66,66,0,2046,3987
67,67,0,2047,3849
68,68,0,2046,3663
69,69,0,2046,3434
70,70,0,2046,3169
71,71,0,2047,2873
72,72,0,2047,2556
73,73,0,2046,2225
74,74,0,2047,1890
75,75,0,2046,1557
76,76,0,2046,1236
77,77,0,2046,939
78,78,0,2047,669
79,79,0,2046,435
80,80,0,2047,243
81,81,0,2046,99
82,82,0,2046,7
83,83,0,2046,0
84,84,0,2046,0
85,85,0,2046,56
86,86,0,2046,178
87,87,0,2046,351
88,88,0,2047,569
89,89,0,2047,825
90,90,0,2046,1115
91,91,0,2046,1429
92,92,0,2046,1758
93,93,0,2046,2094
94,94,0,2046,2430
95,95,0,2046,2753
96,96,0,2046,3059
97,97,0,2046,3338
98,98,0,2047,3581
99,99,0,2046,3784
100,100,0,2047,3941
101,101,0,2047,4047
102,102,0,2046,4095
103,103,0,2046,4095
104,104,0,2046,4044
105,105,0,2047,3935
106,106,0,2046,3776
107,107,0,2046,3572
108,108,0,2046,3327
109,109,0,2047,3048
110,110,0,2046,2743
111,111,0,2046,2419
112,112,0,2046,2084
113,113,0,2046,1749
114,114,0,2046,1421
115,115,0,2046,1109
116,116,0,2047,821
117,117,0,2046,566
118,118,0,2046,349
119,119,0,2046,178
120,120,0,2046,54
121,121,0,2046,0
122,122,0,2046,0
123,123,0,2046,7
124,124,0,2046,101
125,125,0,2046,246
126,126,0,2046,438
127,127,0,2046,672
128,128,0,2046,944
129,129,0,2046,1244
130,130,0,2046,1565
131,131,0,2047,1898
132,132,0,2046,2236
133,133,0,2047,2568
134,134,0,2047,2885
135,135,0,2046,3180
136,136,0,2046,3445
137,137,0,2046,3671
138,138,0,2046,3856
139,139,0,2046,3992
140,140,0,2046,4076
141,141,0,2046,4095
142,142,0,2047,4082
143,143,0,2046,4004
144,144,0,2046,3874
145,145,0,2046,3695
146,146,0,2046,3474
147,147,0,2046,3214
148,148,0,2046,2923
149,149,0,2046,2608
150,150,0,2046,2279
151,151,0,2045,1943
152,152,0,2046,1611
153,153,0,2046,1287
154,154,0,2047,984
155,155,0,2046,710
156,156,0,2046,470
157,157,0,2046,271
158,158,0,2046,118
159,159,0,2047,18
160,160,0,2046,0
161,161,0,2046,0
162,162,0,2046,41
163,163,0,2046,155
164,164,0,2047,321
165,165,0,2046,531
166,166,0,2046,782
167,167,0,2047,1066
168,168,0,2046,1377
169,169,0,2047,1703
170,170,0,2046,2039
171,171,0,2046,2376
172,172,0,2046,2702
173,173,0,2046,3012
174,174,0,2046,3295
175,175,0,2046,3545
176,176,0,2046,3754
177,177,0,2046,3918
178,178,0,2047,4033
179,179,0,2046,4095
180,180,0,2046,4095
181,181,0,2046,4056
182,182,0,2046,3956
183,183,0,2046,3805
184,184,0,2046,3608
185,185,0,2047,3369
186,186,0,2046,3095
187,187,0,2046,2793
188,188,0,2046,2472
189,189,0,2046,2139
190,190,0,2046,1803
191,191,0,2046,1473
192,192,0,2046,1158
193,193,0,2046,866
194,194,0,2046,603
195,195,0,2047,381
196,196,0,2046,201
197,197,0,2046,70
198,198,0,2046,0
199,199,0,2047,0
200,200,0,2046,0
201,201,0,2047,83
202,202,0,2046,218
203,203,0,2046,404
204,204,0,2046,632
205,205,0,2047,897
206,206,0,2047,1194
207,207,0,2046,1512
208,208,0,2046,1844
209,209,0,2046,2181
210,210,0,2046,2514
211,211,0,2046,2835
212,212,0,2046,3134
213,213,0,2046,3404
214,214,0,2046,3638
215,215,0,2046,3829
216,216,0,2046,3974
217,217,0,2047,4066
218,218,0,2046,4095
219,219,0,2046,4090
220,220,0,2046,4020
221,221,0,2047,3899
222,222,0,2046,3728
223,223,0,2046,3512
224,224,0,2046,3258
225,225,0,2046,2972
226,226,0,2046,2661
227,227,0,2046,2333
228,228,0,2047,1998
229,229,0,2046,1663
230,230,0,2046,1338
231,231,0,2047,1032
232,232,0,2046,751
233,233,0,2046,505
234,234,0,2046,300
235,235,0,2046,140
236,236,0,2046,31
237,237,0,2046,0
238,238,0,2046,0
239,239,0,2047,27
240,240,0,2046,133
241,241,0,2046,292
242,242,0,2046,494
243,243,0,2046,739
244,244,0,2046,1019
245,245,0,2046,1325
246,246,0,2046,1649
247,247,0,2046,1985
248,248,0,2046,2322
249,249,0,2046,2651
250,250,0,2046,2963
251,251,0,2046,3251
252,252,0,2046,3507
253,253,0,2046,3724
254,254,0,2046,3895
255,255,0,2045,4019
256,256,0,2047,4089
257,257,0,2046,4095
258,258,0,2047,4067
259,259,0,2046,3976
260,260,0,2046,3832
261,261,0,2046,3641
262,262,0,2046,3410
263,263,0,2046,3141
264,264,0,2046,2843
265,265,0,2046,2524
266,266,0,2046,2192
267,267,0,2046,1856
268,268,0,2047,1525
269,269,0,2047,1207
270,270,0,2047,910
271,271,0,2046,644
272,272,0,2047,415
273,273,0,2046,227
274,274,0,2047,87
275,275,0,2046,0
276,276,0,2046,0
277,277,0,2046,0
278,278,0,2046,65
279,279,0,2046,193
280,280,0,2047,371
281,281,0,2047,593
282,282,0,2046,852
283,283,0,2046,1144
284,284,0,2046,1460
285,285,0,2046,1790
286,286,0,2047,2128
287,287,0,2046,2462
288,288,0,2046,2784
289,289,0,2046,3088
290,290,0,2046,3363
291,291,0,2046,3603
292,292,0,2047,3802
293,293,0,2046,3954
294,294,0,2047,4055
295,295,0,2047,4095
296,296,0,2047,4095
297,297,0,2047,4036
298,298,0,2047,3921
299,299,0,2046,3757
300,300,0,2046,3550
301,301,0,2047,3302
302,302,0,2047,3020
303,303,0,2047,2712
304,304,0,2047,2387
305,305,0,2047,2052
306,306,0,2047,1717
307,307,0,2047,1390
308,308,0,2046,1080
309,309,0,2047,794
310,310,0,2047,542
311,311,0,2047,330
312,312,0,2046,162
313,313,0,2046,45
314,314,0,2047,0
315,315,0,2046,0
316,316,0,2047,15
317,317,0,2046,112
318,318,0,2046,262
319,319,0,2047,459
320,320,0,2046,698
321,321,0,2046,972
322,322,0,2046,1275
323,323,0,2046,1597
324,324,0,2047,1932
325,325,0,2046,2269
326,326,0,2046,2599
327,327,0,2047,2915
328,328,0,2046,3206
329,329,0,2046,3468
330,330,0,2046,3692
331,331,0,2046,3872
332,332,0,2046,4003
333,333,0,2046,4081
334,334,0,2046,4095
335,335,0,2046,4077
336,336,0,2046,3994
337,337,0,2046,3859
338,338,0,2047,3676
339,339,0,2047,3450
340,340,0,2047,3187
341,341,0,2046,2893
342,342,0,2046,2577
343,343,0,2046,2246
344,344,0,2047,1911
345,345,0,2047,1577
346,346,0,2046,1257
347,347,0,2046,957
348,348,0,2047,685
349,349,0,2046,448
350,350,0,2046,254
351,351,0,2046,107
352,352,0,2046,11
353,353,0,2047,0
354,354,0,2046,0
355,355,0,2046,49
356,356,0,2047,169
357,357,0,2046,339
358,358,0,2046,554
359,359,0,2047,808
360,360,0,2047,1095
361,361,0,2047,1408
362,362,0,2046,1737
363,363,0,2046,2073
364,364,0,2046,2409
365,365,0,2046,2734
366,366,0,2046,3041
367,367,0,2046,3322
368,368,0,2046,3567
369,369,0,2046,3773
370,370,0,2047,3933
371,371,0,2046,4042
372,372,0,2046,4095
373,373,0,2046,4095
374,374,0,2047,4049
375,375,0,2046,3943
376,376,0,2046,3787
377,377,0,2047,3586
378,378,0,2046,3344
379,379,0,2046,3067
380,380,0,2047,2763
381,381,0,2046,2440
382,382,0,2046,2106
383,383,0,2046,1770
384,384,0,2046,1441
385,385,0,2047,1128
386,386,0,2046,838
387,387,0,2046,580
388,388,0,2046,361
389,389,0,2047,187
390,390,0,2047,60
391,391,0,2047,0
392,392,0,2047,0
393,393,0,2046,3
394,394,0,2045,93
395,395,0,2047,235
396,396,0,2047,424
397,397,0,2046,657
398,398,0,2046,926
399,399,0,2047,1224
400,400,0,2046,1544
401,401,0,2047,1877
402,402,0,2047,2215
403,403,0,2047,2548
404,404,0,2047,2865
405,405,0,2046,3162
406,406,0,2046,3429
407,407,0,2047,3659
408,408,0,2046,3845
409,409,0,2046,3985
410,410,0,2046,4072
411,411,0,2046,4095
412,412,0,2047,4086
413,413,0,2046,4010
414,414,0,2046,3883
415,415,0,2047,3708
416,416,0,2046,3488
417,417,0,2047,3231
418,418,0,2046,2942
419,419,0,2046,2629
420,420,0,2047,2300
421,421,0,2047,1965
422,422,0,2046,1631
423,423,0,2047,1307
424,424,0,2047,1003
425,425,0,2046,726
426,426,0,2046,483
427,427,0,2046,282
428,428,0,2047,127
429,429,0,2047,23
430,430,0,2047,0
431,431,0,2046,0
432,432,0,2046,35
433,433,0,2046,146
434,434,0,2046,309
435,435,0,2046,517
436,436,0,2047,765
437,437,0,2047,1047
438,438,0,2046,1356
439,439,0,2046,1682
440,440,0,2046,2019
441,441,0,2046,2355
442,442,0,2046,2682
443,443,0,2046,2993
444,444,0,2046,3278
445,445,0,2046,3530
446,446,0,2046,3743
447,447,0,2047,3910
448,448,0,2046,4027
449,449,0,2046,4094
450,450,0,2046,4095
451,451,0,2046,4060
452,452,0,2046,3964
453,453,0,2047,3815
454,454,0,2046,3621
455,455,0,2046,3385
456,456,0,2046,3113
457,457,0,2047,2812
458,458,0,2046,2492
459,459,0,2047,2159
460,460,0,2047,1823
461,461,0,2047,1493
462,462,0,2047,1177
463,463,0,2045,883
464,464,0,2046,619
465,465,0,2046,394
466,466,0,2047,210
467,467,0,2046,77
468,468,0,2046,0
469,469,0,2046,0
470,470,0,2046,0
471,471,0,2047,75
472,472,0,2046,209
473,473,0,2047,390
474,474,0,2047,617
475,475,0,2046,880
476,476,0,2047,1174
477,477,0,2047,1492
478,478,0,2046,1823
479,479,0,2046,2160
480,480,0,2047,2494
481,481,0,2046,2815
482,482,0,2046,3116
483,483,0,2046,3388
484,484,0,2047,3625
485,485,0,2046,3819
486,486,0,2046,3966
487,487,0,2047,4062
488,488,0,2046,4095
489,489,0,2046,4092
490,490,0,2046,4026
491,491,0,2046,3908
492,492,0,2047,3739
493,493,0,2046,3527
494,494,0,2047,3274
495,495,0,2047,2990
496,496,0,2046,2681
497,497,0,2047,2354
498,498,0,2046,2019
499,499,0,2046,1683
500,500,0,2046,1359
501,501,0,2045,1050
502,502,0,2046,768
503,503,0,2046,520
504,504,0,2046,312
505,505,0,2046,149
506,506,0,2046,36
507,507,0,2046,0
508,508,0,2046,0
509,509,0,2047,22
510,510,0,2046,126
511,511,0,2046,279
512,512,0,2047,480
513,513,0,2047,723
514,514,0,2046,1000
515,515,0,2047,1305
516,516,0,2047,1629
517,517,0,2047,1964
518,518,0,2047,2302
519,519,0,2046,2631
520,520,0,2047,2944
521,521,0,2046,3235
522,522,0,2047,3492
523,523,0,2047,3711
524,524,0,2046,3887
525,525,0,2047,4013
526,526,0,2047,4086
527,527,0,2046,4095
528,528,0,2046,4071
529,529,0,2047,3983
530,530,0,2046,3842
531,531,0,2047,3655
532,532,0,2046,3426
533,533,0,2046,3159
534,534,0,2046,2863
535,535,0,2046,2545
536,536,0,2046,2213
537,537,0,2046,1877
538,538,0,2046,1545
539,539,0,2046,1226
540,540,0,2046,929
541,541,0,2046,660
542,542,0,2046,427
543,543,0,2046,237
544,544,0,2046,95
545,545,0,2046,4
546,546,0,2047,0
547,547,0,2047,0
548,548,0,2047,58
549,549,0,2046,184
550,550,0,2047,359
551,551,0,2046,578
552,552,0,2046,836
553,553,0,2046,1125
554,554,0,2047,1440
555,555,0,2047,1770
556,556,0,2046,2107
557,557,0,2046,2440
558,558,0,2046,2765
559,559,0,2047,3070
560,560,0,2046,3347
561,561,0,2046,3590
562,562,0,2046,3791
563,563,0,2047,3946
564,564,0,2047,4049
565,565,0,2046,4095
566,566,0,2046,4095
567,567,0,2046,4040
568,568,0,2047,3930
569,569,0,2047,3770
570,570,0,2045,3564
571,571,0,2047,3318
572,572,0,2046,3038
573,573,0,2047,2731
574,574,0,2046,2407
575,575,0,2046,2073
576,576,0,2046,1738
577,577,0,2047,1410
578,578,0,2046,1099
579,579,0,2046,811
580,580,0,2046,557
581,581,0,2046,342
582,582,0,2046,172
583,583,0,2046,51
584,584,0,2046,0
585,585,0,2047,0
586,586,0,2046,10
587,587,0,2046,105
588,588,0,2047,251
589,589,0,2046,445
590,590,0,2046,682
591,591,0,2046,954
592,592,0,2047,1255
593,593,0,2046,1577
594,594,0,2046,1910
595,595,0,2046,2248
596,596,0,2046,2579
597,597,0,2046,2895
598,598,0,2046,3190
599,599,0,2046,3453
600,600,0,2046,3679
601,601,0,2046,3861
602,602,0,2047,3996
603,603,0,2047,4078
604,604,0,2046,4095
605,605,0,2046,4080
606,606,0,2046,4000
607,607,0,2046,3869
608,608,0,2046,3689
609,609,0,2046,3465
610,610,0,2047,3204
611,611,0,2046,2912
612,612,0,2047,2598
613,613,0,2046,2267
614,614,0,2046,1932
615,615,0,2046,1598
616,616,0,2046,1276
617,617,0,2047,975
618,618,0,2047,700
619,619,0,2047,461
620,620,0,2047,264
621,621,0,2047,114
622,622,0,2046,16
623,623,0,2046,0
624,624,0,2046,0
625,625,0,2046,44
626,626,0,2046,160
627,627,0,2047,328
628,628,0,2047,539
629,629,0,2046,791
630,630,0,2046,1077
631,631,0,2047,1387
632,632,0,2046,1716
633,633,0,2046,2052
634,634,0,2047,2388
635,635,0,2046,2714
636,636,0,2046,3023
637,637,0,2046,3304
638,638,0,2046,3553
639,639,0,2047,3761
640,640,0,2046,3924
641,641,0,2046,4037
642,642,0,2046,4095
643,643,0,2046,4095
644,644,0,2046,4053
645,645,0,2046,3950
646,646,0,2046,3798
647,647,0,2046,3600
648,648,0,2045,3360
649,649,0,2046,3085
650,650,0,2046,2782
651,651,0,2046,2461
652,652,0,2046,2127
653,653,0,2046,1791
654,654,0,2046,1462
655,655,0,2047,1147
656,656,0,2046,856
657,657,0,2046,595
658,658,0,2047,373
659,659,0,2047,196
660,660,0,2046,67
661,661,0,2046,0
662,662,0,2046,0
663,663,0,2046,0
664,664,0,2047,86
665,665,0,2047,224
666,666,0,2046,411
667,667,0,2046,642
668,668,0,2045,908
669,669,0,2046,1205
670,670,0,2047,1523
671,671,0,2046,1856
672,672,0,2047,2193
673,673,0,2046,2526
674,674,0,2046,2846
675,675,0,2046,3144
676,676,0,2047,3413
677,677,0,2047,3646
678,678,0,2046,3835
679,679,0,2047,3977
680,680,0,2046,4068
681,681,0,2046,4095
682,682,0,2047,4088
683,683,0,2047,4016
684,684,0,2046,3893
685,685,0,2047,3720
686,686,0,2047,3504
687,687,0,2046,3248
688,688,0,2046,2961
689,689,0,2046,2649
690,690,0,2046,2321
691,691,0,2046,1986
692,692,0,2046,1651
693,693,0,2045,1327
694,694,0,2046,1021
695,695,0,2046,742
696,696,0,2047,497
697,697,0,2046,294
698,698,0,2046,135
699,699,0,2046,28
700,700,0,2046,0
701,701,0,2046,0
702,702,0,2046,30
703,703,0,2046,138
704,704,0,2047,297
705,705,0,2046,503
706,706,0,2046,749
707,707,0,2046,1029
708,708,0,2047,1336
709,709,0,2046,1662
710,710,0,2047,1997
711,711,0,2047,2335
712,712,0,2046,2663
713,713,0,2047,2974
714,714,0,2046,3261
715,715,0,2046,3515
716,716,0,2046,3730
717,717,0,2046,3901
718,718,0,2046,4023
719,719,0,2047,4090
720,720,0,2047,4095
721,721,0,2046,4065
722,722,0,2046,3971
723,723,0,2046,3826
724,724,0,2046,3635
725,725,0,2046,3401
726,726,0,2047,3131
727,727,0,2046,2832
728,728,0,2046,2514
729,729,0,2047,2181
730,730,0,2046,1845
731,731,0,2046,1514
732,732,0,2046,1195
733,733,0,2046,900
734,734,0,2047,635
735,735,0,2047,407
736,736,0,2046,221
737,737,0,2046,84
738,738,0,2046,0
739,739,0,2046,0
740,740,0,2046,0
741,741,0,2046,68
742,742,0,2046,199
743,743,0,2047,378
744,744,0,2047,601
745,745,0,2046,863
746,746,0,2046,1155
747,747,0,2046,1471
748,748,0,2047,1802
749,749,0,2046,2140
750,750,0,2046,2473
751,751,0,2046,2796
752,752,0,2047,3098
753,753,0,2046,3371
754,754,0,2047,3610
755,755,0,2047,3808
756,756,0,2047,3958
757,757,0,2047,4057
758,758,0,2047,4095
759,759,0,2046,4095
760,760,0,2046,4031
761,761,0,2046,3916
762,762,0,2047,3751
763,763,0,2046,3541
764,764,0,2046,3291
765,765,0,2046,3009
766,766,0,2047,2700
767,767,0,2046,2375
768,768,0,2046,2040
769,769,0,2047,1704
770,770,0,2046,1378
771,771,0,2046,1068
772,772,0,2046,785
773,773,0,2046,534
774,774,0,2046,323
775,775,0,2046,157
776,776,0,2046,41
777,777,0,2046,0
778,778,0,2046,0
779,779,0,2046,17
780,780,0,2046,117
781,781,0,2047,268
782,782,0,2046,466
783,783,0,2046,706
784,784,0,2046,982
785,785,0,2046,1285
786,786,0,2046,1608
787,787,0,2047,1943
788,788,0,2046,2280
789,789,0,2047,2611
790,790,0,2047,2925
791,791,0,2046,3217
792,792,0,2047,3476
793,793,0,2046,3699
794,794,0,2046,3877
795,795,0,2047,4006
796,796,0,2046,4083
797,797,0,2046,4095
798,798,0,2046,4076
799,799,0,2046,3989
800,800,0,2046,3852
801,801,0,2047,3669
802,802,0,2046,3441
803,803,0,2046,3176
804,804,0,2046,2882
805,805,0,2046,2566
806,806,0,2046,2235
807,807,0,2046,1899
808,808,0,2046,1566
809,809,0,2047,1246
810,810,0,2046,946
811,811,0,2046,676
812,812,0,2047,440
813,813,0,2046,248
814,814,0,2046,102
815,815,0,2046,9
816,816,0,2046,0
817,817,0,2046,0
818,818,0,2047,52
819,819,0,2046,175
820,820,0,2046,346
821,821,0,2046,563
822,822,0,2046,819
823,823,0,2046,1106
824,824,0,2046,1419
825,825,0,2047,1748
826,826,0,2046,2085
827,827,0,2047,2420
828,828,0,2047,2745
829,829,0,2046,3052
830,830,0,2046,3330
831,831,0,2046,3575
832,832,0,2046,3779
833,833,0,2046,3938
834,834,0,2046,4045
835,835,0,2046,4095
836,836,0,2046,4095
837,837,0,2046,4045
838,838,0,2046,3939
839,839,0,2046,3781
840,840,0,2047,3578
841,841,0,2046,3335
842,842,0,2046,3056
843,843,0,2047,2751
844,844,0,2046,2428
845,845,0,2047,2094
846,846,0,2047,1758
847,847,0,2047,1430
848,848,0,2046,1117
849,849,0,2047,829
850,850,0,2047,572
851,851,0,2046,354
852,852,0,2047,181
853,853,0,2046,57
854,854,0,2047,0
855,855,0,2046,0
856,856,0,2046,6
857,857,0,2047,97
858,858,0,2047,240
859,859,0,2046,431
860,860,0,2047,666
861,861,0,2046,935
862,862,0,2046,1236
863,863,0,2046,1556
864,864,0,2046,1889
865,865,0,2046,2226
866,866,0,2046,2558
867,867,0,2047,2876
868,868,0,2046,3172
869,869,0,2046,3438
870,870,0,2046,3665
871,871,0,2046,3851
872,872,0,2047,3989
873,873,0,2045,4074
874,874,0,2047,4095
875,875,0,2047,4084
876,876,0,2046,4007
877,877,0,2047,3878
878,878,0,2046,3701
879,879,0,2047,3480
880,880,0,2047,3222
881,881,0,2046,2931
882,882,0,2047,2617
883,883,0,2046,2288
884,884,0,2046,1953
885,885,0,2046,1619
886,886,0,2046,1296
887,887,0,2047,993
888,888,0,2046,717
889,889,0,2047,476
890,890,0,2046,276
891,891,0,2046,122
892,892,0,2047,20
893,893,0,2046,0
894,894,0,2046,0
895,895,0,2046,38
896,896,0,2047,152
897,897,0,2046,316
898,898,0,2047,525
899,899,0,2047,775
900,900,0,2047,1058
901,901,0,2046,1367
902,902,0,2047,1695
903,903,0,2047,2030
904,904,0,2046,2366
905,905,0,2046,2693
906,906,0,2046,3004
907,907,0,2047,3288
908,908,0,2047,3539
909,909,0,2047,3749
910,910,0,2046,3915
911,911,0,2047,4032
912,912,0,2046,4095
913,913,0,2046,4095
914,914,0,2046,4058
915,915,0,2047,3959
916,916,0,2047,3809
917,917,0,2047,3613
918,918,0,2047,3376
919,919,0,2046,3103
920,920,0,2047,2802
921,921,0,2046,2481
922,922,0,2046,2148
923,923,0,2046,1812
924,924,0,2047,1481
925,925,0,2047,1166
926,926,0,2047,873
927,927,0,2046,610
928,928,0,2047,386
929,929,0,2047,206
930,930,0,2046,73
931,931,0,2046,0
932,932,0,2047,0
933,933,0,2046,0
934,934,0,2047,79
935,935,0,2046,214
936,936,0,2047,399
937,937,0,2046,625
938,938,0,2046,890
939,939,0,2047,1185
940,940,0,2047,1503
941,941,0,2046,1835
942,942,0,2046,2172
943,943,0,2047,2505
944,944,0,2046,2827
945,945,0,2046,3126
946,946,0,2046,3397
947,947,0,2046,3632
948,948,0,2047,3825
949,949,0,2047,3970
950,950,0,2047,4064
951,951,0,2046,4095
952,952,0,2046,4091
953,953,0,2046,4023
954,954,0,2046,3902
955,955,0,2046,3733
956,956,0,2046,3519
957,957,0,2046,3266
958,958,0,2046,2980
959,959,0,2047,2669
960,960,0,2046,2342
961,961,0,2046,2007
962,962,0,2046,1673
963,963,0,2047,1347
964,964,0,2046,1040
965,965,0,2047,759
966,966,0,2047,512
967,967,0,2046,304
968,968,0,2046,144
969,969,0,2047,34
970,970,0,2046,0
971,971,0,2046,0
972,972,0,2046,25
973,973,0,2046,130
974,974,0,2046,286
975,975,0,2047,488
976,976,0,2047,732
977,977,0,2046,1011
978,978,0,2047,1317
979,979,0,2047,1641
980,980,0,2047,1977
981,981,0,2046,2313
982,982,0,2046,2642
983,983,0,2046,2956
984,984,0,2046,3244
985,985,0,2046,3500
986,986,0,2046,3718
987,987,0,2046,3892
988,988,0,2047,4016
989,989,0,2046,4088
990,990,0,2046,4095
991,991,0,2046,4069
992,992,0,2047,3979
993,993,0,2046,3836
994,994,0,2046,3647
995,995,0,2046,3416
996,996,0,2046,3148
997,997,0,2046,2852
998,998,0,2046,2534
999,999,0,2047,2202
1000,1000,0,2047,1866
1001,1001,0,2046,1533
1002,1002,0,2046,1215
1003,1003,0,2046,918
1004,1004,0,2046,650
1005,1005,0,2046,420
1006,1006,0,2047,232
1007,1007,0,2046,91
1008,1008,0,2046,2
1009,1009,0,2046,0
1010,1010,0,2046,0
1011,1011,0,2046,62
1012,1012,0,2046,189
1013,1013,0,2046,365
1014,1014,0,2047,587
1015,1015,0,2047,845
1016,1016,0,2047,1136
1017,1017,0,2047,1451
1018,1018,0,2047,1781
1019,1019,0,2048,2118
1020,1020,0,2047,2452
1021,1021,0,2046,2776
1022,1022,0,2046,3080
1023,1023,0,2047,3356
1024,1024,0,2047,3597
1025,1025,0,2046,3796
1026,1026,0,2046,3950
1027,1027,0,2047,4053
1028,1028,0,2046,4095
1029,1029,0,2047,4095
