Sample in Buffer,Sample in Window,TRIGGER,adc1_data_a_d0[11:0],adc1_data_b_d0[11:0]
0,0,0,2046,4095
1,1,0,2046,4036
2,2,0,2047,3862
3,3,0,2047,3609
4,4,0,2047,3290
5,5,0,2047,2918
6,6,0,2047,2507
7,7,0,2047,2079
8,8,0,2047,1648
9,9,0,2047,1233
10,10,0,2047,855
11,11,0,2046,527
12,12,0,2047,263
13,13,0,2046,75
14,14,0,2046,0
15,15,0,2047,0
16,16,0,2045,28
17,17,0,2047,187
18,18,0,2046,424
19,19,0,2046,731
20,20,0,2047,1094
21,21,0,2046,1498
22,22,0,2046,1926
23,23,0,2047,2359
24,24,0,2047,2778
25,25,0,2046,3166
26,26,0,2046,3507
27,27,0,2047,3783
28,28,0,2046,3985
29,29,0,2047,4095
30,30,0,2047,4095
31,31,0,2046,4072
32,32,0,2047,3922
33,33,0,2046,3693
34,34,0,2046,3392
35,35,0,2046,3035
36,36,0,2047,2634
37,37,0,2047,2209
38,38,0,2047,1776
39,39,0,2046,1357
40,40,0,2046,964
41,41,0,2046,620
42,42,0,2046,337
43,43,0,2046,124
44,44,0,2047,0
45,45,0,2047,0
46,46,0,2047,0
47,47,0,2047,129
48,48,0,2046,344
49,49,0,2047,631
50,50,0,2046,979
51,51,0,2046,1373
52,52,0,2046,1795
53,53,0,2046,2228
54,54,0,2046,2654
55,55,0,2046,3053
56,56,0,2046,3410
57,57,0,2046,3707
58,58,0,2046,3932
59,59,0,2046,4076
60,60,0,2047,4095
61,61,0,2046,4095
62,62,0,2046,3976
63,63,0,2046,3771
64,64,0,2047,3492
65,65,0,2047,3148
66,66,0,2046,2760
67,67,0,2046,2340
68,68,0,2047,1908
69,69,0,2047,1482
70,70,0,2047,1079
71,71,0,2047,719
72,72,0,2046,415
73,73,0,2047,180
74,74,0,2046,24
75,75,0,2046,0
76,76,0,2047,0
77,77,0,2046,81
78,78,0,2046,271
79,79,0,2047,538
80,80,0,2047,868
81,81,0,2046,1249
82,82,0,2047,1664
83,83,0,2046,2097
84,84,0,2047,2526
85,85,0,2047,2936
86,86,0,2046,3307
87,87,0,2046,3624
88,88,0,2046,3872
89,89,0,2046,4042
90,90,0,2047,4095
91,91,0,2047,4095
92,92,0,2047,4023
93,93,0,2046,3841
94,94,0,2047,3583
95,95,0,2047,3258
96,96,0,2047,2882
97,97,0,2046,2469
98,98,0,2046,2039
99,99,0,2047,1609
100,100,0,2046,1198
101,101,0,2046,823
102,102,0,2046,500
103,103,0,2046,243
104,104,0,2046,63
105,105,0,2047,0
106,106,0,2046,0
107,107,0,2046,39
108,108,0,2047,205
109,109,0,2046,449
110,110,0,2046,762
111,111,0,2047,1129
112,112,0,2047,1536
113,113,0,2047,1965
114,114,0,2046,2397
115,115,0,2047,2815
116,116,0,2047,3199
117,117,0,2046,3534
118,118,0,2046,3805
119,119,0,2046,3999
120,120,0,2047,4095
121,121,0,2046,4095
122,122,0,2047,4062
123,123,0,2047,3906
124,124,0,2047,3669
125,125,0,2047,3362
126,126,0,2047,3000
127,127,0,2047,2597
128,128,0,2046,2170
129,129,0,2046,1738
130,130,0,2047,1319
131,131,0,2047,932
132,132,0,2047,592
133,133,0,2046,314
134,134,0,2046,108
135,135,0,2047,0
136,136,0,2046,0
137,137,0,2047,5
138,138,0,2047,145
139,139,0,2047,368
140,140,0,2047,661
141,141,0,2045,1013
142,142,0,2047,1409
143,143,0,2046,1833
144,144,0,2046,2267
145,145,0,2047,2691
146,146,0,2046,3088
147,147,0,2046,3439
148,148,0,2047,3729
149,149,0,2047,3949
150,150,0,2047,4086
151,151,0,2046,4095
152,152,0,2047,4092
153,153,0,2047,3962
154,154,0,2047,3749
155,155,0,2047,3462
156,156,0,2045,3115
157,157,0,2046,2723
158,158,0,2047,2301
159,159,0,2046,1868
160,160,0,2046,1443
161,161,0,2047,1045
162,162,0,2047,689
163,163,0,2046,391
164,164,0,2047,162
165,165,0,2047,14
166,166,0,2046,0
167,167,0,2047,0
168,168,0,2047,94
169,169,0,2047,292
170,170,0,2046,565
171,171,0,2046,900
172,172,0,2046,1286
173,173,0,2047,1703
174,174,0,2046,2136
175,175,0,2046,2565
176,176,0,2047,2971
177,177,0,2046,3338
178,178,0,2047,3649
179,179,0,2046,3891
180,180,0,2046,4053
181,181,0,2047,4095
182,182,0,2046,4095
183,183,0,2046,4011
184,184,0,2046,3822
185,185,0,2046,3556
186,186,0,2047,3226
187,187,0,2047,2846
188,188,0,2047,2431
189,189,0,2047,1999
190,190,0,2046,1572
191,191,0,2046,1162
192,192,0,2047,792
193,193,0,2046,473
194,194,0,2047,223
195,195,0,2047,51
196,196,0,2046,0
197,197,0,2046,0
198,198,0,2046,51
199,199,0,2046,224
200,200,0,2047,474
201,201,0,2046,793
202,202,0,2047,1164
203,203,0,2046,1574
204,204,0,2047,2004
205,205,0,2047,2436
206,206,0,2046,2851
207,207,0,2047,3232
208,208,0,2047,3562
209,209,0,2047,3825
210,210,0,2047,4012
211,211,0,2046,4095
212,212,0,2046,4095
213,213,0,2046,4051
214,214,0,2046,3887
215,215,0,2046,3644
216,216,0,2046,3332
217,217,0,2046,2965
218,218,0,2046,2559
219,219,0,2046,2131
220,220,0,2046,1699
221,221,0,2046,1282
222,222,0,2046,899
223,223,0,2046,564
224,224,0,2047,292
225,225,0,2046,94
226,226,0,2047,0
227,227,0,2046,0
228,228,0,2047,15
229,229,0,2047,162
230,230,0,2047,391
231,231,0,2047,690
232,232,0,2047,1047
233,233,0,2047,1446
234,234,0,2047,1872
235,235,0,2047,2306
236,236,0,2047,2729
237,237,0,2046,3121
238,238,0,2046,3468
239,239,0,2047,3753
240,240,0,2047,3965
241,241,0,2046,4094
242,242,0,2047,4095
243,243,0,2047,4084
244,244,0,2046,3945
245,245,0,2046,3725
246,246,0,2046,3433
247,247,0,2046,3082
248,248,0,2046,2685
249,249,0,2046,2262
250,250,0,2046,1829
251,251,0,2047,1407
252,252,0,2047,1011
253,253,0,2046,660
254,254,0,2047,366
255,255,0,2046,146
256,256,0,2047,5
257,257,0,2046,0
258,258,0,2047,0
259,259,0,2046,109
260,260,0,2046,314
261,261,0,2046,592
262,262,0,2046,934
263,263,0,2046,1322
264,264,0,2047,1742
265,265,0,2046,2175
266,266,0,2046,2603
267,267,0,2047,3006
268,268,0,2046,3369
269,269,0,2047,3674
270,270,0,2047,3909
271,271,0,2046,4064
272,272,0,2047,4095
273,273,0,2047,4095
274,274,0,2046,3996
275,275,0,2046,3800
276,276,0,2046,3529
277,277,0,2046,3193
278,278,0,2046,2809
279,279,0,2047,2391
280,280,0,2046,1960
281,281,0,2047,1533
282,282,0,2047,1127
283,283,0,2046,760
284,284,0,2046,449
285,285,0,2047,204
286,286,0,2047,38
287,287,0,2047,0
288,288,0,2046,0
289,289,0,2047,63
290,290,0,2047,244
291,291,0,2046,501
292,292,0,2046,825
293,293,0,2047,1200
294,294,0,2047,1612
295,295,0,2046,2044
296,296,0,2046,2474
297,297,0,2047,2887
298,298,0,2046,3264
299,299,0,2047,3589
300,300,0,2047,3847
301,301,0,2046,4026
302,302,0,2047,4095
303,303,0,2047,4095
304,304,0,2047,4039
305,305,0,2047,3868
306,306,0,2046,3618
307,307,0,2047,3301
308,308,0,2046,2929
309,309,0,2047,2521
310,310,0,2047,2092
311,311,0,2047,1661
312,312,0,2046,1247
313,313,0,2046,867
314,314,0,2047,536
315,315,0,2046,270
316,316,0,2046,80
317,317,0,2046,0
318,318,0,2046,0
319,319,0,2047,24
320,320,0,2046,181
321,321,0,2046,415
322,322,0,2046,720
323,323,0,2046,1082
324,324,0,2046,1485
325,325,0,2046,1912
326,326,0,2046,2345
327,327,0,2047,2766
328,328,0,2047,3155
329,329,0,2046,3496
330,330,0,2046,3776
331,331,0,2046,3980
332,332,0,2046,4095
333,333,0,2047,4095
334,334,0,2046,4075
335,335,0,2047,3928
336,336,0,2047,3701
337,337,0,2047,3403
338,338,0,2047,3047
339,339,0,2047,2647
340,340,0,2047,2223
341,341,0,2046,1790
342,342,0,2046,1369
343,343,0,2046,976
344,344,0,2046,630
345,345,0,2047,343
346,346,0,2046,129
347,347,0,2047,0
348,348,0,2046,0
349,349,0,2047,0
350,350,0,2047,124
351,351,0,2046,336
352,352,0,2046,621
353,353,0,2047,967
354,354,0,2046,1359
355,355,0,2047,1781
356,356,0,2046,2215
357,357,0,2047,2640
358,358,0,2046,3041
359,359,0,2046,3399
360,360,0,2047,3698
361,361,0,2046,3927
362,362,0,2047,4074
363,363,0,2047,4095
364,364,0,2046,4095
365,365,0,2047,3982
366,366,0,2046,3779
367,367,0,2046,3500
368,368,0,2046,3160
369,369,0,2046,2772
370,370,0,2046,2353
371,371,0,2046,1921
372,372,0,2047,1495
373,373,0,2046,1092
374,374,0,2046,729
375,375,0,2046,424
376,376,0,2046,186
377,377,0,2046,28
378,378,0,2046,0
379,379,0,2047,0
380,380,0,2046,76
381,381,0,2047,264
382,382,0,2047,528
383,383,0,2046,857
384,384,0,2047,1236
385,385,0,2046,1651
386,386,0,2047,2083
387,387,0,2046,2513
388,388,0,2045,2923
389,389,0,2048,3296
390,390,0,2047,3615
391,391,0,2046,3865
392,392,0,2046,4038
393,393,0,2047,4095
394,394,0,2046,4095
395,395,0,2046,4027
396,396,0,2046,3849
397,397,0,2046,3592
398,398,0,2047,3269
399,399,0,2046,2894
400,400,0,2046,2483
401,401,0,2046,2053
402,402,0,2047,1622
403,403,0,2046,1210
404,404,0,2046,835
405,405,0,2046,510
406,406,0,2046,250
407,407,0,2046,67
408,408,0,2046,0
409,409,0,2046,0
410,410,0,2046,35
411,411,0,2046,198
412,412,0,2047,440
413,413,0,2047,751
414,414,0,2047,1117
415,415,0,2046,1523
416,416,0,2046,1951
417,417,0,2047,2384
418,418,0,2046,2802
419,419,0,2047,3188
420,420,0,2046,3525
421,421,0,2046,3798
422,422,0,2046,3995
423,423,0,2047,4095
424,424,0,2046,4095
425,425,0,2047,4065
426,426,0,2046,3911
427,427,0,2046,3677
428,428,0,2047,3374
429,429,0,2047,3012
430,430,0,2046,2609
431,431,0,2046,2183
432,432,0,2047,1751
433,433,0,2046,1332
434,434,0,2046,943
435,435,0,2047,601
436,436,0,2046,321
437,437,0,2047,114
438,438,0,2046,0
439,439,0,2046,0
440,440,0,2046,2
441,441,0,2046,140
442,442,0,2046,360
443,443,0,2046,650
444,444,0,2047,1001
445,445,0,2047,1397
446,446,0,2047,1820
447,447,0,2046,2253
448,448,0,2047,2678
449,449,0,2047,3076
450,450,0,2047,3429
451,451,0,2046,3722
452,452,0,2046,3944
453,453,0,2046,4083
454,454,0,2046,4095
455,455,0,2046,4094
456,456,0,2046,3966
457,457,0,2047,3756
458,458,0,2046,3472
459,459,0,2046,3128
460,460,0,2047,2735
461,461,0,2046,2315
462,462,0,2047,1882
463,463,0,2046,1456
464,464,0,2046,1057
465,465,0,2046,699
466,466,0,2046,399
467,467,0,2047,169
468,468,0,2047,17
469,469,0,2046,0
470,470,0,2046,0
471,471,0,2047,89
472,472,0,2047,285
473,473,0,2047,555
474,474,0,2046,889
475,475,0,2046,1273
476,476,0,2047,1690
477,477,0,2046,2122
478,478,0,2047,2551
479,479,0,2047,2959
480,480,0,2046,3327
481,481,0,2046,3640
482,482,0,2047,3885
483,483,0,2046,4049
484,484,0,2046,4095
485,485,0,2047,4095
486,486,0,2047,4015
487,487,0,2046,3829
488,488,0,2046,3566
489,489,0,2047,3237
490,490,0,2046,2859
491,491,0,2046,2444
492,492,0,2046,2013
493,493,0,2046,1584
494,494,0,2046,1174
495,495,0,2047,803
496,496,0,2046,483
497,497,0,2046,230
498,498,0,2046,54
499,499,0,2047,0
500,500,0,2047,0
501,501,0,2046,47
502,502,0,2046,217
503,503,0,2046,466
504,504,0,2046,783
505,505,0,2047,1152
506,506,0,2046,1562
507,507,0,2046,1991
508,508,0,2047,2423
509,509,0,2046,2839
510,510,0,2046,3221
511,511,0,2046,3552
512,512,0,2046,3819
513,513,0,2046,4008
514,514,0,2047,4095
515,515,0,2047,4095
516,516,0,2047,4054
517,517,0,2047,3894
518,518,0,2046,3653
519,519,0,2047,3343
520,520,0,2046,2977
521,521,0,2046,2572
522,522,0,2046,2144
523,523,0,2047,1713
524,524,0,2046,1295
525,525,0,2047,910
526,526,0,2046,573
527,527,0,2047,299
528,528,0,2047,99
529,529,0,2046,0
530,530,0,2047,0
531,531,0,2047,11
532,532,0,2046,157
533,533,0,2046,383
534,534,0,2047,680
535,535,0,2046,1036
536,536,0,2046,1434
537,537,0,2047,1859
538,538,0,2046,2292
539,539,0,2046,2716
540,540,0,2046,3109
541,541,0,2046,3458
542,542,0,2046,3746
543,543,0,2046,3959
544,544,0,2047,4091
545,545,0,2047,4095
546,546,0,2046,4087
547,547,0,2047,3951
548,548,0,2047,3733
549,549,0,2046,3443
550,550,0,2047,3093
551,551,0,2047,2697
552,552,0,2047,2275
553,553,0,2047,1843
554,554,0,2046,1419
555,555,0,2047,1023
556,556,0,2046,669
557,557,0,2047,375
558,558,0,2046,152
559,559,0,2046,8
560,560,0,2046,0
561,561,0,2046,0
562,562,0,2047,104
563,563,0,2047,306
564,564,0,2047,583
565,565,0,2047,922
566,566,0,2047,1310
567,567,0,2046,1728
568,568,0,2046,2162
569,569,0,2047,2590
570,570,0,2047,2994
571,571,0,2046,3358
572,572,0,2047,3666
573,573,0,2046,3903
574,574,0,2047,4060
575,575,0,2046,4095
576,576,0,2046,4095
577,577,0,2047,4002
578,578,0,2047,3808
579,579,0,2046,3539
580,580,0,2047,3205
581,581,0,2046,2822
582,582,0,2046,2406
583,583,0,2046,1973
584,584,0,2046,1545
585,585,0,2047,1139
586,586,0,2047,771
587,587,0,2047,456
588,588,0,2047,210
589,589,0,2046,42
590,590,0,2046,0
591,591,0,2047,0
592,592,0,2046,58
593,593,0,2046,236
594,594,0,2046,492
595,595,0,2047,814
596,596,0,2046,1188
597,597,0,2046,1599
598,598,0,2046,2030
599,599,0,2047,2461
600,600,0,2047,2876
601,601,0,2046,3253
602,602,0,2046,3579
603,603,0,2046,3840
604,604,0,2046,4022
605,605,0,2046,4095
606,606,0,2046,4095
607,607,0,2046,4044
608,608,0,2046,3875
609,609,0,2047,3627
610,610,0,2046,3311
611,611,0,2046,2942
612,612,0,2047,2533
613,613,0,2047,2106
614,614,0,2047,1674
615,615,0,2047,1259
616,616,0,2046,878
617,617,0,2046,545
618,618,0,2046,277
619,619,0,2046,84
620,620,0,2046,0
621,621,0,2047,0
622,622,0,2046,21
623,623,0,2046,173
624,624,0,2046,407
625,625,0,2047,710
626,626,0,2046,1070
627,627,0,2047,1471
628,628,0,2046,1899
629,629,0,2047,2332
630,630,0,2046,2753
631,631,0,2046,3144
632,632,0,2047,3487
633,633,0,2047,3768
634,634,0,2046,3975
635,635,0,2047,4095
636,636,0,2046,4095
637,637,0,2046,4078
638,638,0,2046,3935
639,639,0,2046,3710
640,640,0,2047,3413
641,641,0,2047,3059
642,642,0,2046,2661
643,643,0,2047,2236
644,644,0,2047,1803
645,645,0,2047,1382
646,646,0,2046,988
647,647,0,2047,640
648,648,0,2047,351
649,649,0,2047,135
650,650,0,2047,0
651,651,0,2046,0
652,652,0,2047,0
653,653,0,2046,118
654,654,0,2046,329
655,655,0,2046,612
656,656,0,2046,955
657,657,0,2046,1346
658,658,0,2046,1768
659,659,0,2047,2201
660,660,0,2046,2628
661,661,0,2047,3029
662,662,0,2046,3389
663,663,0,2047,3690
664,664,0,2047,3921
665,665,0,2046,4071
666,666,0,2046,4095
667,667,0,2046,4095
668,668,0,2047,3987
669,669,0,2046,3787
670,670,0,2047,3510
671,671,0,2046,3173
672,672,0,2046,2785
673,673,0,2047,2367
674,674,0,2046,1934
675,675,0,2046,1508
676,676,0,2046,1104
677,677,0,2046,740
678,678,0,2047,431
679,679,0,2046,193
680,680,0,2046,32
681,681,0,2046,0
682,682,0,2047,0
683,683,0,2046,71
684,684,0,2046,257
685,685,0,2046,518
686,686,0,2047,846
687,687,0,2046,1224
688,688,0,2047,1638
689,689,0,2046,2070
690,690,0,2046,2500
691,691,0,2046,2911
692,692,0,2046,3285
693,693,0,2046,3606
694,694,0,2046,3859
695,695,0,2047,4034
696,696,0,2046,4095
697,697,0,2047,4095
698,698,0,2046,4032
699,699,0,2047,3855
700,700,0,2047,3602
701,701,0,2046,3280
702,702,0,2047,2906
703,703,0,2047,2496
704,704,0,2046,2066
705,705,0,2046,1636
706,706,0,2047,1223
707,707,0,2047,846
708,708,0,2046,519
709,709,0,2046,257
710,710,0,2046,72
711,711,0,2047,0
712,712,0,2047,0
713,713,0,2047,32
714,714,0,2047,192
715,715,0,2046,432
716,716,0,2047,740
717,717,0,2046,1105
718,718,0,2046,1509
719,719,0,2047,1938
720,720,0,2046,2370
721,721,0,2046,2790
722,722,0,2046,3176
723,723,0,2046,3515
724,724,0,2047,3790
725,725,0,2046,3990
726,726,0,2047,4095
727,727,0,2047,4095
728,728,0,2047,4069
729,729,0,2047,3918
730,730,0,2047,3686
731,731,0,2046,3383
732,732,0,2046,3024
733,733,0,2047,2623
734,734,0,2047,2197
735,735,0,2047,1765
736,736,0,2046,1344
737,737,0,2046,954
738,738,0,2046,612
739,739,0,2047,329
740,740,0,2046,119
741,741,0,2046,0
742,742,0,2047,0
743,743,0,2046,0
744,744,0,2046,135
745,745,0,2047,352
746,746,0,2047,640
747,747,0,2047,989
748,748,0,2047,1384
749,749,0,2046,1807
750,750,0,2046,2240
751,751,0,2046,2666
752,752,0,2046,3063
753,753,0,2046,3419
754,754,0,2046,3714
755,755,0,2046,3938
756,756,0,2046,4080
757,757,0,2046,4095
758,758,0,2047,4095
759,759,0,2046,3972
760,760,0,2046,3764
761,761,0,2046,3482
762,762,0,2046,3139
763,763,0,2047,2748
764,764,0,2047,2328
765,765,0,2047,1896
766,766,0,2047,1469
767,767,0,2047,1069
768,768,0,2046,709
769,769,0,2046,407
770,770,0,2046,175
771,771,0,2047,21
772,772,0,2046,0
773,773,0,2047,0
774,774,0,2047,86
775,775,0,2047,278
776,776,0,2046,546
777,777,0,2046,878
778,778,0,2046,1261
779,779,0,2047,1677
780,780,0,2046,2109
781,781,0,2046,2538
782,782,0,2046,2947
783,783,0,2046,3317
784,784,0,2046,3632
785,785,0,2046,3878
786,786,0,2046,4046
787,787,0,2046,4095
788,788,0,2046,4095
789,789,0,2047,4019
790,790,0,2046,3836
791,791,0,2046,3574
792,792,0,2046,3248
793,793,0,2046,2870
794,794,0,2047,2458
795,795,0,2047,2026
796,796,0,2046,1597
797,797,0,2047,1186
798,798,0,2047,814
799,799,0,2047,492
800,800,0,2046,237
801,801,0,2046,59
802,802,0,2047,0
803,803,0,2046,0
804,804,0,2046,43
805,805,0,2046,209
806,806,0,2046,457
807,807,0,2046,772
808,808,0,2047,1140
809,809,0,2047,1548
810,810,0,2046,1977
811,811,0,2046,2410
812,812,0,2047,2826
813,813,0,2046,3209
814,814,0,2046,3543
815,815,0,2046,3812
816,816,0,2046,4003
817,817,0,2047,4095
818,818,0,2046,4095
819,819,0,2047,4059
820,820,0,2047,3899
821,821,0,2046,3661
822,822,0,2047,3353
823,823,0,2047,2989
824,824,0,2046,2584
825,825,0,2047,2158
826,826,0,2046,1726
827,827,0,2047,1308
828,828,0,2047,921
829,829,0,2046,583
830,830,0,2046,306
831,831,0,2045,104
832,832,0,2046,0
833,833,0,2046,0
834,834,0,2047,8
835,835,0,2047,151
836,836,0,2046,375
837,837,0,2046,669
838,838,0,2046,1023
839,839,0,2046,1421
840,840,0,2047,1845
841,841,0,2046,2279
842,842,0,2047,2702
843,843,0,2046,3098
844,844,0,2046,3448
845,845,0,2046,3738
846,846,0,2046,3954
847,847,0,2046,4089
848,848,0,2046,4095
849,849,0,2046,4091
850,850,0,2046,3957
851,851,0,2047,3742
852,852,0,2046,3454
853,853,0,2046,3105
854,854,0,2046,2711
855,855,0,2047,2289
856,856,0,2046,1856
857,857,0,2046,1432
858,858,0,2046,1035
859,859,0,2046,680
860,860,0,2046,384
861,861,0,2046,158
862,862,0,2047,11
863,863,0,2046,0
864,864,0,2046,0
865,865,0,2047,99
866,866,0,2046,299
867,867,0,2046,573
868,868,0,2046,911
869,869,0,2047,1297
870,870,0,2046,1715
871,871,0,2046,2148
872,872,0,2046,2577
873,873,0,2046,2982
874,874,0,2047,3348
875,875,0,2046,3657
876,876,0,2047,3897
877,877,0,2046,4057
878,878,0,2047,4095
879,879,0,2046,4095
880,880,0,2046,4007
881,881,0,2046,3815
882,882,0,2047,3548
883,883,0,2046,3216
884,884,0,2046,2834
885,885,0,2046,2419
886,886,0,2046,1987
887,887,0,2047,1559
888,888,0,2046,1151
889,889,0,2047,781
890,890,0,2047,466
891,891,0,2046,217
892,892,0,2047,46
893,893,0,2047,0
894,894,0,2047,0
895,895,0,2047,55
896,896,0,2046,229
897,897,0,2046,482
898,898,0,2047,802
899,899,0,2046,1175
900,900,0,2046,1586
901,901,0,2046,2017
902,902,0,2046,2448
903,903,0,2046,2862
904,904,0,2046,3242
905,905,0,2046,3570
906,906,0,2046,3832
907,907,0,2047,4017
908,908,0,2046,4095
909,909,0,2047,4095
910,910,0,2046,4048
911,911,0,2046,3881
912,912,0,2047,3637
913,913,0,2047,3322
914,914,0,2046,2954
915,915,0,2047,2547
916,916,0,2046,2118
917,917,0,2047,1688
918,918,0,2046,1272
919,919,0,2047,889
920,920,0,2047,555
921,921,0,2046,284
922,922,0,2047,90
923,923,0,2046,0
924,924,0,2046,0
925,925,0,2047,17
926,926,0,2046,168
927,927,0,2047,399
928,928,0,2046,700
929,929,0,2047,1057
930,930,0,2047,1459
931,931,0,2046,1885
932,932,0,2046,2318
933,933,0,2046,2740
934,934,0,2046,3132
935,935,0,2046,3477
936,936,0,2046,3760
937,937,0,2047,3970
938,938,0,2046,4095
939,939,0,2046,4095
940,940,0,2046,4081
941,941,0,2046,3941
942,942,0,2046,3718
943,943,0,2046,3424
944,944,0,2047,3071
945,945,0,2047,2673
946,946,0,2046,2250
947,947,0,2046,1817
948,948,0,2046,1395
949,949,0,2047,1000
950,950,0,2046,650
951,951,0,2046,360
952,952,0,2046,141
953,953,0,2046,2
954,954,0,2046,0
955,955,0,2046,0
956,956,0,2046,114
957,957,0,2046,321
958,958,0,2046,601
959,959,0,2047,943
960,960,0,2046,1334
961,961,0,2047,1755
962,962,0,2046,2187
963,963,0,2046,2615
964,964,0,2047,3018
965,965,0,2046,3379
966,966,0,2046,3682
967,967,0,2046,3915
968,968,0,2047,4067
969,969,0,2046,4095
970,970,0,2046,4095
971,971,0,2047,3992
972,972,0,2047,3793
973,973,0,2047,3520
974,974,0,2046,3183
975,975,0,2047,2798
976,976,0,2046,2380
977,977,0,2046,1948
978,978,0,2046,1521
979,979,0,2047,1116
980,980,0,2046,751
981,981,0,2046,441
982,982,0,2047,198
983,983,0,2046,35
984,984,0,2046,0
985,985,0,2047,0
986,986,0,2047,67
987,987,0,2047,249
988,988,0,2047,509
989,989,0,2046,835
990,990,0,2047,1212
991,991,0,2046,1625
992,992,0,2046,2056
993,993,0,2047,2487
994,994,0,2046,2899
995,995,0,2046,3274
996,996,0,2046,3598
997,997,0,2047,3852
998,998,0,2046,4030
999,999,0,2046,4095
1000,1000,0,2046,4095
1001,1001,0,2046,4036
1002,1002,0,2046,3863
1003,1003,0,2046,3610
1004,1004,0,2047,3291
1005,1005,0,2047,2918
1006,1006,0,2046,2508
1007,1007,0,2046,2079
1008,1008,0,2047,1648
1009,1009,0,2046,1235
1010,1010,0,2046,856
1011,1011,0,2047,528
1012,1012,0,2046,264
1013,1013,0,2047,76
1014,1014,0,2047,0
1015,1015,0,2047,0
1016,1016,0,2046,27
1017,1017,0,2046,186
1018,1018,0,2046,423
1019,1019,0,2046,730
1020,1020,0,2046,1093
1021,1021,0,2046,1497
1022,1022,0,2046,1925
1023,1023,0,2046,2358
1024,1024,0,2047,2777
1025,1025,0,2046,3165
1026,1026,0,2047,3506
1027,1027,0,2047,3783
1028,1028,0,2046,3986
1029,1029,0,2046,4095
1030,1030,0,2046,4095
