Sample in Buffer,Sample in Window,TRIGGER,adc1_data_a_d0[11:0],adc1_data_b_d0[11:0]
0,0,0,2047,446
1,1,0,2047,60
2,2,0,2047,0
3,3,0,2047,197
4,4,0,2046,700
5,5,0,2047,1403
6,6,0,2046,2203
7,7,0,2047,2978
8,8,0,2046,3611
9,9,0,2046,4008
10,10,0,2046,4095
11,11,0,2047,3894
12,12,0,2047,3401
13,13,0,2046,2704
14,14,0,2047,1905
15,15,0,2046,1126
16,16,0,2047,486
17,17,0,2046,80
18,18,0,2047,0
19,19,0,2046,169
20,20,0,2046,652
21,21,0,2046,1344
22,22,0,2046,2140
23,23,0,2046,2921
24,24,0,2046,3569
25,25,0,2046,3985
26,26,0,2047,4095
27,27,0,2046,3921
28,28,0,2047,3448
29,29,0,2047,2762
30,30,0,2047,1967
31,31,0,2047,1183
32,32,0,2047,528
33,33,0,2046,101
34,34,0,2046,0
35,35,0,2046,143
36,36,0,2046,606
37,37,0,2047,1285
38,38,0,2046,2078
39,39,0,2047,2864
40,40,0,2047,3526
41,41,0,2046,3964
42,42,0,2046,4095
43,43,0,2046,3946
44,44,0,2046,3493
45,45,0,2047,2820
46,46,0,2046,2030
47,47,0,2046,1240
48,48,0,2047,572
49,49,0,2047,125
50,50,0,2047,0
51,51,0,2047,119
52,52,0,2047,561
53,53,0,2046,1227
54,54,0,2047,2015
55,55,0,2047,2806
56,56,0,2046,3483
57,57,0,2047,3940
58,58,0,2047,4095
59,59,0,2047,3970
60,60,0,2046,3537
61,61,0,2046,2878
62,62,0,2046,2092
63,63,0,2046,1299
64,64,0,2047,617
65,65,0,2046,150
66,66,0,2046,0
67,67,0,2046,96
68,68,0,2046,519
69,69,0,2047,1170
70,70,0,2046,1953
71,71,0,2047,2748
72,72,0,2046,3436
73,73,0,2046,3915
74,74,0,2047,4095
75,75,0,2047,3992
76,76,0,2046,3580
77,77,0,2046,2935
78,78,0,2046,2155
79,79,0,2047,1357
80,80,0,2046,662
81,81,0,2046,176
82,82,0,2046,0
83,83,0,2047,75
84,84,0,2047,476
85,85,0,2046,1114
86,86,0,2046,1890
87,87,0,2046,2688
88,88,0,2047,3389
89,89,0,2046,3887
90,90,0,2046,4095
91,91,0,2046,4013
92,92,0,2046,3621
93,93,0,2047,2990
94,94,0,2046,2216
95,95,0,2046,1417
96,96,0,2046,710
97,97,0,2047,204
98,98,0,2047,0
99,99,0,2046,55
100,100,0,2046,435
101,101,0,2047,1058
102,102,0,2046,1827
103,103,0,2046,2629
104,104,0,2047,3342
105,105,0,2046,3858
106,106,0,2046,4095
107,107,0,2046,4031
108,108,0,2047,3660
109,109,0,2047,3046
110,110,0,2046,2280
111,111,0,2047,1477
112,112,0,2046,759
113,113,0,2046,233
114,114,0,2046,0
115,115,0,2046,38
116,116,0,2046,396
117,117,0,2047,1003
118,118,0,2046,1766
119,119,0,2047,2569
120,120,0,2046,3292
121,121,0,2046,3827
122,122,0,2046,4092
123,123,0,2046,4047
124,124,0,2047,3699
125,125,0,2046,3100
126,126,0,2046,2342
127,127,0,2047,1538
128,128,0,2046,809
129,129,0,2046,265
130,130,0,2046,0
131,131,0,2046,23
132,132,0,2046,359
133,133,0,2046,950
134,134,0,2047,1704
135,135,0,2046,2509
136,136,0,2046,3243
137,137,0,2047,3794
138,138,0,2046,4083
139,139,0,2046,4062
140,140,0,2046,3735
141,141,0,2046,3154
142,142,0,2046,2404
143,143,0,2046,1598
144,144,0,2046,859
145,145,0,2047,299
146,146,0,2047,1
147,147,0,2046,9
148,148,0,2046,324
149,149,0,2046,897
150,150,0,2047,1642
151,151,0,2046,2446
152,152,0,2046,3190
153,153,0,2047,3760
154,154,0,2047,4072
155,155,0,2046,4074
156,156,0,2046,3771
157,157,0,2046,3205
158,158,0,2046,2464
159,159,0,2047,1661
160,160,0,2046,912
161,161,0,2046,334
162,162,0,2046,13
163,163,0,2046,0
164,164,0,2046,289
165,165,0,2046,846
166,166,0,2046,1580
167,167,0,2046,2385
168,168,0,2046,3138
169,169,0,2046,3725
170,170,0,2047,4057
171,171,0,2046,4085
172,172,0,2046,3804
173,173,0,2047,3257
174,174,0,2046,2526
175,175,0,2047,1722
176,176,0,2046,965
177,177,0,2046,371
178,178,0,2046,28
179,179,0,2047,0
180,180,0,2047,256
181,181,0,2046,794
182,182,0,2047,1520
183,183,0,2046,2324
184,184,0,2046,3085
185,185,0,2046,3687
186,186,0,2047,4042
187,187,0,2046,4095
188,188,0,2046,3837
189,189,0,2047,3307
190,190,0,2047,2587
191,191,0,2046,1783
192,192,0,2046,1019
193,193,0,2047,409
194,194,0,2046,43
195,195,0,2046,0
196,196,0,2046,225
197,197,0,2046,745
198,198,0,2047,1460
199,199,0,2047,2262
200,200,0,2047,3030
201,201,0,2047,3649
202,202,0,2046,4025
203,203,0,2045,4095
204,204,0,2046,3867
205,205,0,2046,3355
206,206,0,2046,2646
207,207,0,2046,1846
208,208,0,2046,1074
209,209,0,2046,448
210,210,0,2046,61
211,211,0,2046,0
212,212,0,2046,196
213,213,0,2047,698
214,214,0,2046,1400
215,215,0,2046,2200
216,216,0,2046,2974
217,217,0,2046,3609
218,218,0,2047,4007
219,219,0,2046,4095
220,220,0,2046,3895
221,221,0,2047,3403
222,222,0,2046,2706
223,223,0,2047,1908
224,224,0,2046,1130
225,225,0,2047,489
226,226,0,2046,81
227,227,0,2047,0
228,228,0,2046,168
229,229,0,2047,650
230,230,0,2046,1341
231,231,0,2047,2137
232,232,0,2046,2918
233,233,0,2047,3568
234,234,0,2047,3985
235,235,0,2047,4095
236,236,0,2046,3923
237,237,0,2046,3451
238,238,0,2046,2765
239,239,0,2046,1971
240,240,0,2046,1186
241,241,0,2046,531
242,242,0,2046,102
243,243,0,2046,0
244,244,0,2046,142
245,245,0,2046,603
246,246,0,2047,1282
247,247,0,2047,2073
248,248,0,2046,2861
249,249,0,2047,3524
250,250,0,2047,3963
251,251,0,2046,4095
252,252,0,2046,3948
253,253,0,2046,3496
254,254,0,2046,2824
255,255,0,2046,2033
256,256,0,2046,1244
257,257,0,2047,575
258,258,0,2046,126
259,259,0,2048,0
260,260,0,2047,118
261,261,0,2046,559
262,262,0,2046,1224
263,263,0,2046,2012
264,264,0,2047,2803
265,265,0,2046,3479
266,266,0,2047,3939
267,267,0,2047,4095
268,268,0,2047,3971
269,269,0,2047,3539
270,270,0,2046,2881
271,271,0,2046,2096
272,272,0,2046,1302
273,273,0,2046,620
274,274,0,2047,151
275,275,0,2047,0
276,276,0,2046,94
277,277,0,2047,516
278,278,0,2047,1167
279,279,0,2047,1949
280,280,0,2047,2745
281,281,0,2046,3434
282,282,0,2046,3912
283,283,0,2047,4095
284,284,0,2046,3993
285,285,0,2046,3581
286,286,0,2046,2937
287,287,0,2047,2158
288,288,0,2046,1361
289,289,0,2047,666
290,290,0,2047,177
291,291,0,2047,0
292,292,0,2047,74
293,293,0,2047,474
294,294,0,2046,1110
295,295,0,2046,1887
296,296,0,2046,2686
297,297,0,2046,3386
298,298,0,2046,3885
299,299,0,2046,4095
300,300,0,2047,4013
301,301,0,2046,3623
302,302,0,2046,2993
303,303,0,2047,2220
304,304,0,2046,1420
305,305,0,2046,713
306,306,0,2046,205
307,307,0,2046,0
308,308,0,2047,55
309,309,0,2046,434
310,310,0,2046,1055
311,311,0,2046,1825
312,312,0,2047,2626
313,313,0,2047,3339
314,314,0,2046,3857
315,315,0,2046,4095
316,316,0,2046,4031
317,317,0,2046,3662
318,318,0,2046,3048
319,319,0,2046,2283
320,320,0,2046,1480
321,321,0,2046,762
322,322,0,2046,235
323,323,0,2046,0
324,324,0,2046,37
325,325,0,2047,394
326,326,0,2046,1001
327,327,0,2047,1762
328,328,0,2047,2565
329,329,0,2047,3290
330,330,0,2047,3825
331,331,0,2046,4091
332,332,0,2046,4047
333,333,0,2047,3701
334,334,0,2047,3102
335,335,0,2046,2345
336,336,0,2046,1540
337,337,0,2046,812
338,338,0,2046,267
339,339,0,2046,0
340,340,0,2046,22
341,341,0,2047,358
342,342,0,2046,947
343,343,0,2046,1700
344,344,0,2047,2505
345,345,0,2046,3239
346,346,0,2046,3793
347,347,0,2047,4082
348,348,0,2046,4062
349,349,0,2046,3737
350,350,0,2046,3156
351,351,0,2047,2406
352,352,0,2047,1602
353,353,0,2046,863
354,354,0,2046,301
355,355,0,2047,1
356,356,0,2046,9
357,357,0,2046,322
358,358,0,2046,894
359,359,0,2047,1638
360,360,0,2046,2443
361,361,0,2046,3188
362,362,0,2047,3758
363,363,0,2046,4070
364,364,0,2047,4075
365,365,0,2046,3773
366,366,0,2046,3208
367,367,0,2046,2468
368,368,0,2046,1663
369,369,0,2046,914
370,370,0,2046,336
371,371,0,2046,14
372,372,0,2046,0
373,373,0,2046,288
374,374,0,2047,842
375,375,0,2046,1577
376,376,0,2047,2382
377,377,0,2046,3135
378,378,0,2046,3722
379,379,0,2046,4057
380,380,0,2046,4085
381,381,0,2046,3806
382,382,0,2046,3260
383,383,0,2046,2529
384,384,0,2046,1725
385,385,0,2046,968
386,386,0,2047,372
387,387,0,2047,28
388,388,0,2047,0
389,389,0,2046,254
390,390,0,2046,792
391,391,0,2046,1516
392,392,0,2046,2320
393,393,0,2047,3082
394,394,0,2047,3686
395,395,0,2047,4041
396,396,0,2047,4095
397,397,0,2046,3838
398,398,0,2046,3310
399,399,0,2046,2590
400,400,0,2046,1787
401,401,0,2047,1022
402,402,0,2047,410
403,403,0,2047,44
404,404,0,2046,0
405,405,0,2046,223
406,406,0,2047,742
407,407,0,2046,1457
408,408,0,2047,2258
409,409,0,2047,3027
410,410,0,2046,3646
411,411,0,2046,4024
412,412,0,2046,4095
413,413,0,2046,3868
414,414,0,2047,3358
415,415,0,2046,2649
416,416,0,2046,1848
417,417,0,2047,1077
418,418,0,2046,449
419,419,0,2046,62
420,420,0,2047,0
421,421,0,2047,194
422,422,0,2046,694
423,423,0,2046,1398
424,424,0,2046,2196
425,425,0,2046,2973
426,426,0,2047,3607
427,427,0,2047,4006
428,428,0,2047,4095
429,429,0,2047,3897
430,430,0,2046,3406
431,431,0,2047,2709
432,432,0,2046,1912
433,433,0,2047,1133
434,434,0,2046,491
435,435,0,2046,82
436,436,0,2046,0
437,437,0,2046,166
438,438,0,2046,647
439,439,0,2047,1338
440,440,0,2047,2133
441,441,0,2046,2915
442,442,0,2046,3565
443,443,0,2047,3985
444,444,0,2046,4095
445,445,0,2046,3924
446,446,0,2046,3453
447,447,0,2046,2769
448,448,0,2046,1974
449,449,0,2046,1189
450,450,0,2046,533
451,451,0,2047,103
452,452,0,2046,0
453,453,0,2047,140
454,454,0,2046,602
455,455,0,2047,1279
456,456,0,2046,2070
457,457,0,2046,2858
458,458,0,2047,3521
459,459,0,2047,3962
460,460,0,2046,4095
461,461,0,2046,3949
462,462,0,2046,3498
463,463,0,2046,2826
464,464,0,2046,2036
465,465,0,2046,1247
466,466,0,2046,577
467,467,0,2047,127
468,468,0,2047,0
469,469,0,2046,116
470,470,0,2046,557
471,471,0,2046,1221
472,472,0,2047,2008
473,473,0,2046,2801
474,474,0,2046,3478
475,475,0,2047,3938
476,476,0,2046,4095
477,477,0,2046,3972
478,478,0,2046,3541
479,479,0,2046,2884
480,480,0,2046,2099
481,481,0,2047,1305
482,482,0,2047,621
483,483,0,2046,152
484,484,0,2046,0
485,485,0,2046,94
486,486,0,2047,513
487,487,0,2047,1164
488,488,0,2046,1946
489,489,0,2047,2742
490,490,0,2046,3432
491,491,0,2046,3911
492,492,0,2047,4095
493,493,0,2046,3994
494,494,0,2047,3584
495,495,0,2046,2940
496,496,0,2047,2161
497,497,0,2047,1364
498,498,0,2046,668
499,499,0,2046,179
500,500,0,2047,0
501,501,0,2047,73
502,502,0,2045,472
503,503,0,2046,1109
504,504,0,2047,1883
505,505,0,2046,2683
506,506,0,2046,3385
507,507,0,2046,3885
508,508,0,2046,4095
509,509,0,2047,4014
510,510,0,2047,3625
511,511,0,2046,2996
512,512,0,2046,2224
513,513,0,2046,1424
514,514,0,2047,715
515,515,0,2046,207
516,516,0,2046,0
517,517,0,2046,53
518,518,0,2046,431
519,519,0,2046,1052
520,520,0,2047,1821
521,521,0,2046,2623
522,522,0,2047,3336
523,523,0,2046,3855
524,524,0,2046,4095
525,525,0,2047,4032
526,526,0,2046,3664
527,527,0,2046,3051
528,528,0,2047,2286
529,529,0,2046,1483
530,530,0,2047,765
531,531,0,2047,237
532,532,0,2046,0
533,533,0,2046,37
534,534,0,2046,393
535,535,0,2047,997
536,536,0,2046,1759
537,537,0,2046,2563
538,538,0,2046,3287
539,539,0,2047,3824
540,540,0,2047,4091
541,541,0,2046,4048
542,542,0,2047,3703
543,543,0,2047,3106
544,544,0,2047,2348
545,545,0,2046,1544
546,546,0,2047,814
547,547,0,2047,269
548,548,0,2046,0
549,549,0,2046,21
550,550,0,2047,355
551,551,0,2046,944
552,552,0,2046,1697
553,553,0,2046,2502
554,554,0,2046,3237
555,555,0,2046,3791
556,556,0,2047,4082
557,557,0,2046,4063
558,558,0,2046,3738
559,559,0,2046,3159
560,560,0,2047,2410
561,561,0,2047,1605
562,562,0,2047,865
563,563,0,2046,302
564,564,0,2046,2
565,565,0,2046,8
566,566,0,2047,319
567,567,0,2047,891
568,568,0,2046,1635
569,569,0,2046,2440
570,570,0,2046,3184
571,571,0,2047,3756
572,572,0,2046,4070
573,573,0,2047,4075
574,574,0,2047,3774
575,575,0,2046,3211
576,576,0,2047,2471
577,577,0,2047,1667
578,578,0,2046,917
579,579,0,2046,337
580,580,0,2046,14
581,581,0,2047,0
582,582,0,2046,286
583,583,0,2047,839
584,584,0,2047,1574
585,585,0,2046,2379
586,586,0,2046,3132
587,587,0,2046,3721
588,588,0,2046,4056
589,589,0,2046,4086
590,590,0,2046,3807
591,591,0,2046,3262
592,592,0,2046,2532
593,593,0,2046,1728
594,594,0,2046,970
595,595,0,2046,375
596,596,0,2047,29
597,597,0,2046,0
598,598,0,2046,253
599,599,0,2046,789
600,600,0,2047,1514
601,601,0,2047,2317
602,602,0,2046,3078
603,603,0,2047,3684
604,604,0,2046,4040
605,605,0,2047,4095
606,606,0,2046,3840
607,607,0,2046,3311
608,608,0,2047,2592
609,609,0,2047,1790
610,610,0,2047,1024
611,611,0,2046,413
612,612,0,2045,45
613,613,0,2046,0
614,614,0,2046,223
615,615,0,2047,740
616,616,0,2046,1453
617,617,0,2046,2255
618,618,0,2046,3024
619,619,0,2047,3644
620,620,0,2047,4023
621,621,0,2047,4095
622,622,0,2046,3870
623,623,0,2046,3361
624,624,0,2047,2653
625,625,0,2046,1852
626,626,0,2046,1080
627,627,0,2047,452
628,628,0,2047,63
629,629,0,2046,0
630,630,0,2047,193
631,631,0,2047,691
632,632,0,2046,1394
633,633,0,2047,2193
634,634,0,2046,2969
635,635,0,2046,3604
636,636,0,2046,4004
637,637,0,2046,4095
638,638,0,2046,3898
639,639,0,2046,3409
640,640,0,2047,2712
641,641,0,2046,1914
642,642,0,2046,1136
643,643,0,2046,493
644,644,0,2047,83
645,645,0,2047,0
646,646,0,2046,166
647,647,0,2046,646
648,648,0,2046,1334
649,649,0,2046,2130
650,650,0,2047,2912
651,651,0,2046,3562
652,652,0,2047,3983
653,653,0,2046,4095
654,654,0,2047,3925
655,655,0,2045,3455
656,656,0,2046,2770
657,657,0,2047,1977
658,658,0,2047,1192
659,659,0,2046,535
660,660,0,2047,105
661,661,0,2047,0
662,662,0,2046,139
663,663,0,2046,599
664,664,0,2047,1276
665,665,0,2047,2068
666,666,0,2047,2855
667,667,0,2046,3520
668,668,0,2046,3961
669,669,0,2046,4095
670,670,0,2046,3950
671,671,0,2047,3500
672,672,0,2046,2829
673,673,0,2047,2040
674,674,0,2047,1250
675,675,0,2046,579
676,676,0,2046,129
677,677,0,2046,0
678,678,0,2047,115
679,679,0,2047,554
680,680,0,2047,1219
681,681,0,2046,2006
682,682,0,2047,2797
683,683,0,2046,3475
684,684,0,2046,3936
685,685,0,2046,4095
686,686,0,2046,3974
687,687,0,2046,3543
688,688,0,2046,2887
689,689,0,2046,2102
690,690,0,2046,1308
691,691,0,2046,625
692,692,0,2047,154
693,693,0,2046,0
694,694,0,2046,93
695,695,0,2047,512
696,696,0,2046,1161
697,697,0,2046,1943
698,698,0,2046,2739
699,699,0,2046,3429
700,700,0,2046,3910
701,701,0,2046,4095
702,702,0,2047,3995
703,703,0,2046,3586
704,704,0,2046,2943
705,705,0,2046,2164
706,706,0,2046,1366
707,707,0,2046,670
708,708,0,2047,180
709,709,0,2047,0
710,710,0,2046,72
711,711,0,2046,470
712,712,0,2046,1105
713,713,0,2046,1881
714,714,0,2046,2680
715,715,0,2046,3382
716,716,0,2046,3883
717,717,0,2046,4095
718,718,0,2047,4015
719,719,0,2046,3627
720,720,0,2047,2999
721,721,0,2046,2227
722,722,0,2046,1427
723,723,0,2047,718
724,724,0,2046,208
725,725,0,2046,0
726,726,0,2046,54
727,727,0,2046,429
728,728,0,2046,1050
729,729,0,2047,1818
730,730,0,2046,2619
731,731,0,2047,3334
732,732,0,2046,3854
733,733,0,2046,4095
734,734,0,2047,4033
735,735,0,2047,3667
736,736,0,2046,3054
737,737,0,2047,2289
738,738,0,2046,1486
739,739,0,2046,767
740,740,0,2047,239
741,741,0,2047,0
742,742,0,2046,35
743,743,0,2046,391
744,744,0,2046,995
745,745,0,2046,1756
746,746,0,2047,2560
747,747,0,2046,3284
748,748,0,2047,3822
749,749,0,2047,4091
750,750,0,2047,4049
751,751,0,2046,3705
752,752,0,2047,3108
753,753,0,2047,2351
754,754,0,2046,1546
755,755,0,2046,818
756,756,0,2046,270
757,757,0,2046,0
758,758,0,2047,20
759,759,0,2047,354
760,760,0,2046,941
761,761,0,2046,1695
762,762,0,2047,2499
763,763,0,2046,3234
764,764,0,2047,3790
765,765,0,2047,4081
766,766,0,2046,4063
767,767,0,2046,3741
768,768,0,2046,3162
769,769,0,2047,2413
770,770,0,2046,1608
771,771,0,2046,868
772,772,0,2046,305
773,773,0,2046,3
774,774,0,2046,7
775,775,0,2046,318
776,776,0,2047,889
777,777,0,2047,1633
778,778,0,2046,2437
779,779,0,2046,3183
780,780,0,2046,3754
781,781,0,2046,4069
782,782,0,2046,4076
783,783,0,2047,3776
784,784,0,2047,3214
785,785,0,2046,2474
786,786,0,2046,1670
787,787,0,2046,921
788,788,0,2047,340
789,789,0,2047,15
790,790,0,2047,0
791,791,0,2046,284
792,792,0,2047,837
793,793,0,2047,1571
794,794,0,2046,2375
795,795,0,2046,3130
796,796,0,2047,3719
797,797,0,2046,4055
798,798,0,2046,4086
799,799,0,2047,3809
800,800,0,2047,3265
801,801,0,2046,2535
802,802,0,2045,1731
803,803,0,2046,973
804,804,0,2047,376
805,805,0,2047,29
806,806,0,2047,0
807,807,0,2046,252
808,808,0,2046,787
809,809,0,2046,1511
810,810,0,2046,2314
811,811,0,2046,3076
812,812,0,2046,3681
813,813,0,2047,4040
814,814,0,2046,4095
815,815,0,2046,3841
816,816,0,2047,3314
817,817,0,2046,2595
818,818,0,2046,1793
819,819,0,2046,1027
820,820,0,2047,414
821,821,0,2046,46
822,822,0,2047,0
823,823,0,2046,221
824,824,0,2046,737
825,825,0,2047,1450
826,826,0,2046,2252
827,827,0,2046,3022
828,828,0,2046,3643
829,829,0,2047,4023
830,830,0,2047,4095
831,831,0,2047,3871
832,832,0,2047,3363
833,833,0,2046,2655
834,834,0,2047,1855
835,835,0,2047,1082
836,836,0,2046,453
837,837,0,2047,64
838,838,0,2047,0
839,839,0,2047,191
840,840,0,2046,690
841,841,0,2046,1391
842,842,0,2047,2190
843,843,0,2046,2966
844,844,0,2046,3603
845,845,0,2046,4004
846,846,0,2046,4095
847,847,0,2046,3899
848,848,0,2047,3411
849,849,0,2047,2715
850,850,0,2046,1918
851,851,0,2046,1138
852,852,0,2046,495
853,853,0,2046,84
854,854,0,2046,0
855,855,0,2046,164
856,856,0,2047,643
857,857,0,2047,1332
858,858,0,2047,2128
859,859,0,2046,2910
860,860,0,2046,3561
861,861,0,2046,3982
862,862,0,2046,4095
863,863,0,2047,3926
864,864,0,2046,3457
865,865,0,2046,2774
866,866,0,2045,1980
867,867,0,2047,1195
868,868,0,2047,537
869,869,0,2046,106
870,870,0,2047,0
871,871,0,2046,138
872,872,0,2046,596
873,873,0,2047,1273
874,874,0,2046,2065
875,875,0,2047,2853
876,876,0,2046,3517
877,877,0,2047,3959
878,878,0,2046,4095
879,879,0,2047,3951
880,880,0,2046,3502
881,881,0,2047,2832
882,882,0,2047,2042
883,883,0,2046,1253
884,884,0,2047,581
885,885,0,2046,129
886,886,0,2046,0
887,887,0,2046,114
888,888,0,2046,553
889,889,0,2046,1215
890,890,0,2047,2002
891,891,0,2047,2794
892,892,0,2046,3474
893,893,0,2046,3935
894,894,0,2046,4095
895,895,0,2046,3975
896,896,0,2046,3545
897,897,0,2046,2890
898,898,0,2046,2105
899,899,0,2046,1311
900,900,0,2046,626
901,901,0,2047,154
902,902,0,2046,0
903,903,0,2047,91
904,904,0,2046,510
905,905,0,2046,1158
906,906,0,2046,1940
907,907,0,2046,2736
908,908,0,2046,3427
909,909,0,2047,3909
910,910,0,2046,4095
911,911,0,2046,3996
912,912,0,2046,3588
913,913,0,2046,2946
914,914,0,2046,2167
915,915,0,2046,1370
916,916,0,2047,673
917,917,0,2046,181
918,918,0,2047,0
919,919,0,2047,71
920,920,0,2047,468
921,921,0,2046,1103
922,922,0,2046,1877
923,923,0,2046,2677
924,924,0,2046,3380
925,925,0,2047,3881
926,926,0,2046,4095
927,927,0,2047,4016
928,928,0,2046,3629
929,929,0,2047,3001
930,930,0,2047,2230
931,931,0,2046,1430
932,932,0,2047,721
933,933,0,2046,210
934,934,0,2046,0
935,935,0,2046,52
936,936,0,2046,428
937,937,0,2046,1047
938,938,0,2046,1815
939,939,0,2047,2616
940,940,0,2046,3332
941,941,0,2047,3852
942,942,0,2046,4095
943,943,0,2046,4034
944,944,0,2047,3668
945,945,0,2046,3056
946,946,0,2046,2293
947,947,0,2046,1489
948,948,0,2047,769
949,949,0,2046,241
950,950,0,2046,0
951,951,0,2046,36
952,952,0,2046,390
953,953,0,2046,992
954,954,0,2046,1753
955,955,0,2047,2556
956,956,0,2046,3282
957,957,0,2046,3821
958,958,0,2046,4091
959,959,0,2046,4050
960,960,0,2046,3706
961,961,0,2047,3111
962,962,0,2046,2353
963,963,0,2046,1549
964,964,0,2047,820
965,965,0,2046,273
966,966,0,2046,0
967,967,0,2047,19
968,968,0,2046,352
969,969,0,2047,939
970,970,0,2046,1691
971,971,0,2046,2496
972,972,0,2047,3232
973,973,0,2046,3788
974,974,0,2047,4080
975,975,0,2047,4065
976,976,0,2046,3744
977,977,0,2047,3164
978,978,0,2046,2416
979,979,0,2046,1611
980,980,0,2046,870
981,981,0,2046,306
982,982,0,2046,3
983,983,0,2047,6
984,984,0,2046,317
985,985,0,2046,886
986,986,0,2047,1630
987,987,0,2046,2434
988,988,0,2047,3179
989,989,0,2047,3753
990,990,0,2047,4069
991,991,0,2046,4076
992,992,0,2046,3778
993,993,0,2047,3216
994,994,0,2046,2477
995,995,0,2047,1672
996,996,0,2046,923
997,997,0,2046,342
998,998,0,2046,16
999,999,0,2046,0
1000,1000,0,2047,282
1001,1001,0,2046,835
1002,1002,0,2047,1568
1003,1003,0,2046,2373
1004,1004,0,2046,3127
1005,1005,0,2046,3718
1006,1006,0,2046,4055
1007,1007,0,2046,4086
1008,1008,0,2046,3811
1009,1009,0,2046,3266
1010,1010,0,2046,2539
1011,1011,0,2046,1734
1012,1012,0,2046,975
1013,1013,0,2047,378
1014,1014,0,2046,30
1015,1015,0,2046,0
1016,1016,0,2047,250
1017,1017,0,2047,784
1018,1018,0,2046,1508
1019,1019,0,2046,2311
1020,1020,0,2047,3073
1021,1021,0,2047,3680
1022,1022,0,2047,4038
1023,1023,0,2046,4095
1024,1024,0,2046,3843
1025,1025,0,2046,3317
1026,1026,0,2046,2599
1027,1027,0,2047,1796
1028,1028,0,2046,1030
1029,1029,0,2046,416
