Sample in Buffer,Sample in Window,TRIGGER,adc1_data_a_d0[11:0],adc1_data_b_d0[11:0]
0,0,0,2046,3701
1,1,0,2046,2925
2,2,0,2046,1934
3,3,0,2046,968
4,4,0,2046,262
5,5,0,2046,0
6,6,0,2046,199
7,7,0,2047,860
8,8,0,2047,1804
9,9,0,2046,2805
10,10,0,2046,3621
11,11,0,2046,4055
12,12,0,2047,4004
13,13,0,2046,3477
14,14,0,2046,2604
15,15,0,2046,1595
16,16,0,2046,692
17,17,0,2046,114
18,18,0,2046,0
19,19,0,2046,377
20,20,0,2046,1155
21,21,0,2046,2146
22,22,0,2047,3111
23,23,0,2046,3816
24,24,0,2047,4094
25,25,0,2046,3875
26,26,0,2047,3214
27,27,0,2046,2270
28,28,0,2046,1269
29,29,0,2046,453
30,30,0,2047,20
31,31,0,2046,73
32,32,0,2046,601
33,33,0,2047,1474
34,34,0,2046,2484
35,35,0,2046,3386
36,36,0,2047,3963
37,37,0,2046,4076
38,38,0,2046,3698
39,39,0,2046,2918
40,40,0,2046,1928
41,41,0,2047,964
42,42,0,2047,258
43,43,0,2046,0
44,44,0,2047,201
45,45,0,2047,864
46,46,0,2047,1810
47,47,0,2046,2811
48,48,0,2047,3625
49,49,0,2047,4057
50,50,0,2046,4002
51,51,0,2046,3473
52,52,0,2046,2599
53,53,0,2046,1589
54,54,0,2046,687
55,55,0,2046,112
56,56,0,2047,1
57,57,0,2046,380
58,58,0,2047,1160
59,59,0,2046,2151
60,60,0,2047,3116
61,61,0,2046,3820
62,62,0,2047,4095
63,63,0,2046,3873
64,64,0,2047,3210
65,65,0,2046,2263
66,66,0,2046,1263
67,67,0,2046,450
68,68,0,2047,19
69,69,0,2046,75
70,70,0,2046,605
71,71,0,2046,1480
72,72,0,2046,2490
73,73,0,2046,3391
74,74,0,2047,3966
75,75,0,2046,4075
76,76,0,2046,3694
77,77,0,2046,2913
78,78,0,2047,1922
79,79,0,2047,959
80,80,0,2046,255
81,81,0,2046,0
82,82,0,2046,204
83,83,0,2047,870
84,84,0,2046,1816
85,85,0,2046,2817
86,86,0,2047,3629
87,87,0,2046,4058
88,88,0,2047,4000
89,89,0,2046,3469
90,90,0,2047,2593
91,91,0,2046,1583
92,92,0,2046,683
93,93,0,2046,110
94,94,0,2047,2
95,95,0,2046,384
96,96,0,2047,1165
97,97,0,2046,2158
98,98,0,2046,3120
99,99,0,2046,3823
100,100,0,2046,4094
101,101,0,2046,3870
102,102,0,2046,3205
103,103,0,2047,2257
104,104,0,2046,1258
105,105,0,2047,446
106,106,0,2046,18
107,107,0,2047,77
108,108,0,2047,610
109,109,0,2047,1486
110,110,0,2046,2496
111,111,0,2047,3396
112,112,0,2046,3967
113,113,0,2047,4075
114,114,0,2046,3691
115,115,0,2046,2907
116,116,0,2047,1916
117,117,0,2047,953
118,118,0,2046,252
119,119,0,2047,0
120,120,0,2046,207
121,121,0,2046,874
122,122,0,2046,1822
123,123,0,2046,2822
124,124,0,2046,3632
125,125,0,2046,4059
126,126,0,2046,3999
127,127,0,2046,3464
128,128,0,2046,2587
129,129,0,2046,1578
130,130,0,2046,678
131,131,0,2046,108
132,132,0,2046,2
133,133,0,2047,388
134,134,0,2047,1172
135,135,0,2046,2164
136,136,0,2047,3126
137,137,0,2047,3826
138,138,0,2046,4095
139,139,0,2046,3868
140,140,0,2047,3200
141,141,0,2046,2252
142,142,0,2047,1252
143,143,0,2047,442
144,144,0,2046,16
145,145,0,2046,80
146,146,0,2046,614
147,147,0,2046,1492
148,148,0,2046,2502
149,149,0,2046,3400
150,150,0,2047,3969
151,151,0,2046,4074
152,152,0,2046,3687
153,153,0,2046,2901
154,154,0,2047,1910
155,155,0,2046,947
156,156,0,2046,249
157,157,0,2046,0
158,158,0,2046,210
159,159,0,2047,879
160,160,0,2046,1828
161,161,0,2046,2827
162,162,0,2046,3637
163,163,0,2046,4060
164,164,0,2047,3997
165,165,0,2046,3460
166,166,0,2046,2582
167,167,0,2046,1572
168,168,0,2046,674
169,169,0,2047,106
170,170,0,2046,3
171,171,0,2047,391
172,172,0,2046,1177
173,173,0,2046,2171
174,174,0,2047,3131
175,175,0,2046,3829
176,176,0,2046,4095
177,177,0,2046,3865
178,178,0,2046,3195
179,179,0,2046,2246
180,180,0,2046,1246
181,181,0,2046,439
182,182,0,2047,16
183,183,0,2046,81
184,184,0,2046,619
185,185,0,2046,1498
186,186,0,2046,2508
187,187,0,2046,3405
188,188,0,2047,3972
189,189,0,2046,4073
190,190,0,2046,3684
191,191,0,2047,2897
192,192,0,2047,1903
193,193,0,2046,943
194,194,0,2046,246
195,195,0,2046,0
196,196,0,2046,213
197,197,0,2046,884
198,198,0,2046,1834
199,199,0,2047,2833
200,200,0,2046,3640
201,201,0,2047,4061
202,202,0,2046,3995
203,203,0,2046,3456
204,204,0,2046,2576
205,205,0,2047,1566
206,206,0,2046,669
207,207,0,2046,104
208,208,0,2046,5
209,209,0,2046,395
210,210,0,2046,1182
211,211,0,2046,2177
212,212,0,2047,3136
213,213,0,2046,3831
214,214,0,2047,4095
215,215,0,2046,3862
216,216,0,2047,3190
217,217,0,2046,2239
218,218,0,2046,1241
219,219,0,2046,434
220,220,0,2047,14
221,221,0,2046,82
222,222,0,2047,622
223,223,0,2047,1504
224,224,0,2046,2514
225,225,0,2047,3409
226,226,0,2046,3974
227,227,0,2047,4072
228,228,0,2047,3680
229,229,0,2047,2891
230,230,0,2047,1897
231,231,0,2046,938
232,232,0,2046,243
233,233,0,2046,0
234,234,0,2047,216
235,235,0,2047,889
236,236,0,2046,1840
237,237,0,2047,2839
238,238,0,2046,3644
239,239,0,2046,4063
240,240,0,2046,3993
241,241,0,2047,3451
242,242,0,2046,2570
243,243,0,2047,1560
244,244,0,2046,665
245,245,0,2046,101
246,246,0,2046,5
247,247,0,2046,398
248,248,0,2046,1188
249,249,0,2047,2181
250,250,0,2046,3141
251,251,0,2046,3835
252,252,0,2046,4095
253,253,0,2046,3859
254,254,0,2046,3184
255,255,0,2046,2233
256,256,0,2047,1236
257,257,0,2046,431
258,258,0,2046,14
259,259,0,2046,85
260,260,0,2046,627
261,261,0,2046,1509
262,262,0,2046,2520
263,263,0,2046,3413
264,264,0,2047,3976
265,265,0,2047,4071
266,266,0,2047,3677
267,267,0,2046,2886
268,268,0,2046,1891
269,269,0,2046,933
270,270,0,2046,241
271,271,0,2047,0
272,272,0,2046,218
273,273,0,2047,894
274,274,0,2046,1847
275,275,0,2046,2844
276,276,0,2047,3648
277,277,0,2046,4063
278,278,0,2047,3991
279,279,0,2046,3447
280,280,0,2046,2564
281,281,0,2046,1554
282,282,0,2047,661
283,283,0,2046,99
284,284,0,2046,7
285,285,0,2047,402
286,286,0,2046,1193
287,287,0,2047,2188
288,288,0,2046,3146
289,289,0,2047,3838
290,290,0,2046,4095
291,291,0,2046,3857
292,292,0,2046,3180
293,293,0,2047,2227
294,294,0,2046,1230
295,295,0,2046,427
296,296,0,2046,12
297,297,0,2046,86
298,298,0,2047,632
299,299,0,2046,1516
300,300,0,2047,2525
301,301,0,2047,3418
302,302,0,2047,3978
303,303,0,2046,4070
304,304,0,2046,3673
305,305,0,2047,2880
306,306,0,2046,1886
307,307,0,2046,927
308,308,0,2046,237
309,309,0,2046,0
310,310,0,2046,221
311,311,0,2046,900
312,312,0,2046,1853
313,313,0,2046,2849
314,314,0,2047,3651
315,315,0,2046,4065
316,316,0,2046,3990
317,317,0,2047,3443
318,318,0,2047,2559
319,319,0,2047,1548
320,320,0,2046,656
321,321,0,2046,98
322,322,0,2047,7
323,323,0,2046,406
324,324,0,2046,1199
325,325,0,2046,2194
326,326,0,2047,3152
327,327,0,2046,3840
328,328,0,2047,4095
329,329,0,2046,3854
330,330,0,2047,3174
331,331,0,2046,2221
332,332,0,2046,1224
333,333,0,2047,424
334,334,0,2047,11
335,335,0,2046,89
336,336,0,2046,636
337,337,0,2046,1521
338,338,0,2046,2531
339,339,0,2046,3422
340,340,0,2046,3980
341,341,0,2046,4069
342,342,0,2047,3669
343,343,0,2047,2875
344,344,0,2047,1880
345,345,0,2046,923
346,346,0,2046,235
347,347,0,2047,0
348,348,0,2046,224
349,349,0,2046,905
350,350,0,2046,1858
351,351,0,2047,2855
352,352,0,2046,3655
353,353,0,2046,4065
354,354,0,2046,3987
355,355,0,2046,3438
356,356,0,2047,2552
357,357,0,2046,1542
358,358,0,2046,652
359,359,0,2046,95
360,360,0,2046,8
361,361,0,2045,409
362,362,0,2046,1204
363,363,0,2046,2200
364,364,0,2047,3156
365,365,0,2046,3843
366,366,0,2046,4095
367,367,0,2046,3851
368,368,0,2047,3169
369,369,0,2046,2215
370,370,0,2046,1219
371,371,0,2047,419
372,372,0,2046,11
373,373,0,2046,91
374,374,0,2046,640
375,375,0,2046,1527
376,376,0,2047,2537
377,377,0,2046,3427
378,378,0,2046,3982
379,379,0,2046,4067
380,380,0,2047,3665
381,381,0,2046,2869
382,382,0,2046,1873
383,383,0,2046,917
384,384,0,2046,231
385,385,0,2047,0
386,386,0,2047,227
387,387,0,2047,909
388,388,0,2047,1864
389,389,0,2046,2861
390,390,0,2046,3658
391,391,0,2047,4066
392,392,0,2047,3986
393,393,0,2047,3434
394,394,0,2047,2546
395,395,0,2046,1537
396,396,0,2046,648
397,397,0,2046,94
398,398,0,2046,10
399,399,0,2047,413
400,400,0,2047,1210
401,401,0,2046,2206
402,402,0,2047,3161
403,403,0,2046,3847
404,404,0,2046,4095
405,405,0,2046,3847
406,406,0,2047,3164
407,407,0,2046,2209
408,408,0,2046,1214
409,409,0,2047,415
410,410,0,2046,9
411,411,0,2046,93
412,412,0,2046,644
413,413,0,2046,1533
414,414,0,2046,2543
415,415,0,2046,3431
416,416,0,2047,3983
417,417,0,2046,4067
418,418,0,2046,3661
419,419,0,2047,2864
420,420,0,2046,1869
421,421,0,2047,913
422,422,0,2046,229
423,423,0,2046,0
424,424,0,2046,229
425,425,0,2046,914
426,426,0,2046,1870
427,427,0,2047,2866
428,428,0,2046,3662
429,429,0,2046,4067
430,430,0,2046,3984
431,431,0,2047,3430
432,432,0,2046,2541
433,433,0,2047,1531
434,434,0,2046,643
435,435,0,2047,91
436,436,0,2046,11
437,437,0,2046,418
438,438,0,2046,1216
439,439,0,2047,2212
440,440,0,2046,3166
441,441,0,2046,3849
442,442,0,2046,4095
443,443,0,2046,3845
444,444,0,2047,3159
445,445,0,2046,2203
446,446,0,2046,1208
447,447,0,2046,413
448,448,0,2046,9
449,449,0,2047,94
450,450,0,2046,649
451,451,0,2047,1539
452,452,0,2046,2549
453,453,0,2047,3436
454,454,0,2047,3986
455,455,0,2046,4066
456,456,0,2047,3658
457,457,0,2046,2858
458,458,0,2046,1861
459,459,0,2047,907
460,460,0,2046,226
461,461,0,2046,0
462,462,0,2046,233
463,463,0,2046,920
464,464,0,2046,1876
465,465,0,2046,2872
466,466,0,2046,3666
467,467,0,2047,4068
468,468,0,2046,3981
469,469,0,2046,3424
470,470,0,2047,2535
471,471,0,2046,1525
472,472,0,2047,639
473,473,0,2046,90
474,474,0,2046,11
475,475,0,2046,420
476,476,0,2047,1221
477,477,0,2047,2219
478,478,0,2046,3171
479,479,0,2046,3853
480,480,0,2046,4095
481,481,0,2047,3843
482,482,0,2046,3155
483,483,0,2046,2197
484,484,0,2047,1202
485,485,0,2046,408
486,486,0,2046,8
487,487,0,2046,97
488,488,0,2046,654
489,489,0,2046,1545
490,490,0,2046,2555
491,491,0,2046,3440
492,492,0,2047,3988
493,493,0,2046,4066
494,494,0,2047,3654
495,495,0,2046,2852
496,496,0,2046,1856
497,497,0,2046,902
498,498,0,2046,223
499,499,0,2047,0
500,500,0,2047,236
501,501,0,2047,925
502,502,0,2047,1883
503,503,0,2047,2877
504,504,0,2047,3671
505,505,0,2046,4070
506,506,0,2047,3979
507,507,0,2047,3421
508,508,0,2047,2529
509,509,0,2047,1519
510,510,0,2047,634
511,511,0,2047,88
512,512,0,2046,12
513,513,0,2046,424
514,514,0,2046,1227
515,515,0,2047,2224
516,516,0,2047,3177
517,517,0,2046,3855
518,518,0,2046,4095
519,519,0,2046,3839
520,520,0,2046,3150
521,521,0,2047,2192
522,522,0,2046,1196
523,523,0,2047,404
524,524,0,2047,7
525,525,0,2046,98
526,526,0,2046,658
527,527,0,2046,1551
528,528,0,2046,2560
529,529,0,2047,3445
530,530,0,2046,3990
531,531,0,2046,4063
532,532,0,2046,3650
533,533,0,2047,2847
534,534,0,2047,1849
535,535,0,2047,898
536,536,0,2047,220
537,537,0,2047,0
538,538,0,2047,238
539,539,0,2047,930
540,540,0,2046,1888
541,541,0,2046,2883
542,542,0,2047,3673
543,543,0,2046,4071
544,544,0,2046,3978
545,545,0,2047,3415
546,546,0,2046,2523
547,547,0,2047,1513
548,548,0,2046,630
549,549,0,2047,86
550,550,0,2046,13
551,551,0,2046,428
552,552,0,2047,1232
553,553,0,2046,2230
554,554,0,2046,3182
555,555,0,2047,3858
556,556,0,2047,4095
557,557,0,2047,3836
558,558,0,2047,3144
559,559,0,2047,2184
560,560,0,2046,1190
561,561,0,2047,401
562,562,0,2046,5
563,563,0,2046,100
564,564,0,2046,662
565,565,0,2047,1557
566,566,0,2047,2567
567,567,0,2047,3449
568,568,0,2046,3992
569,569,0,2046,4063
570,570,0,2046,3646
571,571,0,2047,2841
572,572,0,2046,1844
573,573,0,2046,892
574,574,0,2046,217
575,575,0,2046,0
576,576,0,2046,242
577,577,0,2045,935
578,578,0,2046,1895
579,579,0,2047,2889
580,580,0,2047,3677
581,581,0,2047,4071
582,582,0,2046,3975
583,583,0,2046,3412
584,584,0,2046,2517
585,585,0,2046,1507
586,586,0,2046,626
587,587,0,2046,84
588,588,0,2046,15
589,589,0,2046,433
590,590,0,2046,1238
591,591,0,2046,2237
592,592,0,2046,3187
593,593,0,2047,3861
594,594,0,2046,4095
595,595,0,2046,3833
596,596,0,2046,3140
597,597,0,2046,2179
598,598,0,2047,1185
599,599,0,2046,397
600,600,0,2046,5
601,601,0,2045,102
602,602,0,2046,667
603,603,0,2046,1563
604,604,0,2047,2572
605,605,0,2046,3454
606,606,0,2047,3994
607,607,0,2046,4062
608,608,0,2046,3642
609,609,0,2046,2836
610,610,0,2046,1837
611,611,0,2046,887
612,612,0,2047,213
613,613,0,2046,0
614,614,0,2046,244
615,615,0,2047,940
616,616,0,2047,1900
617,617,0,2046,2894
618,618,0,2047,3681
619,619,0,2046,4072
620,620,0,2046,3973
621,621,0,2046,3407
622,622,0,2046,2511
623,623,0,2046,1501
624,624,0,2046,620
625,625,0,2046,82
626,626,0,2047,15
627,627,0,2046,436
628,628,0,2047,1243
629,629,0,2046,2243
630,630,0,2046,3192
631,631,0,2047,3864
632,632,0,2047,4095
633,633,0,2046,3831
634,634,0,2047,3133
635,635,0,2047,2173
636,636,0,2046,1180
637,637,0,2046,393
638,638,0,2047,3
639,639,0,2046,104
640,640,0,2047,672
641,641,0,2046,1569
642,642,0,2046,2579
643,643,0,2046,3459
644,644,0,2046,3995
645,645,0,2047,4061
646,646,0,2046,3639
647,647,0,2046,2830
648,648,0,2046,1831
649,649,0,2046,882
650,650,0,2046,212
651,651,0,2046,0
652,652,0,2047,247
653,653,0,2046,945
654,654,0,2046,1906
655,655,0,2046,2899
656,656,0,2046,3685
657,657,0,2046,4074
658,658,0,2046,3971
659,659,0,2046,3402
660,660,0,2046,2505
661,661,0,2046,1495
662,662,0,2047,617
663,663,0,2046,80
664,664,0,2046,17
665,665,0,2047,440
666,666,0,2047,1250
667,667,0,2047,2248
668,668,0,2046,3197
669,669,0,2047,3867
670,670,0,2046,4095
671,671,0,2046,3828
672,672,0,2046,3128
673,673,0,2047,2166
674,674,0,2047,1174
675,675,0,2046,390
676,676,0,2046,3
677,677,0,2046,107
678,678,0,2047,677
679,679,0,2047,1575
680,680,0,2046,2585
681,681,0,2047,3463
682,682,0,2046,3998
683,683,0,2047,4060
684,684,0,2047,3634
685,685,0,2046,2824
686,686,0,2046,1826
687,687,0,2047,877
688,688,0,2046,208
689,689,0,2046,0
690,690,0,2046,250
691,691,0,2046,950
692,692,0,2047,1913
693,693,0,2047,2906
694,694,0,2046,3689
695,695,0,2047,4075
696,696,0,2046,3969
697,697,0,2047,3397
698,698,0,2046,2498
699,699,0,2046,1489
700,700,0,2046,612
701,701,0,2046,79
702,702,0,2047,17
703,703,0,2047,444
704,704,0,2046,1255
705,705,0,2046,2255
706,706,0,2046,3203
707,707,0,2046,3869
708,708,0,2047,4095
709,709,0,2046,3824
710,710,0,2047,3123
711,711,0,2047,2160
712,712,0,2047,1168
713,713,0,2046,386
714,714,0,2046,2
715,715,0,2046,108
716,716,0,2046,681
717,717,0,2046,1581
718,718,0,2046,2591
719,719,0,2047,3467
720,720,0,2046,3999
721,721,0,2046,4058
722,722,0,2047,3631
723,723,0,2046,2819
724,724,0,2046,1819
725,725,0,2047,871
726,726,0,2047,206
727,727,0,2046,0
728,728,0,2047,254
729,729,0,2046,956
730,730,0,2046,1919
731,731,0,2046,2911
732,732,0,2046,3692
733,733,0,2046,4075
734,734,0,2047,3966
735,735,0,2046,3393
736,736,0,2047,2493
737,737,0,2047,1484
738,738,0,2046,607
739,739,0,2046,76
740,740,0,2046,18
741,741,0,2046,447
742,742,0,2047,1261
743,743,0,2047,2261
744,744,0,2046,3208
745,745,0,2046,3872
746,746,0,2047,4095
747,747,0,2046,3821
748,748,0,2047,3118
749,749,0,2046,2154
750,750,0,2047,1163
751,751,0,2046,383
752,752,0,2046,2
753,753,0,2046,110
754,754,0,2047,686
755,755,0,2047,1587
756,756,0,2046,2596
757,757,0,2046,3472
758,758,0,2046,4001
759,759,0,2046,4058
760,760,0,2046,3626
761,761,0,2046,2813
762,762,0,2046,1812
763,763,0,2046,867
764,764,0,2046,202
765,765,0,2047,0
766,766,0,2046,257
767,767,0,2047,960
768,768,0,2046,1926
769,769,0,2047,2917
770,770,0,2046,3696
771,771,0,2047,4075
772,772,0,2047,3964
773,773,0,2046,3388
774,774,0,2046,2487
775,775,0,2047,1477
776,776,0,2047,603
777,777,0,2046,75
778,778,0,2046,20
779,779,0,2046,451
780,780,0,2046,1266
781,781,0,2046,2267
782,782,0,2046,3213
783,783,0,2046,3876
784,784,0,2047,4095
785,785,0,2046,3818
786,786,0,2047,3113
787,787,0,2046,2148
788,788,0,2046,1157
789,789,0,2046,379
790,790,0,2046,0
791,791,0,2046,113
792,792,0,2046,691
793,793,0,2046,1592
794,794,0,2046,2602
795,795,0,2046,3476
796,796,0,2047,4003
797,797,0,2047,4057
798,798,0,2046,3623
799,799,0,2046,2807
800,800,0,2047,1806
801,801,0,2046,861
802,802,0,2047,200
803,803,0,2046,0
804,804,0,2046,260
805,805,0,2046,966
806,806,0,2047,1932
807,807,0,2046,2922
808,808,0,2047,3700
809,809,0,2046,4077
810,810,0,2047,3963
811,811,0,2046,3383
812,812,0,2047,2481
813,813,0,2046,1471
814,814,0,2047,599
815,815,0,2046,73
816,816,0,2046,21
817,817,0,2046,456
818,818,0,2047,1272
819,819,0,2047,2273
820,820,0,2046,3217
821,821,0,2046,3877
822,822,0,2046,4095
823,823,0,2046,3815
824,824,0,2046,3107
825,825,0,2046,2142
826,826,0,2047,1152
827,827,0,2046,375
828,828,0,2046,0
829,829,0,2046,115
830,830,0,2047,695
831,831,0,2047,1599
832,832,0,2046,2608
833,833,0,2046,3480
834,834,0,2047,4005
835,835,0,2046,4055
836,836,0,2046,3619
837,837,0,2046,2801
838,838,0,2046,1801
839,839,0,2046,856
840,840,0,2047,198
841,841,0,2046,0
842,842,0,2047,263
843,843,0,2046,971
844,844,0,2046,1938
845,845,0,2046,2928
846,846,0,2047,3703
847,847,0,2046,4077
848,848,0,2047,3961
849,849,0,2047,3379
850,850,0,2046,2475
851,851,0,2046,1466
852,852,0,2046,594
853,853,0,2046,71
854,854,0,2046,22
855,855,0,2046,459
856,856,0,2047,1278
857,857,0,2046,2279
858,858,0,2047,3223
859,859,0,2047,3880
860,860,0,2046,4094
861,861,0,2047,3812
862,862,0,2047,3103
863,863,0,2046,2136
864,864,0,2046,1146
865,865,0,2047,371
866,866,0,2046,0
867,867,0,2046,117
868,868,0,2046,700
869,869,0,2047,1605
870,870,0,2046,2614
871,871,0,2046,3484
872,872,0,2047,4006
873,873,0,2046,4054
874,874,0,2046,3615
875,875,0,2046,2796
876,876,0,2046,1794
877,877,0,2046,852
878,878,0,2047,194
879,879,0,2046,0
880,880,0,2046,265
881,881,0,2046,976
882,882,0,2047,1944
883,883,0,2046,2934
884,884,0,2047,3706
885,885,0,2047,4078
886,886,0,2046,3958
887,887,0,2047,3375
888,888,0,2046,2468
889,889,0,2046,1459
890,890,0,2046,590
891,891,0,2047,70
892,892,0,2046,24
893,893,0,2046,463
894,894,0,2046,1283
895,895,0,2047,2285
896,896,0,2047,3228
897,897,0,2046,3884
898,898,0,2046,4094
899,899,0,2046,3809
900,900,0,2047,3097
901,901,0,2046,2130
902,902,0,2046,1140
903,903,0,2047,368
904,904,0,2046,0
905,905,0,2046,119
906,906,0,2046,704
907,907,0,2046,1611
908,908,0,2046,2620
909,909,0,2046,3489
910,910,0,2047,4008
911,911,0,2047,4052
912,912,0,2046,3612
913,913,0,2047,2791
914,914,0,2046,1788
915,915,0,2046,846
916,916,0,2046,192
917,917,0,2046,0
918,918,0,2046,268
919,919,0,2047,981
920,920,0,2047,1950
921,921,0,2046,2938
922,922,0,2047,3710
923,923,0,2046,4079
924,924,0,2046,3956
925,925,0,2046,3370
926,926,0,2046,2463
927,927,0,2046,1454
928,928,0,2046,586
929,929,0,2047,67
930,930,0,2046,24
931,931,0,2047,468
932,932,0,2046,1290
933,933,0,2046,2291
934,934,0,2047,3232
935,935,0,2046,3886
936,936,0,2047,4094
937,937,0,2046,3806
938,938,0,2047,3092
939,939,0,2047,2123
940,940,0,2046,1135
941,941,0,2046,364
942,942,0,2046,0
943,943,0,2046,121
944,944,0,2046,709
945,945,0,2046,1616
946,946,0,2047,2626
947,947,0,2046,3493
948,948,0,2047,4010
949,949,0,2046,4051
950,950,0,2046,3607
951,951,0,2046,2785
952,952,0,2047,1782
953,953,0,2046,842
954,954,0,2047,189
955,955,0,2046,0
956,956,0,2047,272
957,957,0,2046,987
958,958,0,2046,1956
959,959,0,2047,2944
960,960,0,2046,3713
961,961,0,2047,4080
962,962,0,2046,3954
963,963,0,2047,3365
964,964,0,2046,2457
965,965,0,2046,1448
966,966,0,2046,581
967,967,0,2046,65
968,968,0,2046,25
969,969,0,2046,472
970,970,0,2046,1295
971,971,0,2046,2297
972,972,0,2047,3238
973,973,0,2046,3889
974,974,0,2046,4093
975,975,0,2046,3803
976,976,0,2047,3087
977,977,0,2046,2118
978,978,0,2046,1129
979,979,0,2046,361
980,980,0,2045,0
981,981,0,2047,124
982,982,0,2046,713
983,983,0,2046,1622
984,984,0,2046,2632
985,985,0,2046,3498
986,986,0,2046,4012
987,987,0,2047,4050
988,988,0,2046,3604
989,989,0,2046,2779
990,990,0,2047,1776
991,991,0,2046,837
992,992,0,2046,187
993,993,0,2046,0
994,994,0,2046,275
995,995,0,2047,992
996,996,0,2046,1962
997,997,0,2046,2949
998,998,0,2046,3717
999,999,0,2046,4081
1000,1000,0,2046,3951
1001,1001,0,2046,3360
1002,1002,0,2047,2451
1003,1003,0,2046,1442
1004,1004,0,2046,577
1005,1005,0,2046,63
1006,1006,0,2046,27
1007,1007,0,2046,475
1008,1008,0,2046,1300
1009,1009,0,2046,2303
1010,1010,0,2047,3242
1011,1011,0,2046,3891
1012,1012,0,2046,4094
1013,1013,0,2046,3800
1014,1014,0,2046,3082
1015,1015,0,2046,2111
1016,1016,0,2046,1125
1017,1017,0,2046,357
1018,1018,0,2046,0
1019,1019,0,2047,126
1020,1020,0,2047,718
1021,1021,0,2047,1628
1022,1022,0,2047,2637
1023,1023,0,2047,3501
1024,1024,0,2046,4013
1025,1025,0,2047,4048
1026,1026,0,2046,3599
1027,1027,0,2047,2773
1028,1028,0,2047,1770
