Sample in Buffer,Sample in Window,TRIGGER,adc1_data_a_d0[11:0],adc1_data_b_d0[11:0]
0,0,0,2046,0
1,1,0,2047,133
2,2,0,2046,593
3,3,0,2047,1277
4,4,0,2047,2078
5,5,0,2047,2873
6,6,0,2047,3540
7,7,0,2047,3974
8,8,0,2046,4095
9,9,0,2046,3926
10,10,0,2047,3451
11,11,0,2047,2758
12,12,0,2046,1954
13,13,0,2046,1163
14,14,0,2046,507
15,15,0,2047,87
16,16,0,2046,0
17,17,0,2046,169
18,18,0,2046,658
19,19,0,2046,1359
20,20,0,2047,2166
21,21,0,2046,2952
22,22,0,2046,3598
23,23,0,2046,4004
24,24,0,2046,4095
25,25,0,2046,3889
26,26,0,2047,3386
27,27,0,2046,2675
28,28,0,2046,1866
29,29,0,2046,1084
30,30,0,2047,450
31,31,0,2046,60
32,32,0,2047,0
33,33,0,2047,209
34,34,0,2047,724
35,35,0,2046,1442
36,36,0,2047,2253
37,37,0,2046,3030
38,38,0,2047,3654
39,39,0,2046,4030
40,40,0,2047,4095
41,41,0,2046,3848
42,42,0,2047,3318
43,43,0,2047,2591
44,44,0,2046,1780
45,45,0,2046,1008
46,46,0,2046,395
47,47,0,2046,36
48,48,0,2046,0
49,49,0,2047,252
50,50,0,2046,793
51,51,0,2047,1527
52,52,0,2046,2339
53,53,0,2047,3106
54,54,0,2046,3708
55,55,0,2046,4053
56,56,0,2046,4086
57,57,0,2047,3804
58,58,0,2047,3248
59,59,0,2046,2507
60,60,0,2047,1694
61,61,0,2047,933
62,62,0,2047,343
63,63,0,2046,15
64,64,0,2047,0
65,65,0,2046,297
66,66,0,2046,864
67,67,0,2046,1612
68,68,0,2046,2425
69,69,0,2046,3180
70,70,0,2047,3758
71,71,0,2047,4071
72,72,0,2046,4070
73,73,0,2047,3756
74,74,0,2047,3177
75,75,0,2047,2421
76,76,0,2047,1607
77,77,0,2045,860
78,78,0,2046,294
79,79,0,2047,0
80,80,0,2046,15
81,81,0,2046,345
82,82,0,2047,937
83,83,0,2047,1697
84,84,0,2046,2511
85,85,0,2047,3251
86,86,0,2046,3805
87,87,0,2046,4086
88,88,0,2047,4051
89,89,0,2047,3706
90,90,0,2047,3102
91,91,0,2047,2335
92,92,0,2047,1522
93,93,0,2047,789
94,94,0,2046,248
95,95,0,2046,0
96,96,0,2046,37
97,97,0,2046,398
98,98,0,2047,1012
99,99,0,2046,1784
100,100,0,2047,2596
101,101,0,2046,3321
102,102,0,2047,3849
103,103,0,2047,4095
104,104,0,2047,4029
105,105,0,2046,3652
106,106,0,2046,3026
107,107,0,2047,2248
108,108,0,2046,1437
109,109,0,2046,720
110,110,0,2046,207
111,111,0,2046,0
112,112,0,2046,61
113,113,0,2047,453
114,114,0,2046,1089
115,115,0,2046,1871
116,116,0,2046,2679
117,117,0,2047,3389
118,118,0,2046,3890
119,119,0,2046,4095
120,120,0,2047,4002
121,121,0,2047,3596
122,122,0,2046,2948
123,123,0,2047,2161
124,124,0,2046,1355
125,125,0,2046,654
126,126,0,2047,167
127,127,0,2047,0
128,128,0,2047,89
129,129,0,2047,511
130,130,0,2047,1168
131,131,0,2047,1958
132,132,0,2046,2762
133,133,0,2047,3454
134,134,0,2047,3927
135,135,0,2046,4095
136,136,0,2046,3972
137,137,0,2046,3536
138,138,0,2046,2869
139,139,0,2046,2074
140,140,0,2046,1273
141,141,0,2046,591
142,142,0,2046,132
143,143,0,2046,0
144,144,0,2046,121
145,145,0,2047,571
146,146,0,2046,1247
147,147,0,2047,2046
148,148,0,2047,2843
149,149,0,2047,3517
150,150,0,2047,3962
151,151,0,2047,4095
152,152,0,2046,3939
153,153,0,2046,3474
154,154,0,2047,2788
155,155,0,2047,1986
156,156,0,2047,1193
157,157,0,2047,530
158,158,0,2046,99
159,159,0,2046,0
160,160,0,2047,155
161,161,0,2046,634
162,162,0,2046,1330
163,163,0,2046,2134
164,164,0,2047,2923
165,165,0,2046,3576
166,166,0,2046,3992
167,167,0,2047,4095
168,168,0,2047,3903
169,169,0,2046,3411
170,170,0,2047,2705
171,171,0,2046,1899
172,172,0,2046,1114
173,173,0,2046,471
174,174,0,2047,70
175,175,0,2047,0
176,176,0,2047,193
177,177,0,2046,700
178,178,0,2046,1412
179,179,0,2046,2221
180,180,0,2047,3002
181,181,0,2046,3634
182,182,0,2046,4021
183,183,0,2047,4095
184,184,0,2047,3863
185,185,0,2046,3343
186,186,0,2046,2623
187,187,0,2046,1812
188,188,0,2046,1036
189,189,0,2046,415
190,190,0,2047,44
191,191,0,2047,0
192,192,0,2047,235
193,193,0,2046,767
194,194,0,2047,1495
195,195,0,2047,2307
196,196,0,2046,3078
197,197,0,2047,3688
198,198,0,2046,4044
199,199,0,2046,4090
200,200,0,2047,3820
201,201,0,2046,3275
202,202,0,2046,2539
203,203,0,2047,1725
204,204,0,2047,961
205,205,0,2047,362
206,206,0,2046,23
207,207,0,2046,0
208,208,0,2046,279
209,209,0,2047,837
210,210,0,2046,1580
211,211,0,2046,2394
212,212,0,2047,3153
213,213,0,2047,3740
214,214,0,2046,4064
215,215,0,2047,4077
216,216,0,2046,3774
217,217,0,2046,3203
218,218,0,2047,2453
219,219,0,2046,1640
220,220,0,2046,887
221,221,0,2046,313
222,222,0,2046,4
223,223,0,2046,9
224,224,0,2046,327
225,225,0,2046,909
226,226,0,2047,1666
227,227,0,2046,2479
228,228,0,2046,3225
229,229,0,2047,3788
230,230,0,2047,4082
231,231,0,2047,4059
232,232,0,2047,3724
233,233,0,2046,3130
234,234,0,2047,2367
235,235,0,2047,1554
236,236,0,2047,816
237,237,0,2047,266
238,238,0,2046,0
239,239,0,2047,28
240,240,0,2047,378
241,241,0,2046,984
242,242,0,2047,1752
243,243,0,2047,2564
244,244,0,2046,3296
245,245,0,2046,3834
246,246,0,2046,4094
247,247,0,2047,4038
248,248,0,2047,3673
249,249,0,2046,3055
250,250,0,2046,2281
251,251,0,2046,1469
252,252,0,2046,746
253,253,0,2047,222
254,254,0,2046,0
255,255,0,2046,52
256,256,0,2047,432
257,257,0,2047,1060
258,258,0,2046,1838
259,259,0,2047,2648
260,260,0,2046,3364
261,261,0,2047,3875
262,262,0,2046,4095
263,263,0,2045,4012
264,264,0,2047,3617
265,265,0,2046,2977
266,266,0,2047,2194
267,267,0,2047,1386
268,268,0,2047,679
269,269,0,2046,181
270,270,0,2047,0
271,271,0,2047,78
272,272,0,2046,489
273,273,0,2047,1137
274,274,0,2046,1927
275,275,0,2047,2732
276,276,0,2046,3430
277,277,0,2046,3914
278,278,0,2047,4095
279,279,0,2047,3984
280,280,0,2046,3558
281,281,0,2046,2898
282,282,0,2046,2106
283,283,0,2047,1303
284,284,0,2047,614
285,285,0,2046,144
286,286,0,2046,0
287,287,0,2046,108
288,288,0,2047,548
289,289,0,2047,1218
290,290,0,2047,2014
291,291,0,2047,2813
292,292,0,2046,3494
293,293,0,2046,3950
294,294,0,2046,4095
295,295,0,2047,3953
296,296,0,2046,3498
297,297,0,2046,2819
298,298,0,2046,2019
299,299,0,2046,1223
300,300,0,2047,551
301,301,0,2047,110
302,302,0,2046,0
303,303,0,2047,142
304,304,0,2046,610
305,305,0,2047,1299
306,306,0,2046,2101
307,307,0,2047,2894
308,308,0,2047,3555
309,309,0,2047,3982
310,310,0,2046,4095
311,311,0,2047,3917
312,312,0,2046,3434
313,313,0,2046,2737
314,314,0,2047,1931
315,315,0,2046,1143
316,316,0,2047,493
317,317,0,2046,80
318,318,0,2046,0
319,319,0,2046,178
320,320,0,2046,674
321,321,0,2047,1380
322,322,0,2047,2188
323,323,0,2046,2973
324,324,0,2046,3613
325,325,0,2046,4011
326,326,0,2046,4095
327,327,0,2046,3879
328,328,0,2046,3368
329,329,0,2047,2654
330,330,0,2046,1844
331,331,0,2046,1064
332,332,0,2047,436
333,333,0,2046,54
334,334,0,2047,0
335,335,0,2047,220
336,336,0,2046,742
337,337,0,2047,1464
338,338,0,2046,2275
339,339,0,2047,3050
340,340,0,2046,3668
341,341,0,2046,4036
342,342,0,2046,4095
343,343,0,2046,3836
344,344,0,2046,3300
345,345,0,2047,2569
346,346,0,2046,1758
347,347,0,2046,989
348,348,0,2046,382
349,349,0,2046,31
350,350,0,2046,0
351,351,0,2047,262
352,352,0,2046,811
353,353,0,2047,1548
354,354,0,2046,2362
355,355,0,2046,3125
356,356,0,2046,3720
357,357,0,2047,4058
358,358,0,2047,4082
359,359,0,2046,3792
360,360,0,2047,3230
361,361,0,2046,2485
362,362,0,2046,1671
363,363,0,2046,914
364,364,0,2046,330
365,365,0,2047,10
366,366,0,2047,2
367,367,0,2046,309
368,368,0,2046,882
369,369,0,2047,1634
370,370,0,2047,2448
371,371,0,2046,3199
372,372,0,2047,3770
373,373,0,2046,4076
374,374,0,2046,4066
375,375,0,2046,3743
376,376,0,2047,3157
377,377,0,2046,2398
378,378,0,2046,1585
379,379,0,2047,842
380,380,0,2046,283
381,381,0,2047,0
382,382,0,2047,21
383,383,0,2047,358
384,384,0,2047,956
385,385,0,2046,1721
386,386,0,2046,2533
387,387,0,2046,3270
388,388,0,2047,3817
389,389,0,2047,4090
390,390,0,2046,4046
391,391,0,2046,3692
392,392,0,2046,3083
393,393,0,2046,2313
394,394,0,2047,1500
395,395,0,2047,771
396,396,0,2046,238
397,397,0,2046,0
398,398,0,2047,43
399,399,0,2047,412
400,400,0,2047,1032
401,401,0,2047,1806
402,402,0,2046,2618
403,403,0,2047,3340
404,404,0,2046,3860
405,405,0,2046,4095
406,406,0,2047,4022
407,407,0,2047,3637
408,408,0,2046,3006
409,409,0,2046,2226
410,410,0,2047,1417
411,411,0,2046,703
412,412,0,2046,196
413,413,0,2047,0
414,414,0,2047,68
415,415,0,2046,467
416,416,0,2046,1109
417,417,0,2046,1894
418,418,0,2046,2701
419,419,0,2047,3406
420,420,0,2047,3900
421,421,0,2046,4095
422,422,0,2046,3995
423,423,0,2046,3580
424,424,0,2046,2927
425,425,0,2046,2138
426,426,0,2047,1334
427,427,0,2046,638
428,428,0,2046,158
429,429,0,2046,0
430,430,0,2046,97
431,431,0,2046,526
432,432,0,2046,1188
433,433,0,2046,1981
434,434,0,2046,2784
435,435,0,2047,3471
436,436,0,2046,3938
437,437,0,2047,4095
438,438,0,2046,3964
439,439,0,2046,3520
440,440,0,2047,2848
441,441,0,2046,2051
442,442,0,2046,1252
443,443,0,2046,574
444,444,0,2046,122
445,445,0,2046,0
446,446,0,2046,129
447,447,0,2047,587
448,448,0,2046,1268
449,449,0,2047,2069
450,450,0,2046,2864
451,451,0,2046,3533
452,452,0,2046,3971
453,453,0,2046,4095
454,454,0,2047,3931
455,455,0,2047,3458
456,456,0,2046,2767
457,457,0,2046,1964
458,458,0,2046,1172
459,459,0,2046,514
460,460,0,2047,91
461,461,0,2047,0
462,462,0,2047,165
463,463,0,2046,651
464,464,0,2047,1350
465,465,0,2047,2156
466,466,0,2047,2944
467,467,0,2047,3592
468,468,0,2046,4000
469,469,0,2047,4095
470,470,0,2047,3893
471,471,0,2046,3393
472,472,0,2046,2683
473,473,0,2046,1876
474,474,0,2047,1093
475,475,0,2047,455
476,476,0,2046,63
477,477,0,2046,0
478,478,0,2047,203
479,479,0,2047,717
480,480,0,2046,1433
481,481,0,2047,2244
482,482,0,2047,3022
483,483,0,2047,3649
484,484,0,2046,4027
485,485,0,2047,4095
486,486,0,2046,3852
487,487,0,2046,3326
488,488,0,2046,2600
489,489,0,2046,1789
490,490,0,2046,1016
491,491,0,2046,401
492,492,0,2046,39
493,493,0,2047,0
494,494,0,2046,246
495,495,0,2047,785
496,496,0,2047,1517
497,497,0,2046,2330
498,498,0,2046,3097
499,499,0,2047,3701
500,500,0,2046,4050
501,501,0,2046,4087
502,502,0,2046,3809
503,503,0,2047,3256
504,504,0,2047,2517
505,505,0,2046,1703
506,506,0,2047,941
507,507,0,2047,349
508,508,0,2046,17
509,509,0,2047,0
510,510,0,2047,292
511,511,0,2047,856
512,512,0,2046,1602
513,513,0,2047,2416
514,514,0,2046,3172
515,515,0,2046,3752
516,516,0,2046,4069
517,517,0,2047,4072
518,518,0,2046,3761
519,519,0,2046,3183
520,520,0,2046,2430
521,521,0,2047,1617
522,522,0,2047,868
523,523,0,2047,300
524,524,0,2047,0
525,525,0,2046,14
526,526,0,2046,340
527,527,0,2046,928
528,528,0,2046,1688
529,529,0,2047,2502
530,530,0,2046,3244
531,531,0,2047,3801
532,532,0,2046,4085
533,533,0,2047,4054
534,534,0,2047,3711
535,535,0,2046,3110
536,536,0,2046,2344
537,537,0,2047,1532
538,538,0,2046,797
539,539,0,2047,254
540,540,0,2046,0
541,541,0,2046,34
542,542,0,2046,392
543,543,0,2047,1004
544,544,0,2047,1775
545,545,0,2047,2587
546,546,0,2046,3314
547,547,0,2047,3845
548,548,0,2047,4095
549,549,0,2046,4031
550,550,0,2046,3658
551,551,0,2046,3034
552,552,0,2046,2258
553,553,0,2047,1447
554,554,0,2046,728
555,555,0,2046,211
556,556,0,2046,0
557,557,0,2046,58
558,558,0,2046,446
559,559,0,2046,1081
560,560,0,2046,1861
561,561,0,2047,2670
562,562,0,2046,3382
563,563,0,2046,3886
564,564,0,2046,4095
565,565,0,2046,4006
566,566,0,2047,3602
567,567,0,2046,2957
568,568,0,2047,2170
569,569,0,2047,1364
570,570,0,2046,661
571,571,0,2047,171
572,572,0,2046,0
573,573,0,2046,86
574,574,0,2047,503
575,575,0,2047,1159
576,576,0,2047,1949
577,577,0,2046,2753
578,578,0,2046,3448
579,579,0,2046,3924
580,580,0,2046,4095
581,581,0,2047,3976
582,582,0,2047,3543
583,583,0,2046,2878
584,584,0,2045,2083
585,585,0,2047,1282
586,586,0,2046,597
587,587,0,2047,135
588,588,0,2045,0
589,589,0,2046,117
590,590,0,2047,564
591,591,0,2046,1239
592,592,0,2046,2037
593,593,0,2046,2835
594,594,0,2046,3510
595,595,0,2046,3959
596,596,0,2046,4095
597,597,0,2047,3944
598,598,0,2046,3481
599,599,0,2047,2797
600,600,0,2046,1996
601,601,0,2046,1201
602,602,0,2046,536
603,603,0,2047,102
604,604,0,2047,0
605,605,0,2046,151
606,606,0,2046,627
607,607,0,2047,1320
608,608,0,2046,2124
609,609,0,2046,2915
610,610,0,2046,3570
611,611,0,2046,3990
612,612,0,2047,4095
613,613,0,2047,3907
614,614,0,2047,3417
615,615,0,2047,2714
616,616,0,2046,1908
617,617,0,2046,1122
618,618,0,2047,477
619,619,0,2047,73
620,620,0,2046,0
621,621,0,2047,190
622,622,0,2046,692
623,623,0,2047,1402
624,624,0,2046,2211
625,625,0,2047,2993
626,626,0,2046,3628
627,627,0,2047,4017
628,628,0,2046,4095
629,629,0,2047,3867
630,630,0,2047,3351
631,631,0,2046,2632
632,632,0,2046,1821
633,633,0,2046,1045
634,634,0,2046,420
635,635,0,2046,47
636,636,0,2046,0
637,637,0,2047,230
638,638,0,2046,760
639,639,0,2046,1487
640,640,0,2047,2298
641,641,0,2046,3070
642,642,0,2047,3682
643,643,0,2047,4043
644,644,0,2047,4092
645,645,0,2047,3825
646,646,0,2047,3282
647,647,0,2046,2547
648,648,0,2046,1735
649,649,0,2046,969
650,650,0,2046,368
651,651,0,2046,24
652,652,0,2047,0
653,653,0,2047,275
654,654,0,2047,830
655,655,0,2046,1570
656,656,0,2047,2384
657,657,0,2046,3144
658,658,0,2046,3734
659,659,0,2046,4063
660,660,0,2047,4078
661,661,0,2046,3778
662,662,0,2046,3211
663,663,0,2047,2462
664,664,0,2046,1648
665,665,0,2046,894
666,666,0,2046,317
667,667,0,2046,6
668,668,0,2046,7
669,669,0,2046,323
670,670,0,2047,902
671,671,0,2046,1656
672,672,0,2046,2471
673,673,0,2047,3218
674,674,0,2047,3783
675,675,0,2046,4080
676,676,0,2047,4061
677,677,0,2047,3730
678,678,0,2046,3138
679,679,0,2047,2377
680,680,0,2046,1563
681,681,0,2046,822
682,682,0,2046,270
683,683,0,2046,0
684,684,0,2046,26
685,685,0,2046,372
686,686,0,2046,975
687,687,0,2047,1743
688,688,0,2046,2556
689,689,0,2046,3289
690,690,0,2047,3828
691,691,0,2046,4093
692,692,0,2047,4040
693,693,0,2046,3678
694,694,0,2046,3062
695,695,0,2047,2290
696,696,0,2046,1478
697,697,0,2046,753
698,698,0,2046,226
699,699,0,2047,0
700,700,0,2046,49
701,701,0,2046,426
702,702,0,2046,1052
703,703,0,2046,1830
704,704,0,2046,2640
705,705,0,2047,3358
706,706,0,2046,3871
707,707,0,2047,4095
708,708,0,2046,4016
709,709,0,2046,3622
710,710,0,2047,2985
711,711,0,2046,2202
712,712,0,2046,1394
713,713,0,2046,686
714,714,0,2046,186
715,715,0,2046,0
716,716,0,2046,75
717,717,0,2047,483
718,718,0,2047,1129
719,719,0,2046,1917
720,720,0,2046,2723
721,721,0,2046,3424
722,722,0,2047,3911
723,723,0,2046,4095
724,724,0,2046,3987
725,725,0,2047,3565
726,726,0,2046,2907
727,727,0,2047,2115
728,728,0,2047,1311
729,729,0,2046,621
730,730,0,2046,147
731,731,0,2046,0
732,732,0,2046,105
733,733,0,2047,542
734,734,0,2047,1209
735,735,0,2046,2004
736,736,0,2047,2805
737,737,0,2046,3488
738,738,0,2047,3946
739,739,0,2047,4095
740,740,0,2046,3955
741,741,0,2046,3504
742,742,0,2046,2827
743,743,0,2046,2028
744,744,0,2047,1231
745,745,0,2046,558
746,746,0,2046,114
747,747,0,2047,0
748,748,0,2047,138
749,749,0,2047,603
750,750,0,2047,1290
751,751,0,2046,2092
752,752,0,2046,2886
753,753,0,2047,3549
754,754,0,2046,3979
755,755,0,2047,4095
756,756,0,2046,3921
757,757,0,2046,3441
758,758,0,2047,2745
759,759,0,2046,1941
760,760,0,2047,1151
761,761,0,2046,499
762,762,0,2047,83
763,763,0,2047,0
764,764,0,2046,175
765,765,0,2046,668
766,766,0,2046,1372
767,767,0,2047,2179
768,768,0,2047,2965
769,769,0,2046,3608
770,770,0,2047,4007
771,771,0,2046,4095
772,772,0,2046,3882
773,773,0,2046,3375
774,774,0,2046,2662
775,775,0,2047,1853
776,776,0,2046,1072
777,777,0,2047,440
778,778,0,2047,56
779,779,0,2046,0
780,780,0,2046,214
781,781,0,2047,735
782,782,0,2046,1456
783,783,0,2046,2267
784,784,0,2046,3042
785,785,0,2047,3663
786,786,0,2046,4033
787,787,0,2046,4095
788,788,0,2046,3841
789,789,0,2046,3308
790,790,0,2046,2579
791,791,0,2047,1767
792,792,0,2047,996
793,793,0,2047,387
794,794,0,2046,32
795,795,0,2046,0
796,796,0,2047,258
797,797,0,2046,804
798,798,0,2047,1540
799,799,0,2046,2353
800,800,0,2047,3118
801,801,0,2047,3716
802,802,0,2047,4055
803,803,0,2046,4084
804,804,0,2046,3795
805,805,0,2046,3237
806,806,0,2047,2493
807,807,0,2046,1680
808,808,0,2046,922
809,809,0,2047,336
810,810,0,2046,12
811,811,0,2046,1
812,812,0,2047,305
813,813,0,2046,874
814,814,0,2046,1625
815,815,0,2046,2439
816,816,0,2046,3191
817,817,0,2046,3766
818,818,0,2046,4073
819,819,0,2047,4068
820,820,0,2047,3749
821,821,0,2045,3165
822,822,0,2046,2408
823,823,0,2047,1594
824,824,0,2047,849
825,825,0,2046,287
826,826,0,2047,0
827,827,0,2046,19
828,828,0,2046,353
829,829,0,2046,948
830,830,0,2046,1711
831,831,0,2045,2525
832,832,0,2046,3263
833,833,0,2046,3813
834,834,0,2047,4088
835,835,0,2046,4048
836,836,0,2046,3697
837,837,0,2047,3090
838,838,0,2046,2322
839,839,0,2047,1509
840,840,0,2047,779
841,841,0,2046,242
842,842,0,2046,0
843,843,0,2047,40
844,844,0,2046,406
845,845,0,2047,1024
846,846,0,2047,1798
847,847,0,2047,2609
848,848,0,2047,3333
849,849,0,2047,3856
850,850,0,2046,4095
851,851,0,2046,4025
852,852,0,2046,3643
853,853,0,2046,3014
854,854,0,2047,2234
855,855,0,2047,1425
856,856,0,2046,711
857,857,0,2046,200
858,858,0,2047,0
859,859,0,2046,65
860,860,0,2047,461
861,861,0,2047,1101
862,862,0,2046,1885
863,863,0,2046,2692
864,864,0,2047,3399
865,865,0,2047,3897
866,866,0,2046,4095
867,867,0,2046,3998
868,868,0,2047,3586
869,869,0,2046,2936
870,870,0,2047,2147
871,871,0,2047,1342
872,872,0,2046,644
873,873,0,2046,161
874,874,0,2047,0
875,875,0,2046,93
876,876,0,2047,519
877,877,0,2047,1180
878,878,0,2046,1973
879,879,0,2047,2775
880,880,0,2046,3464
881,881,0,2046,3933
882,882,0,2046,4095
883,883,0,2046,3968
884,884,0,2046,3526
885,885,0,2046,2857
886,886,0,2046,2060
887,887,0,2047,1260
888,888,0,2047,580
889,889,0,2046,126
890,890,0,2046,0
891,891,0,2047,126
892,892,0,2046,580
893,893,0,2046,1260
894,894,0,2047,2060
895,895,0,2046,2857
896,896,0,2046,3527
897,897,0,2046,3967
898,898,0,2047,4095
899,899,0,2046,3934
900,900,0,2047,3465
901,901,0,2046,2774
902,902,0,2047,1972
903,903,0,2046,1180
904,904,0,2046,520
905,905,0,2047,94
906,906,0,2046,0
907,907,0,2047,161
908,908,0,2046,644
909,909,0,2046,1342
910,910,0,2046,2148
911,911,0,2046,2936
912,912,0,2046,3586
913,913,0,2047,3998
914,914,0,2047,4095
915,915,0,2046,3897
916,916,0,2046,3400
917,917,0,2046,2692
918,918,0,2047,1885
919,919,0,2047,1101
920,920,0,2046,462
921,921,0,2046,65
922,922,0,2046,0
923,923,0,2047,199
924,924,0,2047,710
925,925,0,2047,1425
926,926,0,2047,2235
927,927,0,2047,3014
928,928,0,2047,3643
929,929,0,2046,4025
930,930,0,2047,4095
931,931,0,2046,3857
932,932,0,2046,3332
933,933,0,2047,2609
934,934,0,2047,1798
935,935,0,2047,1024
936,936,0,2046,407
937,937,0,2046,40
938,938,0,2046,0
939,939,0,2047,241
940,940,0,2047,778
941,941,0,2046,1509
942,942,0,2047,2321
943,943,0,2046,3090
944,944,0,2047,3697
945,945,0,2046,4048
946,946,0,2047,4089
947,947,0,2046,3813
948,948,0,2046,3262
949,949,0,2047,2524
950,950,0,2046,1712
951,951,0,2046,948
952,952,0,2046,355
953,953,0,2046,19
954,954,0,2046,0
955,955,0,2046,287
956,956,0,2046,848
957,957,0,2047,1594
958,958,0,2046,2407
959,959,0,2046,3165
960,960,0,2046,3748
961,961,0,2047,4068
962,962,0,2047,4074
963,963,0,2047,3767
964,964,0,2046,3192
965,965,0,2046,2439
966,966,0,2047,1625
967,967,0,2047,875
968,968,0,2046,304
969,969,0,2046,1
970,970,0,2046,12
971,971,0,2047,335
972,972,0,2046,921
973,973,0,2047,1680
974,974,0,2046,2494
975,975,0,2047,3236
976,976,0,2047,3796
977,977,0,2046,4084
978,978,0,2046,4056
979,979,0,2046,3717
980,980,0,2047,3117
981,981,0,2047,2353
982,982,0,2047,1541
983,983,0,2046,804
984,984,0,2047,257
985,985,0,2046,0
986,986,0,2046,32
987,987,0,2047,386
988,988,0,2046,996
989,989,0,2046,1766
990,990,0,2046,2578
991,991,0,2046,3307
992,992,0,2047,3840
993,993,0,2046,4095
994,994,0,2046,4034
995,995,0,2047,3663
996,996,0,2047,3043
997,997,0,2046,2266
998,998,0,2047,1456
999,999,0,2046,734
1000,1000,0,2046,215
1001,1001,0,2047,0
1002,1002,0,2047,55
1003,1003,0,2046,440
1004,1004,0,2046,1073
1005,1005,0,2047,1853
1006,1006,0,2046,2662
1007,1007,0,2047,3375
1008,1008,0,2047,3882
1009,1009,0,2047,4095
1010,1010,0,2047,4009
1011,1011,0,2046,3607
1012,1012,0,2047,2964
1013,1013,0,2046,2179
1014,1014,0,2047,1372
1015,1015,0,2046,668
1016,1016,0,2046,175
1017,1017,0,2047,0
1018,1018,0,2046,82
1019,1019,0,2047,498
1020,1020,0,2046,1151
1021,1021,0,2047,1940
1022,1022,0,2047,2745
1023,1023,0,2047,3440
1024,1024,0,2046,3920
1025,1025,0,2047,4095
1026,1026,0,2046,3979
1027,1027,0,2046,3549
1028,1028,0,2047,2885
1029,1029,0,2046,2092
