Sample in Buffer,Sample in Window,TRIGGER,adc1_data_a_d0[11:0],adc1_data_b_d0[11:0]
0,0,0,2046,0
1,1,0,2047,345
2,2,0,2047,1276
3,3,0,2046,2471
4,4,0,2047,3516
5,5,0,2046,4050
6,6,0,2047,3887
7,7,0,2046,3083
8,8,0,2046,1919
9,9,0,2046,797
10,10,0,2047,103
11,11,0,2046,78
12,12,0,2046,732
13,13,0,2046,1839
14,14,0,2046,3015
15,15,0,2046,3852
16,16,0,2047,4062
17,17,0,2047,3570
18,18,0,2046,2550
19,19,0,2046,1351
20,20,0,2046,391
21,21,0,2046,0
22,22,0,2046,316
23,23,0,2047,1226
24,24,0,2047,2419
25,25,0,2047,3480
26,26,0,2046,4041
27,27,0,2046,3910
28,28,0,2046,3129
29,29,0,2047,1973
30,30,0,2046,838
31,31,0,2046,120
32,32,0,2047,64
33,33,0,2046,693
34,34,0,2046,1786
35,35,0,2046,2967
36,36,0,2046,3828
37,37,0,2046,4067
38,38,0,2046,3605
39,39,0,2046,2600
40,40,0,2047,1402
41,41,0,2046,424
42,42,0,2046,4
43,43,0,2046,288
44,44,0,2046,1178
45,45,0,2046,2366
46,46,0,2046,3442
47,47,0,2046,4030
48,48,0,2047,3930
49,49,0,2046,3174
50,50,0,2046,2026
51,51,0,2046,882
52,52,0,2046,139
53,53,0,2046,53
54,54,0,2047,653
55,55,0,2046,1734
56,56,0,2046,2920
57,57,0,2047,3801
58,58,0,2047,4072
59,59,0,2046,3639
60,60,0,2046,2652
61,61,0,2046,1453
62,62,0,2046,457
63,63,0,2046,7
64,64,0,2047,261
65,65,0,2047,1130
66,66,0,2047,2314
67,67,0,2046,3402
68,68,0,2047,4018
69,69,0,2047,3949
70,70,0,2046,3218
71,71,0,2046,2079
72,72,0,2046,926
73,73,0,2046,158
74,74,0,2046,40
75,75,0,2047,614
76,76,0,2047,1681
77,77,0,2047,2871
78,78,0,2047,3774
79,79,0,2046,4074
80,80,0,2047,3671
81,81,0,2047,2702
82,82,0,2047,1504
83,83,0,2046,491
84,84,0,2047,12
85,85,0,2046,236
86,86,0,2047,1083
87,87,0,2046,2260
88,88,0,2046,3362
89,89,0,2046,4004
90,90,0,2047,3967
91,91,0,2046,3261
92,92,0,2047,2132
93,93,0,2047,971
94,94,0,2047,179
95,95,0,2046,31
96,96,0,2046,576
97,97,0,2046,1628
98,98,0,2047,2822
99,99,0,2046,3745
100,100,0,2046,4076
101,101,0,2046,3703
102,102,0,2046,2752
103,103,0,2046,1556
104,104,0,2046,526
105,105,0,2046,19
106,106,0,2046,211
107,107,0,2046,1037
108,108,0,2047,2208
109,109,0,2046,3321
110,110,0,2046,3990
111,111,0,2046,3984
112,112,0,2047,3304
113,113,0,2047,2186
114,114,0,2047,1018
115,115,0,2046,202
116,116,0,2047,22
117,117,0,2046,540
118,118,0,2046,1576
119,119,0,2047,2773
120,120,0,2046,3716
121,121,0,2047,4077
122,122,0,2046,3733
123,123,0,2047,2803
124,124,0,2046,1607
125,125,0,2047,562
126,126,0,2046,27
127,127,0,2046,188
128,128,0,2046,990
129,129,0,2046,2155
130,130,0,2046,3278
131,131,0,2046,3974
132,132,0,2047,3999
133,133,0,2047,3345
134,134,0,2046,2239
135,135,0,2046,1064
136,136,0,2046,226
137,137,0,2046,15
138,138,0,2046,505
139,139,0,2046,1524
140,140,0,2046,2723
141,141,0,2047,3685
142,142,0,2047,4075
143,143,0,2047,3762
144,144,0,2046,2852
145,145,0,2046,1660
146,146,0,2046,600
147,147,0,2047,36
148,148,0,2046,166
149,149,0,2046,944
150,150,0,2046,2101
151,151,0,2046,3236
152,152,0,2047,3957
153,153,0,2047,4013
154,154,0,2047,3386
155,155,0,2046,2293
156,156,0,2047,1111
157,157,0,2047,251
158,158,0,2046,9
159,159,0,2047,470
160,160,0,2047,1472
161,161,0,2046,2672
162,162,0,2046,3653
163,163,0,2046,4074
164,164,0,2047,3790
165,165,0,2047,2900
166,166,0,2046,1713
167,167,0,2046,638
168,168,0,2047,47
169,169,0,2046,146
170,170,0,2046,899
171,171,0,2046,2048
172,172,0,2046,3192
173,173,0,2046,3937
174,174,0,2046,4025
175,175,0,2047,3425
176,176,0,2046,2346
177,177,0,2047,1160
178,178,0,2047,277
179,179,0,2047,5
180,180,0,2046,436
181,181,0,2046,1422
182,182,0,2047,2621
183,183,0,2047,3619
184,184,0,2046,4070
185,185,0,2046,3817
186,186,0,2046,2948
187,187,0,2046,1766
188,188,0,2046,678
189,189,0,2046,60
190,190,0,2046,126
191,191,0,2047,856
192,192,0,2047,1994
193,193,0,2047,3148
194,194,0,2047,3918
195,195,0,2047,4037
196,196,0,2046,3464
197,197,0,2046,2398
198,198,0,2047,1208
199,199,0,2047,305
200,200,0,2046,1
201,201,0,2046,403
202,202,0,2046,1371
203,203,0,2047,2570
204,204,0,2046,3585
205,205,0,2046,4064
206,206,0,2047,3843
207,207,0,2047,2995
208,208,0,2046,1818
209,209,0,2046,718
210,210,0,2046,73
211,211,0,2046,108
212,212,0,2046,812
213,213,0,2047,1941
214,214,0,2047,3103
215,215,0,2046,3896
216,216,0,2046,4047
217,217,0,2046,3502
218,218,0,2047,2451
219,219,0,2046,1257
220,220,0,2047,334
221,221,0,2047,1
222,222,0,2046,372
223,223,0,2047,1321
224,224,0,2046,2518
225,225,0,2046,3549
226,226,0,2047,4058
227,227,0,2047,3867
228,228,0,2046,3042
229,229,0,2047,1872
230,230,0,2046,759
231,231,0,2046,88
232,232,0,2047,92
233,233,0,2047,771
234,234,0,2047,1887
235,235,0,2047,3056
236,236,0,2046,3873
237,237,0,2047,4055
238,238,0,2046,3539
239,239,0,2047,2503
240,240,0,2047,1306
241,241,0,2046,364
242,242,0,2047,0
243,243,0,2046,342
244,244,0,2047,1271
245,245,0,2047,2466
246,246,0,2046,3513
247,247,0,2046,4050
248,248,0,2047,3889
249,249,0,2047,3087
250,250,0,2046,1925
251,251,0,2046,800
252,252,0,2046,104
253,253,0,2046,77
254,254,0,2046,728
255,255,0,2047,1834
256,256,0,2047,3010
257,257,0,2046,3850
258,258,0,2046,4062
259,259,0,2046,3574
260,260,0,2047,2554
261,261,0,2047,1356
262,262,0,2046,394
263,263,0,2046,1
264,264,0,2047,313
265,265,0,2047,1222
266,266,0,2046,2414
267,267,0,2047,3475
268,268,0,2046,4040
269,269,0,2046,3911
270,270,0,2046,3134
271,271,0,2047,1978
272,272,0,2046,844
273,273,0,2046,122
274,274,0,2047,63
275,275,0,2046,688
276,276,0,2047,1781
277,277,0,2047,2963
278,278,0,2046,3825
279,279,0,2047,4068
280,280,0,2046,3608
281,281,0,2046,2606
282,282,0,2047,1407
283,283,0,2046,427
284,284,0,2046,3
285,285,0,2046,285
286,286,0,2046,1173
287,287,0,2047,2361
288,288,0,2047,3438
289,289,0,2046,4029
290,290,0,2047,3932
291,291,0,2046,3178
292,292,0,2046,2031
293,293,0,2046,886
294,294,0,2047,141
295,295,0,2046,51
296,296,0,2047,649
297,297,0,2046,1728
298,298,0,2046,2915
299,299,0,2047,3798
300,300,0,2046,4073
301,301,0,2047,3642
302,302,0,2047,2656
303,303,0,2046,1458
304,304,0,2046,460
305,305,0,2046,7
306,306,0,2046,259
307,307,0,2047,1126
308,308,0,2047,2308
309,309,0,2047,3398
310,310,0,2046,4017
311,311,0,2047,3951
312,312,0,2046,3222
313,313,0,2046,2085
314,314,0,2046,931
315,315,0,2046,161
316,316,0,2047,40
317,317,0,2047,611
318,318,0,2047,1676
319,319,0,2046,2867
320,320,0,2047,3771
321,321,0,2046,4075
322,322,0,2046,3674
323,323,0,2047,2707
324,324,0,2046,1509
325,325,0,2047,494
326,326,0,2046,12
327,327,0,2047,234
328,328,0,2047,1078
329,329,0,2047,2256
330,330,0,2047,3358
331,331,0,2047,4003
332,332,0,2047,3969
333,333,0,2046,3265
334,334,0,2046,2138
335,335,0,2047,976
336,336,0,2047,182
337,337,0,2046,30
338,338,0,2047,573
339,339,0,2046,1623
340,340,0,2047,2818
341,341,0,2046,3742
342,342,0,2046,4077
343,343,0,2046,3706
344,344,0,2047,2757
345,345,0,2047,1561
346,346,0,2046,529
347,347,0,2047,20
348,348,0,2045,210
349,349,0,2046,1032
350,350,0,2046,2202
351,351,0,2046,3317
352,352,0,2047,3988
353,353,0,2047,3986
354,354,0,2047,3308
355,355,0,2046,2192
356,356,0,2047,1023
357,357,0,2047,204
358,358,0,2046,22
359,359,0,2046,536
360,360,0,2046,1571
361,361,0,2047,2768
362,362,0,2046,3712
363,363,0,2046,4077
364,364,0,2046,3735
365,365,0,2046,2807
366,366,0,2047,1613
367,367,0,2047,566
368,368,0,2046,28
369,369,0,2047,186
370,370,0,2046,986
371,371,0,2046,2150
372,372,0,2046,3275
373,373,0,2046,3972
374,374,0,2046,4000
375,375,0,2046,3348
376,376,0,2046,2244
377,377,0,2047,1068
378,378,0,2046,229
379,379,0,2046,14
380,380,0,2046,501
381,381,0,2046,1520
382,382,0,2046,2718
383,383,0,2047,3682
384,384,0,2047,4075
385,385,0,2046,3765
386,386,0,2047,2857
387,387,0,2047,1665
388,388,0,2046,603
389,389,0,2047,38
390,390,0,2046,164
391,391,0,2046,941
392,392,0,2046,2097
393,393,0,2047,3232
394,394,0,2046,3955
395,395,0,2047,4014
396,396,0,2047,3390
397,397,0,2046,2298
398,398,0,2046,1116
399,399,0,2047,254
400,400,0,2046,8
401,401,0,2047,466
402,402,0,2046,1468
403,403,0,2046,2668
404,404,0,2046,3649
405,405,0,2046,4073
406,406,0,2046,3792
407,407,0,2047,2904
408,408,0,2047,1717
409,409,0,2047,641
410,410,0,2046,49
411,411,0,2046,144
412,412,0,2046,896
413,413,0,2046,2043
414,414,0,2047,3188
415,415,0,2046,3936
416,416,0,2047,4026
417,417,0,2046,3429
418,418,0,2046,2350
419,419,0,2047,1163
420,420,0,2046,280
421,421,0,2047,4
422,422,0,2046,433
423,423,0,2047,1417
424,424,0,2046,2617
425,425,0,2046,3615
426,426,0,2046,4069
427,427,0,2047,3819
428,428,0,2046,2953
429,429,0,2046,1771
430,430,0,2047,680
431,431,0,2046,61
432,432,0,2047,125
433,433,0,2046,852
434,434,0,2046,1989
435,435,0,2046,3144
436,436,0,2047,3916
437,437,0,2046,4038
438,438,0,2046,3467
439,439,0,2046,2402
440,440,0,2047,1212
441,441,0,2046,308
442,442,0,2047,1
443,443,0,2047,401
444,444,0,2046,1366
445,445,0,2047,2565
446,446,0,2047,3582
447,447,0,2046,4064
448,448,0,2046,3844
449,449,0,2047,3001
450,450,0,2047,1823
451,451,0,2046,721
452,452,0,2047,75
453,453,0,2046,107
454,454,0,2046,809
455,455,0,2046,1936
456,456,0,2046,3098
457,457,0,2046,3894
458,458,0,2046,4047
459,459,0,2046,3505
460,460,0,2046,2455
461,461,0,2046,1261
462,462,0,2047,337
463,463,0,2046,0
464,464,0,2047,370
465,465,0,2047,1318
466,466,0,2046,2513
467,467,0,2046,3546
468,468,0,2046,4057
469,469,0,2046,3868
470,470,0,2047,3047
471,471,0,2046,1876
472,472,0,2047,762
473,473,0,2047,89
474,474,0,2046,91
475,475,0,2047,766
476,476,0,2046,1882
477,477,0,2047,3053
478,478,0,2046,3872
479,479,0,2046,4055
480,480,0,2047,3541
481,481,0,2047,2507
482,482,0,2047,1311
483,483,0,2046,366
484,484,0,2046,0
485,485,0,2046,339
486,486,0,2047,1266
487,487,0,2046,2462
488,488,0,2047,3510
489,489,0,2047,4048
490,490,0,2047,3891
491,491,0,2046,3093
492,492,0,2047,1930
493,493,0,2047,804
494,494,0,2047,106
495,495,0,2046,75
496,496,0,2046,725
497,497,0,2046,1829
498,498,0,2046,3006
499,499,0,2046,3848
500,500,0,2046,4063
501,501,0,2047,3577
502,502,0,2046,2559
503,503,0,2046,1361
504,504,0,2047,398
505,505,0,2046,2
506,506,0,2046,310
507,507,0,2047,1218
508,508,0,2046,2409
509,509,0,2047,3472
510,510,0,2047,4040
511,511,0,2047,3913
512,512,0,2046,3138
513,513,0,2046,1984
514,514,0,2047,846
515,515,0,2047,123
516,516,0,2046,62
517,517,0,2046,684
518,518,0,2047,1777
519,519,0,2047,2959
520,520,0,2046,3823
521,521,0,2047,4069
522,522,0,2047,3611
523,523,0,2046,2611
524,524,0,2047,1412
525,525,0,2047,430
526,526,0,2046,4
527,527,0,2047,282
528,528,0,2046,1169
529,529,0,2047,2356
530,530,0,2047,3434
531,531,0,2047,4028
532,532,0,2047,3934
533,533,0,2047,3182
534,534,0,2046,2036
535,535,0,2046,891
536,536,0,2046,143
537,537,0,2046,50
538,538,0,2047,645
539,539,0,2046,1724
540,540,0,2046,2910
541,541,0,2047,3796
542,542,0,2047,4073
543,543,0,2046,3645
544,544,0,2047,2661
545,545,0,2047,1462
546,546,0,2046,463
547,547,0,2047,8
548,548,0,2047,257
549,549,0,2047,1121
550,550,0,2047,2305
551,551,0,2046,3395
552,552,0,2046,4015
553,553,0,2047,3952
554,554,0,2046,3226
555,555,0,2046,2090
556,556,0,2046,935
557,557,0,2046,162
558,558,0,2046,39
559,559,0,2047,608
560,560,0,2046,1671
561,561,0,2047,2862
562,562,0,2046,3768
563,563,0,2046,4075
564,564,0,2047,3677
565,565,0,2047,2712
566,566,0,2047,1514
567,567,0,2046,497
568,568,0,2047,14
569,569,0,2047,231
570,570,0,2047,1074
571,571,0,2047,2251
572,572,0,2046,3354
573,573,0,2046,4002
574,574,0,2046,3970
575,575,0,2046,3269
576,576,0,2046,2143
577,577,0,2047,980
578,578,0,2047,184
579,579,0,2047,29
580,580,0,2046,570
581,581,0,2047,1619
582,582,0,2047,2813
583,583,0,2047,3739
584,584,0,2047,4076
585,585,0,2047,3708
586,586,0,2047,2762
587,587,0,2046,1564
588,588,0,2047,533
589,589,0,2046,20
590,590,0,2046,207
591,591,0,2046,1027
592,592,0,2047,2198
593,593,0,2047,3313
594,594,0,2047,3987
595,595,0,2046,3986
596,596,0,2046,3311
597,597,0,2047,2196
598,598,0,2046,1026
599,599,0,2047,207
600,600,0,2047,21
601,601,0,2046,534
602,602,0,2046,1568
603,603,0,2046,2763
604,604,0,2047,3709
605,605,0,2046,4077
606,606,0,2047,3738
607,607,0,2047,2811
608,608,0,2046,1617
609,609,0,2046,569
610,610,0,2046,29
611,611,0,2046,184
612,612,0,2046,982
613,613,0,2046,2144
614,614,0,2047,3271
615,615,0,2046,3970
616,616,0,2046,4001
617,617,0,2046,3353
618,618,0,2046,2249
619,619,0,2047,1073
620,620,0,2047,230
621,621,0,2046,13
622,622,0,2047,498
623,623,0,2046,1514
624,624,0,2047,2713
625,625,0,2046,3678
626,626,0,2047,4075
627,627,0,2046,3767
628,628,0,2046,2861
629,629,0,2047,1670
630,630,0,2046,606
631,631,0,2046,39
632,632,0,2046,163
633,633,0,2046,936
634,634,0,2047,2092
635,635,0,2046,3228
636,636,0,2046,3953
637,637,0,2046,4014
638,638,0,2046,3393
639,639,0,2047,2302
640,640,0,2047,1120
641,641,0,2046,255
642,642,0,2046,8
643,643,0,2046,463
644,644,0,2047,1464
645,645,0,2046,2663
646,646,0,2046,3647
647,647,0,2047,4072
648,648,0,2046,3795
649,649,0,2046,2909
650,650,0,2047,1722
651,651,0,2047,645
652,652,0,2046,50
653,653,0,2046,142
654,654,0,2046,892
655,655,0,2047,2037
656,656,0,2047,3184
657,657,0,2046,3933
658,658,0,2046,4027
659,659,0,2047,3433
660,660,0,2046,2354
661,661,0,2046,1168
662,662,0,2047,283
663,663,0,2046,4
664,664,0,2046,430
665,665,0,2046,1413
666,666,0,2046,2612
667,667,0,2047,3613
668,668,0,2046,4068
669,669,0,2047,3821
670,670,0,2047,2957
671,671,0,2046,1775
672,672,0,2046,684
673,673,0,2046,62
674,674,0,2046,124
675,675,0,2046,848
676,676,0,2046,1985
677,677,0,2046,3140
678,678,0,2046,3913
679,679,0,2046,4038
680,680,0,2046,3471
681,681,0,2046,2407
682,682,0,2046,1217
683,683,0,2046,310
684,684,0,2047,1
685,685,0,2047,398
686,686,0,2047,1363
687,687,0,2046,2560
688,688,0,2046,3578
689,689,0,2046,4063
690,690,0,2047,3846
691,691,0,2047,3004
692,692,0,2046,1828
693,693,0,2046,725
694,694,0,2047,75
695,695,0,2047,105
696,696,0,2046,805
697,697,0,2046,1931
698,698,0,2046,3095
699,699,0,2047,3892
700,700,0,2046,4048
701,701,0,2047,3508
702,702,0,2047,2459
703,703,0,2046,1266
704,704,0,2046,339
705,705,0,2046,0
706,706,0,2047,367
707,707,0,2046,1312
708,708,0,2046,2509
709,709,0,2047,3543
710,710,0,2046,4056
711,711,0,2046,3870
712,712,0,2046,3051
713,713,0,2047,1881
714,714,0,2046,766
715,715,0,2046,91
716,716,0,2046,90
717,717,0,2046,763
718,718,0,2047,1878
719,719,0,2047,3049
720,720,0,2046,3869
721,721,0,2046,4056
722,722,0,2046,3545
723,723,0,2046,2512
724,724,0,2046,1315
725,725,0,2047,368
726,726,0,2047,0
727,727,0,2047,336
728,728,0,2046,1262
729,729,0,2046,2457
730,730,0,2046,3507
731,731,0,2046,4048
732,732,0,2047,3894
733,733,0,2046,3096
734,734,0,2046,1935
735,735,0,2046,808
736,736,0,2047,108
737,737,0,2046,75
738,738,0,2046,721
739,739,0,2046,1825
740,740,0,2047,3001
741,741,0,2046,3845
742,742,0,2046,4063
743,743,0,2046,3581
744,744,0,2047,2564
745,745,0,2046,1365
746,746,0,2046,401
747,747,0,2046,2
748,748,0,2046,307
749,749,0,2046,1213
750,750,0,2047,2404
751,751,0,2047,3469
752,752,0,2046,4038
753,753,0,2046,3916
754,754,0,2047,3142
755,755,0,2046,1988
756,756,0,2047,852
757,757,0,2047,125
758,758,0,2046,61
759,759,0,2046,681
760,760,0,2047,1772
761,761,0,2046,2955
762,762,0,2047,3820
763,763,0,2046,4069
764,764,0,2047,3615
765,765,0,2046,2615
766,766,0,2046,1416
767,767,0,2046,433
768,768,0,2046,5
769,769,0,2046,280
770,770,0,2047,1164
771,771,0,2046,2352
772,772,0,2046,3430
773,773,0,2046,4027
774,774,0,2046,3936
775,775,0,2046,3187
776,776,0,2047,2041
777,777,0,2047,894
778,778,0,2047,145
779,779,0,2047,49
780,780,0,2046,643
781,781,0,2047,1718
782,782,0,2047,2907
783,783,0,2046,3793
784,784,0,2046,4073
785,785,0,2046,3648
786,786,0,2047,2666
787,787,0,2046,1467
788,788,0,2046,466
789,789,0,2046,9
790,790,0,2046,254
791,791,0,2046,1117
792,792,0,2046,2299
793,793,0,2047,3392
794,794,0,2047,4015
795,795,0,2046,3954
796,796,0,2047,3231
797,797,0,2046,2095
798,798,0,2046,939
799,799,0,2046,164
800,800,0,2046,38
801,801,0,2047,604
802,802,0,2047,1666
803,803,0,2046,2858
804,804,0,2047,3766
805,805,0,2047,4076
806,806,0,2047,3681
807,807,0,2047,2717
808,808,0,2047,1519
809,809,0,2047,500
810,810,0,2047,14
811,811,0,2046,229
812,812,0,2046,1070
813,813,0,2046,2246
814,814,0,2047,3350
815,815,0,2046,4001
816,816,0,2046,3972
817,817,0,2046,3273
818,818,0,2046,2148
819,819,0,2046,985
820,820,0,2047,186
821,821,0,2046,28
822,822,0,2047,566
823,823,0,2046,1614
824,824,0,2047,2808
825,825,0,2046,3737
826,826,0,2047,4076
827,827,0,2046,3712
828,828,0,2047,2767
829,829,0,2047,1570
830,830,0,2046,536
831,831,0,2046,22
832,832,0,2047,205
833,833,0,2047,1023
834,834,0,2046,2192
835,835,0,2046,3309
836,836,0,2047,3986
837,837,0,2046,3988
838,838,0,2046,3315
839,839,0,2046,2201
840,840,0,2047,1030
841,841,0,2047,209
842,842,0,2046,20
843,843,0,2046,531
844,844,0,2047,1562
845,845,0,2047,2759
846,846,0,2047,3707
847,847,0,2047,4076
848,848,0,2047,3742
849,849,0,2046,2817
850,850,0,2047,1622
851,851,0,2046,572
852,852,0,2046,29
853,853,0,2047,182
854,854,0,2047,977
855,855,0,2046,2139
856,856,0,2047,3266
857,857,0,2046,3969
858,858,0,2047,4003
859,859,0,2046,3357
860,860,0,2047,2254
861,861,0,2047,1077
862,862,0,2046,233
863,863,0,2046,13
864,864,0,2047,495
865,865,0,2046,1509
866,866,0,2047,2708
867,867,0,2046,3676
868,868,0,2046,4075
869,869,0,2046,3770
870,870,0,2046,2866
871,871,0,2046,1675
872,872,0,2047,611
873,873,0,2046,40
874,874,0,2047,160
875,875,0,2046,932
876,876,0,2047,2086
877,877,0,2046,3223
878,878,0,2047,3951
879,879,0,2046,4016
880,880,0,2046,3397
881,881,0,2047,2307
882,882,0,2046,1125
883,883,0,2046,258
884,884,0,2047,7
885,885,0,2046,460
886,886,0,2046,1458
887,887,0,2046,2658
888,888,0,2047,3643
889,889,0,2046,4072
890,890,0,2046,3798
891,891,0,2047,2914
892,892,0,2047,1728
893,893,0,2046,649
894,894,0,2046,51
895,895,0,2046,140
896,896,0,2046,887
897,897,0,2046,2032
898,898,0,2047,3180
899,899,0,2047,3932
900,900,0,2046,4028
901,901,0,2046,3436
902,902,0,2046,2360
903,903,0,2047,1173
904,904,0,2046,285
905,905,0,2046,4
906,906,0,2046,426
907,907,0,2046,1407
908,908,0,2047,2607
909,909,0,2047,3609
910,910,0,2047,4069
911,911,0,2046,3823
912,912,0,2046,2962
913,913,0,2046,1780
914,914,0,2047,689
915,915,0,2047,63
916,916,0,2047,122
917,917,0,2045,843
918,918,0,2046,1979
919,919,0,2047,3135
920,920,0,2046,3912
921,921,0,2046,4039
922,922,0,2046,3475
923,923,0,2047,2412
924,924,0,2047,1221
925,925,0,2046,313
926,926,0,2046,1
927,927,0,2046,395
928,928,0,2046,1357
929,929,0,2046,2555
930,930,0,2046,3575
931,931,0,2046,4063
932,932,0,2047,3849
933,933,0,2046,3009
934,934,0,2046,1833
935,935,0,2046,729
936,936,0,2047,77
937,937,0,2046,104
938,938,0,2046,801
939,939,0,2047,1926
940,940,0,2046,3090
941,941,0,2046,3890
942,942,0,2047,4049
943,943,0,2047,3512
944,944,0,2046,2465
945,945,0,2046,1271
946,946,0,2045,342
947,947,0,2047,0
948,948,0,2047,364
949,949,0,2047,1306
950,950,0,2046,2503
951,951,0,2047,3538
952,952,0,2046,4056
953,953,0,2047,3873
954,954,0,2047,3056
955,955,0,2046,1886
956,956,0,2047,770
957,957,0,2047,93
958,958,0,2046,88
959,959,0,2047,759
960,960,0,2046,1872
961,961,0,2046,3044
962,962,0,2046,3867
963,963,0,2046,4057
964,964,0,2046,3549
965,965,0,2046,2518
966,966,0,2047,1321
967,967,0,2047,372
968,968,0,2046,0
969,969,0,2047,334
970,970,0,2046,1257
971,971,0,2046,2451
972,972,0,2046,3502
973,973,0,2046,4047
974,974,0,2046,3896
975,975,0,2046,3102
976,976,0,2046,1940
977,977,0,2047,813
978,978,0,2046,108
979,979,0,2046,73
980,980,0,2047,718
981,981,0,2046,1819
982,982,0,2047,2997
983,983,0,2046,3843
984,984,0,2047,4064
985,985,0,2046,3584
986,986,0,2046,2570
987,987,0,2046,1371
988,988,0,2046,404
989,989,0,2047,1
990,990,0,2046,305
991,991,0,2046,1208
992,992,0,2047,2399
993,993,0,2046,3465
994,994,0,2047,4037
995,995,0,2046,3917
996,996,0,2047,3146
997,997,0,2046,1993
998,998,0,2046,856
999,999,0,2046,128
1000,1000,0,2046,60
1001,1001,0,2046,677
1002,1002,0,2047,1766
1003,1003,0,2046,2950
1004,1004,0,2047,3817
1005,1005,0,2047,4070
1006,1006,0,2047,3618
1007,1007,0,2046,2620
1008,1008,0,2046,1422
1009,1009,0,2047,436
1010,1010,0,2047,5
1011,1011,0,2047,277
1012,1012,0,2046,1160
1013,1013,0,2047,2347
1014,1014,0,2047,3426
1015,1015,0,2046,4025
1016,1016,0,2047,3937
1017,1017,0,2047,3191
1018,1018,0,2047,2047
1019,1019,0,2046,900
1020,1020,0,2046,146
1021,1021,0,2047,48
1022,1022,0,2046,638
1023,1023,0,2047,1714
1024,1024,0,2046,2901
1025,1025,0,2047,3791
1026,1026,0,2047,4073
