Sample in Buffer,Sample in Window,TRIGGER,adc1_data_a_d0[11:0],adc1_data_b_d0[11:0]
0,0,0,2046,117
1,1,0,2047,694
2,2,0,2047,1594
3,3,0,2047,2597
4,4,0,2046,3469
5,5,0,2046,3998
6,6,0,2047,4061
7,7,0,2046,3641
8,8,0,2046,2838
9,9,0,2046,1845
10,10,0,2047,898
11,11,0,2047,223
12,12,0,2046,0
13,13,0,2046,228
14,14,0,2047,908
15,15,0,2046,1858
16,16,0,2046,2851
17,17,0,2047,3649
18,18,0,2047,4063
19,19,0,2046,3995
20,20,0,2046,3460
21,21,0,2047,2586
22,22,0,2046,1580
23,23,0,2046,685
24,24,0,2047,112
25,25,0,2046,0
26,26,0,2046,371
27,27,0,2046,1142
28,28,0,2046,2126
29,29,0,2046,3089
30,30,0,2046,3802
31,31,0,2046,4093
32,32,0,2046,3896
33,33,0,2046,3254
34,34,0,2046,2323
35,35,0,2046,1324
36,36,0,2047,495
37,37,0,2046,34
38,38,0,2047,52
39,39,0,2047,542
40,40,0,2046,1390
41,41,0,2047,2393
42,42,0,2046,3311
43,43,0,2046,3925
44,44,0,2046,4089
45,45,0,2046,3764
46,46,0,2046,3028
47,47,0,2046,2055
48,48,0,2046,1079
49,49,0,2046,331
50,50,0,2047,0
51,51,0,2046,138
52,52,0,2046,739
53,53,0,2046,1650
54,54,0,2046,2654
55,55,0,2047,3510
56,56,0,2046,4016
57,57,0,2046,4050
58,58,0,2046,3603
59,59,0,2046,2784
60,60,0,2046,1787
61,61,0,2046,850
62,62,0,2046,196
63,63,0,2046,0
64,64,0,2047,257
65,65,0,2046,957
66,66,0,2047,1916
67,67,0,2047,2903
68,68,0,2046,3684
69,69,0,2046,4073
70,70,0,2046,3976
71,71,0,2047,3417
72,72,0,2047,2529
73,73,0,2046,1524
74,74,0,2045,642
75,75,0,2046,92
76,76,0,2047,7
77,77,0,2047,406
78,78,0,2046,1195
79,79,0,2047,2184
80,80,0,2046,3139
81,81,0,2047,3831
82,82,0,2046,4095
83,83,0,2047,3870
84,84,0,2046,3207
85,85,0,2047,2265
86,86,0,2046,1269
87,87,0,2047,457
88,88,0,2046,22
89,89,0,2046,67
90,90,0,2047,584
91,91,0,2047,1446
92,92,0,2046,2450
93,93,0,2046,3355
94,94,0,2046,3948
95,95,0,2047,4084
96,96,0,2046,3732
97,97,0,2046,2976
98,98,0,2046,1997
99,99,0,2046,1027
100,100,0,2047,299
101,101,0,2046,0
102,102,0,2047,161
103,103,0,2046,785
104,104,0,2046,1707
105,105,0,2046,2709
106,106,0,2046,3550
107,107,0,2047,4031
108,108,0,2046,4037
109,109,0,2046,3565
110,110,0,2047,2730
111,111,0,2046,1730
112,112,0,2047,803
113,113,0,2047,170
114,114,0,2046,0
115,115,0,2047,287
116,116,0,2046,1008
117,117,0,2047,1975
118,118,0,2046,2956
119,119,0,2046,3719
120,120,0,2047,4081
121,121,0,2046,3955
122,122,0,2046,3374
123,123,0,2046,2472
124,124,0,2046,1468
125,125,0,2046,599
126,126,0,2047,74
127,127,0,2047,17
128,128,0,2046,443
129,129,0,2046,1248
130,130,0,2047,2243
131,131,0,2045,3188
132,132,0,2046,3859
133,133,0,2047,4095
134,134,0,2046,3841
135,135,0,2047,3158
136,136,0,2046,2207
137,137,0,2046,1215
138,138,0,2046,421
139,139,0,2046,11
140,140,0,2045,85
141,141,0,2046,625
142,142,0,2046,1502
143,143,0,2047,2508
144,144,0,2046,3399
145,145,0,2046,3969
146,146,0,2047,4076
147,147,0,2047,3698
148,148,0,2047,2924
149,149,0,2046,1939
150,150,0,2046,977
151,151,0,2046,269
152,152,0,2046,0
153,153,0,2047,186
154,154,0,2046,831
155,155,0,2047,1765
156,156,0,2047,2764
157,157,0,2046,3589
158,158,0,2046,4045
159,159,0,2046,4023
160,160,0,2046,3525
161,161,0,2046,2675
162,162,0,2046,1673
163,163,0,2047,757
164,164,0,2046,147
165,165,0,2046,0
166,166,0,2046,318
167,167,0,2046,1059
168,168,0,2046,2033
169,169,0,2046,3008
170,170,0,2047,3752
171,171,0,2046,4088
172,172,0,2046,3934
173,173,0,2046,3328
174,174,0,2047,2415
175,175,0,2046,1412
176,176,0,2046,559
177,177,0,2047,58
178,178,0,2046,29
179,179,0,2047,480
180,180,0,2046,1302
181,181,0,2046,2300
182,182,0,2046,3235
183,183,0,2046,3886
184,184,0,2046,4095
185,185,0,2046,3814
186,186,0,2046,3109
187,187,0,2046,2148
188,188,0,2046,1162
189,189,0,2046,385
190,190,0,2047,2
191,191,0,2047,103
192,192,0,2046,668
193,193,0,2047,1559
194,194,0,2046,2564
195,195,0,2047,3443
196,196,0,2046,3988
197,197,0,2046,4068
198,198,0,2046,3663
199,199,0,2046,2871
200,200,0,2047,1880
201,201,0,2046,927
202,202,0,2046,240
203,203,0,2047,0
204,204,0,2046,212
205,205,0,2046,880
206,206,0,2046,1822
207,207,0,2047,2818
208,208,0,2046,3627
209,209,0,2046,4057
210,210,0,2046,4006
211,211,0,2046,3485
212,212,0,2047,2619
213,213,0,2047,1615
214,214,0,2047,712
215,215,0,2046,125
216,216,0,2047,0
217,217,0,2046,351
218,218,0,2047,1110
219,219,0,2046,2091
220,220,0,2046,3059
221,221,0,2046,3784
222,222,0,2046,4092
223,223,0,2045,3911
224,224,0,2046,3283
225,225,0,2046,2358
226,226,0,2047,1357
227,227,0,2046,518
228,228,0,2046,43
229,229,0,2046,42
230,230,0,2047,519
231,231,0,2046,1357
232,232,0,2046,2358
233,233,0,2047,3283
234,234,0,2047,3911
235,235,0,2046,4092
236,236,0,2046,3783
237,237,0,2046,3058
238,238,0,2047,2090
239,239,0,2046,1110
240,240,0,2046,351
241,241,0,2046,0
242,242,0,2046,125
243,243,0,2046,711
244,244,0,2047,1615
245,245,0,2047,2619
246,246,0,2047,3485
247,247,0,2046,4006
248,248,0,2047,4056
249,249,0,2046,3627
250,250,0,2046,2818
251,251,0,2047,1823
252,252,0,2046,879
253,253,0,2046,212
254,254,0,2047,0
255,255,0,2046,240
256,256,0,2047,928
257,257,0,2046,1881
258,258,0,2047,2871
259,259,0,2047,3663
260,260,0,2046,4068
261,261,0,2047,3988
262,262,0,2046,3443
263,263,0,2046,2563
264,264,0,2046,1558
265,265,0,2046,668
266,266,0,2046,104
267,267,0,2046,2
268,268,0,2047,385
269,269,0,2047,1163
270,270,0,2047,2149
271,271,0,2047,3110
272,272,0,2046,3814
273,273,0,2046,4095
274,274,0,2046,3886
275,275,0,2046,3236
276,276,0,2046,2300
277,277,0,2046,1302
278,278,0,2046,479
279,279,0,2046,29
280,280,0,2046,58
281,281,0,2046,559
282,282,0,2047,1412
283,283,0,2046,2416
284,284,0,2047,3328
285,285,0,2046,3934
286,286,0,2046,4087
287,287,0,2046,3752
288,288,0,2047,3008
289,289,0,2046,2032
290,290,0,2047,1058
291,291,0,2046,318
292,292,0,2046,0
293,293,0,2046,147
294,294,0,2047,757
295,295,0,2047,1672
296,296,0,2047,2676
297,297,0,2046,3526
298,298,0,2046,4023
299,299,0,2046,4044
300,300,0,2047,3588
301,301,0,2046,2763
302,302,0,2046,1764
303,303,0,2046,831
304,304,0,2046,185
305,305,0,2046,0
306,306,0,2046,269
307,307,0,2046,977
308,308,0,2046,1940
309,309,0,2046,2925
310,310,0,2047,3698
311,311,0,2048,4076
312,312,0,2046,3968
313,313,0,2047,3400
314,314,0,2047,2506
315,315,0,2047,1502
316,316,0,2047,625
317,317,0,2046,85
318,318,0,2046,11
319,319,0,2046,421
320,320,0,2047,1216
321,321,0,2047,2207
322,322,0,2046,3158
323,323,0,2046,3843
324,324,0,2047,4095
325,325,0,2046,3858
326,326,0,2047,3188
327,327,0,2046,2241
328,328,0,2046,1248
329,329,0,2046,443
330,330,0,2046,17
331,331,0,2046,74
332,332,0,2046,600
333,333,0,2047,1468
334,334,0,2047,2472
335,335,0,2047,3373
336,336,0,2046,3956
337,337,0,2046,4081
338,338,0,2047,3719
339,339,0,2047,2956
340,340,0,2046,1974
341,341,0,2046,1008
342,342,0,2046,287
343,343,0,2047,0
344,344,0,2047,171
345,345,0,2046,803
346,346,0,2046,1731
347,347,0,2047,2731
348,348,0,2046,3566
349,349,0,2047,4037
350,350,0,2046,4031
351,351,0,2046,3550
352,352,0,2047,2709
353,353,0,2047,1707
354,354,0,2047,784
355,355,0,2046,162
356,356,0,2046,0
357,357,0,2046,299
358,358,0,2046,1027
359,359,0,2046,1997
360,360,0,2047,2976
361,361,0,2046,3732
362,362,0,2046,4083
363,363,0,2047,3947
364,364,0,2046,3355
365,365,0,2046,2450
366,366,0,2046,1445
367,367,0,2046,584
368,368,0,2046,67
369,369,0,2046,22
370,370,0,2046,457
371,371,0,2046,1270
372,372,0,2046,2266
373,373,0,2047,3207
374,374,0,2046,3870
375,375,0,2047,4095
376,376,0,2047,3831
377,377,0,2047,3138
378,378,0,2046,2184
379,379,0,2046,1195
380,380,0,2046,406
381,381,0,2046,7
382,382,0,2046,92
383,383,0,2046,642
384,384,0,2046,1524
385,385,0,2047,2530
386,386,0,2046,3417
387,387,0,2047,3977
388,388,0,2046,4073
389,389,0,2046,3685
390,390,0,2047,2902
391,391,0,2046,1915
392,392,0,2046,957
393,393,0,2047,257
394,394,0,2046,0
395,395,0,2046,196
396,396,0,2046,850
397,397,0,2047,1788
398,398,0,2046,2785
399,399,0,2046,3604
400,400,0,2046,4049
401,401,0,2046,4016
402,402,0,2046,3510
403,403,0,2046,2652
404,404,0,2046,1650
405,405,0,2046,739
406,406,0,2046,138
407,407,0,2046,0
408,408,0,2046,331
409,409,0,2046,1079
410,410,0,2046,2056
411,411,0,2046,3028
412,412,0,2046,3765
413,413,0,2046,4089
414,414,0,2046,3925
415,415,0,2046,3310
416,416,0,2046,2392
417,417,0,2046,1390
418,418,0,2047,542
419,419,0,2047,51
420,420,0,2046,35
421,421,0,2047,495
422,422,0,2046,1324
423,423,0,2046,2323
424,424,0,2046,3255
425,425,0,2046,3896
426,426,0,2046,4094
427,427,0,2047,3802
428,428,0,2046,3089
429,429,0,2046,2125
430,430,0,2047,1141
431,431,0,2046,372
432,432,0,2047,0
433,433,0,2046,112
434,434,0,2047,685
435,435,0,2046,1581
436,436,0,2047,2586
437,437,0,2046,3460
438,438,0,2046,3995
439,439,0,2046,4063
440,440,0,2046,3649
441,441,0,2046,2850
442,442,0,2047,1858
443,443,0,2046,908
444,444,0,2046,228
445,445,0,2047,0
446,446,0,2046,222
447,447,0,2046,898
448,448,0,2046,1847
449,449,0,2046,2839
450,450,0,2046,3641
451,451,0,2046,4061
452,452,0,2046,3999
453,453,0,2046,3468
454,454,0,2047,2596
455,455,0,2046,1593
456,456,0,2046,694
457,457,0,2046,117
458,458,0,2047,0
459,459,0,2047,363
460,460,0,2046,1131
461,461,0,2046,2114
462,462,0,2046,3079
463,463,0,2047,3796
464,464,0,2047,4093
465,465,0,2047,3900
466,466,0,2046,3264
467,467,0,2047,2334
468,468,0,2047,1335
469,469,0,2047,503
470,470,0,2046,37
471,471,0,2046,48
472,472,0,2046,534
473,473,0,2046,1379
474,474,0,2046,2381
475,475,0,2046,3301
476,476,0,2046,3919
477,477,0,2046,4090
478,478,0,2046,3772
479,479,0,2046,3038
480,480,0,2046,2067
481,481,0,2047,1089
482,482,0,2046,338
483,483,0,2046,0
484,484,0,2046,134
485,485,0,2046,730
486,486,0,2046,1638
487,487,0,2046,2641
488,488,0,2047,3502
489,489,0,2047,4012
490,490,0,2047,4052
491,491,0,2046,3612
492,492,0,2046,2796
493,493,0,2046,1799
494,494,0,2046,860
495,495,0,2046,202
496,496,0,2047,0
497,497,0,2046,251
498,498,0,2046,948
499,499,0,2047,1904
500,500,0,2047,2892
501,501,0,2046,3677
502,502,0,2047,4071
503,503,0,2047,3980
504,504,0,2046,3426
505,505,0,2046,2540
506,506,0,2046,1535
507,507,0,2046,651
508,508,0,2046,96
509,509,0,2046,5
510,510,0,2047,398
511,511,0,2046,1183
512,512,0,2046,2172
513,513,0,2046,3129
514,514,0,2046,3825
515,515,0,2046,4095
516,516,0,2046,3875
517,517,0,2047,3216
518,518,0,2047,2276
519,519,0,2046,1280
520,520,0,2046,465
521,521,0,2046,24
522,522,0,2047,64
523,523,0,2047,575
524,524,0,2046,1435
525,525,0,2046,2437
526,526,0,2046,3346
527,527,0,2047,3942
528,528,0,2047,4086
529,529,0,2046,3739
530,530,0,2046,2987
531,531,0,2046,2009
532,532,0,2046,1038
533,533,0,2047,306
534,534,0,2046,0
535,535,0,2047,156
536,536,0,2047,776
537,537,0,2046,1695
538,538,0,2046,2697
539,539,0,2047,3542
540,540,0,2047,4028
541,541,0,2046,4039
542,542,0,2046,3573
543,543,0,2046,2742
544,544,0,2046,1741
545,545,0,2046,813
546,546,0,2046,175
547,547,0,2046,0
548,548,0,2047,281
549,549,0,2047,997
550,550,0,2046,1963
551,551,0,2047,2945
552,552,0,2046,3711
553,553,0,2046,4079
554,554,0,2046,3960
555,555,0,2046,3382
556,556,0,2046,2484
557,557,0,2046,1480
558,558,0,2046,608
559,559,0,2046,78
560,560,0,2046,15
561,561,0,2046,435
562,562,0,2046,1238
563,563,0,2047,2230
564,564,0,2046,3178
565,565,0,2046,3853
566,566,0,2046,4095
567,567,0,2047,3848
568,568,0,2047,3168
569,569,0,2046,2219
570,570,0,2047,1226
571,571,0,2046,428
572,572,0,2046,13
573,573,0,2047,81
574,574,0,2046,617
575,575,0,2046,1490
576,576,0,2047,2495
577,577,0,2047,3391
578,578,0,2046,3964
579,579,0,2047,4078
580,580,0,2047,3706
581,581,0,2046,2934
582,582,0,2046,1951
583,583,0,2046,988
584,584,0,2047,275
585,585,0,2046,0
586,586,0,2046,180
587,587,0,2046,822
588,588,0,2047,1753
589,589,0,2046,2752
590,590,0,2046,3582
591,591,0,2046,4042
592,592,0,2046,4025
593,593,0,2046,3534
594,594,0,2046,2687
595,595,0,2046,1684
596,596,0,2046,767
597,597,0,2046,152
598,598,0,2046,0
599,599,0,2046,312
600,600,0,2047,1047
601,601,0,2046,2020
602,602,0,2045,2997
603,603,0,2047,3745
604,604,0,2046,4086
605,605,0,2046,3938
606,606,0,2046,3338
607,607,0,2046,2427
608,608,0,2046,1423
609,609,0,2047,567
610,610,0,2047,60
611,611,0,2047,26
612,612,0,2046,472
613,613,0,2046,1291
614,614,0,2046,2288
615,615,0,2046,3225
616,616,0,2047,3880
617,617,0,2047,4095
618,618,0,2047,3820
619,619,0,2046,3119
620,620,0,2046,2161
621,621,0,2047,1174
622,622,0,2047,393
623,623,0,2047,4
624,624,0,2046,100
625,625,0,2046,659
626,626,0,2047,1546
627,627,0,2046,2551
628,628,0,2046,3434
629,629,0,2046,3984
630,630,0,2046,4070
631,631,0,2047,3670
632,632,0,2046,2882
633,633,0,2047,1893
634,634,0,2047,938
635,635,0,2047,245
636,636,0,2046,0
637,637,0,2046,206
638,638,0,2046,869
639,639,0,2047,1811
640,640,0,2046,2806
641,641,0,2046,3619
642,642,0,2047,4054
643,643,0,2046,4009
644,644,0,2047,3494
645,645,0,2047,2631
646,646,0,2047,1627
647,647,0,2046,721
648,648,0,2046,130
649,649,0,2046,0
650,650,0,2046,344
651,651,0,2047,1099
652,652,0,2047,2079
653,653,0,2047,3048
654,654,0,2046,3776
655,655,0,2047,4091
656,656,0,2047,3915
657,657,0,2046,3292
658,658,0,2047,2370
659,659,0,2046,1367
660,660,0,2046,528
661,661,0,2047,46
662,662,0,2047,40
663,663,0,2046,510
664,664,0,2046,1344
665,665,0,2047,2345
666,666,0,2046,3273
667,667,0,2046,3905
668,668,0,2046,4093
669,669,0,2047,3789
670,670,0,2046,3069
671,671,0,2047,2103
672,672,0,2046,1121
673,673,0,2047,358
674,674,0,2047,0
675,675,0,2046,120
676,676,0,2046,703
677,677,0,2046,1604
678,678,0,2046,2608
679,679,0,2047,3476
680,680,0,2047,4002
681,681,0,2047,4059
682,682,0,2047,3635
683,683,0,2046,2829
684,684,0,2046,1835
685,685,0,2046,890
686,686,0,2047,218
687,687,0,2047,0
688,688,0,2046,234
689,689,0,2046,918
690,690,0,2046,1869
691,691,0,2047,2860
692,692,0,2047,3656
693,693,0,2047,4065
694,694,0,2046,3992
695,695,0,2046,3451
696,696,0,2047,2575
697,697,0,2046,1570
698,698,0,2046,677
699,699,0,2046,109
700,700,0,2046,0
701,701,0,2046,377
702,702,0,2046,1152
703,703,0,2047,2137
704,704,0,2047,3098
705,705,0,2047,3807
706,706,0,2046,4094
707,707,0,2047,3890
708,708,0,2046,3245
709,709,0,2046,2313
710,710,0,2046,1314
711,711,0,2046,487
712,712,0,2046,32
713,713,0,2046,54
714,714,0,2047,550
715,715,0,2046,1401
716,716,0,2047,2403
717,717,0,2046,3319
718,718,0,2046,3929
719,719,0,2046,4088
720,720,0,2046,3759
721,721,0,2046,3019
722,722,0,2047,2044
723,723,0,2046,1069
724,724,0,2046,325
725,725,0,2046,0
726,726,0,2047,142
727,727,0,2046,747
728,728,0,2046,1661
729,729,0,2046,2664
730,730,0,2046,3517
731,731,0,2047,4018
732,732,0,2046,4047
733,733,0,2047,3597
734,734,0,2047,2775
735,735,0,2047,1776
736,736,0,2046,841
737,737,0,2046,191
738,738,0,2046,0
739,739,0,2046,262
740,740,0,2047,968
741,741,0,2046,1927
742,742,0,2047,2913
743,743,0,2046,3691
744,744,0,2047,4074
745,745,0,2047,3972
746,746,0,2047,3409
747,747,0,2047,2518
748,748,0,2046,1513
749,749,0,2046,635
750,750,0,2046,89
751,751,0,2046,9
752,752,0,2046,413
753,753,0,2046,1204
754,754,0,2046,2195
755,755,0,2047,3149
756,756,0,2046,3836
757,757,0,2046,4095
758,758,0,2047,3865
759,759,0,2047,3198
760,760,0,2047,2254
761,761,0,2046,1260
762,762,0,2046,451
763,763,0,2046,19
764,764,0,2047,70
765,765,0,2046,591
766,766,0,2046,1456
767,767,0,2046,2460
768,768,0,2047,3363
769,769,0,2046,3951
770,770,0,2046,4082
771,771,0,2046,3726
772,772,0,2046,2967
773,773,0,2046,1987
774,774,0,2046,1018
775,775,0,2046,294
776,776,0,2047,0
777,777,0,2046,166
778,778,0,2046,793
779,779,0,2047,1718
780,780,0,2046,2719
781,781,0,2046,3557
782,782,0,2047,4034
783,783,0,2046,4034
784,784,0,2046,3558
785,785,0,2046,2720
786,786,0,2046,1719
787,787,0,2046,794
788,788,0,2047,166
789,789,0,2047,0
790,790,0,2046,293
791,791,0,2047,1017
792,792,0,2046,1985
793,793,0,2046,2966
794,794,0,2046,3725
795,795,0,2046,4082
796,796,0,2046,3952
797,797,0,2046,3365
798,798,0,2046,2461
799,799,0,2047,1458
800,800,0,2047,592
801,801,0,2046,71
802,802,0,2046,19
803,803,0,2046,449
804,804,0,2046,1258
805,805,0,2046,2254
806,806,0,2047,3196
807,807,0,2046,3864
808,808,0,2046,4095
809,809,0,2046,3837
810,810,0,2046,3149
811,811,0,2046,2196
812,812,0,2046,1206
813,813,0,2046,413
814,814,0,2046,8
815,815,0,2046,88
816,816,0,2046,633
817,817,0,2047,1512
818,818,0,2047,2517
819,819,0,2047,3408
820,820,0,2046,3972
821,821,0,2046,4075
822,822,0,2047,3691
823,823,0,2047,2914
824,824,0,2046,1929
825,825,0,2046,968
826,826,0,2046,263
827,827,0,2046,0
828,828,0,2046,191
829,829,0,2046,840
830,830,0,2045,1776
831,831,0,2047,2773
832,832,0,2047,3596
833,833,0,2046,4048
834,834,0,2047,4019
835,835,0,2046,3518
836,836,0,2047,2665
837,837,0,2046,1662
838,838,0,2046,749
839,839,0,2046,143
840,840,0,2046,0
841,841,0,2046,324
842,842,0,2047,1067
843,843,0,2046,2043
844,844,0,2046,3017
845,845,0,2046,3758
846,846,0,2046,4088
847,847,0,2046,3930
848,848,0,2047,3321
849,849,0,2046,2405
850,850,0,2047,1402
851,851,0,2047,551
852,852,0,2047,55
853,853,0,2046,32
854,854,0,2046,487
855,855,0,2046,1312
856,856,0,2047,2312
857,857,0,2047,3244
858,858,0,2046,3891
859,859,0,2047,4095
860,860,0,2046,3808
861,861,0,2047,3100
862,862,0,2046,2138
863,863,0,2047,1153
864,864,0,2046,379
865,865,0,2047,0
866,866,0,2047,107
867,867,0,2046,676
868,868,0,2046,1569
869,869,0,2046,2574
870,870,0,2047,3451
871,871,0,2046,3990
872,872,0,2046,4065
873,873,0,2046,3657
874,874,0,2046,2861
875,875,0,2047,1870
876,876,0,2047,919
877,877,0,2046,235
878,878,0,2046,0
879,879,0,2046,217
880,880,0,2046,888
881,881,0,2046,1833
882,882,0,2047,2828
883,883,0,2047,3633
884,884,0,2046,4059
885,885,0,2047,4002
886,886,0,2047,3478
887,887,0,2046,2609
888,888,0,2047,1605
889,889,0,2046,704
890,890,0,2047,122
891,891,0,2046,0
892,892,0,2046,357
893,893,0,2046,1119
894,894,0,2047,2101
895,895,0,2047,3068
896,896,0,2047,3789
897,897,0,2046,4092
898,898,0,2046,3906
899,899,0,2046,3274
900,900,0,2046,2347
901,901,0,2046,1347
902,902,0,2046,512
903,903,0,2047,40
904,904,0,2046,45
905,905,0,2046,525
906,906,0,2047,1367
907,907,0,2046,2368
908,908,0,2046,3291
909,909,0,2046,3915
910,910,0,2046,4091
911,911,0,2046,3778
912,912,0,2047,3050
913,913,0,2047,2080
914,914,0,2046,1101
915,915,0,2046,345
916,916,0,2046,0
917,917,0,2047,128
918,918,0,2047,720
919,919,0,2047,1626
920,920,0,2046,2629
921,921,0,2047,3492
922,922,0,2046,4008
923,923,0,2047,4054
924,924,0,2047,3620
925,925,0,2046,2808
926,926,0,2047,1812
927,927,0,2047,870
928,928,0,2046,207
929,929,0,2046,0
930,930,0,2046,245
931,931,0,2047,936
932,932,0,2047,1891
933,933,0,2046,2881
934,934,0,2046,3670
935,935,0,2046,4069
936,936,0,2046,3985
937,937,0,2046,3435
938,938,0,2046,2553
939,939,0,2046,1548
940,940,0,2047,660
941,941,0,2046,101
942,942,0,2047,3
943,943,0,2046,391
944,944,0,2047,1172
945,945,0,2046,2160
946,946,0,2047,3118
947,947,0,2047,3818
948,948,0,2046,4095
949,949,0,2047,3881
950,950,0,2047,3227
951,951,0,2047,2290
952,952,0,2046,1292
953,953,0,2046,473
954,954,0,2047,27
955,955,0,2047,61
956,956,0,2046,566
957,957,0,2047,1422
958,958,0,2046,2426
959,959,0,2046,3336
960,960,0,2047,3937
961,961,0,2046,4087
962,962,0,2046,3745
963,963,0,2047,2999
964,964,0,2046,2022
965,965,0,2046,1049
966,966,0,2047,313
967,967,0,2046,0
968,968,0,2047,151
969,969,0,2047,765
970,970,0,2047,1682
971,971,0,2046,2685
972,972,0,2046,3533
973,973,0,2046,4025
974,974,0,2046,4043
975,975,0,2046,3582
976,976,0,2046,2753
977,977,0,2046,1754
978,978,0,2046,823
979,979,0,2047,181
980,980,0,2046,0
981,981,0,2047,273
982,982,0,2046,986
983,983,0,2046,1950
984,984,0,2047,2934
985,985,0,2046,3705
986,986,0,2047,4078
987,987,0,2047,3965
988,988,0,2047,3392
989,989,0,2046,2496
990,990,0,2046,1492
991,991,0,2046,617
992,992,0,2046,82
993,993,0,2046,13
994,994,0,2046,427
995,995,0,2046,1225
996,996,0,2046,2218
997,997,0,2046,3168
998,998,0,2046,3847
999,999,0,2047,4095
1000,1000,0,2046,3854
1001,1001,0,2046,3179
1002,1002,0,2046,2231
1003,1003,0,2046,1239
1004,1004,0,2046,437
1005,1005,0,2046,15
1006,1006,0,2046,77
1007,1007,0,2046,607
1008,1008,0,2046,1478
1009,1009,0,2046,2483
1010,1010,0,2047,3381
1011,1011,0,2046,3959
1012,1012,0,2046,4080
1013,1013,0,2046,3713
1014,1014,0,2046,2947
1015,1015,0,2046,1963
1016,1016,0,2047,999
1017,1017,0,2046,281
1018,1018,0,2047,0
1019,1019,0,2046,175
1020,1020,0,2046,811
1021,1021,0,2047,1740
1022,1022,0,2046,2740
1023,1023,0,2047,3573
1024,1024,0,2046,4039
1025,1025,0,2047,4028
1026,1026,0,2047,3542
1027,1027,0,2047,2698
1028,1028,0,2046,1697
