Sample in Buffer,Sample in Window,TRIGGER,adc1_data_a_d0[11:0],adc1_data_b_d0[11:0]
0,0,0,2046,3561
1,1,0,2046,3735
2,2,0,2046,3879
3,3,0,2047,3991
4,4,0,2047,4069
5,5,0,2047,4095
6,6,0,2047,4095
7,7,0,2047,4088
8,8,0,2046,4022
9,9,0,2047,3922
10,10,0,2047,3788
11,11,0,2046,3624
12,12,0,2046,3432
13,13,0,2047,3216
14,14,0,2047,2979
15,15,0,2046,2726
16,16,0,2046,2460
17,17,0,2047,2187
18,18,0,2046,1911
19,19,0,2047,1637
20,20,0,2047,1370
21,21,0,2046,1115
22,22,0,2046,875
23,23,0,2047,657
24,24,0,2046,463
25,25,0,2046,295
26,26,0,2046,158
27,27,0,2047,56
28,28,0,2047,0
29,29,0,2047,0
30,30,0,2047,0
31,31,0,2047,1
32,32,0,2046,78
33,33,0,2047,189
34,34,0,2046,332
35,35,0,2046,505
36,36,0,2046,705
37,37,0,2046,929
38,38,0,2047,1172
39,39,0,2047,1430
40,40,0,2046,1698
41,41,0,2047,1972
42,42,0,2046,2247
43,43,0,2047,2518
44,44,0,2047,2782
45,45,0,2047,3033
46,46,0,2047,3265
47,47,0,2046,3476
48,48,0,2046,3661
49,49,0,2046,3820
50,50,0,2045,3946
51,51,0,2047,4039
52,52,0,2046,4095
53,53,0,2047,4095
54,54,0,2046,4095
55,55,0,2046,4055
56,56,0,2047,3969
57,57,0,2047,3850
58,58,0,2047,3699
59,59,0,2047,3519
60,60,0,2046,3314
61,61,0,2047,3085
62,62,0,2046,2839
63,63,0,2046,2578
64,64,0,2046,2307
65,65,0,2046,2032
66,66,0,2046,1757
67,67,0,2047,1486
68,68,0,2046,1225
69,69,0,2047,979
70,70,0,2046,750
71,71,0,2046,545
72,72,0,2047,366
73,73,0,2047,215
74,74,0,2047,97
75,75,0,2047,13
76,76,0,2047,0
77,77,0,2046,0
78,78,0,2047,0
79,79,0,2047,39
80,80,0,2046,135
81,81,0,2047,265
82,82,0,2046,426
83,83,0,2047,615
84,84,0,2046,829
85,85,0,2047,1064
86,86,0,2046,1315
87,87,0,2047,1579
88,88,0,2047,1851
89,89,0,2047,2127
90,90,0,2046,2401
91,91,0,2047,2668
92,92,0,2047,2925
93,93,0,2047,3165
94,94,0,2047,3387
95,95,0,2047,3584
96,96,0,2047,3754
97,97,0,2046,3894
98,98,0,2047,4003
99,99,0,2047,4076
100,100,0,2047,4095
101,101,0,2047,4095
102,102,0,2047,4082
103,103,0,2047,4011
104,104,0,2046,3906
105,105,0,2046,3769
106,106,0,2046,3602
107,107,0,2047,3407
108,108,0,2047,3188
109,109,0,2047,2949
110,110,0,2047,2694
111,111,0,2046,2426
112,112,0,2047,2153
113,113,0,2046,1877
114,114,0,2046,1604
115,115,0,2046,1339
116,116,0,2046,1085
117,117,0,2046,847
118,118,0,2046,631
119,119,0,2046,440
120,120,0,2047,277
121,121,0,2047,145
122,122,0,2047,46
123,123,0,2047,0
124,124,0,2047,0
125,125,0,2047,0
126,126,0,2047,9
127,127,0,2047,89
128,128,0,2046,205
129,129,0,2047,352
130,130,0,2047,529
131,131,0,2046,732
132,132,0,2047,957
133,133,0,2047,1203
134,134,0,2047,1462
135,135,0,2046,1732
136,136,0,2046,2006
137,137,0,2047,2281
138,138,0,2047,2552
139,139,0,2046,2814
140,140,0,2046,3062
141,141,0,2047,3292
142,142,0,2047,3501
143,143,0,2047,3683
144,144,0,2047,3837
145,145,0,2047,3960
146,146,0,2047,4048
147,147,0,2047,4095
148,148,0,2047,4095
149,149,0,2046,4095
150,150,0,2047,4046
151,151,0,2046,3957
152,152,0,2047,3833
153,153,0,2047,3679
154,154,0,2047,3495
155,155,0,2047,3287
156,156,0,2046,3056
157,157,0,2047,2807
158,158,0,2047,2545
159,159,0,2046,2274
160,160,0,2047,1998
161,161,0,2047,1723
162,162,0,2046,1453
163,163,0,2047,1194
164,164,0,2046,949
165,165,0,2047,723
166,166,0,2047,520
167,167,0,2046,345
168,168,0,2047,198
169,169,0,2047,84
170,170,0,2046,5
171,171,0,2046,0
172,172,0,2046,0
173,173,0,2047,0
174,174,0,2047,49
175,175,0,2047,149
176,176,0,2047,283
177,177,0,2046,447
178,178,0,2046,640
179,179,0,2046,856
180,180,0,2046,1093
181,181,0,2046,1347
182,182,0,2046,1612
183,183,0,2047,1885
184,184,0,2047,2161
185,185,0,2047,2434
186,186,0,2046,2701
187,187,0,2047,2955
188,188,0,2046,3194
189,189,0,2046,3413
190,190,0,2046,3606
191,191,0,2046,3773
192,192,0,2046,3910
193,193,0,2046,4013
194,194,0,2047,4083
195,195,0,2047,4095
196,196,0,2046,4095
197,197,0,2047,4075
198,198,0,2046,4000
199,199,0,2046,3892
200,200,0,2046,3750
201,201,0,2047,3579
202,202,0,2047,3381
203,203,0,2046,3159
204,204,0,2046,2918
205,205,0,2047,2661
206,206,0,2047,2393
207,207,0,2047,2119
208,208,0,2046,1843
209,209,0,2047,1571
210,210,0,2047,1306
211,211,0,2046,1053
212,212,0,2046,819
213,213,0,2046,606
214,214,0,2046,418
215,215,0,2047,259
216,216,0,2047,130
217,217,0,2046,36
218,218,0,2046,0
219,219,0,2047,0
220,220,0,2046,0
221,221,0,2047,16
222,222,0,2046,102
223,223,0,2047,221
224,224,0,2046,372
225,225,0,2046,552
226,226,0,2046,758
227,227,0,2046,987
228,228,0,2047,1234
229,229,0,2047,1495
230,230,0,2046,1766
231,231,0,2046,2040
232,232,0,2046,2314
233,233,0,2047,2585
234,234,0,2047,2845
235,235,0,2047,3091
236,236,0,2046,3319
237,237,0,2047,3524
238,238,0,2046,3703
239,239,0,2046,3854
240,240,0,2046,3972
241,241,0,2047,4056
242,242,0,2046,4095
243,243,0,2047,4095
244,244,0,2046,4095
245,245,0,2046,4037
246,246,0,2046,3943
247,247,0,2046,3816
248,248,0,2046,3657
249,249,0,2046,3471
250,250,0,2046,3260
251,251,0,2047,3026
252,252,0,2046,2775
253,253,0,2047,2511
254,254,0,2047,2240
255,255,0,2047,1964
256,256,0,2047,1689
257,257,0,2046,1420
258,258,0,2047,1163
259,259,0,2047,921
260,260,0,2046,697
261,261,0,2046,497
262,262,0,2047,325
263,263,0,2047,183
264,264,0,2047,72
265,265,0,2046,0
266,266,0,2047,0
267,267,0,2047,0
268,268,0,2046,0
269,269,0,2046,60
270,270,0,2047,164
271,271,0,2046,302
272,272,0,2046,470
273,273,0,2046,665
274,274,0,2047,884
275,275,0,2046,1124
276,276,0,2047,1379
277,277,0,2046,1646
278,278,0,2046,1920
279,279,0,2047,2194
280,280,0,2047,2467
281,281,0,2046,2732
282,282,0,2047,2986
283,283,0,2047,3222
284,284,0,2047,3438
285,285,0,2047,3628
286,286,0,2047,3792
287,287,0,2047,3924
288,288,0,2047,4024
289,289,0,2047,4089
290,290,0,2047,4095
291,291,0,2047,4095
292,292,0,2047,4068
293,293,0,2047,3988
294,294,0,2047,3875
295,295,0,2046,3731
296,296,0,2046,3556
297,297,0,2046,3356
298,298,0,2046,3131
299,299,0,2047,2887
300,300,0,2046,2628
301,301,0,2046,2360
302,302,0,2047,2085
303,303,0,2046,1809
304,304,0,2047,1537
305,305,0,2046,1274
306,306,0,2046,1024
307,307,0,2047,792
308,308,0,2047,582
309,309,0,2047,397
310,310,0,2047,241
311,311,0,2047,117
312,312,0,2047,27
313,313,0,2046,0
314,314,0,2047,0
315,315,0,2046,0
316,316,0,2047,24
317,317,0,2046,115
318,318,0,2047,238
319,319,0,2046,393
320,320,0,2046,576
321,321,0,2046,786
322,322,0,2046,1017
323,323,0,2046,1265
324,324,0,2047,1527
325,325,0,2047,1799
326,326,0,2046,2074
327,327,0,2046,2348
328,328,0,2047,2617
329,329,0,2046,2876
330,330,0,2047,3121
331,331,0,2047,3345
332,332,0,2047,3547
333,333,0,2047,3724
334,334,0,2047,3871
335,335,0,2046,3984
336,336,0,2047,4065
337,337,0,2047,4095
338,338,0,2047,4095
339,339,0,2046,4091
340,340,0,2047,4027
341,341,0,2047,3930
342,342,0,2046,3798
343,343,0,2046,3637
344,344,0,2047,3446
345,345,0,2047,3232
346,346,0,2047,2996
347,347,0,2047,2744
348,348,0,2047,2479
349,349,0,2047,2206
350,350,0,2046,1930
351,351,0,2047,1656
352,352,0,2046,1388
353,353,0,2047,1132
354,354,0,2047,892
355,355,0,2046,671
356,356,0,2047,475
357,357,0,2047,306
358,358,0,2047,168
359,359,0,2047,62
360,360,0,2047,0
361,361,0,2047,0
362,362,0,2046,0
363,363,0,2046,0
364,364,0,2046,71
365,365,0,2046,180
366,366,0,2047,321
367,367,0,2047,492
368,368,0,2046,691
369,369,0,2046,913
370,370,0,2047,1154
371,371,0,2046,1411
372,372,0,2046,1680
373,373,0,2046,1953
374,374,0,2047,2228
375,375,0,2047,2501
376,376,0,2046,2764
377,377,0,2047,3016
378,378,0,2047,3250
379,379,0,2046,3463
380,380,0,2046,3650
381,381,0,2046,3810
382,382,0,2046,3938
383,383,0,2046,4034
384,384,0,2046,4095
385,385,0,2047,4095
386,386,0,2046,4095
387,387,0,2046,4060
388,388,0,2047,3976
389,389,0,2046,3860
390,390,0,2046,3711
391,391,0,2046,3533
392,392,0,2047,3329
393,393,0,2046,3101
394,394,0,2047,2855
395,395,0,2047,2596
396,396,0,2046,2326
397,397,0,2047,2051
398,398,0,2047,1776
399,399,0,2047,1505
400,400,0,2047,1242
401,401,0,2046,995
402,402,0,2046,765
403,403,0,2047,558
404,404,0,2047,376
405,405,0,2046,225
406,406,0,2047,104
407,407,0,2046,18
408,408,0,2047,0
409,409,0,2046,0
410,410,0,2046,0
411,411,0,2046,34
412,412,0,2046,128
413,413,0,2046,255
414,414,0,2046,415
415,415,0,2046,601
416,416,0,2046,813
417,417,0,2046,1046
418,418,0,2047,1297
419,419,0,2047,1560
420,420,0,2046,1833
421,421,0,2047,2108
422,422,0,2046,2382
423,423,0,2047,2650
424,424,0,2047,2906
425,425,0,2046,3149
426,426,0,2047,3372
427,427,0,2046,3571
428,428,0,2046,3743
429,429,0,2046,3886
430,430,0,2047,3996
431,431,0,2046,4073
432,432,0,2047,4095
433,433,0,2046,4095
434,434,0,2047,4085
435,435,0,2046,4017
436,436,0,2046,3915
437,437,0,2047,3780
438,438,0,2046,3615
439,439,0,2047,3421
440,440,0,2047,3204
441,441,0,2046,2966
442,442,0,2046,2712
443,443,0,2047,2446
444,444,0,2047,2172
445,445,0,2047,1896
446,446,0,2046,1622
447,447,0,2046,1356
448,448,0,2047,1101
449,449,0,2046,863
450,450,0,2046,645
451,451,0,2046,452
452,452,0,2047,287
453,453,0,2046,152
454,454,0,2047,51
455,455,0,2046,0
456,456,0,2047,0
457,457,0,2047,0
458,458,0,2047,3
459,459,0,2046,82
460,460,0,2047,195
461,461,0,2047,340
462,462,0,2046,515
463,463,0,2046,717
464,464,0,2046,941
465,465,0,2047,1185
466,466,0,2046,1443
467,467,0,2046,1713
468,468,0,2046,1988
469,469,0,2047,2262
470,470,0,2047,2534
471,471,0,2047,2796
472,472,0,2046,3045
473,473,0,2047,3276
474,474,0,2046,3487
475,475,0,2047,3672
476,476,0,2047,3827
477,477,0,2046,3952
478,478,0,2046,4043
479,479,0,2047,4095
480,480,0,2046,4095
481,481,0,2046,4095
482,482,0,2047,4051
483,483,0,2046,3963
484,484,0,2047,3843
485,485,0,2046,3691
486,486,0,2046,3509
487,487,0,2046,3301
488,488,0,2046,3072
489,489,0,2047,2824
490,490,0,2047,2563
491,491,0,2046,2292
492,492,0,2046,2016
493,493,0,2047,1742
494,494,0,2046,1472
495,495,0,2047,1211
496,496,0,2047,965
497,497,0,2046,738
498,498,0,2046,534
499,499,0,2046,356
500,500,0,2046,208
501,501,0,2046,91
502,502,0,2046,9
503,503,0,2046,0
504,504,0,2046,0
505,505,0,2045,0
506,506,0,2047,44
507,507,0,2047,141
508,508,0,2046,273
509,509,0,2047,435
510,510,0,2047,625
511,511,0,2046,840
512,512,0,2047,1076
513,513,0,2047,1329
514,514,0,2046,1593
515,515,0,2046,1866
516,516,0,2046,2141
517,517,0,2047,2415
518,518,0,2047,2682
519,519,0,2046,2937
520,520,0,2046,3177
521,521,0,2047,3398
522,522,0,2047,3594
523,523,0,2047,3763
524,524,0,2047,3902
525,525,0,2046,4007
526,526,0,2046,4079
527,527,0,2047,4095
528,528,0,2046,4095
529,529,0,2046,4079
530,530,0,2046,4006
531,531,0,2046,3900
532,532,0,2046,3761
533,533,0,2046,3592
534,534,0,2046,3395
535,535,0,2046,3175
536,536,0,2047,2935
537,537,0,2046,2679
538,538,0,2046,2412
539,539,0,2047,2137
540,540,0,2047,1862
541,541,0,2046,1589
542,542,0,2047,1324
543,543,0,2047,1071
544,544,0,2046,836
545,545,0,2046,620
546,546,0,2046,431
547,547,0,2046,268
548,548,0,2046,138
549,549,0,2046,41
550,550,0,2046,0
551,551,0,2046,0
552,552,0,2046,0
553,553,0,2046,12
554,554,0,2047,94
555,555,0,2046,212
556,556,0,2046,361
557,557,0,2046,539
558,558,0,2047,743
559,559,0,2047,970
560,560,0,2046,1217
561,561,0,2046,1477
562,562,0,2046,1747
563,563,0,2047,2021
564,564,0,2047,2296
565,565,0,2046,2566
566,566,0,2046,2828
567,567,0,2047,3075
568,568,0,2047,3303
569,569,0,2046,3511
570,570,0,2046,3692
571,571,0,2047,3844
572,572,0,2046,3965
573,573,0,2046,4051
574,574,0,2046,4095
575,575,0,2047,4095
576,576,0,2046,4095
577,577,0,2046,4042
578,578,0,2046,3951
579,579,0,2047,3826
580,580,0,2047,3669
581,581,0,2046,3485
582,582,0,2047,3275
583,583,0,2046,3043
584,584,0,2047,2793
585,585,0,2047,2530
586,586,0,2046,2258
587,587,0,2046,1984
588,588,0,2046,1708
589,589,0,2047,1440
590,590,0,2046,1180
591,591,0,2047,936
592,592,0,2046,712
593,593,0,2046,511
594,594,0,2047,336
595,595,0,2047,191
596,596,0,2047,79
597,597,0,2047,1
598,598,0,2046,0
599,599,0,2046,0
600,600,0,2046,0
601,601,0,2046,55
602,602,0,2047,156
603,603,0,2046,291
604,604,0,2047,457
605,605,0,2046,651
606,606,0,2046,868
607,607,0,2046,1106
608,608,0,2046,1361
609,609,0,2046,1627
610,610,0,2047,1900
611,611,0,2047,2176
612,612,0,2047,2448
613,613,0,2047,2714
614,614,0,2047,2969
615,615,0,2046,3206
616,616,0,2046,3423
617,617,0,2047,3615
618,618,0,2047,3781
619,619,0,2047,3917
620,620,0,2047,4018
621,621,0,2047,4086
622,622,0,2046,4095
623,623,0,2047,4095
624,624,0,2046,4072
625,625,0,2046,3995
626,626,0,2047,3885
627,627,0,2047,3742
628,628,0,2046,3569
629,629,0,2047,3370
630,630,0,2047,3147
631,631,0,2046,2904
632,632,0,2047,2646
633,633,0,2046,2378
634,634,0,2046,2104
635,635,0,2046,1828
636,636,0,2047,1556
637,637,0,2047,1292
638,638,0,2047,1041
639,639,0,2047,807
640,640,0,2046,595
641,641,0,2046,409
642,642,0,2047,251
643,643,0,2047,124
644,644,0,2046,32
645,645,0,2047,0
646,646,0,2047,0
647,647,0,2046,0
648,648,0,2046,20
649,649,0,2046,107
650,650,0,2046,229
651,651,0,2046,381
652,652,0,2047,563
653,653,0,2047,771
654,654,0,2047,999
655,655,0,2047,1248
656,656,0,2046,1509
657,657,0,2047,1780
658,658,0,2047,2055
659,659,0,2046,2330
660,660,0,2046,2599
661,661,0,2047,2858
662,662,0,2046,3105
663,663,0,2047,3331
664,664,0,2046,3534
665,665,0,2047,3712
666,666,0,2047,3861
667,667,0,2046,3978
668,668,0,2047,4060
669,669,0,2046,4095
670,670,0,2046,4095
671,671,0,2046,4094
672,672,0,2046,4033
673,673,0,2047,3938
674,674,0,2046,3808
675,675,0,2046,3648
676,676,0,2046,3460
677,677,0,2046,3248
678,678,0,2047,3013
679,679,0,2047,2762
680,680,0,2046,2498
681,681,0,2047,2225
682,682,0,2047,1949
683,683,0,2047,1675
684,684,0,2047,1407
685,685,0,2047,1150
686,686,0,2047,908
687,687,0,2047,686
688,688,0,2047,487
689,689,0,2047,317
690,690,0,2046,176
691,691,0,2046,68
692,692,0,2047,0
693,693,0,2046,0
694,694,0,2046,0
695,695,0,2047,0
696,696,0,2047,65
697,697,0,2046,171
698,698,0,2046,310
699,699,0,2047,480
700,700,0,2046,676
701,701,0,2046,896
702,702,0,2046,1137
703,703,0,2047,1393
704,704,0,2046,1661
705,705,0,2047,1935
706,706,0,2046,2210
707,707,0,2046,2482
708,708,0,2046,2746
709,709,0,2047,2999
710,710,0,2046,3234
711,711,0,2047,3448
712,712,0,2047,3638
713,713,0,2047,3800
714,714,0,2046,3931
715,715,0,2047,4028
716,716,0,2047,4091
717,717,0,2046,4095
718,718,0,2047,4095
719,719,0,2047,4064
720,720,0,2047,3983
721,721,0,2046,3869
722,722,0,2046,3722
723,723,0,2046,3546
724,724,0,2047,3343
725,725,0,2047,3118
726,726,0,2046,2873
727,727,0,2047,2615
728,728,0,2046,2345
729,729,0,2047,2070
730,730,0,2046,1794
731,731,0,2047,1523
732,732,0,2046,1260
733,733,0,2047,1011
734,734,0,2046,780
735,735,0,2046,571
736,736,0,2047,388
737,737,0,2046,234
738,738,0,2047,112
739,739,0,2047,23
740,740,0,2047,0
741,741,0,2046,0
742,742,0,2046,0
743,743,0,2046,29
744,744,0,2047,120
745,745,0,2047,246
746,746,0,2046,402
747,747,0,2046,588
748,748,0,2047,798
749,749,0,2046,1030
750,750,0,2047,1280
751,751,0,2046,1542
752,752,0,2046,1813
753,753,0,2047,2089
754,754,0,2046,2363
755,755,0,2047,2632
756,756,0,2047,2889
757,757,0,2046,3133
758,758,0,2046,3357
759,759,0,2047,3558
760,760,0,2046,3732
761,761,0,2046,3877
762,762,0,2046,3990
763,763,0,2047,4068
764,764,0,2046,4095
765,765,0,2046,4095
766,766,0,2046,4088
767,767,0,2046,4023
768,768,0,2046,3923
769,769,0,2047,3791
770,770,0,2047,3627
771,771,0,2047,3436
772,772,0,2046,3220
773,773,0,2046,2983
774,774,0,2047,2730
775,775,0,2046,2463
776,776,0,2048,2191
777,777,0,2047,1916
778,778,0,2046,1642
779,779,0,2047,1374
780,780,0,2047,1118
781,781,0,2047,879
782,782,0,2046,660
783,783,0,2046,465
784,784,0,2047,297
785,785,0,2046,161
786,786,0,2046,58
787,787,0,2047,0
788,788,0,2047,0
789,789,0,2047,0
790,790,0,2046,0
791,791,0,2046,76
792,792,0,2046,186
793,793,0,2046,329
794,794,0,2046,502
795,795,0,2047,702
796,796,0,2047,925
797,797,0,2046,1168
798,798,0,2046,1426
799,799,0,2046,1695
800,800,0,2047,1968
801,801,0,2047,2243
802,802,0,2047,2515
803,803,0,2047,2779
804,804,0,2046,3029
805,805,0,2046,3261
806,806,0,2047,3473
807,807,0,2046,3659
808,808,0,2047,3817
809,809,0,2046,3944
810,810,0,2047,4038
811,811,0,2046,4095
812,812,0,2047,4095
813,813,0,2047,4095
814,814,0,2046,4056
815,815,0,2046,3971
816,816,0,2047,3851
817,817,0,2046,3702
818,818,0,2046,3522
819,819,0,2046,3317
820,820,0,2048,3089
821,821,0,2047,2842
822,822,0,2046,2582
823,823,0,2046,2311
824,824,0,2047,2036
825,825,0,2047,1760
826,826,0,2046,1490
827,827,0,2047,1229
828,828,0,2047,982
829,829,0,2047,754
830,830,0,2047,547
831,831,0,2047,368
832,832,0,2047,217
833,833,0,2046,98
834,834,0,2047,14
835,835,0,2046,0
836,836,0,2046,0
837,837,0,2047,0
838,838,0,2046,38
839,839,0,2047,134
840,840,0,2047,264
841,841,0,2047,423
842,842,0,2047,611
843,843,0,2047,824
844,844,0,2046,1059
845,845,0,2046,1311
846,846,0,2047,1575
847,847,0,2046,1847
848,848,0,2047,2123
849,849,0,2046,2396
850,850,0,2046,2664
851,851,0,2047,2920
852,852,0,2047,3162
853,853,0,2047,3383
854,854,0,2046,3581
855,855,0,2047,3751
856,856,0,2046,3893
857,857,0,2046,4001
858,858,0,2046,4076
859,859,0,2047,4095
860,860,0,2046,4095
861,861,0,2046,4083
862,862,0,2047,4012
863,863,0,2046,3908
864,864,0,2046,3772
865,865,0,2046,3605
866,866,0,2046,3410
867,867,0,2046,3192
868,868,0,2047,2953
869,869,0,2046,2698
870,870,0,2047,2430
871,871,0,2046,2157
872,872,0,2046,1881
873,873,0,2047,1607
874,874,0,2047,1341
875,875,0,2047,1088
876,876,0,2046,851
877,877,0,2046,634
878,878,0,2046,443
879,879,0,2046,279
880,880,0,2046,146
881,881,0,2046,47
882,882,0,2047,0
883,883,0,2046,0
884,884,0,2046,0
885,885,0,2047,7
886,886,0,2046,88
887,887,0,2047,202
888,888,0,2047,349
889,889,0,2047,526
890,890,0,2046,728
891,891,0,2047,954
892,892,0,2047,1199
893,893,0,2047,1458
894,894,0,2047,1727
895,895,0,2046,2001
896,896,0,2047,2277
897,897,0,2047,2548
898,898,0,2047,2810
899,899,0,2046,3058
900,900,0,2047,3289
901,901,0,2047,3497
902,902,0,2046,3681
903,903,0,2046,3835
904,904,0,2046,3958
905,905,0,2047,4047
906,906,0,2047,4095
907,907,0,2047,4095
908,908,0,2046,4095
909,909,0,2047,4047
910,910,0,2047,3958
911,911,0,2046,3835
912,912,0,2046,3681
913,913,0,2047,3499
914,914,0,2046,3290
915,915,0,2046,3059
916,916,0,2046,2811
917,917,0,2046,2549
918,918,0,2046,2278
919,919,0,2047,2002
920,920,0,2047,1727
921,921,0,2047,1457
922,922,0,2046,1197
923,923,0,2047,953
924,924,0,2046,726
925,925,0,2046,523
926,926,0,2046,347
927,927,0,2046,200
928,928,0,2046,85
929,929,0,2046,6
930,930,0,2046,0
931,931,0,2047,0
932,932,0,2046,0
933,933,0,2046,48
934,934,0,2046,148
935,935,0,2047,281
936,936,0,2047,445
937,937,0,2047,636
938,938,0,2047,852
939,939,0,2047,1089
940,940,0,2047,1343
941,941,0,2047,1609
942,942,0,2047,1882
943,943,0,2047,2157
944,944,0,2046,2430
945,945,0,2047,2696
946,946,0,2046,2952
947,947,0,2047,3190
948,948,0,2047,3409
949,949,0,2047,3604
950,950,0,2047,3771
951,951,0,2046,3909
952,952,0,2047,4012
953,953,0,2047,4083
954,954,0,2046,4095
955,955,0,2047,4095
956,956,0,2046,4076
957,957,0,2047,4002
958,958,0,2047,3893
959,959,0,2047,3753
960,960,0,2046,3583
961,961,0,2046,3385
962,962,0,2046,3163
963,963,0,2047,2922
964,964,0,2046,2665
965,965,0,2047,2397
966,966,0,2047,2123
967,967,0,2046,1848
968,968,0,2046,1575
969,969,0,2047,1310
970,970,0,2046,1058
971,971,0,2046,823
972,972,0,2047,609
973,973,0,2046,421
974,974,0,2046,261
975,975,0,2047,132
976,976,0,2046,37
977,977,0,2047,0
978,978,0,2046,0
979,979,0,2046,0
980,980,0,2047,16
981,981,0,2046,100
982,982,0,2046,219
983,983,0,2046,369
984,984,0,2047,549
985,985,0,2047,756
986,986,0,2046,983
987,987,0,2047,1230
988,988,0,2046,1491
989,989,0,2046,1761
990,990,0,2046,2036
991,991,0,2046,2311
992,992,0,2047,2581
993,993,0,2046,2842
994,994,0,2047,3088
995,995,0,2046,3315
996,996,0,2047,3522
997,997,0,2047,3701
998,998,0,2046,3852
999,999,0,2047,3971
1000,1000,0,2046,4056
1001,1001,0,2047,4095
1002,1002,0,2047,4095
1003,1003,0,2046,4095
1004,1004,0,2047,4038
1005,1005,0,2047,3945
1006,1006,0,2047,3818
1007,1007,0,2047,3661
1008,1008,0,2046,3475
1009,1009,0,2046,3263
1010,1010,0,2047,3030
1011,1011,0,2046,2779
1012,1012,0,2047,2516
1013,1013,0,2047,2244
1014,1014,0,2047,1968
1015,1015,0,2047,1693
1016,1016,0,2046,1425
1017,1017,0,2046,1166
1018,1018,0,2046,924
1019,1019,0,2046,700
1020,1020,0,2047,500
1021,1021,0,2047,327
1022,1022,0,2046,184
1023,1023,0,2047,74
1024,1024,0,2047,0
1025,1025,0,2046,0
1026,1026,0,2046,0
1027,1027,0,2046,0
1028,1028,0,2047,59
1029,1029,0,2046,162
1030,1030,0,2046,300
