Sample in Buffer,Sample in Window,TRIGGER,adc1_data_a_d0[11:0],adc1_data_b_d0[11:0]
0,0,0,2047,2665
1,1,0,2046,3805
2,2,0,2046,3988
3,3,0,2047,3113
4,4,0,2046,1656
5,5,0,2046,407
6,6,0,2046,43
7,7,0,2046,758
8,8,0,2046,2170
9,9,0,2046,3508
10,10,0,2046,4053
11,11,0,2046,3503
12,12,0,2046,2160
13,13,0,2046,752
14,14,0,2046,40
15,15,0,2046,412
16,16,0,2046,1665
17,17,0,2046,3121
18,18,0,2047,3991
19,19,0,2046,3801
20,20,0,2046,2655
21,21,0,2046,1177
22,22,0,2046,165
23,23,0,2046,169
24,24,0,2046,1185
25,25,0,2046,2664
26,26,0,2047,3805
27,27,0,2046,3988
28,28,0,2046,3113
29,29,0,2046,1656
30,30,0,2047,408
31,31,0,2046,42
32,32,0,2046,758
33,33,0,2047,2169
34,34,0,2046,3509
35,35,0,2047,4052
36,36,0,2046,3503
37,37,0,2046,2160
38,38,0,2046,752
39,39,0,2046,41
40,40,0,2046,413
41,41,0,2046,1665
42,42,0,2046,3121
43,43,0,2046,3990
44,44,0,2046,3800
45,45,0,2047,2656
46,46,0,2047,1177
47,47,0,2047,165
48,48,0,2047,168
49,49,0,2047,1184
50,50,0,2047,2664
51,51,0,2046,3805
52,52,0,2046,3988
53,53,0,2046,3113
54,54,0,2046,1656
55,55,0,2047,408
56,56,0,2046,42
57,57,0,2047,758
58,58,0,2047,2169
59,59,0,2046,3508
60,60,0,2046,4052
61,61,0,2046,3503
62,62,0,2047,2160
63,63,0,2046,752
64,64,0,2046,41
65,65,0,2046,413
66,66,0,2046,1665
67,67,0,2046,3121
68,68,0,2046,3990
69,69,0,2047,3801
70,70,0,2046,2656
71,71,0,2046,1177
72,72,0,2047,166
73,73,0,2046,169
74,74,0,2046,1185
75,75,0,2046,2664
76,76,0,2047,3805
77,77,0,2046,3988
78,78,0,2046,3113
79,79,0,2046,1656
80,80,0,2046,407
81,81,0,2046,42
82,82,0,2047,759
83,83,0,2047,2168
84,84,0,2047,3509
85,85,0,2047,4053
86,86,0,2046,3504
87,87,0,2046,2160
88,88,0,2047,752
89,89,0,2046,41
90,90,0,2047,412
91,91,0,2047,1665
92,92,0,2047,3121
93,93,0,2047,3991
94,94,0,2046,3802
95,95,0,2046,2657
96,96,0,2046,1177
97,97,0,2046,165
98,98,0,2046,169
99,99,0,2046,1184
100,100,0,2047,2664
101,101,0,2046,3805
102,102,0,2047,3988
103,103,0,2046,3113
104,104,0,2046,1657
105,105,0,2046,408
106,106,0,2046,42
107,107,0,2047,758
108,108,0,2046,2168
109,109,0,2047,3508
110,110,0,2046,4053
111,111,0,2046,3504
112,112,0,2046,2160
113,113,0,2046,752
114,114,0,2046,41
115,115,0,2046,413
116,116,0,2046,1665
117,117,0,2046,3121
118,118,0,2047,3990
119,119,0,2046,3801
120,120,0,2046,2657
121,121,0,2046,1177
122,122,0,2046,166
123,123,0,2046,168
124,124,0,2046,1184
125,125,0,2046,2664
126,126,0,2047,3804
127,127,0,2047,3988
128,128,0,2046,3114
129,129,0,2046,1657
130,130,0,2046,408
131,131,0,2047,42
132,132,0,2047,758
133,133,0,2046,2169
134,134,0,2046,3508
135,135,0,2047,4053
136,136,0,2047,3504
137,137,0,2046,2161
138,138,0,2047,752
139,139,0,2046,40
140,140,0,2046,412
141,141,0,2047,1665
142,142,0,2046,3121
143,143,0,2046,3990
144,144,0,2046,3801
145,145,0,2046,2656
146,146,0,2046,1178
147,147,0,2046,166
148,148,0,2046,168
149,149,0,2046,1184
150,150,0,2047,2664
151,151,0,2045,3805
152,152,0,2047,3988
153,153,0,2046,3114
154,154,0,2047,1657
155,155,0,2046,408
156,156,0,2047,42
157,157,0,2046,758
158,158,0,2047,2168
159,159,0,2046,3508
160,160,0,2047,4053
161,161,0,2047,3503
162,162,0,2046,2161
163,163,0,2046,753
164,164,0,2047,41
165,165,0,2047,413
166,166,0,2046,1664
167,167,0,2046,3120
168,168,0,2047,3990
169,169,0,2047,3800
170,170,0,2046,2657
171,171,0,2046,1178
172,172,0,2046,166
173,173,0,2047,168
174,174,0,2046,1184
175,175,0,2046,2665
176,176,0,2047,3806
177,177,0,2046,3989
178,178,0,2047,3114
179,179,0,2046,1657
180,180,0,2046,408
181,181,0,2047,42
182,182,0,2046,758
183,183,0,2046,2168
184,184,0,2046,3508
185,185,0,2046,4053
186,186,0,2046,3504
187,187,0,2046,2161
188,188,0,2046,753
189,189,0,2047,41
190,190,0,2046,412
191,191,0,2046,1664
192,192,0,2046,3120
193,193,0,2046,3990
194,194,0,2046,3801
195,195,0,2047,2657
196,196,0,2046,1178
197,197,0,2046,166
198,198,0,2046,168
199,199,0,2047,1184
200,200,0,2046,2664
201,201,0,2046,3804
202,202,0,2047,3988
203,203,0,2047,3114
204,204,0,2046,1657
205,205,0,2046,408
206,206,0,2046,42
207,207,0,2046,758
208,208,0,2046,2168
209,209,0,2046,3509
210,210,0,2047,4052
211,211,0,2046,3504
212,212,0,2046,2160
213,213,0,2047,752
214,214,0,2046,41
215,215,0,2046,412
216,216,0,2047,1664
217,217,0,2047,3120
218,218,0,2046,3990
219,219,0,2046,3802
220,220,0,2047,2657
221,221,0,2046,1178
222,222,0,2046,166
223,223,0,2047,167
224,224,0,2046,1184
225,225,0,2046,2663
226,226,0,2046,3805
227,227,0,2047,3989
228,228,0,2046,3114
229,229,0,2046,1658
230,230,0,2047,408
231,231,0,2046,42
232,232,0,2047,758
233,233,0,2046,2167
234,234,0,2046,3508
235,235,0,2047,4052
236,236,0,2047,3504
237,237,0,2046,2161
238,238,0,2046,753
239,239,0,2046,41
240,240,0,2047,411
241,241,0,2047,1664
242,242,0,2047,3120
243,243,0,2047,3990
244,244,0,2046,3802
245,245,0,2047,2657
246,246,0,2047,1178
247,247,0,2046,166
248,248,0,2046,168
249,249,0,2046,1184
250,250,0,2047,2663
251,251,0,2047,3804
252,252,0,2047,3989
253,253,0,2046,3115
254,254,0,2046,1657
255,255,0,2047,408
256,256,0,2047,43
257,257,0,2046,757
258,258,0,2046,2167
259,259,0,2047,3508
260,260,0,2046,4053
261,261,0,2047,3505
262,262,0,2046,2162
263,263,0,2047,753
264,264,0,2046,41
265,265,0,2046,411
266,266,0,2046,1665
267,267,0,2047,3120
268,268,0,2046,3990
269,269,0,2046,3801
270,270,0,2046,2657
271,271,0,2047,1178
272,272,0,2046,166
273,273,0,2046,168
274,274,0,2047,1184
275,275,0,2046,2664
276,276,0,2046,3804
277,277,0,2047,3989
278,278,0,2046,3114
279,279,0,2046,1657
280,280,0,2046,408
281,281,0,2046,42
282,282,0,2047,757
283,283,0,2046,2168
284,284,0,2046,3508
285,285,0,2046,4052
286,286,0,2046,3504
287,287,0,2047,2162
288,288,0,2047,752
289,289,0,2046,41
290,290,0,2047,412
291,291,0,2047,1664
292,292,0,2046,3119
293,293,0,2046,3990
294,294,0,2046,3802
295,295,0,2046,2657
296,296,0,2047,1179
297,297,0,2046,166
298,298,0,2047,168
299,299,0,2046,1184
300,300,0,2047,2663
301,301,0,2047,3805
302,302,0,2047,3988
303,303,0,2047,3115
304,304,0,2046,1658
305,305,0,2047,408
306,306,0,2046,42
307,307,0,2046,757
308,308,0,2046,2167
309,309,0,2047,3507
310,310,0,2046,4053
311,311,0,2047,3504
312,312,0,2047,2162
313,313,0,2046,753
314,314,0,2046,41
315,315,0,2046,412
316,316,0,2046,1664
317,317,0,2046,3120
318,318,0,2047,3990
319,319,0,2046,3802
320,320,0,2046,2658
321,321,0,2046,1179
322,322,0,2046,166
323,323,0,2046,168
324,324,0,2046,1183
325,325,0,2047,2663
326,326,0,2046,3804
327,327,0,2047,3989
328,328,0,2047,3115
329,329,0,2046,1657
330,330,0,2046,409
331,331,0,2046,43
332,332,0,2047,757
333,333,0,2047,2167
334,334,0,2046,3508
335,335,0,2046,4052
336,336,0,2046,3505
337,337,0,2046,2162
338,338,0,2047,753
339,339,0,2046,41
340,340,0,2046,411
341,341,0,2046,1664
342,342,0,2046,3120
343,343,0,2046,3989
344,344,0,2046,3802
345,345,0,2046,2658
346,346,0,2047,1178
347,347,0,2047,166
348,348,0,2046,168
349,349,0,2046,1184
350,350,0,2047,2662
351,351,0,2046,3805
352,352,0,2046,3989
353,353,0,2046,3115
354,354,0,2046,1658
355,355,0,2047,408
356,356,0,2046,42
357,357,0,2047,757
358,358,0,2046,2167
359,359,0,2046,3508
360,360,0,2046,4052
361,361,0,2046,3505
362,362,0,2046,2162
363,363,0,2046,754
364,364,0,2047,41
365,365,0,2046,411
366,366,0,2046,1664
367,367,0,2047,3119
368,368,0,2046,3990
369,369,0,2046,3802
370,370,0,2046,2658
371,371,0,2046,1179
372,372,0,2046,166
373,373,0,2046,168
374,374,0,2046,1184
375,375,0,2047,2663
376,376,0,2047,3804
377,377,0,2046,3989
378,378,0,2046,3115
379,379,0,2047,1659
380,380,0,2046,409
381,381,0,2046,43
382,382,0,2046,757
383,383,0,2047,2167
384,384,0,2046,3508
385,385,0,2047,4052
386,386,0,2047,3504
387,387,0,2047,2162
388,388,0,2046,754
389,389,0,2046,41
390,390,0,2046,411
391,391,0,2046,1663
392,392,0,2046,3119
393,393,0,2046,3990
394,394,0,2047,3803
395,395,0,2046,2658
396,396,0,2046,1179
397,397,0,2046,166
398,398,0,2047,167
399,399,0,2047,1184
400,400,0,2047,2663
401,401,0,2046,3804
402,402,0,2047,3989
403,403,0,2046,3115
404,404,0,2046,1658
405,405,0,2047,408
406,406,0,2046,42
407,407,0,2046,757
408,408,0,2046,2167
409,409,0,2047,3508
410,410,0,2047,4053
411,411,0,2046,3505
412,412,0,2047,2162
413,413,0,2047,753
414,414,0,2047,41
415,415,0,2047,411
416,416,0,2047,1663
417,417,0,2047,3119
418,418,0,2047,3988
419,419,0,2046,3802
420,420,0,2046,2658
421,421,0,2047,1179
422,422,0,2047,166
423,423,0,2046,168
424,424,0,2047,1183
425,425,0,2046,2662
426,426,0,2046,3804
427,427,0,2046,3989
428,428,0,2046,3115
429,429,0,2047,1659
430,430,0,2047,408
431,431,0,2047,42
432,432,0,2046,757
433,433,0,2046,2167
434,434,0,2046,3507
435,435,0,2047,4053
436,436,0,2047,3505
437,437,0,2046,2162
438,438,0,2046,753
439,439,0,2046,41
440,440,0,2047,411
441,441,0,2046,1663
442,442,0,2046,3119
443,443,0,2047,3990
444,444,0,2047,3802
445,445,0,2046,2658
446,446,0,2046,1179
447,447,0,2047,167
448,448,0,2047,168
449,449,0,2046,1183
450,450,0,2047,2663
451,451,0,2046,3805
452,452,0,2047,3989
453,453,0,2046,3115
454,454,0,2046,1659
455,455,0,2047,409
456,456,0,2047,42
457,457,0,2046,756
458,458,0,2046,2166
459,459,0,2046,3507
460,460,0,2046,4053
461,461,0,2046,3505
462,462,0,2046,2163
463,463,0,2046,754
464,464,0,2047,41
465,465,0,2046,411
466,466,0,2047,1663
467,467,0,2047,3119
468,468,0,2047,3990
469,469,0,2047,3802
470,470,0,2046,2658
471,471,0,2047,1179
472,472,0,2046,166
473,473,0,2047,168
474,474,0,2047,1183
475,475,0,2046,2662
476,476,0,2046,3804
477,477,0,2046,3988
478,478,0,2047,3115
479,479,0,2047,1659
480,480,0,2047,410
481,481,0,2047,42
482,482,0,2046,756
483,483,0,2047,2167
484,484,0,2046,3507
485,485,0,2046,4053
486,486,0,2047,3505
487,487,0,2047,2163
488,488,0,2046,753
489,489,0,2046,42
490,490,0,2047,411
491,491,0,2046,1663
492,492,0,2046,3119
493,493,0,2046,3989
494,494,0,2046,3803
495,495,0,2047,2658
496,496,0,2046,1179
497,497,0,2045,166
498,498,0,2046,167
499,499,0,2046,1183
500,500,0,2046,2662
501,501,0,2046,3804
502,502,0,2046,3989
503,503,0,2046,3115
504,504,0,2047,1659
505,505,0,2047,409
506,506,0,2046,42
507,507,0,2046,756
508,508,0,2047,2166
509,509,0,2046,3507
510,510,0,2046,4052
511,511,0,2046,3505
512,512,0,2046,2163
513,513,0,2046,754
514,514,0,2046,42
515,515,0,2046,411
516,516,0,2046,1663
517,517,0,2046,3119
518,518,0,2046,3989
519,519,0,2046,3802
520,520,0,2046,2658
521,521,0,2046,1179
522,522,0,2046,167
523,523,0,2047,167
524,524,0,2046,1182
525,525,0,2046,2662
526,526,0,2047,3803
527,527,0,2046,3989
528,528,0,2047,3115
529,529,0,2046,1659
530,530,0,2046,409
531,531,0,2046,42
532,532,0,2047,757
533,533,0,2046,2167
534,534,0,2047,3507
535,535,0,2046,4053
536,536,0,2047,3505
537,537,0,2047,2162
538,538,0,2046,753
539,539,0,2046,41
540,540,0,2046,411
541,541,0,2047,1662
542,542,0,2047,3118
543,543,0,2046,3990
544,544,0,2047,3803
545,545,0,2047,2659
546,546,0,2046,1180
547,547,0,2046,166
548,548,0,2046,168
549,549,0,2047,1183
550,550,0,2046,2662
551,551,0,2046,3804
552,552,0,2046,3989
553,553,0,2047,3116
554,554,0,2046,1659
555,555,0,2046,409
556,556,0,2046,41
557,557,0,2046,757
558,558,0,2047,2166
559,559,0,2046,3506
560,560,0,2046,4052
561,561,0,2046,3505
562,562,0,2046,2163
563,563,0,2046,753
564,564,0,2047,41
565,565,0,2047,411
566,566,0,2047,1663
567,567,0,2047,3118
568,568,0,2047,3990
569,569,0,2047,3802
570,570,0,2046,2658
571,571,0,2047,1179
572,572,0,2047,167
573,573,0,2046,167
574,574,0,2046,1182
575,575,0,2046,2663
576,576,0,2047,3804
577,577,0,2046,3989
578,578,0,2047,3115
579,579,0,2046,1659
580,580,0,2046,409
581,581,0,2046,42
582,582,0,2047,756
583,583,0,2047,2166
584,584,0,2047,3507
585,585,0,2047,4052
586,586,0,2046,3505
587,587,0,2046,2164
588,588,0,2046,754
589,589,0,2046,42
590,590,0,2047,411
591,591,0,2047,1663
592,592,0,2046,3119
593,593,0,2047,3989
594,594,0,2047,3803
595,595,0,2047,2659
596,596,0,2047,1180
597,597,0,2047,166
598,598,0,2047,167
599,599,0,2046,1182
600,600,0,2047,2662
601,601,0,2046,3803
602,602,0,2046,3990
603,603,0,2047,3115
604,604,0,2047,1659
605,605,0,2046,408
606,606,0,2046,42
607,607,0,2046,756
608,608,0,2047,2166
609,609,0,2046,3506
610,610,0,2046,4053
611,611,0,2047,3506
612,612,0,2047,2162
613,613,0,2046,754
614,614,0,2046,42
615,615,0,2046,411
616,616,0,2046,1662
617,617,0,2047,3118
618,618,0,2046,3989
619,619,0,2046,3803
620,620,0,2047,2659
621,621,0,2046,1180
622,622,0,2046,167
623,623,0,2046,168
624,624,0,2046,1183
625,625,0,2047,2662
626,626,0,2046,3804
627,627,0,2047,3989
628,628,0,2047,3115
629,629,0,2046,1659
630,630,0,2046,409
631,631,0,2046,41
632,632,0,2047,756
633,633,0,2047,2166
634,634,0,2047,3507
635,635,0,2047,4052
636,636,0,2046,3505
637,637,0,2046,2163
638,638,0,2047,754
639,639,0,2046,41
640,640,0,2046,411
641,641,0,2046,1662
642,642,0,2047,3118
643,643,0,2046,3989
644,644,0,2047,3803
645,645,0,2047,2658
646,646,0,2046,1179
647,647,0,2047,166
648,648,0,2046,167
649,649,0,2047,1182
650,650,0,2046,2662
651,651,0,2046,3804
652,652,0,2046,3989
653,653,0,2047,3116
654,654,0,2046,1659
655,655,0,2047,409
656,656,0,2046,42
657,657,0,2047,756
658,658,0,2047,2165
659,659,0,2046,3507
660,660,0,2047,4053
661,661,0,2046,3505
662,662,0,2046,2164
663,663,0,2047,754
664,664,0,2046,41
665,665,0,2046,411
666,666,0,2046,1662
667,667,0,2047,3118
668,668,0,2046,3989
669,669,0,2047,3802
670,670,0,2046,2659
671,671,0,2046,1180
672,672,0,2046,166
673,673,0,2046,168
674,674,0,2046,1183
675,675,0,2046,2662
676,676,0,2047,3804
677,677,0,2047,3989
678,678,0,2046,3116
679,679,0,2047,1660
680,680,0,2046,409
681,681,0,2047,42
682,682,0,2046,756
683,683,0,2046,2165
684,684,0,2046,3507
685,685,0,2046,4053
686,686,0,2047,3505
687,687,0,2046,2163
688,688,0,2046,754
689,689,0,2046,41
690,690,0,2047,411
691,691,0,2046,1662
692,692,0,2046,3119
693,693,0,2046,3990
694,694,0,2046,3803
695,695,0,2047,2659
696,696,0,2046,1180
697,697,0,2046,167
698,698,0,2047,167
699,699,0,2047,1182
700,700,0,2046,2661
701,701,0,2046,3804
702,702,0,2047,3989
703,703,0,2046,3116
704,704,0,2046,1659
705,705,0,2046,409
706,706,0,2047,42
707,707,0,2047,756
708,708,0,2047,2166
709,709,0,2046,3507
710,710,0,2047,4052
711,711,0,2046,3505
712,712,0,2046,2164
713,713,0,2046,755
714,714,0,2046,41
715,715,0,2046,410
716,716,0,2046,1663
717,717,0,2047,3118
718,718,0,2047,3990
719,719,0,2047,3802
720,720,0,2046,2659
721,721,0,2046,1179
722,722,0,2047,167
723,723,0,2047,167
724,724,0,2046,1182
725,725,0,2047,2662
726,726,0,2046,3804
727,727,0,2045,3988
728,728,0,2046,3116
729,729,0,2046,1660
730,730,0,2047,409
731,731,0,2046,42
732,732,0,2046,756
733,733,0,2046,2166
734,734,0,2046,3506
735,735,0,2047,4053
736,736,0,2047,3505
737,737,0,2046,2163
738,738,0,2047,754
739,739,0,2046,41
740,740,0,2047,410
741,741,0,2047,1662
742,742,0,2046,3118
743,743,0,2047,3989
744,744,0,2046,3803
745,745,0,2047,2660
746,746,0,2046,1180
747,747,0,2046,167
748,748,0,2047,167
749,749,0,2046,1182
750,750,0,2046,2661
751,751,0,2046,3804
752,752,0,2047,3989
753,753,0,2047,3117
754,754,0,2046,1660
755,755,0,2046,410
756,756,0,2046,42
757,757,0,2046,756
758,758,0,2046,2165
759,759,0,2046,3507
760,760,0,2046,4053
761,761,0,2046,3506
762,762,0,2046,2164
763,763,0,2047,754
764,764,0,2046,42
765,765,0,2046,410
766,766,0,2046,1662
767,767,0,2046,3118
768,768,0,2047,3990
769,769,0,2046,3803
770,770,0,2047,2659
771,771,0,2046,1180
772,772,0,2046,167
773,773,0,2046,167
774,774,0,2046,1182
775,775,0,2046,2661
776,776,0,2047,3803
777,777,0,2046,3989
778,778,0,2046,3116
779,779,0,2046,1659
780,780,0,2046,409
781,781,0,2047,41
782,782,0,2046,756
783,783,0,2047,2165
784,784,0,2047,3507
785,785,0,2047,4053
786,786,0,2046,3505
787,787,0,2047,2163
788,788,0,2046,754
789,789,0,2047,41
790,790,0,2046,411
791,791,0,2046,1662
792,792,0,2047,3118
793,793,0,2047,3990
794,794,0,2047,3803
795,795,0,2046,2660
796,796,0,2046,1180
797,797,0,2047,166
798,798,0,2046,168
799,799,0,2046,1182
800,800,0,2047,2662
801,801,0,2047,3804
802,802,0,2047,3989
803,803,0,2046,3116
804,804,0,2047,1660
805,805,0,2046,409
806,806,0,2046,41
807,807,0,2046,756
808,808,0,2047,2165
809,809,0,2047,3507
810,810,0,2046,4053
811,811,0,2046,3506
812,812,0,2046,2163
813,813,0,2046,754
814,814,0,2046,41
815,815,0,2046,411
816,816,0,2046,1662
817,817,0,2046,3118
818,818,0,2047,3989
819,819,0,2046,3803
820,820,0,2046,2659
821,821,0,2046,1180
822,822,0,2046,167
823,823,0,2046,167
824,824,0,2047,1182
825,825,0,2046,2661
826,826,0,2046,3803
827,827,0,2047,3989
828,828,0,2046,3117
829,829,0,2047,1660
830,830,0,2046,409
831,831,0,2046,42
832,832,0,2047,756
833,833,0,2047,2166
834,834,0,2046,3507
835,835,0,2047,4053
836,836,0,2047,3507
837,837,0,2047,2165
838,838,0,2046,754
839,839,0,2046,42
840,840,0,2046,411
841,841,0,2046,1661
842,842,0,2046,3118
843,843,0,2047,3989
844,844,0,2047,3803
845,845,0,2046,2659
846,846,0,2046,1180
847,847,0,2046,166
848,848,0,2046,167
849,849,0,2046,1181
850,850,0,2046,2661
851,851,0,2047,3803
852,852,0,2047,3989
853,853,0,2046,3116
854,854,0,2046,1660
855,855,0,2047,410
856,856,0,2046,42
857,857,0,2047,756
858,858,0,2047,2165
859,859,0,2047,3506
860,860,0,2047,4053
861,861,0,2047,3505
862,862,0,2046,2164
863,863,0,2046,754
864,864,0,2046,41
865,865,0,2046,411
866,866,0,2047,1662
867,867,0,2046,3118
868,868,0,2047,3989
869,869,0,2047,3803
870,870,0,2046,2659
871,871,0,2046,1180
872,872,0,2046,167
873,873,0,2047,167
874,874,0,2046,1183
875,875,0,2047,2661
876,876,0,2046,3803
877,877,0,2046,3989
878,878,0,2046,3117
879,879,0,2046,1660
880,880,0,2046,409
881,881,0,2047,41
882,882,0,2047,755
883,883,0,2047,2165
884,884,0,2046,3506
885,885,0,2047,4053
886,886,0,2046,3506
887,887,0,2047,2164
888,888,0,2047,754
889,889,0,2046,41
890,890,0,2046,411
891,891,0,2046,1662
892,892,0,2046,3118
893,893,0,2046,3989
894,894,0,2047,3803
895,895,0,2046,2660
896,896,0,2047,1180
897,897,0,2046,166
898,898,0,2046,167
899,899,0,2046,1181
900,900,0,2046,2661
901,901,0,2046,3803
902,902,0,2046,3990
903,903,0,2046,3117
904,904,0,2047,1660
905,905,0,2046,410
906,906,0,2047,41
907,907,0,2046,755
908,908,0,2046,2165
909,909,0,2047,3506
910,910,0,2047,4052
911,911,0,2046,3506
912,912,0,2047,2164
913,913,0,2046,755
914,914,0,2046,41
915,915,0,2047,410
916,916,0,2047,1661
917,917,0,2046,3117
918,918,0,2046,3989
919,919,0,2046,3803
920,920,0,2047,2660
921,921,0,2046,1181
922,922,0,2047,167
923,923,0,2046,167
924,924,0,2047,1181
925,925,0,2046,2661
926,926,0,2046,3804
927,927,0,2046,3989
928,928,0,2046,3116
929,929,0,2046,1659
930,930,0,2046,411
931,931,0,2046,42
932,932,0,2047,755
933,933,0,2047,2165
934,934,0,2046,3506
935,935,0,2046,4052
936,936,0,2046,3505
937,937,0,2046,2164
938,938,0,2046,754
939,939,0,2047,41
940,940,0,2046,410
941,941,0,2046,1662
942,942,0,2047,3117
943,943,0,2046,3990
944,944,0,2046,3803
945,945,0,2046,2660
946,946,0,2046,1181
947,947,0,2046,167
948,948,0,2046,167
949,949,0,2047,1182
950,950,0,2047,2661
951,951,0,2046,3803
952,952,0,2046,3989
953,953,0,2047,3116
954,954,0,2047,1660
955,955,0,2046,410
956,956,0,2046,41
957,957,0,2046,756
958,958,0,2045,2164
959,959,0,2046,3506
960,960,0,2047,4053
961,961,0,2046,3506
962,962,0,2046,2164
963,963,0,2046,754
964,964,0,2047,41
965,965,0,2046,410
966,966,0,2047,1661
967,967,0,2047,3117
968,968,0,2046,3990
969,969,0,2045,3804
970,970,0,2046,2660
971,971,0,2046,1180
972,972,0,2046,166
973,973,0,2046,167
974,974,0,2046,1181
975,975,0,2047,2661
976,976,0,2047,3802
977,977,0,2047,3989
978,978,0,2046,3117
979,979,0,2046,1661
980,980,0,2047,410
981,981,0,2046,42
982,982,0,2046,755
983,983,0,2046,2164
984,984,0,2047,3506
985,985,0,2047,4053
986,986,0,2046,3506
987,987,0,2047,2164
988,988,0,2046,756
989,989,0,2046,41
990,990,0,2046,410
991,991,0,2046,1662
992,992,0,2047,3118
993,993,0,2047,3989
994,994,0,2046,3803
995,995,0,2046,2660
996,996,0,2046,1181
997,997,0,2046,167
998,998,0,2046,167
999,999,0,2047,1181
1000,1000,0,2046,2661
1001,1001,0,2046,3804
1002,1002,0,2047,3989
1003,1003,0,2047,3117
1004,1004,0,2047,1661
1005,1005,0,2047,409
1006,1006,0,2047,42
1007,1007,0,2046,754
1008,1008,0,2047,2164
1009,1009,0,2047,3506
1010,1010,0,2047,4052
1011,1011,0,2046,3506
1012,1012,0,2047,2165
1013,1013,0,2046,755
1014,1014,0,2047,41
1015,1015,0,2046,410
1016,1016,0,2047,1661
1017,1017,0,2047,3117
1018,1018,0,2046,3989
1019,1019,0,2046,3803
1020,1020,0,2047,2660
1021,1021,0,2046,1180
1022,1022,0,2046,168
1023,1023,0,2046,167
