Sample in Buffer,Sample in Window,TRIGGER,adc1_data_a_d0[11:0],adc1_data_b_d0[11:0]
0,0,0,2046,135
1,1,0,2046,32
2,2,0,2047,0
3,3,0,2047,0
4,4,0,2047,4
5,5,0,2046,88
6,6,0,2046,218
7,7,0,2046,389
8,8,0,2047,599
9,9,0,2046,842
10,10,0,2047,1111
11,11,0,2046,1402
12,12,0,2046,1708
13,13,0,2047,2021
14,14,0,2046,2333
15,15,0,2046,2639
16,16,0,2047,2932
17,17,0,2047,3204
18,18,0,2047,3449
19,19,0,2047,3661
20,20,0,2047,3837
21,21,0,2046,3971
22,22,0,2046,4061
23,23,0,2046,4095
24,24,0,2046,4095
25,25,0,2046,4050
26,26,0,2046,3954
27,27,0,2047,3813
28,28,0,2047,3632
29,29,0,2047,3416
30,30,0,2047,3167
31,31,0,2046,2892
32,32,0,2047,2598
33,33,0,2047,2290
34,34,0,2046,1977
35,35,0,2047,1664
36,36,0,2047,1361
37,37,0,2046,1072
38,38,0,2046,805
39,39,0,2047,568
40,40,0,2046,363
41,41,0,2047,197
42,42,0,2047,73
43,43,0,2046,0
44,44,0,2046,0
45,45,0,2047,0
46,46,0,2046,43
47,47,0,2047,153
48,48,0,2047,306
49,49,0,2047,499
50,50,0,2047,726
51,51,0,2047,984
52,52,0,2047,1266
53,53,0,2047,1566
54,54,0,2046,1876
55,55,0,2047,2190
56,56,0,2046,2501
57,57,0,2047,2800
58,58,0,2047,3082
59,59,0,2047,3339
60,60,0,2047,3568
61,61,0,2046,3761
62,62,0,2047,3914
63,63,0,2047,4025
64,64,0,2046,4091
65,65,0,2047,4095
66,66,0,2047,4080
67,67,0,2047,4004
68,68,0,2047,3883
69,69,0,2047,3720
70,70,0,2047,3519
71,71,0,2046,3285
72,72,0,2046,3021
73,73,0,2047,2735
74,74,0,2046,2432
75,75,0,2047,2121
76,76,0,2047,1808
77,77,0,2047,1499
78,78,0,2047,1203
79,79,0,2046,925
80,80,0,2047,674
81,81,0,2047,453
82,82,0,2046,269
83,83,0,2046,126
84,84,0,2047,25
85,85,0,2046,0
86,86,0,2047,0
87,87,0,2046,9
88,88,0,2047,97
89,89,0,2047,230
90,90,0,2046,405
91,91,0,2046,618
92,92,0,2047,862
93,93,0,2046,1134
94,94,0,2046,1427
95,95,0,2046,1734
96,96,0,2047,2046
97,97,0,2046,2359
98,98,0,2047,2664
99,99,0,2047,2955
100,100,0,2047,3225
101,101,0,2046,3467
102,102,0,2047,3677
103,103,0,2047,3849
104,104,0,2046,3980
105,105,0,2047,4067
106,106,0,2047,4095
107,107,0,2046,4095
108,108,0,2046,4044
109,109,0,2047,3944
110,110,0,2047,3800
111,111,0,2046,3617
112,112,0,2046,3397
113,113,0,2046,3146
114,114,0,2046,2869
115,115,0,2047,2573
116,116,0,2047,2265
117,117,0,2047,1952
118,118,0,2046,1639
119,119,0,2047,1337
120,120,0,2046,1050
121,121,0,2046,785
122,122,0,2046,550
123,123,0,2046,348
124,124,0,2047,185
125,125,0,2046,66
126,126,0,2047,0
127,127,0,2046,0
128,128,0,2046,0
129,129,0,2047,51
130,130,0,2047,164
131,131,0,2046,320
132,132,0,2047,516
133,133,0,2046,746
134,134,0,2047,1006
135,135,0,2046,1290
136,136,0,2047,1591
137,137,0,2047,1902
138,138,0,2047,2215
139,139,0,2047,2526
140,140,0,2046,2824
141,141,0,2047,3104
142,142,0,2047,3360
143,143,0,2047,3585
144,144,0,2046,3776
145,145,0,2047,3926
146,146,0,2046,4032
147,147,0,2046,4094
148,148,0,2046,4095
149,149,0,2047,4075
150,150,0,2046,3996
151,151,0,2046,3872
152,152,0,2047,3706
153,153,0,2046,3502
154,154,0,2047,3265
155,155,0,2046,2999
156,156,0,2046,2711
157,157,0,2046,2407
158,158,0,2047,2095
159,159,0,2047,1782
160,160,0,2046,1475
161,161,0,2046,1180
162,162,0,2047,904
163,163,0,2047,655
164,164,0,2047,436
165,165,0,2046,256
166,166,0,2047,115
167,167,0,2046,19
168,168,0,2046,0
169,169,0,2046,0
170,170,0,2047,14
171,171,0,2047,106
172,172,0,2047,243
173,173,0,2047,422
174,174,0,2047,636
175,175,0,2046,884
176,176,0,2047,1158
177,177,0,2046,1451
178,178,0,2047,1758
179,179,0,2047,2072
180,180,0,2047,2385
181,181,0,2047,2688
182,182,0,2046,2977
183,183,0,2047,3245
184,184,0,2046,3485
185,185,0,2046,3692
186,186,0,2046,3862
187,187,0,2046,3988
188,188,0,2047,4071
189,189,0,2046,4095
190,190,0,2047,4095
191,191,0,2047,4038
192,192,0,2047,3934
193,193,0,2047,3787
194,194,0,2047,3600
195,195,0,2046,3377
196,196,0,2047,3123
197,197,0,2047,2845
198,198,0,2047,2548
199,199,0,2046,2240
200,200,0,2047,1926
201,201,0,2046,1615
202,202,0,2046,1312
203,203,0,2046,1027
204,204,0,2047,765
205,205,0,2046,532
206,206,0,2047,334
207,207,0,2046,174
208,208,0,2047,58
209,209,0,2047,0
210,210,0,2046,0
211,211,0,2047,0
212,212,0,2047,58
213,213,0,2047,175
214,214,0,2047,334
215,215,0,2046,533
216,216,0,2046,766
217,217,0,2046,1028
218,218,0,2047,1314
219,219,0,2046,1616
220,220,0,2047,1927
221,221,0,2046,2241
222,222,0,2047,2550
223,223,0,2046,2847
224,224,0,2047,3126
225,225,0,2047,3379
226,226,0,2047,3602
227,227,0,2046,3788
228,228,0,2047,3935
229,229,0,2046,4039
230,230,0,2046,4095
231,231,0,2047,4095
232,232,0,2047,4070
233,233,0,2046,3987
234,234,0,2047,3859
235,235,0,2046,3691
236,236,0,2047,3484
237,237,0,2047,3244
238,238,0,2047,2976
239,239,0,2047,2686
240,240,0,2046,2383
241,241,0,2047,2070
242,242,0,2046,1756
243,243,0,2046,1449
244,244,0,2046,1157
245,245,0,2047,883
246,246,0,2047,635
247,247,0,2046,421
248,248,0,2046,242
249,249,0,2046,106
250,250,0,2048,13
251,251,0,2047,0
252,252,0,2047,0
253,253,0,2046,20
254,254,0,2046,116
255,255,0,2047,256
256,256,0,2047,437
257,257,0,2046,655
258,258,0,2047,904
259,259,0,2047,1181
260,260,0,2047,1475
261,261,0,2046,1783
262,262,0,2047,2097
263,263,0,2046,2409
264,264,0,2046,2712
265,265,0,2046,3000
266,266,0,2046,3266
267,267,0,2046,3503
268,268,0,2047,3707
269,269,0,2047,3873
270,270,0,2046,3997
271,271,0,2047,4075
272,272,0,2046,4095
273,273,0,2046,4092
274,274,0,2046,4032
275,275,0,2046,3923
276,276,0,2047,3773
277,277,0,2046,3583
278,278,0,2047,3358
279,279,0,2047,3102
280,280,0,2047,2822
281,281,0,2046,2524
282,282,0,2047,2215
283,283,0,2047,1901
284,284,0,2047,1590
285,285,0,2047,1289
286,286,0,2046,1006
287,287,0,2047,745
288,288,0,2047,515
289,289,0,2046,319
290,290,0,2046,163
291,291,0,2046,50
292,292,0,2046,0
293,293,0,2047,0
294,294,0,2046,0
295,295,0,2047,66
296,296,0,2047,186
297,297,0,2046,349
298,298,0,2047,551
299,299,0,2047,786
300,300,0,2047,1051
301,301,0,2047,1338
302,302,0,2046,1641
303,303,0,2046,1953
304,304,0,2046,2267
305,305,0,2046,2575
306,306,0,2046,2871
307,307,0,2047,3147
308,308,0,2047,3398
309,309,0,2046,3618
310,310,0,2046,3801
311,311,0,2046,3946
312,312,0,2047,4045
313,313,0,2047,4095
314,314,0,2046,4095
315,315,0,2046,4065
316,316,0,2047,3979
317,317,0,2047,3847
318,318,0,2047,3675
319,319,0,2046,3465
320,320,0,2047,3223
321,321,0,2046,2953
322,322,0,2047,2663
323,323,0,2046,2358
324,324,0,2047,2044
325,325,0,2047,1732
326,326,0,2047,1426
327,327,0,2047,1133
328,328,0,2046,861
329,329,0,2047,617
330,330,0,2047,405
331,331,0,2046,230
332,332,0,2047,97
333,333,0,2047,8
334,334,0,2047,0
335,335,0,2047,0
336,336,0,2047,26
337,337,0,2046,126
338,338,0,2047,270
339,339,0,2046,454
340,340,0,2046,674
341,341,0,2047,926
342,342,0,2046,1204
343,343,0,2047,1501
344,344,0,2046,1809
345,345,0,2046,2122
346,346,0,2046,2434
347,347,0,2047,2736
348,348,0,2046,3022
349,349,0,2046,3286
350,350,0,2046,3521
351,351,0,2047,3722
352,352,0,2046,3885
353,353,0,2047,4005
354,354,0,2046,4080
355,355,0,2047,4095
356,356,0,2047,4089
357,357,0,2046,4024
358,358,0,2047,3913
359,359,0,2046,3760
360,360,0,2046,3567
361,361,0,2047,3339
362,362,0,2046,3080
363,363,0,2047,2799
364,364,0,2046,2499
365,365,0,2047,2190
366,366,0,2046,1875
367,367,0,2047,1564
368,368,0,2047,1265
369,369,0,2046,984
370,370,0,2047,726
371,371,0,2047,498
372,372,0,2046,305
373,373,0,2047,153
374,374,0,2046,43
375,375,0,2047,0
376,376,0,2047,0
377,377,0,2047,0
378,378,0,2046,74
379,379,0,2046,198
380,380,0,2047,364
381,381,0,2047,569
382,382,0,2046,806
383,383,0,2046,1073
384,384,0,2046,1363
385,385,0,2047,1665
386,386,0,2046,1978
387,387,0,2046,2292
388,388,0,2047,2599
389,389,0,2046,2894
390,390,0,2046,3168
391,391,0,2047,3417
392,392,0,2046,3635
393,393,0,2047,3815
394,394,0,2047,3955
395,395,0,2046,4051
396,396,0,2047,4095
397,397,0,2047,4095
398,398,0,2047,4060
399,399,0,2046,3970
400,400,0,2047,3835
401,401,0,2046,3659
402,402,0,2047,3447
403,403,0,2046,3202
404,404,0,2047,2930
405,405,0,2047,2638
406,406,0,2046,2332
407,407,0,2047,2019
408,408,0,2046,1706
409,409,0,2047,1401
410,410,0,2047,1111
411,411,0,2046,841
412,412,0,2047,599
413,413,0,2047,390
414,414,0,2047,217
415,415,0,2047,88
416,416,0,2046,3
417,417,0,2046,0
418,418,0,2047,0
419,419,0,2047,31
420,420,0,2046,136
421,421,0,2047,283
422,422,0,2047,470
423,423,0,2047,693
424,424,0,2047,948
425,425,0,2046,1227
426,426,0,2047,1525
427,427,0,2046,1835
428,428,0,2046,2148
429,429,0,2047,2459
430,430,0,2046,2760
431,431,0,2046,3044
432,432,0,2047,3307
433,433,0,2047,3539
434,434,0,2047,3737
435,435,0,2047,3896
436,436,0,2047,4012
437,437,0,2046,4084
438,438,0,2047,4095
439,439,0,2046,4086
440,440,0,2046,4016
441,441,0,2047,3901
442,442,0,2047,3745
443,443,0,2046,3549
444,444,0,2046,3319
445,445,0,2046,3058
446,446,0,2046,2774
447,447,0,2046,2474
448,448,0,2046,2164
449,449,0,2047,1850
450,450,0,2046,1540
451,451,0,2046,1242
452,452,0,2047,961
453,453,0,2046,705
454,454,0,2047,480
455,455,0,2047,292
456,456,0,2046,142
457,457,0,2046,36
458,458,0,2046,0
459,459,0,2047,0
460,460,0,2046,0
461,461,0,2046,82
462,462,0,2047,210
463,463,0,2046,379
464,464,0,2046,587
465,465,0,2047,827
466,466,0,2046,1096
467,467,0,2047,1386
468,468,0,2046,1691
469,469,0,2047,2004
470,470,0,2046,2317
471,471,0,2046,2623
472,472,0,2046,2916
473,473,0,2047,3190
474,474,0,2046,3436
475,475,0,2046,3650
476,476,0,2046,3828
477,477,0,2046,3965
478,478,0,2046,4057
479,479,0,2046,4095
480,480,0,2047,4095
481,481,0,2046,4055
482,482,0,2047,3960
483,483,0,2046,3822
484,484,0,2047,3643
485,485,0,2046,3428
486,486,0,2047,3181
487,487,0,2046,2907
488,488,0,2046,2614
489,489,0,2046,2307
490,490,0,2047,1994
491,491,0,2047,1681
492,492,0,2046,1378
493,493,0,2046,1088
494,494,0,2046,819
495,495,0,2046,580
496,496,0,2047,374
497,497,0,2046,205
498,498,0,2046,79
499,499,0,2046,0
500,500,0,2047,0
501,501,0,2047,0
502,502,0,2047,39
503,503,0,2046,146
504,504,0,2046,297
505,505,0,2046,487
506,506,0,2047,713
507,507,0,2047,970
508,508,0,2046,1250
509,509,0,2047,1549
510,510,0,2047,1859
511,511,0,2046,2173
512,512,0,2047,2483
513,513,0,2046,2784
514,514,0,2046,3067
515,515,0,2047,3326
516,516,0,2046,3556
517,517,0,2046,3751
518,518,0,2047,3908
519,519,0,2046,4020
520,520,0,2046,4088
521,521,0,2046,4095
522,522,0,2047,4082
523,523,0,2047,4009
524,524,0,2047,3891
525,525,0,2047,3731
526,526,0,2047,3531
527,527,0,2047,3298
528,528,0,2046,3036
529,529,0,2047,2752
530,530,0,2046,2450
531,531,0,2046,2139
532,532,0,2046,1824
533,533,0,2046,1516
534,534,0,2046,1219
535,535,0,2047,940
536,536,0,2046,687
537,537,0,2047,465
538,538,0,2046,278
539,539,0,2046,131
540,540,0,2047,31
541,541,0,2047,0
542,542,0,2047,0
543,543,0,2047,5
544,544,0,2047,91
545,545,0,2047,222
546,546,0,2047,394
547,547,0,2047,605
548,548,0,2047,848
549,549,0,2047,1119
550,550,0,2046,1411
551,551,0,2046,1716
552,552,0,2047,2029
553,553,0,2047,2343
554,554,0,2047,2648
555,555,0,2046,2939
556,556,0,2047,3211
557,557,0,2047,3454
558,558,0,2047,3666
559,559,0,2047,3840
560,560,0,2047,3974
561,561,0,2046,4063
562,562,0,2047,4095
563,563,0,2047,4095
564,564,0,2046,4048
565,565,0,2047,3950
566,566,0,2047,3809
567,567,0,2047,3628
568,568,0,2046,3409
569,569,0,2046,3160
570,570,0,2047,2885
571,571,0,2046,2590
572,572,0,2047,2282
573,573,0,2047,1969
574,574,0,2047,1656
575,575,0,2047,1354
576,576,0,2047,1065
577,577,0,2047,799
578,578,0,2046,562
579,579,0,2047,359
580,580,0,2047,193
581,581,0,2047,71
582,582,0,2047,0
583,583,0,2046,0
584,584,0,2046,0
585,585,0,2047,46
586,586,0,2046,156
587,587,0,2046,311
588,588,0,2046,504
589,589,0,2047,732
590,590,0,2046,992
591,591,0,2047,1274
592,592,0,2046,1574
593,593,0,2047,1884
594,594,0,2046,2198
595,595,0,2046,2508
596,596,0,2047,2808
597,597,0,2047,3090
598,598,0,2046,3346
599,599,0,2047,3573
600,600,0,2047,3765
601,601,0,2047,3917
602,602,0,2047,4027
603,603,0,2047,4091
604,604,0,2046,4095
605,605,0,2046,4078
606,606,0,2047,4001
607,607,0,2047,3880
608,608,0,2047,3715
609,609,0,2047,3514
610,610,0,2046,3279
611,611,0,2046,3014
612,612,0,2047,2727
613,613,0,2046,2425
614,614,0,2046,2112
615,615,0,2047,1800
616,616,0,2046,1491
617,617,0,2046,1194
618,618,0,2047,919
619,619,0,2047,667
620,620,0,2047,447
621,621,0,2046,264
622,622,0,2046,122
623,623,0,2047,24
624,624,0,2047,0
625,625,0,2047,0
626,626,0,2047,10
627,627,0,2047,100
628,628,0,2047,235
629,629,0,2047,410
630,630,0,2047,624
631,631,0,2047,870
632,632,0,2047,1142
633,633,0,2047,1435
634,634,0,2046,1741
635,635,0,2046,2055
636,636,0,2046,2367
637,637,0,2046,2672
638,638,0,2046,2963
639,639,0,2047,3232
640,640,0,2046,3473
641,641,0,2047,3681
642,642,0,2046,3853
643,643,0,2046,3983
644,644,0,2047,4067
645,645,0,2047,4095
646,646,0,2046,4095
647,647,0,2047,4042
648,648,0,2046,3941
649,649,0,2046,3795
650,650,0,2047,3611
651,651,0,2046,3390
652,652,0,2046,3138
653,653,0,2047,2861
654,654,0,2046,2565
655,655,0,2047,2256
656,656,0,2047,1943
657,657,0,2046,1632
658,658,0,2047,1329
659,659,0,2047,1043
660,660,0,2046,779
661,661,0,2047,544
662,662,0,2046,344
663,663,0,2046,181
664,664,0,2047,63
665,665,0,2046,0
666,666,0,2046,0
667,667,0,2047,0
668,668,0,2046,53
669,669,0,2047,167
670,670,0,2047,324
671,671,0,2046,521
672,672,0,2046,753
673,673,0,2046,1013
674,674,0,2046,1298
675,675,0,2046,1599
676,676,0,2046,1910
677,677,0,2046,2224
678,678,0,2047,2534
679,679,0,2046,2832
680,680,0,2047,3112
681,681,0,2046,3366
682,682,0,2047,3591
683,683,0,2046,3779
684,684,0,2046,3928
685,685,0,2047,4034
686,686,0,2046,4095
687,687,0,2047,4095
688,688,0,2047,4074
689,689,0,2046,3993
690,690,0,2047,3867
691,691,0,2047,3701
692,692,0,2047,3496
693,693,0,2046,3258
694,694,0,2047,2991
695,695,0,2047,2703
696,696,0,2047,2399
697,697,0,2046,2087
698,698,0,2047,1774
699,699,0,2047,1467
700,700,0,2047,1172
701,701,0,2047,897
702,702,0,2047,648
703,703,0,2046,432
704,704,0,2047,251
705,705,0,2047,112
706,706,0,2047,18
707,707,0,2046,0
708,708,0,2046,0
709,709,0,2046,16
710,710,0,2046,109
711,711,0,2046,247
712,712,0,2046,427
713,713,0,2047,642
714,714,0,2047,890
715,715,0,2047,1165
716,716,0,2047,1459
717,717,0,2047,1766
718,718,0,2046,2080
719,719,0,2046,2392
720,720,0,2047,2696
721,721,0,2046,2985
722,722,0,2047,3252
723,723,0,2047,3492
724,724,0,2047,3697
725,725,0,2047,3865
726,726,0,2046,3991
727,727,0,2047,4072
728,728,0,2047,4095
729,729,0,2047,4095
730,730,0,2047,4036
731,731,0,2046,3931
732,732,0,2046,3783
733,733,0,2047,3594
734,734,0,2046,3371
735,735,0,2047,3117
736,736,0,2047,2838
737,737,0,2046,2541
738,738,0,2047,2232
739,739,0,2046,1918
740,740,0,2047,1607
741,741,0,2046,1305
742,742,0,2047,1020
743,743,0,2047,758
744,744,0,2047,527
745,745,0,2046,329
746,746,0,2047,171
747,747,0,2047,55
748,748,0,2046,0
749,749,0,2047,0
750,750,0,2047,0
751,751,0,2046,60
752,752,0,2047,179
753,753,0,2046,339
754,754,0,2046,539
755,755,0,2046,773
756,756,0,2047,1035
757,757,0,2046,1321
758,758,0,2047,1623
759,759,0,2047,1935
760,760,0,2047,2250
761,761,0,2046,2558
762,762,0,2047,2855
763,763,0,2047,3132
764,764,0,2047,3385
765,765,0,2047,3607
766,766,0,2047,3792
767,767,0,2047,3939
768,768,0,2047,4040
769,769,0,2046,4095
770,770,0,2046,4095
771,771,0,2046,4068
772,772,0,2047,3984
773,773,0,2047,3856
774,774,0,2046,3685
775,775,0,2047,3478
776,776,0,2046,3236
777,777,0,2046,2969
778,778,0,2047,2679
779,779,0,2047,2375
780,780,0,2047,2062
781,781,0,2046,1749
782,782,0,2047,1442
783,783,0,2047,1149
784,784,0,2047,876
785,785,0,2046,630
786,786,0,2046,416
787,787,0,2046,239
788,788,0,2047,103
789,789,0,2047,12
790,790,0,2046,0
791,791,0,2046,0
792,792,0,2046,22
793,793,0,2047,119
794,794,0,2046,260
795,795,0,2046,443
796,796,0,2047,661
797,797,0,2046,912
798,798,0,2047,1188
799,799,0,2047,1484
800,800,0,2047,1792
801,801,0,2047,2105
802,802,0,2047,2417
803,803,0,2047,2720
804,804,0,2047,3008
805,805,0,2046,3273
806,806,0,2046,3509
807,807,0,2047,3712
808,808,0,2047,3877
809,809,0,2046,3999
810,810,0,2047,4078
811,811,0,2046,4095
812,812,0,2047,4092
813,813,0,2046,4029
814,814,0,2047,3920
815,815,0,2046,3769
816,816,0,2047,3578
817,817,0,2046,3351
818,818,0,2046,3095
819,819,0,2046,2815
820,820,0,2046,2516
821,821,0,2046,2206
822,822,0,2046,1892
823,823,0,2047,1582
824,824,0,2046,1281
825,825,0,2046,998
826,826,0,2046,739
827,827,0,2047,510
828,828,0,2046,314
829,829,0,2046,160
830,830,0,2047,48
831,831,0,2046,0
832,832,0,2047,0
833,833,0,2046,0
834,834,0,2047,68
835,835,0,2046,189
836,836,0,2046,353
837,837,0,2046,556
838,838,0,2047,792
839,839,0,2047,1058
840,840,0,2046,1345
841,841,0,2047,1649
842,842,0,2046,1961
843,843,0,2046,2275
844,844,0,2047,2582
845,845,0,2047,2878
846,846,0,2046,3154
847,847,0,2047,3405
848,848,0,2047,3623
849,849,0,2047,3806
850,850,0,2047,3949
851,851,0,2046,4047
852,852,0,2047,4095
853,853,0,2046,4095
854,854,0,2046,4063
855,855,0,2046,3976
856,856,0,2046,3843
857,857,0,2047,3670
858,858,0,2047,3459
859,859,0,2047,3217
860,860,0,2047,2946
861,861,0,2046,2655
862,862,0,2047,2349
863,863,0,2046,2036
864,864,0,2046,1724
865,865,0,2047,1418
866,866,0,2047,1125
867,867,0,2046,856
868,868,0,2046,611
869,869,0,2046,400
870,870,0,2047,227
871,871,0,2047,94
872,872,0,2047,6
873,873,0,2047,0
874,874,0,2047,0
875,875,0,2047,28
876,876,0,2046,129
877,877,0,2046,273
878,878,0,2046,458
879,879,0,2046,680
880,880,0,2047,933
881,881,0,2047,1211
882,882,0,2047,1508
883,883,0,2047,1817
884,884,0,2046,2130
885,885,0,2046,2442
886,886,0,2046,2744
887,887,0,2047,3029
888,888,0,2046,3292
889,889,0,2047,3528
890,890,0,2046,3727
891,891,0,2047,3888
892,892,0,2047,4007
893,893,0,2046,4082
894,894,0,2046,4095
895,895,0,2046,4089
896,896,0,2046,4022
897,897,0,2047,3910
898,898,0,2046,3755
899,899,0,2046,3561
900,900,0,2047,3332
901,901,0,2046,3074
902,902,0,2047,2790
903,903,0,2047,2491
904,904,0,2046,2181
905,905,0,2047,1867
906,906,0,2047,1557
907,907,0,2047,1257
908,908,0,2047,976
909,909,0,2046,719
910,910,0,2047,492
911,911,0,2046,301
912,912,0,2046,149
913,913,0,2047,41
914,914,0,2047,0
915,915,0,2047,0
916,916,0,2046,0
917,917,0,2046,76
918,918,0,2047,202
919,919,0,2047,369
920,920,0,2046,574
921,921,0,2046,814
922,922,0,2047,1080
923,923,0,2046,1370
924,924,0,2047,1673
925,925,0,2046,1986
926,926,0,2047,2300
927,927,0,2047,2606
928,928,0,2046,2900
929,929,0,2046,3175
930,930,0,2046,3423
931,931,0,2046,3640
932,932,0,2047,3819
933,933,0,2047,3959
934,934,0,2046,4053
935,935,0,2047,4095
936,936,0,2047,4095
937,937,0,2047,4058
938,938,0,2047,3967
939,939,0,2047,3831
940,940,0,2047,3654
941,941,0,2046,3441
942,942,0,2047,3196
943,943,0,2047,2923
944,944,0,2047,2630
945,945,0,2047,2324
946,946,0,2046,2012
947,947,0,2046,1699
948,948,0,2046,1393
949,949,0,2047,1103
950,950,0,2046,834
951,951,0,2046,592
952,952,0,2047,384
953,953,0,2047,214
954,954,0,2046,85
955,955,0,2046,1
956,956,0,2046,0
957,957,0,2046,0
958,958,0,2047,34
959,959,0,2046,139
960,960,0,2046,287
961,961,0,2046,476
962,962,0,2047,700
963,963,0,2046,955
964,964,0,2047,1235
965,965,0,2047,1533
966,966,0,2047,1843
967,967,0,2047,2156
968,968,0,2047,2467
969,969,0,2046,2768
970,970,0,2046,3052
971,971,0,2046,3313
972,972,0,2047,3545
973,973,0,2047,3742
974,974,0,2046,3900
975,975,0,2046,4015
976,976,0,2047,4086
977,977,0,2047,4095
978,978,0,2046,4085
979,979,0,2047,4014
980,980,0,2047,3899
981,981,0,2046,3741
982,982,0,2047,3544
983,983,0,2047,3313
984,984,0,2046,3051
985,985,0,2047,2767
986,986,0,2046,2467
987,987,0,2047,2156
988,988,0,2047,1842
989,989,0,2047,1532
990,990,0,2046,1235
991,991,0,2047,955
992,992,0,2046,700
993,993,0,2046,476
994,994,0,2047,287
995,995,0,2046,139
996,996,0,2047,34
997,997,0,2046,0
998,998,0,2047,0
999,999,0,2047,1
1000,1000,0,2047,85
1001,1001,0,2046,214
1002,1002,0,2046,384
1003,1003,0,2047,593
1004,1004,0,2047,835
1005,1005,0,2047,1104
1006,1006,0,2047,1394
1007,1007,0,2046,1700
1008,1008,0,2046,2012
1009,1009,0,2046,2324
1010,1010,0,2047,2632
1011,1011,0,2046,2923
1012,1012,0,2047,3196
1013,1013,0,2047,3442
1014,1014,0,2047,3656
1015,1015,0,2047,3832
1016,1016,0,2047,3968
1017,1017,0,2047,4059
1018,1018,0,2047,4095
1019,1019,0,2047,4095
1020,1020,0,2047,4053
1021,1021,0,2047,3958
1022,1022,0,2047,3818
1023,1023,0,2047,3639
1024,1024,0,2046,3423
1025,1025,0,2047,3174
1026,1026,0,2046,2900
1027,1027,0,2047,2606
1028,1028,0,2047,2299
1029,1029,0,2047,1986
