Sample in Buffer,Sample in Window,TRIGGER,adc1_data_a_d0[11:0],adc1_data_b_d0[11:0]
0,0,0,2047,4093
1,1,0,2046,3875
2,2,0,2046,3210
3,3,0,2046,2259
4,4,0,2046,1254
5,5,0,2046,441
6,6,0,2046,16
7,7,0,2047,82
8,8,0,2046,625
9,9,0,2046,1512
10,10,0,2047,2526
11,11,0,2046,3422
12,12,0,2046,3981
13,13,0,2046,4067
14,14,0,2047,3661
15,15,0,2046,2858
16,16,0,2046,1857
17,17,0,2046,899
18,18,0,2046,219
19,19,0,2047,0
20,20,0,2046,244
21,21,0,2046,943
22,22,0,2047,1909
23,23,0,2046,2906
24,24,0,2046,3691
25,25,0,2047,4075
26,26,0,2047,3963
27,27,0,2046,3383
28,28,0,2046,2475
29,29,0,2047,1462
30,30,0,2046,589
31,31,0,2047,67
32,32,0,2046,26
33,33,0,2046,474
34,34,0,2046,1302
35,35,0,2046,2310
36,36,0,2046,3252
37,37,0,2046,3898
38,38,0,2047,4092
39,39,0,2047,3786
40,40,0,2047,3055
41,41,0,2047,2076
42,42,0,2046,1089
43,43,0,2046,332
44,44,0,2047,0
45,45,0,2047,146
46,46,0,2046,764
47,47,0,2046,1690
48,48,0,2046,2702
49,49,0,2046,3552
50,50,0,2046,4033
51,51,0,2046,4030
52,52,0,2047,3541
53,53,0,2047,2688
54,54,0,2046,1676
55,55,0,2046,753
56,56,0,2046,141
57,57,0,2046,0
58,58,0,2046,341
59,59,0,2047,1101
60,60,0,2047,2091
61,61,0,2047,3068
62,62,0,2046,3793
63,63,0,2046,4093
64,64,0,2047,3891
65,65,0,2046,3240
66,66,0,2047,2295
67,67,0,2047,1290
68,68,0,2046,465
69,69,0,2046,23
70,70,0,2047,72
71,71,0,2046,599
72,72,0,2047,1476
73,73,0,2047,2490
74,74,0,2047,3394
75,75,0,2047,3969
76,76,0,2046,4073
77,77,0,2046,3683
78,78,0,2046,2892
79,79,0,2046,1894
80,80,0,2046,931
81,81,0,2046,237
82,82,0,2047,0
83,83,0,2047,227
84,84,0,2047,912
85,85,0,2046,1872
86,86,0,2046,2872
87,87,0,2046,3669
88,88,0,2047,4070
89,89,0,2047,3976
90,90,0,2046,3411
91,91,0,2047,2511
92,92,0,2047,1498
93,93,0,2046,615
94,94,0,2046,78
95,95,0,2046,18
96,96,0,2047,450
97,97,0,2046,1268
98,98,0,2046,2274
99,99,0,2047,3221
100,100,0,2046,3882
101,101,0,2046,4093
102,102,0,2046,3806
103,103,0,2046,3087
104,104,0,2047,2114
105,105,0,2046,1122
106,106,0,2046,353
107,107,0,2047,0
108,108,0,2047,133
109,109,0,2047,735
110,110,0,2047,1654
111,111,0,2046,2667
112,112,0,2046,3526
113,113,0,2047,4025
114,114,0,2047,4038
115,115,0,2046,3567
116,116,0,2046,2722
117,117,0,2047,1712
118,118,0,2046,782
119,119,0,2046,156
120,120,0,2047,0
121,121,0,2046,319
122,122,0,2047,1069
123,123,0,2047,2054
124,124,0,2046,3035
125,125,0,2046,3773
126,126,0,2046,4090
127,127,0,2046,3908
128,128,0,2046,3270
129,129,0,2046,2332
130,130,0,2046,1324
131,131,0,2047,489
132,132,0,2046,31
133,133,0,2045,60
134,134,0,2046,572
135,135,0,2046,1440
136,136,0,2047,2454
137,137,0,2046,3367
138,138,0,2046,3956
139,139,0,2047,4077
140,140,0,2046,3705
141,141,0,2046,2925
142,142,0,2047,1931
143,143,0,2046,962
144,144,0,2046,256
145,145,0,2046,0
146,146,0,2047,209
147,147,0,2047,881
148,148,0,2046,1836
149,149,0,2046,2838
150,150,0,2047,3646
151,151,0,2047,4064
152,152,0,2046,3988
153,153,0,2046,3438
154,154,0,2046,2548
155,155,0,2047,1533
156,156,0,2046,642
157,157,0,2046,90
158,158,0,2046,11
159,159,0,2046,426
160,160,0,2047,1234
161,161,0,2047,2237
162,162,0,2046,3191
163,163,0,2047,3865
164,164,0,2046,4095
165,165,0,2046,3823
166,166,0,2047,3118
167,167,0,2047,2150
168,168,0,2047,1155
169,169,0,2046,375
170,170,0,2046,0
171,171,0,2046,118
172,172,0,2047,707
173,173,0,2047,1618
174,174,0,2046,2631
175,175,0,2046,3500
176,176,0,2046,4014
177,177,0,2046,4047
178,178,0,2047,3592
179,179,0,2046,2757
180,180,0,2047,1749
181,181,0,2046,811
182,182,0,2046,171
183,183,0,2046,0
184,184,0,2047,299
185,185,0,2046,1036
186,186,0,2047,2017
187,187,0,2047,3003
188,188,0,2046,3753
189,189,0,2046,4087
190,190,0,2046,3922
191,191,0,2047,3299
192,192,0,2046,2369
193,193,0,2046,1359
194,194,0,2046,514
195,195,0,2046,39
196,196,0,2047,51
197,197,0,2047,546
198,198,0,2046,1405
199,199,0,2047,2418
200,200,0,2047,3337
201,201,0,2047,3941
202,202,0,2047,4082
203,203,0,2046,3726
204,204,0,2046,2958
205,205,0,2047,1968
206,206,0,2047,994
207,207,0,2047,274
208,208,0,2046,0
209,209,0,2047,192
210,210,0,2046,850
211,211,0,2046,1797
212,212,0,2046,2803
213,213,0,2046,3623
214,214,0,2046,4056
215,215,0,2046,4000
216,216,0,2046,3466
217,217,0,2047,2583
218,218,0,2047,1570
219,219,0,2046,670
220,220,0,2047,102
221,221,0,2047,6
222,222,0,2046,404
223,223,0,2046,1200
224,224,0,2046,2200
225,225,0,2047,3160
226,226,0,2046,3848
227,227,0,2047,4095
228,228,0,2046,3842
229,229,0,2046,3150
230,230,0,2046,2187
231,231,0,2046,1189
232,232,0,2046,397
233,233,0,2047,4
234,234,0,2047,106
235,235,0,2046,678
236,236,0,2047,1581
237,237,0,2046,2595
238,238,0,2046,3474
239,239,0,2046,4002
240,240,0,2047,4054
241,241,0,2046,3616
242,242,0,2047,2791
243,243,0,2046,1785
244,244,0,2047,841
245,245,0,2046,187
246,246,0,2046,0
247,247,0,2047,280
248,248,0,2046,1004
249,249,0,2046,1980
250,250,0,2047,2969
251,251,0,2046,3734
252,252,0,2047,4084
253,253,0,2046,3937
254,254,0,2046,3329
255,255,0,2047,2405
256,256,0,2046,1393
257,257,0,2046,539
258,258,0,2046,48
259,259,0,2046,42
260,260,0,2047,522
261,261,0,2047,1370
262,262,0,2046,2381
263,263,0,2046,3308
264,264,0,2046,3927
265,265,0,2046,4087
266,266,0,2046,3747
267,267,0,2047,2992
268,268,0,2047,2005
269,269,0,2047,1026
270,270,0,2047,294
271,271,0,2046,0
272,272,0,2046,177
273,273,0,2047,820
274,274,0,2046,1760
275,275,0,2046,2769
276,276,0,2046,3599
277,277,0,2047,4049
278,278,0,2047,4011
279,279,0,2047,3492
280,280,0,2047,2619
281,281,0,2047,1606
282,282,0,2046,697
283,283,0,2046,115
284,284,0,2046,1
285,285,0,2046,382
286,286,0,2046,1166
287,287,0,2047,2163
288,288,0,2046,3129
289,289,0,2047,3830
290,290,0,2047,4094
291,291,0,2047,3860
292,292,0,2046,3181
293,293,0,2047,2225
294,294,0,2046,1224
295,295,0,2046,420
296,296,0,2047,9
297,297,0,2047,93
298,298,0,2047,650
299,299,0,2046,1545
300,300,0,2046,2560
301,301,0,2047,3448
302,302,0,2047,3991
303,303,0,2046,4061
304,304,0,2046,3638
305,305,0,2046,2826
306,306,0,2046,1823
307,307,0,2047,871
308,308,0,2046,204
309,309,0,2046,0
310,310,0,2047,261
311,311,0,2046,973
312,312,0,2047,1944
313,313,0,2047,2937
314,314,0,2046,3711
315,315,0,2046,4080
316,316,0,2046,3951
317,317,0,2046,3357
318,318,0,2047,2442
319,319,0,2046,1429
320,320,0,2047,564
321,321,0,2047,58
322,322,0,2046,34
323,323,0,2046,497
324,324,0,2046,1335
325,325,0,2046,2344
326,326,0,2047,3279
327,327,0,2046,3913
328,328,0,2047,4090
329,329,0,2046,3767
330,330,0,2046,3024
331,331,0,2046,2043
332,332,0,2046,1059
333,333,0,2047,314
334,334,0,2047,0
335,335,0,2046,161
336,336,0,2046,791
337,337,0,2046,1724
338,338,0,2046,2735
339,339,0,2047,3575
340,340,0,2046,4041
341,341,0,2045,4021
342,342,0,2047,3517
343,343,0,2046,2654
344,344,0,2047,1642
345,345,0,2046,725
346,346,0,2046,128
347,347,0,2046,0
348,348,0,2046,360
349,349,0,2047,1133
350,350,0,2046,2126
351,351,0,2047,3098
352,352,0,2047,3812
353,353,0,2047,4093
354,354,0,2046,3876
355,355,0,2047,3211
356,356,0,2046,2261
357,357,0,2046,1257
358,358,0,2046,442
359,359,0,2046,16
360,360,0,2047,82
361,361,0,2046,624
362,362,0,2047,1510
363,363,0,2047,2524
364,364,0,2046,3420
365,365,0,2047,3980
366,366,0,2046,4067
367,367,0,2046,3661
368,368,0,2047,2861
369,369,0,2046,1859
370,370,0,2046,902
371,371,0,2046,220
372,372,0,2046,0
373,373,0,2046,243
374,374,0,2047,941
375,375,0,2047,1906
376,376,0,2046,2904
377,377,0,2046,3690
378,378,0,2047,4074
379,379,0,2046,3964
380,380,0,2046,3385
381,381,0,2046,2478
382,382,0,2046,1464
383,383,0,2046,590
384,384,0,2047,68
385,385,0,2046,25
386,386,0,2047,474
387,387,0,2046,1301
388,388,0,2046,2309
389,389,0,2046,3250
390,390,0,2047,3896
391,391,0,2047,4092
392,392,0,2046,3787
393,393,0,2046,3057
394,394,0,2046,2079
395,395,0,2047,1091
396,396,0,2047,333
397,397,0,2046,0
398,398,0,2046,147
399,399,0,2047,762
400,400,0,2046,1688
401,401,0,2047,2699
402,402,0,2046,3550
403,403,0,2046,4033
404,404,0,2046,4030
405,405,0,2047,3543
406,406,0,2047,2690
407,407,0,2046,1678
408,408,0,2046,754
409,409,0,2047,142
410,410,0,2047,0
411,411,0,2046,340
412,412,0,2047,1100
413,413,0,2046,2089
414,414,0,2047,3066
415,415,0,2046,3792
416,416,0,2046,4092
417,417,0,2046,3893
418,418,0,2046,3242
419,419,0,2046,2298
420,420,0,2047,1292
421,421,0,2046,466
422,422,0,2046,24
423,423,0,2047,71
424,424,0,2046,597
425,425,0,2046,1475
426,426,0,2046,2488
427,427,0,2047,3393
428,428,0,2047,3968
429,429,0,2046,4074
430,430,0,2047,3684
431,431,0,2046,2894
432,432,0,2046,1896
433,433,0,2046,933
434,434,0,2046,239
435,435,0,2047,0
436,436,0,2047,225
437,437,0,2046,910
438,438,0,2047,1869
439,439,0,2047,2870
440,440,0,2046,3668
441,441,0,2046,4069
442,442,0,2046,3977
443,443,0,2046,3412
444,444,0,2047,2514
445,445,0,2046,1500
446,446,0,2046,617
447,447,0,2046,79
448,448,0,2047,18
449,449,0,2046,449
450,450,0,2046,1266
451,451,0,2046,2272
452,452,0,2047,3220
453,453,0,2046,3881
454,454,0,2046,4094
455,455,0,2046,3805
456,456,0,2046,3089
457,457,0,2046,2115
458,458,0,2046,1124
459,459,0,2046,355
460,460,0,2046,0
461,461,0,2046,132
462,462,0,2047,733
463,463,0,2047,1652
464,464,0,2046,2665
465,465,0,2047,3524
466,466,0,2047,4023
467,467,0,2046,4039
468,468,0,2046,3568
469,469,0,2046,2724
470,470,0,2046,1715
471,471,0,2046,783
472,472,0,2046,157
473,473,0,2046,0
474,474,0,2046,318
475,475,0,2046,1067
476,476,0,2046,2052
477,477,0,2047,3033
478,478,0,2046,3773
479,479,0,2046,4091
480,480,0,2045,3908
481,481,0,2047,3271
482,482,0,2047,2334
483,483,0,2047,1325
484,484,0,2047,490
485,485,0,2046,31
486,486,0,2046,60
487,487,0,2046,572
488,488,0,2046,1438
489,489,0,2047,2452
490,490,0,2047,3365
491,491,0,2046,3955
492,492,0,2047,4079
493,493,0,2047,3706
494,494,0,2047,2927
495,495,0,2047,1934
496,496,0,2046,964
497,497,0,2046,256
498,498,0,2046,0
499,499,0,2047,208
500,500,0,2046,880
501,501,0,2047,1832
502,502,0,2046,2836
503,503,0,2046,3645
504,504,0,2046,4063
505,505,0,2046,3989
506,506,0,2046,3440
507,507,0,2047,2550
508,508,0,2046,1536
509,509,0,2046,644
510,510,0,2046,90
511,511,0,2046,12
512,512,0,2047,426
513,513,0,2047,1232
514,514,0,2046,2234
515,515,0,2047,3189
516,516,0,2046,3864
517,517,0,2047,4095
518,518,0,2046,3825
519,519,0,2047,3120
520,520,0,2046,2152
521,521,0,2046,1157
522,522,0,2047,377
523,523,0,2046,0
524,524,0,2046,118
525,525,0,2046,704
526,526,0,2046,1615
527,527,0,2046,2630
528,528,0,2047,3499
529,529,0,2047,4013
530,530,0,2047,4048
531,531,0,2046,3592
532,532,0,2046,2759
533,533,0,2047,1751
534,534,0,2047,812
535,535,0,2046,173
536,536,0,2046,0
537,537,0,2046,298
538,538,0,2047,1034
539,539,0,2046,2015
540,540,0,2046,3001
541,541,0,2046,3753
542,542,0,2046,4087
543,543,0,2046,3924
544,544,0,2046,3301
545,545,0,2046,2370
546,546,0,2047,1360
547,547,0,2047,514
548,548,0,2046,39
549,549,0,2046,51
550,550,0,2047,546
551,551,0,2046,1403
552,552,0,2046,2416
553,553,0,2046,3336
554,554,0,2047,3941
555,555,0,2046,4083
556,556,0,2046,3727
557,557,0,2047,2961
558,558,0,2046,1969
559,559,0,2047,996
560,560,0,2046,275
561,561,0,2046,0
562,562,0,2046,191
563,563,0,2047,849
564,564,0,2047,1796
565,565,0,2046,2802
566,566,0,2046,3622
567,567,0,2046,4056
568,568,0,2046,4000
569,569,0,2047,3466
570,570,0,2046,2585
571,571,0,2046,1571
572,572,0,2047,671
573,573,0,2046,103
574,574,0,2046,6
575,575,0,2047,403
576,576,0,2047,1199
577,577,0,2047,2198
578,578,0,2046,3158
579,579,0,2047,3847
580,580,0,2047,4095
581,581,0,2047,3843
582,582,0,2047,3151
583,583,0,2046,2189
584,584,0,2047,1191
585,585,0,2046,399
586,586,0,2046,5
587,587,0,2046,106
588,588,0,2046,678
589,589,0,2047,1580
590,590,0,2047,2594
591,591,0,2046,3472
592,592,0,2047,4002
593,593,0,2046,4055
594,594,0,2046,3616
595,595,0,2047,2793
596,596,0,2047,1787
597,597,0,2047,842
598,598,0,2046,188
599,599,0,2047,0
600,600,0,2047,279
601,601,0,2047,1002
602,602,0,2046,1979
603,603,0,2047,2968
604,604,0,2046,3731
605,605,0,2047,4084
606,606,0,2047,3937
607,607,0,2047,3329
608,608,0,2046,2407
609,609,0,2046,1395
610,610,0,2046,539
611,611,0,2047,48
612,612,0,2047,42
613,613,0,2047,521
614,614,0,2046,1368
615,615,0,2047,2379
616,616,0,2047,3307
617,617,0,2046,3926
618,618,0,2046,4086
619,619,0,2047,3748
620,620,0,2047,2993
621,621,0,2046,2006
622,622,0,2046,1028
623,623,0,2046,295
624,624,0,2046,0
625,625,0,2047,176
626,626,0,2047,820
627,627,0,2047,1759
628,628,0,2047,2766
629,629,0,2046,3598
630,630,0,2047,4049
631,631,0,2047,4011
632,632,0,2046,3493
633,633,0,2046,2621
634,634,0,2046,1607
635,635,0,2047,699
636,636,0,2046,115
637,637,0,2046,0
638,638,0,2046,381
639,639,0,2047,1165
640,640,0,2047,2161
641,641,0,2046,3128
642,642,0,2046,3829
643,643,0,2047,4094
644,644,0,2046,3859
645,645,0,2046,3182
646,646,0,2046,2226
647,647,0,2047,1224
648,648,0,2046,421
649,649,0,2046,10
650,650,0,2046,94
651,651,0,2046,650
652,652,0,2047,1544
653,653,0,2046,2558
654,654,0,2046,3446
655,655,0,2046,3991
656,656,0,2046,4062
657,657,0,2046,3640
658,658,0,2046,2828
659,659,0,2046,1824
660,660,0,2046,873
661,661,0,2046,205
662,662,0,2046,0
663,663,0,2046,260
664,664,0,2046,971
665,665,0,2047,1942
666,666,0,2046,2935
667,667,0,2046,3711
668,668,0,2047,4078
669,669,0,2046,3951
670,670,0,2046,3357
671,671,0,2047,2444
672,672,0,2046,1431
673,673,0,2046,566
674,674,0,2047,58
675,675,0,2046,33
676,676,0,2046,496
677,677,0,2046,1333
678,678,0,2047,2343
679,679,0,2047,3278
680,680,0,2046,3912
681,681,0,2046,4089
682,682,0,2047,3768
683,683,0,2046,3026
684,684,0,2046,2044
685,685,0,2046,1060
686,686,0,2046,314
687,687,0,2046,0
688,688,0,2047,161
689,689,0,2047,790
690,690,0,2046,1723
691,691,0,2047,2732
692,692,0,2047,3573
693,693,0,2046,4040
694,694,0,2046,4020
695,695,0,2047,3518
696,696,0,2046,2656
697,697,0,2047,1643
698,698,0,2047,727
699,699,0,2047,129
700,700,0,2046,0
701,701,0,2046,359
702,702,0,2047,1132
703,703,0,2046,2125
704,704,0,2047,3096
705,705,0,2046,3810
706,706,0,2046,4093
707,707,0,2046,3877
708,708,0,2046,3212
709,709,0,2046,2262
710,710,0,2046,1258
711,711,0,2047,443
712,712,0,2046,17
713,713,0,2046,82
714,714,0,2047,622
715,715,0,2046,1508
716,716,0,2047,2522
717,717,0,2047,3419
718,718,0,2046,3979
719,719,0,2047,4067
720,720,0,2047,3663
721,721,0,2046,2861
722,722,0,2047,1860
723,723,0,2046,903
724,724,0,2046,222
725,725,0,2046,0
726,726,0,2046,242
727,727,0,2047,940
728,728,0,2047,1905
729,729,0,2046,2903
730,730,0,2047,3689
731,731,0,2046,4075
732,732,0,2046,3964
733,733,0,2047,3386
734,734,0,2047,2479
735,735,0,2047,1466
736,736,0,2047,591
737,737,0,2046,68
738,738,0,2046,25
739,739,0,2046,472
740,740,0,2046,1300
741,741,0,2046,2307
742,742,0,2046,3249
743,743,0,2046,3896
744,744,0,2046,4092
745,745,0,2047,3788
746,746,0,2046,3058
747,747,0,2046,2080
748,748,0,2046,1092
749,749,0,2047,335
750,750,0,2046,0
751,751,0,2046,146
752,752,0,2046,761
753,753,0,2046,1687
754,754,0,2046,2698
755,755,0,2046,3548
756,756,0,2047,4031
757,757,0,2046,4030
758,758,0,2046,3543
759,759,0,2046,2691
760,760,0,2046,1680
761,761,0,2046,756
762,762,0,2046,143
763,763,0,2046,0
764,764,0,2047,339
765,765,0,2046,1098
766,766,0,2046,2087
767,767,0,2046,3064
768,768,0,2046,3791
769,769,0,2046,4092
770,770,0,2046,3893
771,771,0,2047,3242
772,772,0,2046,2300
773,773,0,2046,1293
774,774,0,2047,467
775,775,0,2047,24
776,776,0,2046,71
777,777,0,2046,597
778,778,0,2047,1473
779,779,0,2046,2487
780,780,0,2046,3391
781,781,0,2046,3967
782,782,0,2046,4073
783,783,0,2047,3685
784,784,0,2046,2895
785,785,0,2046,1897
786,786,0,2046,934
787,787,0,2046,238
788,788,0,2046,0
789,789,0,2046,225
790,790,0,2046,909
791,791,0,2046,1868
792,792,0,2046,2868
793,793,0,2046,3666
794,794,0,2046,4069
795,795,0,2047,3978
796,796,0,2046,3414
797,797,0,2047,2516
798,798,0,2047,1502
799,799,0,2046,618
800,800,0,2046,80
801,801,0,2047,18
802,802,0,2047,448
803,803,0,2046,1265
804,804,0,2046,2270
805,805,0,2046,3218
806,806,0,2046,3880
807,807,0,2046,4094
808,808,0,2046,3807
809,809,0,2046,3090
810,810,0,2047,2118
811,811,0,2047,1125
812,812,0,2046,355
813,813,0,2046,0
814,814,0,2046,132
815,815,0,2046,732
816,816,0,2047,1650
817,817,0,2046,2664
818,818,0,2047,3523
819,819,0,2046,4023
820,820,0,2047,4039
821,821,0,2046,3569
822,822,0,2046,2726
823,823,0,2046,1716
824,824,0,2045,785
825,825,0,2046,158
826,826,0,2047,0
827,827,0,2046,319
828,828,0,2046,1065
829,829,0,2047,2050
830,830,0,2046,3032
831,831,0,2046,3772
832,832,0,2046,4090
833,833,0,2046,3909
834,834,0,2046,3273
835,835,0,2046,2336
836,836,0,2047,1327
837,837,0,2046,491
838,838,0,2047,32
839,839,0,2046,60
840,840,0,2047,571
841,841,0,2046,1438
842,842,0,2046,2451
843,843,0,2046,3363
844,844,0,2046,3954
845,845,0,2046,4078
846,846,0,2046,3706
847,847,0,2046,2929
848,848,0,2046,1935
849,849,0,2046,966
850,850,0,2046,257
851,851,0,2046,0
852,852,0,2047,207
853,853,0,2046,878
854,854,0,2047,1831
855,855,0,2047,2834
856,856,0,2046,3644
857,857,0,2047,4063
858,858,0,2046,3989
859,859,0,2046,3441
860,860,0,2046,2551
861,861,0,2047,1537
862,862,0,2046,644
863,863,0,2047,91
864,864,0,2047,12
865,865,0,2047,425
866,866,0,2046,1231
867,867,0,2046,2233
868,868,0,2046,3188
869,869,0,2046,3863
870,870,0,2046,4095
871,871,0,2046,3826
872,872,0,2046,3123
873,873,0,2046,2154
874,874,0,2047,1159
875,875,0,2046,377
876,876,0,2047,0
877,877,0,2047,118
878,878,0,2047,704
879,879,0,2046,1614
880,880,0,2046,2627
881,881,0,2046,3498
882,882,0,2046,4012
883,883,0,2046,4048
884,884,0,2046,3593
885,885,0,2046,2761
886,886,0,2046,1752
887,887,0,2046,815
888,888,0,2046,173
889,889,0,2046,0
890,890,0,2046,298
891,891,0,2046,1033
892,892,0,2047,2014
893,893,0,2047,3000
894,894,0,2046,3752
895,895,0,2046,4087
896,896,0,2047,3924
897,897,0,2046,3302
898,898,0,2046,2372
899,899,0,2047,1362
900,900,0,2046,516
901,901,0,2046,40
902,902,0,2047,51
903,903,0,2046,544
904,904,0,2047,1401
905,905,0,2047,2414
906,906,0,2047,3335
907,907,0,2047,3941
908,908,0,2046,4083
909,909,0,2046,3728
910,910,0,2046,2962
911,911,0,2046,1971
912,912,0,2046,997
913,913,0,2047,275
914,914,0,2047,0
915,915,0,2047,191
916,916,0,2046,848
917,917,0,2046,1795
918,918,0,2046,2801
919,919,0,2046,3622
920,920,0,2046,4056
921,921,0,2046,4001
922,922,0,2047,3468
923,923,0,2046,2586
924,924,0,2046,1573
925,925,0,2046,672
926,926,0,2046,104
927,927,0,2047,5
928,928,0,2046,401
929,929,0,2047,1196
930,930,0,2046,2197
931,931,0,2046,3158
932,932,0,2046,3846
933,933,0,2046,4095
934,934,0,2046,3843
935,935,0,2046,3153
936,936,0,2047,2191
937,937,0,2047,1192
938,938,0,2046,399
939,939,0,2046,4
940,940,0,2046,105
941,941,0,2046,676
942,942,0,2046,1578
943,943,0,2046,2592
944,944,0,2046,3472
945,945,0,2046,4002
946,946,0,2046,4055
947,947,0,2046,3618
948,948,0,2046,2795
949,949,0,2047,1789
950,950,0,2047,844
951,951,0,2046,188
952,952,0,2047,0
953,953,0,2046,279
954,954,0,2047,1001
955,955,0,2047,1977
956,956,0,2047,2967
957,957,0,2046,3731
958,958,0,2046,4083
959,959,0,2046,3938
960,960,0,2046,3331
961,961,0,2046,2409
962,962,0,2046,1397
963,963,0,2046,541
964,964,0,2047,49
965,965,0,2046,41
966,966,0,2046,519
967,967,0,2047,1367
968,968,0,2047,2378
969,969,0,2047,3306
970,970,0,2047,3926
971,971,0,2046,4087
972,972,0,2046,3750
973,973,0,2046,2995
974,974,0,2046,2008
975,975,0,2046,1029
976,976,0,2046,295
977,977,0,2046,0
978,978,0,2046,175
979,979,0,2047,818
980,980,0,2047,1758
981,981,0,2047,2765
982,982,0,2046,3597
983,983,0,2045,4048
984,984,0,2046,4011
985,985,0,2047,3494
986,986,0,2046,2622
987,987,0,2046,1609
988,988,0,2046,700
989,989,0,2047,116
990,990,0,2046,0
991,991,0,2046,380
992,992,0,2046,1163
993,993,0,2047,2159
994,994,0,2046,3126
995,995,0,2047,3828
996,996,0,2046,4094
997,997,0,2047,3860
998,998,0,2046,3184
999,999,0,2047,2228
1000,1000,0,2046,1226
1001,1001,0,2046,422
1002,1002,0,2046,10
1003,1003,0,2046,93
1004,1004,0,2046,648
1005,1005,0,2046,1542
1006,1006,0,2047,2556
1007,1007,0,2046,3444
1008,1008,0,2046,3990
1009,1009,0,2047,4061
1010,1010,0,2046,3641
1011,1011,0,2047,2829
1012,1012,0,2046,1826
1013,1013,0,2046,874
1014,1014,0,2046,205
1015,1015,0,2046,0
1016,1016,0,2046,260
1017,1017,0,2046,970
1018,1018,0,2047,1940
1019,1019,0,2046,2934
1020,1020,0,2046,3709
1021,1021,0,2046,4078
1022,1022,0,2046,3952
1023,1023,0,2046,3360
1024,1024,0,2046,2445
1025,1025,0,2046,1432
1026,1026,0,2046,566
1027,1027,0,2047,59
1028,1028,0,2047,33
