Sample in Buffer,Sample in Window,TRIGGER,adc1_data_a_d0[11:0],adc1_data_b_d0[11:0]
0,0,0,2047,3512
1,1,0,2047,2689
2,2,0,2046,1720
3,3,0,2047,823
4,4,0,2046,195
5,5,0,2047,0
6,6,0,2046,218
7,7,0,2046,863
8,8,0,2046,1769
9,9,0,2046,2735
10,10,0,2046,3547
11,11,0,2046,4022
12,12,0,2046,4057
13,13,0,2047,3643
14,14,0,2046,2871
15,15,0,2047,1915
16,16,0,2046,986
17,17,0,2046,292
18,18,0,2046,0
19,19,0,2046,135
20,20,0,2046,708
21,21,0,2046,1577
22,22,0,2046,2548
23,23,0,2046,3407
24,24,0,2046,3960
25,25,0,2047,4087
26,26,0,2046,3758
27,27,0,2046,3048
28,28,0,2046,2111
29,29,0,2046,1160
30,30,0,2046,403
31,31,0,2046,11
32,32,0,2046,69
33,33,0,2047,565
34,34,0,2046,1388
35,35,0,2046,2356
36,36,0,2047,3254
37,37,0,2046,3882
38,38,0,2047,4095
39,39,0,2047,3858
40,40,0,2047,3212
41,41,0,2046,2306
42,42,0,2046,1340
43,43,0,2046,530
44,44,0,2047,54
45,45,0,2047,20
46,46,0,2047,434
47,47,0,2047,1206
48,48,0,2046,2163
49,49,0,2046,3091
50,50,0,2046,3785
51,51,0,2047,4092
52,52,0,2047,3941
53,53,0,2047,3368
54,54,0,2047,2499
55,55,0,2046,1527
56,56,0,2047,669
57,57,0,2046,116
58,58,0,2046,0
59,59,0,2046,318
60,60,0,2046,1030
61,61,0,2046,1967
62,62,0,2046,2918
63,63,0,2046,3673
64,64,0,2046,4066
65,65,0,2047,4008
66,66,0,2046,3510
67,67,0,2046,2687
68,68,0,2047,1718
69,69,0,2046,822
70,70,0,2046,195
71,71,0,2046,0
72,72,0,2046,219
73,73,0,2046,865
74,74,0,2047,1771
75,75,0,2046,2737
76,76,0,2047,3548
77,77,0,2046,4023
78,78,0,2047,4057
79,79,0,2046,3641
80,80,0,2046,2870
81,81,0,2047,1914
82,82,0,2046,985
83,83,0,2046,290
84,84,0,2046,0
85,85,0,2046,135
86,86,0,2047,709
87,87,0,2046,1579
88,88,0,2047,2550
89,89,0,2046,3407
90,90,0,2046,3961
91,91,0,2046,4086
92,92,0,2046,3757
93,93,0,2046,3045
94,94,0,2047,2109
95,95,0,2046,1158
96,96,0,2046,402
97,97,0,2046,10
98,98,0,2046,68
99,99,0,2046,566
100,100,0,2046,1390
101,101,0,2046,2359
102,102,0,2047,3256
103,103,0,2047,3883
104,104,0,2047,4095
105,105,0,2047,3858
106,106,0,2046,3211
107,107,0,2047,2305
108,108,0,2046,1339
109,109,0,2046,528
110,110,0,2047,54
111,111,0,2047,20
112,112,0,2046,436
113,113,0,2046,1208
114,114,0,2046,2164
115,115,0,2046,3092
116,116,0,2046,3787
117,117,0,2046,4092
118,118,0,2046,3941
119,119,0,2046,3367
120,120,0,2046,2498
121,121,0,2047,1526
122,122,0,2046,667
123,123,0,2046,115
124,124,0,2046,0
125,125,0,2046,320
126,126,0,2047,1031
127,127,0,2047,1968
128,128,0,2046,2920
129,129,0,2047,3674
130,130,0,2046,4067
131,131,0,2047,4008
132,132,0,2046,3510
133,133,0,2046,2685
134,134,0,2047,1717
135,135,0,2046,820
136,136,0,2046,195
137,137,0,2046,0
138,138,0,2047,219
139,139,0,2046,866
140,140,0,2046,1772
141,141,0,2046,2739
142,142,0,2047,3549
143,143,0,2046,4024
144,144,0,2046,4056
145,145,0,2047,3641
146,146,0,2046,2868
147,147,0,2047,1912
148,148,0,2047,984
149,149,0,2046,290
150,150,0,2046,0
151,151,0,2046,136
152,152,0,2046,710
153,153,0,2046,1580
154,154,0,2046,2552
155,155,0,2046,3409
156,156,0,2046,3962
157,157,0,2047,4086
158,158,0,2046,3756
159,159,0,2047,3044
160,160,0,2046,2108
161,161,0,2046,1156
162,162,0,2047,401
163,163,0,2046,10
164,164,0,2047,69
165,165,0,2047,567
166,166,0,2046,1391
167,167,0,2046,2360
168,168,0,2047,3257
169,169,0,2047,3883
170,170,0,2046,4095
171,171,0,2047,3856
172,172,0,2046,3208
173,173,0,2046,2303
174,174,0,2047,1337
175,175,0,2046,527
176,176,0,2047,53
177,177,0,2047,20
178,178,0,2047,436
179,179,0,2047,1209
180,180,0,2046,2165
181,181,0,2046,3093
182,182,0,2047,3788
183,183,0,2046,4093
184,184,0,2046,3940
185,185,0,2046,3366
186,186,0,2046,2495
187,187,0,2046,1524
188,188,0,2046,667
189,189,0,2046,115
190,190,0,2047,0
191,191,0,2046,321
192,192,0,2046,1033
193,193,0,2046,1970
194,194,0,2047,2922
195,195,0,2046,3676
196,196,0,2046,4066
197,197,0,2047,4008
198,198,0,2046,3510
199,199,0,2046,2683
200,200,0,2046,1715
201,201,0,2046,818
202,202,0,2046,193
203,203,0,2046,0
204,204,0,2046,221
205,205,0,2046,868
206,206,0,2046,1775
207,207,0,2046,2741
208,208,0,2046,3551
209,209,0,2047,4024
210,210,0,2047,4056
211,211,0,2046,3639
212,212,0,2046,2867
213,213,0,2047,1910
214,214,0,2047,981
215,215,0,2047,289
216,216,0,2047,0
217,217,0,2046,137
218,218,0,2046,712
219,219,0,2046,1582
220,220,0,2047,2554
221,221,0,2047,3410
222,222,0,2047,3962
223,223,0,2046,4087
224,224,0,2047,3756
225,225,0,2047,3043
226,226,0,2046,2106
227,227,0,2046,1154
228,228,0,2046,400
229,229,0,2047,10
230,230,0,2046,69
231,231,0,2046,569
232,232,0,2046,1394
233,233,0,2047,2362
234,234,0,2046,3259
235,235,0,2045,3884
236,236,0,2046,4095
237,237,0,2046,3856
238,238,0,2046,3208
239,239,0,2046,2300
240,240,0,2047,1335
241,241,0,2047,526
242,242,0,2046,52
243,243,0,2046,21
244,244,0,2046,438
245,245,0,2046,1211
246,246,0,2046,2167
247,247,0,2046,3096
248,248,0,2047,3789
249,249,0,2046,4093
250,250,0,2046,3939
251,251,0,2047,3365
252,252,0,2046,2493
253,253,0,2046,1522
254,254,0,2047,665
255,255,0,2046,113
256,256,0,2046,0
257,257,0,2046,322
258,258,0,2047,1035
259,259,0,2047,1972
260,260,0,2046,2923
261,261,0,2047,3677
262,262,0,2047,4067
263,263,0,2046,4007
264,264,0,2046,3508
265,265,0,2047,2682
266,266,0,2046,1713
267,267,0,2046,817
268,268,0,2046,192
269,269,0,2046,0
270,270,0,2046,221
271,271,0,2046,869
272,272,0,2046,1777
273,273,0,2046,2742
274,274,0,2046,3552
275,275,0,2046,4024
276,276,0,2047,4056
277,277,0,2047,3638
278,278,0,2046,2865
279,279,0,2047,1908
280,280,0,2047,980
281,281,0,2046,288
282,282,0,2046,0
283,283,0,2046,137
284,284,0,2046,713
285,285,0,2046,1584
286,286,0,2047,2554
287,287,0,2046,3412
288,288,0,2046,3964
289,289,0,2046,4086
290,290,0,2047,3755
291,291,0,2046,3041
292,292,0,2046,2104
293,293,0,2046,1152
294,294,0,2046,399
295,295,0,2047,10
296,296,0,2046,70
297,297,0,2046,570
298,298,0,2046,1396
299,299,0,2047,2364
300,300,0,2046,3260
301,301,0,2047,3885
302,302,0,2046,4095
303,303,0,2046,3855
304,304,0,2046,3207
305,305,0,2046,2299
306,306,0,2046,1333
307,307,0,2046,525
308,308,0,2046,51
309,309,0,2046,22
310,310,0,2046,439
311,311,0,2047,1212
312,312,0,2047,2169
313,313,0,2047,3096
314,314,0,2046,3789
315,315,0,2046,4093
316,316,0,2047,3939
317,317,0,2046,3363
318,318,0,2046,2491
319,319,0,2046,1520
320,320,0,2046,663
321,321,0,2046,114
322,322,0,2047,0
323,323,0,2046,323
324,324,0,2046,1037
325,325,0,2047,1974
326,326,0,2047,2925
327,327,0,2047,3679
328,328,0,2047,4068
329,329,0,2046,4006
330,330,0,2046,3506
331,331,0,2046,2681
332,332,0,2046,1712
333,333,0,2046,816
334,334,0,2047,191
335,335,0,2046,0
336,336,0,2046,222
337,337,0,2046,871
338,338,0,2047,1779
339,339,0,2046,2743
340,340,0,2047,3552
341,341,0,2047,4025
342,342,0,2046,4056
343,343,0,2046,3638
344,344,0,2046,2863
345,345,0,2047,1907
346,346,0,2046,979
347,347,0,2047,286
348,348,0,2046,0
349,349,0,2046,138
350,350,0,2046,715
351,351,0,2047,1585
352,352,0,2047,2557
353,353,0,2047,3413
354,354,0,2046,3964
355,355,0,2047,4086
356,356,0,2046,3754
357,357,0,2047,3039
358,358,0,2046,2102
359,359,0,2046,1152
360,360,0,2046,397
361,361,0,2046,8
362,362,0,2046,70
363,363,0,2046,571
364,364,0,2046,1397
365,365,0,2046,2365
366,366,0,2046,3261
367,367,0,2047,3886
368,368,0,2046,4095
369,369,0,2047,3854
370,370,0,2046,3205
371,371,0,2046,2297
372,372,0,2046,1332
373,373,0,2046,524
374,374,0,2046,52
375,375,0,2047,21
376,376,0,2046,440
377,377,0,2047,1214
378,378,0,2046,2171
379,379,0,2046,3098
380,380,0,2046,3790
381,381,0,2046,4092
382,382,0,2046,3938
383,383,0,2046,3362
384,384,0,2046,2490
385,385,0,2046,1519
386,386,0,2046,663
387,387,0,2046,113
388,388,0,2046,0
389,389,0,2047,324
390,390,0,2046,1038
391,391,0,2046,1975
392,392,0,2046,2927
393,393,0,2046,3679
394,394,0,2046,4068
395,395,0,2046,4005
396,396,0,2046,3506
397,397,0,2046,2679
398,398,0,2046,1710
399,399,0,2046,814
400,400,0,2046,190
401,401,0,2046,0
402,402,0,2046,224
403,403,0,2047,872
404,404,0,2047,1781
405,405,0,2046,2746
406,406,0,2046,3554
407,407,0,2046,4026
408,408,0,2047,4055
409,409,0,2046,3636
410,410,0,2046,2861
411,411,0,2046,1905
412,412,0,2046,978
413,413,0,2047,285
414,414,0,2046,0
415,415,0,2046,139
416,416,0,2046,716
417,417,0,2046,1588
418,418,0,2046,2559
419,419,0,2046,3415
420,420,0,2046,3965
421,421,0,2046,4086
422,422,0,2046,3752
423,423,0,2046,3037
424,424,0,2047,2100
425,425,0,2047,1150
426,426,0,2046,396
427,427,0,2046,8
428,428,0,2046,71
429,429,0,2046,573
430,430,0,2046,1399
431,431,0,2047,2368
432,432,0,2047,3263
433,433,0,2047,3886
434,434,0,2046,4095
435,435,0,2046,3853
436,436,0,2046,3204
437,437,0,2046,2295
438,438,0,2046,1330
439,439,0,2046,521
440,440,0,2046,51
441,441,0,2046,21
442,442,0,2046,441
443,443,0,2046,1216
444,444,0,2046,2173
445,445,0,2047,3100
446,446,0,2046,3791
447,447,0,2047,4092
448,448,0,2047,3937
449,449,0,2047,3360
450,450,0,2046,2488
451,451,0,2046,1517
452,452,0,2045,661
453,453,0,2046,112
454,454,0,2046,0
455,455,0,2046,325
456,456,0,2046,1040
457,457,0,2046,1977
458,458,0,2046,2927
459,459,0,2046,3681
460,460,0,2046,4068
461,461,0,2046,4005
462,462,0,2047,3504
463,463,0,2046,2677
464,464,0,2046,1708
465,465,0,2046,813
466,466,0,2046,190
467,467,0,2047,0
468,468,0,2047,225
469,469,0,2046,873
470,470,0,2046,1782
471,471,0,2046,2747
472,472,0,2047,3556
473,473,0,2046,4025
474,474,0,2047,4054
475,475,0,2046,3634
476,476,0,2047,2860
477,477,0,2046,1902
478,478,0,2046,976
479,479,0,2046,284
480,480,0,2046,0
481,481,0,2047,139
482,482,0,2046,717
483,483,0,2046,1589
484,484,0,2046,2560
485,485,0,2046,3416
486,486,0,2046,3964
487,487,0,2046,4085
488,488,0,2046,3752
489,489,0,2046,3036
490,490,0,2046,2098
491,491,0,2046,1148
492,492,0,2047,396
493,493,0,2046,8
494,494,0,2047,72
495,495,0,2046,573
496,496,0,2047,1401
497,497,0,2047,2370
498,498,0,2046,3265
499,499,0,2046,3887
500,500,0,2046,4095
501,501,0,2047,3853
502,502,0,2046,3202
503,503,0,2046,2294
504,504,0,2047,1328
505,505,0,2046,521
506,506,0,2046,50
507,507,0,2046,22
508,508,0,2046,443
509,509,0,2046,1216
510,510,0,2046,2175
511,511,0,2046,3101
512,512,0,2046,3793
513,513,0,2046,4093
514,514,0,2046,3937
515,515,0,2046,3358
516,516,0,2046,2487
517,517,0,2046,1515
518,518,0,2046,660
519,519,0,2046,111
520,520,0,2046,0
521,521,0,2046,326
522,522,0,2046,1042
523,523,0,2046,1979
524,524,0,2047,2929
525,525,0,2047,3681
526,526,0,2046,4069
527,527,0,2045,4004
528,528,0,2046,3503
529,529,0,2046,2676
530,530,0,2047,1707
531,531,0,2046,812
532,532,0,2046,189
533,533,0,2047,0
534,534,0,2047,225
535,535,0,2046,875
536,536,0,2047,1784
537,537,0,2046,2749
538,538,0,2046,3557
539,539,0,2046,4026
540,540,0,2046,4054
541,541,0,2046,3634
542,542,0,2047,2859
543,543,0,2046,1900
544,544,0,2046,975
545,545,0,2046,285
546,546,0,2046,0
547,547,0,2046,140
548,548,0,2046,718
549,549,0,2046,1591
550,550,0,2047,2563
551,551,0,2046,3417
552,552,0,2046,3965
553,553,0,2047,4085
554,554,0,2047,3750
555,555,0,2047,3035
556,556,0,2047,2097
557,557,0,2046,1146
558,558,0,2046,394
559,559,0,2046,8
560,560,0,2046,72
561,561,0,2046,575
562,562,0,2047,1402
563,563,0,2046,2371
564,564,0,2046,3266
565,565,0,2046,3888
566,566,0,2046,4095
567,567,0,2046,3851
568,568,0,2046,3200
569,569,0,2046,2292
570,570,0,2047,1326
571,571,0,2046,519
572,572,0,2046,49
573,573,0,2047,23
574,574,0,2046,444
575,575,0,2046,1219
576,576,0,2046,2177
577,577,0,2046,3103
578,578,0,2046,3793
579,579,0,2046,4094
580,580,0,2047,3936
581,581,0,2046,3357
582,582,0,2046,2485
583,583,0,2046,1513
584,584,0,2046,659
585,585,0,2046,111
586,586,0,2046,0
587,587,0,2047,327
588,588,0,2047,1044
589,589,0,2046,1981
590,590,0,2047,2931
591,591,0,2046,3683
592,592,0,2047,4069
593,593,0,2046,4004
594,594,0,2046,3502
595,595,0,2047,2673
596,596,0,2046,1705
597,597,0,2046,810
598,598,0,2046,188
599,599,0,2046,0
600,600,0,2047,225
601,601,0,2046,877
602,602,0,2047,1786
603,603,0,2046,2751
604,604,0,2046,3558
605,605,0,2047,4026
606,606,0,2047,4054
607,607,0,2046,3633
608,608,0,2046,2857
609,609,0,2046,1899
610,610,0,2047,973
611,611,0,2046,282
612,612,0,2046,0
613,613,0,2046,141
614,614,0,2047,721
615,615,0,2046,1593
616,616,0,2046,2563
617,617,0,2046,3419
618,618,0,2047,3966
619,619,0,2046,4085
620,620,0,2047,3748
621,621,0,2046,3032
622,622,0,2047,2095
623,623,0,2047,1144
624,624,0,2046,394
625,625,0,2047,7
626,626,0,2046,73
627,627,0,2047,576
628,628,0,2047,1403
629,629,0,2047,2373
630,630,0,2047,3267
631,631,0,2046,3888
632,632,0,2046,4095
633,633,0,2046,3850
634,634,0,2047,3199
635,635,0,2046,2290
636,636,0,2046,1325
637,637,0,2046,518
638,638,0,2047,49
639,639,0,2047,22
640,640,0,2045,444
641,641,0,2047,1221
642,642,0,2047,2178
643,643,0,2046,3104
644,644,0,2046,3794
645,645,0,2046,4093
646,646,0,2046,3936
647,647,0,2046,3355
648,648,0,2046,2483
649,649,0,2047,1512
650,650,0,2047,657
651,651,0,2046,110
652,652,0,2046,0
653,653,0,2047,328
654,654,0,2046,1045
655,655,0,2046,1982
656,656,0,2047,2933
657,657,0,2046,3683
658,658,0,2046,4069
659,659,0,2046,4003
660,660,0,2046,3500
661,661,0,2046,2671
662,662,0,2047,1702
663,663,0,2046,808
664,664,0,2047,188
665,665,0,2047,0
666,666,0,2046,226
667,667,0,2046,878
668,668,0,2047,1787
669,669,0,2047,2752
670,670,0,2046,3559
671,671,0,2046,4027
672,672,0,2047,4054
673,673,0,2047,3631
674,674,0,2046,2855
675,675,0,2047,1897
676,676,0,2047,971
677,677,0,2046,282
678,678,0,2046,0
679,679,0,2047,142
680,680,0,2046,722
681,681,0,2047,1595
682,682,0,2046,2566
683,683,0,2047,3419
684,684,0,2046,3967
685,685,0,2046,4085
686,686,0,2046,3748
687,687,0,2045,3031
688,688,0,2046,2093
689,689,0,2047,1143
690,690,0,2046,392
691,691,0,2047,6
692,692,0,2047,74
693,693,0,2047,577
694,694,0,2046,1406
695,695,0,2047,2375
696,696,0,2047,3269
697,697,0,2047,3890
698,698,0,2046,4095
699,699,0,2047,3850
700,700,0,2046,3197
701,701,0,2046,2288
702,702,0,2047,1323
703,703,0,2047,516
704,704,0,2046,49
705,705,0,2046,23
706,706,0,2047,445
707,707,0,2046,1223
708,708,0,2047,2180
709,709,0,2046,3107
710,710,0,2047,3796
711,711,0,2047,4093
712,712,0,2047,3934
713,713,0,2046,3354
714,714,0,2046,2480
715,715,0,2046,1508
716,716,0,2047,655
717,717,0,2046,109
718,718,0,2046,0
719,719,0,2046,329
720,720,0,2047,1046
721,721,0,2046,1984
722,722,0,2047,2935
723,723,0,2046,3685
724,724,0,2046,4069
725,725,0,2046,4003
726,726,0,2047,3498
727,727,0,2046,2670
728,728,0,2046,1701
729,729,0,2046,808
730,730,0,2046,187
731,731,0,2046,0
732,732,0,2047,228
733,733,0,2046,880
734,734,0,2046,1790
735,735,0,2046,2755
736,736,0,2047,3560
737,737,0,2047,4028
738,738,0,2046,4053
739,739,0,2046,3630
740,740,0,2046,2853
741,741,0,2047,1895
742,742,0,2046,969
743,743,0,2047,281
744,744,0,2046,0
745,745,0,2046,142
746,746,0,2047,724
747,747,0,2046,1597
748,748,0,2046,2568
749,749,0,2047,3421
750,750,0,2046,3967
751,751,0,2046,4085
752,752,0,2047,3747
753,753,0,2046,3029
754,754,0,2046,2091
755,755,0,2047,1141
756,756,0,2047,391
757,757,0,2046,7
758,758,0,2047,74
759,759,0,2046,578
760,760,0,2047,1408
761,761,0,2046,2377
762,762,0,2046,3270
763,763,0,2047,3891
764,764,0,2047,4095
765,765,0,2047,3849
766,766,0,2047,3196
767,767,0,2046,2286
768,768,0,2047,1321
769,769,0,2046,516
770,770,0,2046,49
771,771,0,2046,23
772,772,0,2046,448
773,773,0,2046,1224
774,774,0,2046,2183
775,775,0,2047,3109
776,776,0,2047,3796
777,777,0,2047,4094
778,778,0,2047,3934
779,779,0,2046,3352
780,780,0,2046,2479
781,781,0,2047,1508
782,782,0,2046,654
783,783,0,2046,109
784,784,0,2046,0
785,785,0,2046,330
786,786,0,2046,1048
787,787,0,2046,1987
788,788,0,2047,2937
789,789,0,2046,3687
790,790,0,2047,4070
791,791,0,2046,4002
792,792,0,2046,3497
793,793,0,2046,2668
794,794,0,2046,1699
795,795,0,2046,806
796,796,0,2046,186
797,797,0,2047,0
798,798,0,2047,229
799,799,0,2046,881
800,800,0,2046,1792
801,801,0,2046,2756
802,802,0,2046,3561
803,803,0,2046,4028
804,804,0,2046,4053
805,805,0,2046,3629
806,806,0,2046,2851
807,807,0,2046,1893
808,808,0,2046,967
809,809,0,2047,280
810,810,0,2046,0
811,811,0,2047,143
812,812,0,2047,725
813,813,0,2047,1599
814,814,0,2047,2570
815,815,0,2046,3423
816,816,0,2047,3968
817,817,0,2047,4085
818,818,0,2046,3746
819,819,0,2046,3028
820,820,0,2047,2089
821,821,0,2046,1140
822,822,0,2046,390
823,823,0,2046,7
824,824,0,2046,75
825,825,0,2046,580
826,826,0,2046,1409
827,827,0,2047,2379
828,828,0,2047,3273
829,829,0,2046,3892
830,830,0,2046,4095
831,831,0,2046,3848
832,832,0,2047,3195
833,833,0,2046,2284
834,834,0,2047,1319
835,835,0,2046,514
836,836,0,2046,48
837,837,0,2047,24
838,838,0,2046,449
839,839,0,2046,1226
840,840,0,2046,2184
841,841,0,2047,3110
842,842,0,2046,3798
843,843,0,2046,4094
844,844,0,2046,3933
845,845,0,2046,3352
846,846,0,2046,2477
847,847,0,2046,1506
848,848,0,2046,652
849,849,0,2047,108
850,850,0,2046,0
851,851,0,2046,331
852,852,0,2046,1050
853,853,0,2047,1989
854,854,0,2047,2938
855,855,0,2046,3687
856,856,0,2046,4071
857,857,0,2047,4001
858,858,0,2046,3496
859,859,0,2046,2666
860,860,0,2046,1697
861,861,0,2046,804
862,862,0,2046,185
863,863,0,2046,0
864,864,0,2047,229
865,865,0,2046,883
866,866,0,2046,1793
867,867,0,2046,2758
868,868,0,2046,3563
869,869,0,2046,4028
870,870,0,2046,4052
871,871,0,2047,3628
872,872,0,2046,2850
873,873,0,2046,1892
874,874,0,2047,966
875,875,0,2046,278
876,876,0,2046,0
877,877,0,2047,144
878,878,0,2046,726
879,879,0,2046,1601
880,880,0,2045,2572
881,881,0,2047,3424
882,882,0,2047,3969
883,883,0,2047,4084
884,884,0,2046,3745
885,885,0,2047,3026
886,886,0,2046,2087
887,887,0,2046,1138
888,888,0,2046,388
889,889,0,2046,7
890,890,0,2047,76
891,891,0,2046,581
892,892,0,2047,1411
893,893,0,2047,2380
894,894,0,2047,3273
895,895,0,2046,3892
896,896,0,2046,4095
897,897,0,2046,3847
898,898,0,2047,3193
899,899,0,2046,2282
900,900,0,2046,1317
901,901,0,2046,513
902,902,0,2047,48
903,903,0,2047,25
904,904,0,2046,450
905,905,0,2047,1228
906,906,0,2046,2186
907,907,0,2046,3111
908,908,0,2047,3798
909,909,0,2046,4094
910,910,0,2046,3932
911,911,0,2046,3349
912,912,0,2047,2475
913,913,0,2046,1504
914,914,0,2046,652
915,915,0,2047,107
916,916,0,2047,0
917,917,0,2046,332
918,918,0,2046,1052
919,919,0,2046,1991
920,920,0,2046,2940
921,921,0,2046,3688
922,922,0,2046,4071
923,923,0,2047,4001
924,924,0,2046,3495
925,925,0,2046,2664
926,926,0,2046,1695
927,927,0,2046,802
928,928,0,2046,185
929,929,0,2046,0
930,930,0,2046,231
931,931,0,2046,884
932,932,0,2046,1795
933,933,0,2046,2760
934,934,0,2046,3564
935,935,0,2047,4029
936,936,0,2046,4052
937,937,0,2046,3626
938,938,0,2047,2848
939,939,0,2046,1889
940,940,0,2047,964
941,941,0,2046,278
942,942,0,2046,0
943,943,0,2046,145
944,944,0,2047,728
945,945,0,2046,1602
946,946,0,2047,2574
947,947,0,2047,3425
948,948,0,2047,3969
949,949,0,2046,4084
950,950,0,2046,3744
951,951,0,2046,3023
952,952,0,2046,2086
953,953,0,2047,1136
954,954,0,2047,387
955,955,0,2047,6
956,956,0,2047,76
957,957,0,2046,583
958,958,0,2046,1414
959,959,0,2046,2383
960,960,0,2047,3275
961,961,0,2046,3894
962,962,0,2046,4095
963,963,0,2046,3846
964,964,0,2046,3192
965,965,0,2047,2281
966,966,0,2046,1316
967,967,0,2047,511
968,968,0,2047,47
969,969,0,2047,25
970,970,0,2047,451
971,971,0,2046,1230
972,972,0,2047,2188
973,973,0,2046,3114
974,974,0,2046,3799
975,975,0,2046,4095
976,976,0,2047,3931
977,977,0,2046,3349
978,978,0,2047,2473
979,979,0,2047,1502
980,980,0,2046,650
981,981,0,2046,107
982,982,0,2046,0
983,983,0,2047,333
984,984,0,2047,1053
985,985,0,2047,1992
986,986,0,2047,2941
987,987,0,2047,3689
988,988,0,2046,4071
989,989,0,2047,4000
990,990,0,2046,3493
991,991,0,2047,2663
992,992,0,2046,1694
993,993,0,2047,801
994,994,0,2046,183
995,995,0,2046,0
996,996,0,2046,231
997,997,0,2047,886
998,998,0,2046,1797
999,999,0,2046,2761
1000,1000,0,2047,3566
1001,1001,0,2047,4029
1002,1002,0,2046,4051
1003,1003,0,2047,3625
1004,1004,0,2047,2846
1005,1005,0,2047,1887
1006,1006,0,2047,963
1007,1007,0,2046,277
1008,1008,0,2046,0
1009,1009,0,2046,146
1010,1010,0,2046,729
1011,1011,0,2046,1603
1012,1012,0,2046,2575
1013,1013,0,2047,3427
1014,1014,0,2046,3970
1015,1015,0,2046,4083
1016,1016,0,2047,3743
1017,1017,0,2046,3023
1018,1018,0,2046,2083
1019,1019,0,2046,1134
1020,1020,0,2047,386
1021,1021,0,2047,5
1022,1022,0,2046,76
1023,1023,0,2046,584
1024,1024,0,2047,1414
1025,1025,0,2046,2385
1026,1026,0,2047,3276
1027,1027,0,2046,3895
1028,1028,0,2046,4095
