Sample in Buffer,Sample in Window,TRIGGER,adc1_data_a_d0[11:0],adc1_data_b_d0[11:0]
0,0,0,2046,0
1,1,0,2046,216
2,2,0,2046,644
3,3,0,2046,1226
4,4,0,2047,1897
5,5,0,2046,2584
6,6,0,2045,3211
7,7,0,2046,3709
8,8,0,2047,4022
9,9,0,2046,4095
10,10,0,2046,3983
11,11,0,2045,3634
12,12,0,2046,3110
13,13,0,2046,2467
14,14,0,2046,1777
15,15,0,2046,1117
16,16,0,2046,557
17,17,0,2046,161
18,18,0,2046,0
19,19,0,2046,10
20,20,0,2046,272
21,21,0,2047,729
22,22,0,2046,1329
23,23,0,2046,2008
24,24,0,2046,2691
25,25,0,2046,3301
26,26,0,2046,3772
27,27,0,2046,4053
28,28,0,2046,4095
29,29,0,2046,3941
30,30,0,2046,3560
31,31,0,2047,3013
32,32,0,2046,2358
33,33,0,2046,1668
34,34,0,2046,1019
35,35,0,2046,482
36,36,0,2046,116
37,37,0,2047,0
38,38,0,2046,38
39,39,0,2046,333
40,40,0,2046,817
41,41,0,2046,1435
42,42,0,2046,2119
43,43,0,2046,2795
44,44,0,2046,3388
45,45,0,2046,3831
46,46,0,2046,4078
47,47,0,2046,4095
48,48,0,2046,3893
49,49,0,2046,3482
50,50,0,2047,2912
51,51,0,2047,2247
52,52,0,2047,1559
53,53,0,2046,923
54,54,0,2047,410
55,55,0,2046,77
56,56,0,2046,0
57,57,0,2046,71
58,58,0,2046,400
59,59,0,2046,908
60,60,0,2047,1542
61,61,0,2046,2230
62,62,0,2046,2898
63,63,0,2047,3470
64,64,0,2047,3885
65,65,0,2047,4095
66,66,0,2046,4081
67,67,0,2047,3840
68,68,0,2046,3401
69,69,0,2047,2811
70,70,0,2047,2137
71,71,0,2046,1451
72,72,0,2046,832
73,73,0,2046,343
74,74,0,2046,43
75,75,0,2046,0
76,76,0,2046,110
77,77,0,2046,470
78,78,0,2046,1003
79,79,0,2046,1651
80,80,0,2046,2341
81,81,0,2046,2998
82,82,0,2046,3550
83,83,0,2046,3934
84,84,0,2046,4095
85,85,0,2046,4057
86,86,0,2047,3781
87,87,0,2046,3314
88,88,0,2046,2707
89,89,0,2046,2025
90,90,0,2046,1345
91,91,0,2046,742
92,92,0,2045,281
93,93,0,2046,13
94,94,0,2046,0
95,95,0,2047,154
96,96,0,2046,546
97,97,0,2046,1101
98,98,0,2046,1761
99,99,0,2047,2450
100,100,0,2046,3095
101,101,0,2047,3623
102,102,0,2046,3977
103,103,0,2046,4095
104,104,0,2046,4027
105,105,0,2046,3719
106,106,0,2046,3224
107,107,0,2046,2601
108,108,0,2046,1913
109,109,0,2046,1241
110,110,0,2046,657
111,111,0,2046,224
112,112,0,2046,0
113,113,0,2046,0
114,114,0,2047,203
115,115,0,2046,626
116,116,0,2046,1202
117,117,0,2046,1872
118,118,0,2046,2559
119,119,0,2046,3189
120,120,0,2046,3693
121,121,0,2047,4013
122,122,0,2046,4095
123,123,0,2046,3991
124,124,0,2046,3651
125,125,0,2046,3131
126,126,0,2046,2493
127,127,0,2046,1803
128,128,0,2046,1139
129,129,0,2046,575
130,130,0,2046,172
131,131,0,2046,0
132,132,0,2046,5
133,133,0,2045,259
134,134,0,2046,709
135,135,0,2046,1305
136,136,0,2047,1982
137,137,0,2046,2666
138,138,0,2046,3280
139,139,0,2046,3758
140,140,0,2047,4047
141,141,0,2046,4095
142,142,0,2046,3951
143,143,0,2046,3578
144,144,0,2046,3035
145,145,0,2046,2384
146,146,0,2046,1693
147,147,0,2046,1041
148,148,0,2046,499
149,149,0,2046,126
150,150,0,2046,0
151,151,0,2046,30
152,152,0,2047,318
153,153,0,2046,796
154,154,0,2046,1410
155,155,0,2046,2094
156,156,0,2046,2771
157,157,0,2046,3368
158,158,0,2046,3818
159,159,0,2046,4073
160,160,0,2046,4095
161,161,0,2046,3905
162,162,0,2046,3501
163,163,0,2046,2937
164,164,0,2047,2273
165,165,0,2047,1584
166,166,0,2046,945
167,167,0,2046,426
168,168,0,2046,86
169,169,0,2046,0
170,170,0,2047,62
171,171,0,2046,383
172,172,0,2046,887
173,173,0,2046,1518
174,174,0,2047,2205
175,175,0,2046,2875
176,176,0,2046,3451
177,177,0,2046,3874
178,178,0,2046,4093
179,179,0,2047,4086
180,180,0,2046,3853
181,181,0,2046,3419
182,182,0,2046,2835
183,183,0,2046,2162
184,184,0,2046,1475
185,185,0,2046,851
186,186,0,2047,359
187,187,0,2047,50
188,188,0,2046,0
189,189,0,2046,99
190,190,0,2046,453
191,191,0,2046,981
192,192,0,2046,1625
193,193,0,2046,2315
194,194,0,2046,2975
195,195,0,2046,3532
196,196,0,2046,3923
197,197,0,2046,4095
198,198,0,2046,4063
199,199,0,2046,3796
200,200,0,2046,3335
201,201,0,2046,2731
202,202,0,2046,2051
203,203,0,2046,1370
204,204,0,2046,762
205,205,0,2046,295
206,206,0,2046,20
207,207,0,2046,0
208,208,0,2046,142
209,209,0,2046,528
210,210,0,2046,1078
211,211,0,2047,1734
212,212,0,2046,2425
213,213,0,2046,3073
214,214,0,2047,3606
215,215,0,2047,3968
216,216,0,2047,4095
217,217,0,2046,4034
218,218,0,2046,3734
219,219,0,2046,3246
220,220,0,2046,2625
221,221,0,2045,1939
222,222,0,2046,1266
223,223,0,2046,676
224,224,0,2047,237
225,225,0,2046,0
226,226,0,2047,0
227,227,0,2046,192
228,228,0,2047,606
229,229,0,2046,1179
230,230,0,2046,1845
231,231,0,2047,2534
232,232,0,2047,3168
233,233,0,2046,3677
234,234,0,2046,4006
235,235,0,2046,4095
236,236,0,2046,4000
237,237,0,2046,3667
238,238,0,2046,3153
239,239,0,2046,2517
240,240,0,2046,1829
241,241,0,2046,1163
242,242,0,2046,594
243,243,0,2046,184
244,244,0,2046,0
245,245,0,2046,0
246,246,0,2046,246
247,247,0,2046,689
248,248,0,2046,1281
249,249,0,2046,1957
250,250,0,2046,2641
251,251,0,2046,3259
252,252,0,2046,3743
253,253,0,2047,4039
254,254,0,2046,4095
255,255,0,2046,3961
256,256,0,2046,3595
257,257,0,2046,3058
258,258,0,2046,2409
259,259,0,2046,1719
260,260,0,2047,1064
261,261,0,2046,517
262,262,0,2046,137
263,263,0,2046,0
264,264,0,2046,24
265,265,0,2047,304
266,266,0,2046,776
267,267,0,2046,1385
268,268,0,2046,2068
269,269,0,2046,2747
270,270,0,2047,3348
271,271,0,2046,3805
272,272,0,2046,4067
273,273,0,2046,4095
274,274,0,2046,3916
275,275,0,2046,3519
276,276,0,2046,2960
277,277,0,2046,2299
278,278,0,2046,1609
279,279,0,2046,967
280,280,0,2046,443
281,281,0,2047,95
282,282,0,2046,0
283,283,0,2046,54
284,284,0,2047,368
285,285,0,2046,866
286,286,0,2046,1492
287,287,0,2046,2179
288,288,0,2046,2850
289,289,0,2047,3432
290,290,0,2046,3861
291,291,0,2047,4088
292,292,0,2046,4090
293,293,0,2047,3865
294,294,0,2047,3439
295,295,0,2046,2859
296,296,0,2046,2188
297,297,0,2046,1501
298,298,0,2046,873
299,299,0,2047,374
300,300,0,2046,58
301,301,0,2047,0
302,302,0,2047,91
303,303,0,2047,437
304,304,0,2047,959
305,305,0,2047,1601
306,306,0,2046,2289
307,307,0,2046,2951
308,308,0,2046,3512
309,309,0,2047,3911
310,310,0,2047,4095
311,311,0,2047,4069
312,312,0,2047,3810
313,313,0,2046,3355
314,314,0,2046,2756
315,315,0,2046,2078
316,316,0,2046,1394
317,317,0,2047,782
318,318,0,2046,310
319,319,0,2047,27
320,320,0,2046,0
321,321,0,2047,132
322,322,0,2046,511
323,323,0,2047,1056
324,324,0,2047,1709
325,325,0,2046,2400
326,326,0,2046,3050
327,327,0,2046,3589
328,328,0,2047,3958
329,329,0,2046,4095
330,330,0,2046,4042
331,331,0,2046,3749
332,332,0,2046,3267
333,333,0,2046,2650
334,334,0,2046,1965
335,335,0,2046,1290
336,336,0,2046,697
337,337,0,2046,250
338,338,0,2047,1
339,339,0,2047,0
340,340,0,2046,180
341,341,0,2046,588
342,342,0,2047,1155
343,343,0,2046,1820
344,344,0,2046,2509
345,345,0,2047,3146
346,346,0,2046,3661
347,347,0,2047,3998
348,348,0,2046,4095
349,349,0,2046,4009
350,350,0,2046,3683
351,351,0,2046,3175
352,352,0,2046,2543
353,353,0,2046,1855
354,354,0,2046,1187
355,355,0,2046,613
356,356,0,2046,196
357,357,0,2046,0
358,358,0,2046,0
359,359,0,2047,232
360,360,0,2046,668
361,361,0,2047,1256
362,362,0,2046,1931
363,363,0,2046,2617
364,364,0,2046,3238
365,365,0,2047,3728
366,366,0,2046,4032
367,367,0,2046,4095
368,368,0,2047,3970
369,369,0,2047,3612
370,370,0,2047,3081
371,371,0,2046,2434
372,372,0,2046,1744
373,373,0,2046,1086
374,374,0,2046,534
375,375,0,2046,147
376,376,0,2046,0
377,377,0,2047,18
378,378,0,2046,290
379,379,0,2046,754
380,380,0,2046,1361
381,381,0,2046,2042
382,382,0,2046,2723
383,383,0,2046,3328
384,384,0,2046,3791
385,385,0,2047,4061
386,386,0,2047,4095
387,387,0,2047,3927
388,388,0,2046,3536
389,389,0,2046,2983
390,390,0,2047,2325
391,391,0,2047,1635
392,392,0,2046,989
393,393,0,2046,460
394,394,0,2047,104
395,395,0,2046,0
396,396,0,2047,47
397,397,0,2046,351
398,398,0,2046,844
399,399,0,2046,1467
400,400,0,2046,2152
401,401,0,2047,2826
402,402,0,2046,3414
403,403,0,2046,3848
404,404,0,2046,4084
405,405,0,2046,4094
406,406,0,2046,3877
407,407,0,2046,3458
408,408,0,2046,2882
409,409,0,2047,2214
410,410,0,2046,1526
411,411,0,2046,895
412,412,0,2046,390
413,413,0,2047,66
414,414,0,2046,0
415,415,0,2047,82
416,416,0,2047,420
417,417,0,2046,936
418,418,0,2046,1575
419,419,0,2046,2263
420,420,0,2046,2928
421,421,0,2046,3494
422,422,0,2046,3900
423,423,0,2047,4095
424,424,0,2047,4074
425,425,0,2047,3823
426,426,0,2046,3375
427,427,0,2046,2780
428,428,0,2047,2103
429,429,0,2046,1419
430,430,0,2046,804
431,431,0,2047,324
432,432,0,2046,33
433,433,0,2046,0
434,434,0,2046,122
435,435,0,2046,492
436,436,0,2046,1033
437,437,0,2046,1684
438,438,0,2046,2375
439,439,0,2047,3026
440,440,0,2046,3572
441,441,0,2046,3947
442,442,0,2046,4095
443,443,0,2047,4049
444,444,0,2046,3763
445,445,0,2046,3288
446,446,0,2046,2675
447,447,0,2046,1992
448,448,0,2047,1314
449,449,0,2047,716
450,450,0,2047,264
451,451,0,2046,6
452,452,0,2046,0
453,453,0,2046,168
454,454,0,2047,569
455,455,0,2046,1131
456,456,0,2047,1794
457,457,0,2045,2484
458,458,0,2046,3124
459,459,0,2047,3645
460,460,0,2046,3988
461,461,0,2047,4095
462,462,0,2046,4016
463,463,0,2046,3699
464,464,0,2047,3197
465,465,0,2046,2568
466,466,0,2046,1881
467,467,0,2046,1211
468,468,0,2047,633
469,469,0,2046,209
470,470,0,2046,0
471,471,0,2046,0
472,472,0,2046,220
473,473,0,2046,649
474,474,0,2046,1233
475,475,0,2046,1904
476,476,0,2046,2591
477,477,0,2046,3217
478,478,0,2046,3713
479,479,0,2046,4024
480,480,0,2046,4095
481,481,0,2046,3980
482,482,0,2046,3629
483,483,0,2046,3103
484,484,0,2046,2460
485,485,0,2047,1770
486,486,0,2046,1110
487,487,0,2046,552
488,488,0,2047,158
489,489,0,2046,0
490,490,0,2046,11
491,491,0,2047,275
492,492,0,2046,735
493,493,0,2046,1336
494,494,0,2046,2016
495,495,0,2046,2698
496,496,0,2046,3307
497,497,0,2046,3777
498,498,0,2046,4054
499,499,0,2046,4095
500,500,0,2046,3937
501,501,0,2046,3555
502,502,0,2046,3006
503,503,0,2047,2350
504,504,0,2046,1661
505,505,0,2046,1011
506,506,0,2046,476
507,507,0,2046,114
508,508,0,2046,0
509,509,0,2047,39
510,510,0,2046,337
511,511,0,2046,822
512,512,0,2047,1442
513,513,0,2046,2127
514,514,0,2046,2802
515,515,0,2046,3393
516,516,0,2047,3834
517,517,0,2046,4080
518,518,0,2046,4095
519,519,0,2046,3890
520,520,0,2047,3477
521,521,0,2046,2906
522,522,0,2046,2240
523,523,0,2046,1551
524,524,0,2046,916
525,525,0,2046,405
526,526,0,2047,74
527,527,0,2046,0
528,528,0,2046,73
529,529,0,2046,404
530,530,0,2045,915
531,531,0,2046,1550
532,532,0,2046,2239
533,533,0,2046,2905
534,534,0,2046,3476
535,535,0,2046,3889
536,536,0,2046,4095
537,537,0,2046,4080
538,538,0,2046,3836
539,539,0,2047,3395
540,540,0,2046,2804
541,541,0,2046,2130
542,542,0,2047,1444
543,543,0,2046,825
544,544,0,2046,338
545,545,0,2046,40
546,546,0,2046,0
547,547,0,2046,113
548,548,0,2046,476
549,549,0,2046,1011
550,550,0,2046,1659
551,551,0,2046,2348
552,552,0,2046,3004
553,553,0,2046,3555
554,554,0,2046,3937
555,555,0,2046,4095
556,556,0,2046,4055
557,557,0,2046,3777
558,558,0,2046,3308
559,559,0,2046,2699
560,560,0,2046,2017
561,561,0,2046,1338
562,562,0,2046,736
563,563,0,2046,276
564,564,0,2047,12
565,565,0,2047,0
566,566,0,2046,157
567,567,0,2046,551
568,568,0,2047,1108
569,569,0,2047,1768
570,570,0,2046,2458
571,571,0,2047,3101
572,572,0,2046,3628
573,573,0,2046,3980
574,574,0,2047,4095
575,575,0,2046,4025
576,576,0,2046,3714
577,577,0,2046,3219
578,578,0,2047,2593
579,579,0,2046,1906
580,580,0,2046,1234
581,581,0,2046,651
582,582,0,2046,221
583,583,0,2046,0
584,584,0,2046,0
585,585,0,2046,207
586,586,0,2046,630
587,587,0,2046,1209
588,588,0,2047,1879
589,589,0,2047,2566
590,590,0,2046,3196
591,591,0,2046,3697
592,592,0,2046,4017
593,593,0,2046,4095
594,594,0,2046,3990
595,595,0,2047,3646
596,596,0,2046,3125
597,597,0,2047,2485
598,598,0,2047,1796
599,599,0,2046,1133
600,600,0,2046,570
601,601,0,2046,168
602,602,0,2046,0
603,603,0,2045,6
604,604,0,2046,262
605,605,0,2047,714
606,606,0,2046,1312
607,607,0,2046,1990
608,608,0,2047,2674
609,609,0,2046,3287
610,610,0,2046,3763
611,611,0,2047,4048
612,612,0,2046,4095
613,613,0,2046,3949
614,614,0,2046,3573
615,615,0,2047,3029
616,616,0,2046,2376
617,617,0,2047,1686
618,618,0,2046,1035
619,619,0,2047,494
620,620,0,2047,123
621,621,0,2046,0
622,622,0,2046,33
623,623,0,2046,322
624,624,0,2046,802
625,625,0,2046,1418
626,626,0,2047,2101
627,627,0,2047,2778
628,628,0,2046,3374
629,629,0,2047,3822
630,630,0,2046,4074
631,631,0,2047,4095
632,632,0,2046,3902
633,633,0,2047,3496
634,634,0,2046,2929
635,635,0,2046,2265
636,636,0,2047,1576
637,637,0,2046,938
638,638,0,2046,422
639,639,0,2046,83
640,640,0,2046,0
641,641,0,2046,65
642,642,0,2047,388
643,643,0,2046,893
644,644,0,2046,1524
645,645,0,2047,2213
646,646,0,2046,2881
647,647,0,2047,3457
648,648,0,2047,3876
649,649,0,2046,4094
650,650,0,2047,4085
651,651,0,2046,3849
652,652,0,2046,3414
653,653,0,2046,2828
654,654,0,2046,2155
655,655,0,2047,1468
656,656,0,2047,846
657,657,0,2046,355
658,658,0,2046,47
659,659,0,2046,0
660,660,0,2047,103
661,661,0,2046,458
662,662,0,2047,988
663,663,0,2046,1633
664,664,0,2045,2322
665,665,0,2046,2982
666,666,0,2047,3537
667,667,0,2047,3926
668,668,0,2046,4095
669,669,0,2046,4061
670,670,0,2047,3792
671,671,0,2046,3329
672,672,0,2046,2724
673,673,0,2046,2044
674,674,0,2047,1363
675,675,0,2046,756
676,676,0,2046,291
677,677,0,2046,18
678,678,0,2046,0
679,679,0,2047,146
680,680,0,2046,533
681,681,0,2046,1085
682,682,0,2046,1743
683,683,0,2046,2433
684,684,0,2047,3079
685,685,0,2046,3612
686,686,0,2046,3970
687,687,0,2046,4095
688,688,0,2046,4032
689,689,0,2046,3729
690,690,0,2046,3240
691,691,0,2046,2618
692,692,0,2046,1932
693,693,0,2046,1258
694,694,0,2046,671
695,695,0,2046,234
696,696,0,2046,0
697,697,0,2046,0
698,698,0,2047,195
699,699,0,2046,612
700,700,0,2046,1186
701,701,0,2047,1854
702,702,0,2046,2542
703,703,0,2046,3175
704,704,0,2047,3682
705,705,0,2046,4008
706,706,0,2047,4095
707,707,0,2046,3999
708,708,0,2046,3662
709,709,0,2047,3147
710,710,0,2046,2510
711,711,0,2046,1821
712,712,0,2047,1157
713,713,0,2046,589
714,714,0,2046,180
715,715,0,2046,0
716,716,0,2047,1
717,717,0,2046,249
718,718,0,2046,695
719,719,0,2046,1288
720,720,0,2047,1964
721,721,0,2046,2649
722,722,0,2046,3266
723,723,0,2047,3748
724,724,0,2046,4042
725,725,0,2047,4095
726,726,0,2046,3958
727,727,0,2046,3590
728,728,0,2046,3051
729,729,0,2046,2401
730,730,0,2046,1711
731,731,0,2047,1057
732,732,0,2047,511
733,733,0,2046,133
734,734,0,2046,0
735,735,0,2046,26
736,736,0,2046,308
737,737,0,2046,781
738,738,0,2047,1393
739,739,0,2047,2076
740,740,0,2046,2754
741,741,0,2047,3354
742,742,0,2046,3808
743,743,0,2046,4069
744,744,0,2046,4095
745,745,0,2046,3912
746,746,0,2047,3514
747,747,0,2046,2953
748,748,0,2047,2291
749,749,0,2046,1602
750,750,0,2047,960
751,751,0,2046,438
752,752,0,2046,92
753,753,0,2047,0
754,754,0,2046,57
755,755,0,2046,372
756,756,0,2046,872
757,757,0,2046,1499
758,758,0,2047,2186
759,759,0,2046,2857
760,760,0,2047,3438
761,761,0,2046,3864
762,762,0,2047,4090
763,763,0,2046,4089
764,764,0,2046,3862
765,765,0,2046,3433
766,766,0,2047,2852
767,767,0,2046,2180
768,768,0,2046,1494
769,769,0,2047,867
770,770,0,2046,369
771,771,0,2046,56
772,772,0,2046,0
773,773,0,2047,93
774,774,0,2046,442
775,775,0,2046,966
776,776,0,2046,1607
777,777,0,2047,2298
778,778,0,2046,2959
779,779,0,2047,3518
780,780,0,2046,3916
781,781,0,2047,4095
782,782,0,2046,4068
783,783,0,2046,3805
784,784,0,2046,3349
785,785,0,2046,2748
786,786,0,2046,2069
787,787,0,2046,1387
788,788,0,2046,777
789,789,0,2046,306
790,790,0,2046,25
791,791,0,2047,0
792,792,0,2046,136
793,793,0,2046,515
794,794,0,2047,1062
795,795,0,2046,1717
796,796,0,2046,2408
797,797,0,2046,3057
798,798,0,2046,3595
799,799,0,2046,3961
800,800,0,2047,4095
801,801,0,2047,4040
802,802,0,2046,3744
803,803,0,2046,3261
804,804,0,2046,2643
805,805,0,2047,1958
806,806,0,2046,1282
807,807,0,2046,690
808,808,0,2045,246
809,809,0,2046,0
810,810,0,2046,0
811,811,0,2046,184
812,812,0,2046,593
813,813,0,2046,1162
814,814,0,2047,1828
815,815,0,2046,2516
816,816,0,2047,3153
817,817,0,2046,3666
818,818,0,2047,4001
819,819,0,2047,4095
820,820,0,2047,4007
821,821,0,2046,3679
822,822,0,2046,3169
823,823,0,2046,2536
824,824,0,2046,1847
825,825,0,2046,1180
826,826,0,2046,607
827,827,0,2047,192
828,828,0,2046,0
829,829,0,2046,0
830,830,0,2047,235
831,831,0,2046,675
832,832,0,2046,1264
833,833,0,2046,1938
834,834,0,2046,2624
835,835,0,2046,3245
836,836,0,2047,3733
837,837,0,2046,4034
838,838,0,2046,4095
839,839,0,2046,3968
840,840,0,2047,3607
841,841,0,2046,3074
842,842,0,2046,2426
843,843,0,2047,1736
844,844,0,2046,1079
845,845,0,2046,528
846,846,0,2046,144
847,847,0,2046,0
848,848,0,2046,20
849,849,0,2047,294
850,850,0,2046,761
851,851,0,2046,1368
852,852,0,2046,2050
853,853,0,2047,2729
854,854,0,2047,3334
855,855,0,2046,3796
856,856,0,2046,4063
857,857,0,2046,4095
858,858,0,2046,3924
859,859,0,2046,3531
860,860,0,2046,2976
861,861,0,2047,2318
862,862,0,2046,1627
863,863,0,2046,982
864,864,0,2046,454
865,865,0,2047,101
866,866,0,2046,0
867,867,0,2047,49
868,868,0,2047,357
869,869,0,2047,850
870,870,0,2047,1474
871,871,0,2046,2160
872,872,0,2047,2833
873,873,0,2046,3419
874,874,0,2046,3852
875,875,0,2046,4086
876,876,0,2046,4093
877,877,0,2046,3874
878,878,0,2046,3452
879,879,0,2046,2876
880,880,0,2046,2207
881,881,0,2046,1518
882,882,0,2046,888
883,883,0,2047,385
884,884,0,2047,63
885,885,0,2046,0
886,886,0,2046,84
887,887,0,2046,425
888,888,0,2046,943
889,889,0,2046,1583
890,890,0,2046,2272
891,891,0,2046,2936
892,892,0,2047,3501
893,893,0,2046,3904
894,894,0,2046,4095
895,895,0,2047,4072
896,896,0,2046,3819
897,897,0,2047,3369
898,898,0,2047,2772
899,899,0,2046,2095
900,900,0,2046,1412
901,901,0,2046,798
902,902,0,2046,320
903,903,0,2046,31
904,904,0,2046,0
905,905,0,2046,126
906,906,0,2046,498
907,907,0,2046,1040
908,908,0,2046,1691
909,909,0,2046,2382
910,910,0,2046,3034
911,911,0,2046,3577
912,912,0,2046,3951
913,913,0,2046,4095
914,914,0,2046,4046
915,915,0,2046,3759
916,916,0,2046,3281
917,917,0,2046,2667
918,918,0,2046,1983
919,919,0,2047,1307
920,920,0,2046,711
921,921,0,2046,259
922,922,0,2046,5
923,923,0,2047,0
924,924,0,2046,171
925,925,0,2046,575
926,926,0,2047,1138
927,927,0,2046,1802
928,928,0,2047,2491
929,929,0,2046,3130
930,930,0,2046,3650
931,931,0,2046,3992
932,932,0,2046,4095
933,933,0,2047,4015
934,934,0,2045,3694
935,935,0,2046,3191
936,936,0,2047,2561
937,937,0,2046,1873
938,938,0,2046,1204
939,939,0,2046,626
940,940,0,2046,205
941,941,0,2046,0
942,942,0,2046,0
943,943,0,2047,223
944,944,0,2047,655
945,945,0,2046,1240
946,946,0,2046,1912
947,947,0,2046,2599
948,948,0,2047,3223
949,949,0,2046,3718
950,950,0,2046,4026
951,951,0,2047,4095
952,952,0,2046,3977
953,953,0,2046,3624
954,954,0,2046,3096
955,955,0,2047,2452
956,956,0,2046,1763
957,957,0,2046,1103
958,958,0,2046,547
959,959,0,2047,155
960,960,0,2046,0
961,961,0,2046,14
962,962,0,2046,280
963,963,0,2046,740
964,964,0,2047,1344
965,965,0,2046,2024
966,966,0,2046,2705
967,967,0,2046,3314
968,968,0,2046,3781
969,969,0,2046,4057
970,970,0,2047,4095
971,971,0,2047,3935
972,972,0,2046,3550
973,973,0,2046,2999
974,974,0,2046,2343
975,975,0,2046,1653
976,976,0,2046,1005
977,977,0,2047,472
978,978,0,2047,110
979,979,0,2047,0
980,980,0,2047,42
981,981,0,2047,341
982,982,0,2047,829
983,983,0,2047,1450
984,984,0,2047,2135
985,985,0,2046,2809
986,986,0,2046,3399
987,987,0,2046,3838
988,988,0,2046,4081
989,989,0,2046,4095
990,990,0,2047,3887
991,991,0,2047,3472
992,992,0,2047,2900
993,993,0,2046,2233
994,994,0,2046,1543
995,995,0,2047,910
996,996,0,2046,400
997,997,0,2046,72
998,998,0,2046,0
999,999,0,2046,76
1000,1000,0,2046,408
1001,1001,0,2047,922
1002,1002,0,2046,1557
1003,1003,0,2047,2246
1004,1004,0,2046,2912
1005,1005,0,2046,3481
1006,1006,0,2046,3892
1007,1007,0,2046,4095
1008,1008,0,2046,4077
1009,1009,0,2046,3832
1010,1010,0,2047,3389
1011,1011,0,2046,2796
1012,1012,0,2047,2121
1013,1013,0,2046,1437
1014,1014,0,2046,819
1015,1015,0,2047,334
1016,1016,0,2047,38
1017,1017,0,2046,0
1018,1018,0,2047,115
1019,1019,0,2046,480
1020,1020,0,2046,1017
1021,1021,0,2046,1666
1022,1022,0,2047,2356
1023,1023,0,2046,3012
1024,1024,0,2047,3560
1025,1025,0,2045,3940
1026,1026,0,2047,4095
1027,1027,0,2046,4054
1028,1028,0,2046,3773
1029,1029,0,2046,3302
