Sample in Buffer,Sample in Window,TRIGGER,adc1_data_a_d0[11:0],adc1_data_b_d0[11:0]
0,0,0,2047,934
1,1,0,2046,1294
2,2,0,2047,1681
3,3,0,2047,2081
4,4,0,2046,2480
5,5,0,2047,2862
6,6,0,2046,3214
7,7,0,2046,3524
8,8,0,2046,3778
9,9,0,2047,3968
10,10,0,2046,4088
11,11,0,2046,4095
12,12,0,2046,4095
13,13,0,2047,3990
14,14,0,2047,3810
15,15,0,2047,3566
16,16,0,2047,3263
17,17,0,2046,2916
18,18,0,2047,2537
19,19,0,2046,2140
20,20,0,2047,1740
21,21,0,2047,1351
22,22,0,2047,986
23,23,0,2046,660
24,24,0,2047,385
25,25,0,2046,172
26,26,0,2046,25
27,27,0,2046,0
28,28,0,2046,0
29,29,0,2046,39
30,30,0,2047,193
31,31,0,2047,417
32,32,0,2046,699
33,33,0,2046,1030
34,34,0,2047,1398
35,35,0,2047,1791
36,36,0,2047,2192
37,37,0,2046,2588
38,38,0,2047,2963
39,39,0,2047,3304
40,40,0,2047,3600
41,41,0,2047,3837
42,42,0,2046,4008
43,43,0,2047,4095
44,44,0,2047,4095
45,45,0,2047,4077
46,46,0,2047,3948
47,47,0,2046,3748
48,48,0,2046,3486
49,49,0,2047,3171
50,50,0,2046,2814
51,51,0,2046,2428
52,52,0,2047,2029
53,53,0,2046,1630
54,54,0,2047,1246
55,55,0,2047,891
56,56,0,2046,578
57,57,0,2047,319
58,58,0,2047,123
59,59,0,2047,0
60,60,0,2046,0
61,61,0,2047,0
62,62,0,2047,75
63,63,0,2046,249
64,64,0,2047,489
65,65,0,2047,786
66,66,0,2046,1129
67,67,0,2046,1505
68,68,0,2047,1902
69,69,0,2046,2303
70,70,0,2047,2694
71,71,0,2046,3062
72,72,0,2047,3392
73,73,0,2046,3672
74,74,0,2046,3891
75,75,0,2047,4044
76,76,0,2046,4095
77,77,0,2047,4095
78,78,0,2047,4048
79,79,0,2047,3899
80,80,0,2046,3681
81,81,0,2046,3404
82,82,0,2046,3075
83,83,0,2047,2709
84,84,0,2047,2319
85,85,0,2046,1918
86,86,0,2046,1522
87,87,0,2046,1144
88,88,0,2047,799
89,89,0,2046,501
90,90,0,2046,257
91,91,0,2046,81
92,92,0,2046,0
93,93,0,2046,0
94,94,0,2048,0
95,95,0,2047,117
96,96,0,2047,310
97,97,0,2046,566
98,98,0,2047,877
99,99,0,2046,1231
100,100,0,2046,1614
101,101,0,2046,2013
102,102,0,2046,2413
103,103,0,2047,2799
104,104,0,2047,3157
105,105,0,2046,3475
106,106,0,2047,3739
107,107,0,2046,3941
108,108,0,2047,4073
109,109,0,2047,4095
110,110,0,2047,4095
111,111,0,2046,4013
112,112,0,2046,3845
113,113,0,2047,3610
114,114,0,2047,3317
115,115,0,2046,2978
116,116,0,2046,2603
117,117,0,2046,2208
118,118,0,2046,1807
119,119,0,2047,1414
120,120,0,2047,1044
121,121,0,2046,712
122,122,0,2047,427
123,123,0,2047,202
124,124,0,2047,45
125,125,0,2048,0
126,126,0,2047,0
127,127,0,2047,21
128,128,0,2046,163
129,129,0,2046,375
130,130,0,2047,648
131,131,0,2046,971
132,132,0,2047,1335
133,133,0,2046,1725
134,134,0,2047,2124
135,135,0,2046,2522
136,136,0,2047,2902
137,137,0,2046,3250
138,138,0,2047,3554
139,139,0,2046,3802
140,140,0,2047,3984
141,141,0,2046,4095
142,142,0,2047,4095
143,143,0,2046,4091
144,144,0,2047,3974
145,145,0,2047,3786
146,146,0,2046,3534
147,147,0,2046,3226
148,148,0,2047,2877
149,149,0,2047,2494
150,150,0,2047,2097
151,151,0,2046,1696
152,152,0,2046,1309
153,153,0,2047,948
154,154,0,2047,627
155,155,0,2047,358
156,156,0,2046,152
157,157,0,2047,14
158,158,0,2047,0
159,159,0,2046,0
160,160,0,2047,53
161,161,0,2046,216
162,162,0,2046,445
163,163,0,2046,733
164,164,0,2046,1069
165,165,0,2047,1440
166,166,0,2046,1835
167,167,0,2047,2236
168,168,0,2047,2630
169,169,0,2047,3003
170,170,0,2047,3340
171,171,0,2046,3629
172,172,0,2047,3859
173,173,0,2046,4024
174,174,0,2047,4095
175,175,0,2046,4095
176,176,0,2047,4066
177,177,0,2047,3929
178,178,0,2047,3722
179,179,0,2046,3453
180,180,0,2047,3133
181,181,0,2047,2773
182,182,0,2047,2385
183,183,0,2047,1985
184,184,0,2047,1587
185,185,0,2047,1205
186,186,0,2046,855
187,187,0,2047,547
188,188,0,2047,294
189,189,0,2047,106
190,190,0,2047,0
191,191,0,2046,0
192,192,0,2047,0
193,193,0,2047,91
194,194,0,2046,273
195,195,0,2046,520
196,196,0,2047,822
197,197,0,2046,1169
198,198,0,2046,1548
199,199,0,2047,1946
200,200,0,2046,2347
201,201,0,2047,2736
202,202,0,2047,3100
203,203,0,2047,3425
204,204,0,2047,3699
205,205,0,2047,3912
206,206,0,2047,4056
207,207,0,2047,4095
208,208,0,2047,4095
209,209,0,2047,4035
210,210,0,2047,3879
211,211,0,2046,3654
212,212,0,2046,3369
213,213,0,2047,3036
214,214,0,2047,2667
215,215,0,2047,2275
216,216,0,2046,1873
217,217,0,2046,1478
218,218,0,2047,1104
219,219,0,2047,765
220,220,0,2047,472
221,221,0,2046,236
222,222,0,2046,66
223,223,0,2047,0
224,224,0,2047,0
225,225,0,2046,3
226,226,0,2047,134
227,227,0,2047,335
228,228,0,2046,598
229,229,0,2047,914
230,230,0,2047,1272
231,231,0,2047,1658
232,232,0,2046,2058
233,233,0,2047,2456
234,234,0,2048,2840
235,235,0,2047,3194
236,236,0,2046,3506
237,237,0,2047,3764
238,238,0,2047,3959
239,239,0,2047,4083
240,240,0,2047,4095
241,241,0,2046,4095
242,242,0,2047,3999
243,243,0,2047,3823
244,244,0,2047,3580
245,245,0,2047,3281
246,246,0,2047,2938
247,247,0,2047,2560
248,248,0,2047,2165
249,249,0,2046,1763
250,250,0,2046,1372
251,251,0,2046,1006
252,252,0,2047,678
253,253,0,2047,400
254,254,0,2047,182
255,255,0,2047,32
256,256,0,2047,0
257,257,0,2047,0
258,258,0,2047,34
259,259,0,2047,183
260,260,0,2046,403
261,261,0,2046,682
262,262,0,2046,1009
263,263,0,2047,1376
264,264,0,2047,1768
265,265,0,2047,2169
266,266,0,2046,2565
267,267,0,2046,2942
268,268,0,2047,3286
269,269,0,2046,3584
270,270,0,2047,3825
271,271,0,2046,4001
272,272,0,2046,4095
273,273,0,2047,4095
274,274,0,2047,4082
275,275,0,2047,3957
276,276,0,2046,3762
277,277,0,2046,3503
278,278,0,2047,3191
279,279,0,2046,2836
280,280,0,2047,2452
281,281,0,2047,2053
282,282,0,2046,1653
283,283,0,2046,1268
284,284,0,2047,911
285,285,0,2046,595
286,286,0,2046,333
287,287,0,2046,133
288,288,0,2047,4
289,289,0,2047,0
290,290,0,2047,0
291,291,0,2047,67
292,292,0,2047,238
293,293,0,2047,474
294,294,0,2046,767
295,295,0,2046,1108
296,296,0,2046,1482
297,297,0,2046,1878
298,298,0,2047,2279
299,299,0,2047,2672
300,300,0,2046,3041
301,301,0,2047,3374
302,302,0,2047,3657
303,303,0,2046,3880
304,304,0,2047,4037
305,305,0,2047,4095
306,306,0,2047,4095
307,307,0,2047,4054
308,308,0,2047,3910
309,309,0,2047,3696
310,310,0,2046,3421
311,311,0,2046,3096
312,312,0,2046,2732
313,313,0,2046,2343
314,314,0,2047,1941
315,315,0,2046,1545
316,316,0,2046,1165
317,317,0,2047,819
318,318,0,2046,517
319,319,0,2047,270
320,320,0,2047,89
321,321,0,2047,0
322,322,0,2046,0
323,323,0,2046,0
324,324,0,2046,108
325,325,0,2046,297
326,326,0,2046,550
327,327,0,2046,857
328,328,0,2047,1209
329,329,0,2047,1592
330,330,0,2046,1990
331,331,0,2047,2391
332,332,0,2046,2777
333,333,0,2046,3138
334,334,0,2047,3457
335,335,0,2045,3725
336,336,0,2046,3930
337,337,0,2046,4067
338,338,0,2046,4095
339,339,0,2047,4095
340,340,0,2046,4022
341,341,0,2047,3857
342,342,0,2047,3625
343,343,0,2046,3335
344,344,0,2047,2998
345,345,0,2046,2625
346,346,0,2046,2231
347,347,0,2046,1831
348,348,0,2048,1436
349,349,0,2047,1066
350,350,0,2047,730
351,351,0,2047,443
352,352,0,2046,214
353,353,0,2046,52
354,354,0,2046,0
355,355,0,2047,0
356,356,0,2046,15
357,357,0,2047,153
358,358,0,2047,361
359,359,0,2047,630
360,360,0,2046,952
361,361,0,2047,1313
362,362,0,2046,1701
363,363,0,2047,2100
364,364,0,2046,2499
365,365,0,2046,2881
366,366,0,2046,3231
367,367,0,2047,3538
368,368,0,2047,3790
369,369,0,2047,3976
370,370,0,2046,4092
371,371,0,2046,4095
372,372,0,2046,4095
373,373,0,2047,3983
374,374,0,2047,3799
375,375,0,2046,3552
376,376,0,2046,3247
377,377,0,2046,2898
378,378,0,2046,2518
379,379,0,2046,2120
380,380,0,2046,1720
381,381,0,2046,1331
382,382,0,2046,968
383,383,0,2047,645
384,384,0,2046,372
385,385,0,2046,162
386,386,0,2046,20
387,387,0,2047,0
388,388,0,2047,0
389,389,0,2046,46
390,390,0,2047,204
391,391,0,2046,430
392,392,0,2046,714
393,393,0,2046,1048
394,394,0,2047,1418
395,395,0,2046,1811
396,396,0,2047,2212
397,397,0,2046,2607
398,398,0,2046,2982
399,399,0,2047,3322
400,400,0,2046,3614
401,401,0,2046,3848
402,402,0,2046,4016
403,403,0,2047,4095
404,404,0,2047,4095
405,405,0,2047,4072
406,406,0,2047,3938
407,407,0,2046,3736
408,408,0,2047,3471
409,409,0,2046,3154
410,410,0,2046,2794
411,411,0,2047,2408
412,412,0,2047,2008
413,413,0,2046,1610
414,414,0,2046,1227
415,415,0,2046,874
416,416,0,2047,564
417,417,0,2046,307
418,418,0,2047,115
419,419,0,2047,0
420,420,0,2046,0
421,421,0,2047,0
422,422,0,2047,82
423,423,0,2047,260
424,424,0,2046,504
425,425,0,2046,802
426,426,0,2047,1148
427,427,0,2046,1526
428,428,0,2046,1922
429,429,0,2047,2323
430,430,0,2046,2714
431,431,0,2046,3079
432,432,0,2046,3407
433,433,0,2047,3684
434,434,0,2046,3901
435,435,0,2046,4049
436,436,0,2047,4095
437,437,0,2046,4095
438,438,0,2046,4042
439,439,0,2047,3890
440,440,0,2046,3669
441,441,0,2047,3388
442,442,0,2046,3058
443,443,0,2047,2690
444,444,0,2046,2298
445,445,0,2046,1897
446,446,0,2047,1501
447,447,0,2046,1126
448,448,0,2046,784
449,449,0,2046,487
450,450,0,2046,248
451,451,0,2047,74
452,452,0,2046,0
453,453,0,2046,0
454,454,0,2047,0
455,455,0,2046,125
456,456,0,2047,321
457,457,0,2047,581
458,458,0,2047,894
459,459,0,2046,1250
460,460,0,2047,1634
461,461,0,2046,2034
462,462,0,2046,2433
463,463,0,2046,2818
464,464,0,2046,3175
465,465,0,2046,3489
466,466,0,2047,3751
467,467,0,2046,3950
468,468,0,2046,4078
469,469,0,2046,4095
470,470,0,2046,4095
471,471,0,2047,4006
472,472,0,2046,3834
473,473,0,2046,3596
474,474,0,2047,3301
475,475,0,2047,2959
476,476,0,2046,2583
477,477,0,2047,2188
478,478,0,2047,1786
479,479,0,2046,1395
480,480,0,2047,1026
481,481,0,2047,696
482,482,0,2046,414
483,483,0,2047,192
484,484,0,2046,39
485,485,0,2047,0
486,486,0,2046,0
487,487,0,2046,26
488,488,0,2046,172
489,489,0,2046,387
490,490,0,2047,663
491,491,0,2046,989
492,492,0,2046,1354
493,493,0,2047,1744
494,494,0,2047,2145
495,495,0,2047,2542
496,496,0,2046,2921
497,497,0,2047,3267
498,498,0,2047,3568
499,499,0,2047,3813
500,500,0,2046,3993
501,501,0,2046,4095
502,502,0,2046,4095
503,503,0,2046,4087
504,504,0,2046,3967
505,505,0,2047,3775
506,506,0,2046,3520
507,507,0,2046,3211
508,508,0,2047,2857
509,509,0,2046,2475
510,510,0,2046,2076
511,511,0,2046,1677
512,512,0,2046,1290
513,513,0,2047,931
514,514,0,2047,612
515,515,0,2046,346
516,516,0,2046,142
517,517,0,2046,8
518,518,0,2047,0
519,519,0,2047,0
520,520,0,2046,59
521,521,0,2046,226
522,522,0,2047,458
523,523,0,2047,749
524,524,0,2046,1087
525,525,0,2046,1460
526,526,0,2046,1855
527,527,0,2047,2256
528,528,0,2047,2649
529,529,0,2047,3020
530,530,0,2046,3356
531,531,0,2047,3642
532,532,0,2046,3869
533,533,0,2046,4030
534,534,0,2046,4095
535,535,0,2046,4095
536,536,0,2046,4061
537,537,0,2046,3920
538,538,0,2046,3710
539,539,0,2047,3438
540,540,0,2047,3115
541,541,0,2047,2754
542,542,0,2046,2365
543,543,0,2047,1964
544,544,0,2046,1567
545,545,0,2046,1187
546,546,0,2047,838
547,547,0,2047,533
548,548,0,2047,284
549,549,0,2047,98
550,550,0,2047,0
551,551,0,2047,0
552,552,0,2047,0
553,553,0,2046,98
554,554,0,2046,284
555,555,0,2047,533
556,556,0,2047,838
557,557,0,2046,1188
558,558,0,2047,1568
559,559,0,2046,1966
560,560,0,2046,2366
561,561,0,2047,2755
562,562,0,2047,3118
563,563,0,2046,3440
564,564,0,2047,3711
565,565,0,2047,3921
566,566,0,2046,4062
567,567,0,2047,4095
568,568,0,2047,4095
569,569,0,2046,4029
570,570,0,2047,3869
571,571,0,2046,3641
572,572,0,2047,3353
573,573,0,2047,3018
574,574,0,2046,2648
575,575,0,2046,2254
576,576,0,2046,1854
577,577,0,2046,1459
578,578,0,2046,1086
579,579,0,2046,749
580,580,0,2047,457
581,581,0,2046,225
582,582,0,2046,59
583,583,0,2046,0
584,584,0,2046,0
585,585,0,2046,9
586,586,0,2047,143
587,587,0,2046,346
588,588,0,2047,612
589,589,0,2046,931
590,590,0,2046,1291
591,591,0,2047,1677
592,592,0,2046,2077
593,593,0,2047,2476
594,594,0,2047,2859
595,595,0,2046,3211
596,596,0,2047,3520
597,597,0,2047,3776
598,598,0,2046,3967
599,599,0,2047,4087
600,600,0,2046,4095
601,601,0,2046,4095
602,602,0,2046,3991
603,603,0,2046,3811
604,604,0,2047,3566
605,605,0,2046,3265
606,606,0,2047,2919
607,607,0,2047,2540
608,608,0,2046,2143
609,609,0,2047,1743
610,610,0,2046,1353
611,611,0,2047,988
612,612,0,2046,662
613,613,0,2046,387
614,614,0,2047,172
615,615,0,2046,26
616,616,0,2047,0
617,617,0,2046,0
618,618,0,2047,38
619,619,0,2046,192
620,620,0,2047,415
621,621,0,2047,697
622,622,0,2046,1027
623,623,0,2047,1395
624,624,0,2047,1788
625,625,0,2047,2189
626,626,0,2047,2585
627,627,0,2046,2960
628,628,0,2047,3303
629,629,0,2046,3597
630,630,0,2046,3835
631,631,0,2047,4008
632,632,0,2046,4095
633,633,0,2046,4095
634,634,0,2047,4077
635,635,0,2046,3949
636,636,0,2046,3750
637,637,0,2047,3488
638,638,0,2046,3173
639,639,0,2047,2817
640,640,0,2047,2432
641,641,0,2046,2031
642,642,0,2046,1633
643,643,0,2046,1248
644,644,0,2047,894
645,645,0,2046,581
646,646,0,2046,321
647,647,0,2047,124
648,648,0,2047,0
649,649,0,2047,0
650,650,0,2046,0
651,651,0,2047,74
652,652,0,2046,248
653,653,0,2047,488
654,654,0,2046,783
655,655,0,2047,1127
656,656,0,2046,1503
657,657,0,2046,1899
658,658,0,2046,2300
659,659,0,2047,2691
660,660,0,2046,3059
661,661,0,2046,3390
662,662,0,2047,3670
663,663,0,2047,3890
664,664,0,2046,4043
665,665,0,2046,4095
666,666,0,2047,4095
667,667,0,2047,4049
668,668,0,2046,3900
669,669,0,2047,3683
670,670,0,2047,3405
671,671,0,2046,3077
672,672,0,2047,2712
673,673,0,2046,2322
674,674,0,2047,1921
675,675,0,2046,1524
676,676,0,2046,1147
677,677,0,2047,802
678,678,0,2046,502
679,679,0,2046,260
680,680,0,2046,82
681,681,0,2047,0
682,682,0,2046,0
683,683,0,2046,0
684,684,0,2046,115
685,685,0,2046,308
686,686,0,2047,564
687,687,0,2046,875
688,688,0,2046,1227
689,689,0,2047,1611
690,690,0,2046,2010
691,691,0,2047,2410
692,692,0,2047,2797
693,693,0,2047,3156
694,694,0,2047,3473
695,695,0,2046,3737
696,696,0,2046,3939
697,697,0,2046,4072
698,698,0,2046,4095
699,699,0,2046,4095
700,700,0,2047,4014
701,701,0,2047,3847
702,702,0,2046,3612
703,703,0,2047,3319
704,704,0,2046,2980
705,705,0,2046,2606
706,706,0,2047,2211
707,707,0,2047,1810
708,708,0,2046,1417
709,709,0,2046,1048
710,710,0,2047,714
711,711,0,2047,430
712,712,0,2047,204
713,713,0,2046,46
714,714,0,2047,0
715,715,0,2046,0
716,716,0,2046,19
717,717,0,2046,162
718,718,0,2046,373
719,719,0,2046,646
720,720,0,2047,969
721,721,0,2047,1332
722,722,0,2047,1721
723,723,0,2047,2122
724,724,0,2047,2519
725,725,0,2047,2900
726,726,0,2046,3248
727,727,0,2046,3552
728,728,0,2046,3801
729,729,0,2046,3984
730,730,0,2047,4095
731,731,0,2047,4095
732,732,0,2047,4092
733,733,0,2046,3975
734,734,0,2047,3788
735,735,0,2046,3536
736,736,0,2047,3229
737,737,0,2046,2879
738,738,0,2046,2497
739,739,0,2046,2099
740,740,0,2047,1699
741,741,0,2046,1312
742,742,0,2046,950
743,743,0,2046,630
744,744,0,2047,361
745,745,0,2047,152
746,746,0,2046,15
747,747,0,2046,0
748,748,0,2046,0
749,749,0,2046,52
750,750,0,2047,214
751,751,0,2046,443
752,752,0,2046,730
753,753,0,2046,1066
754,754,0,2047,1438
755,755,0,2047,1832
756,756,0,2047,2232
757,757,0,2047,2628
758,758,0,2046,3000
759,759,0,2047,3337
760,760,0,2047,3627
761,761,0,2046,3858
762,762,0,2046,4022
763,763,0,2047,4095
764,764,0,2046,4095
765,765,0,2046,4066
766,766,0,2047,3930
767,767,0,2046,3724
768,768,0,2047,3455
769,769,0,2047,3135
770,770,0,2046,2775
771,771,0,2047,2389
772,772,0,2047,1988
773,773,0,2047,1589
774,774,0,2046,1208
775,775,0,2046,857
776,776,0,2047,548
777,777,0,2046,296
778,778,0,2047,107
779,779,0,2047,0
780,780,0,2047,0
781,781,0,2047,0
782,782,0,2046,89
783,783,0,2047,271
784,784,0,2047,518
785,785,0,2047,819
786,786,0,2047,1166
787,787,0,2047,1545
788,788,0,2047,1943
789,789,0,2047,2344
790,790,0,2047,2733
791,791,0,2046,3097
792,792,0,2046,3423
793,793,0,2047,3697
794,794,0,2046,3910
795,795,0,2047,4055
796,796,0,2046,4095
797,797,0,2047,4095
798,798,0,2047,4036
799,799,0,2047,3879
800,800,0,2047,3655
801,801,0,2046,3372
802,802,0,2046,3039
803,803,0,2047,2670
804,804,0,2047,2277
805,805,0,2046,1877
806,806,0,2047,1482
807,807,0,2046,1107
808,808,0,2046,766
809,809,0,2046,473
810,810,0,2046,237
811,811,0,2047,66
812,812,0,2047,0
813,813,0,2046,0
814,814,0,2046,3
815,815,0,2046,134
816,816,0,2047,334
817,817,0,2046,595
818,818,0,2046,911
819,819,0,2046,1269
820,820,0,2047,1654
821,821,0,2047,2055
822,822,0,2046,2454
823,823,0,2047,2837
824,824,0,2046,3192
825,825,0,2046,3504
826,826,0,2046,3763
827,827,0,2047,3958
828,828,0,2046,4083
829,829,0,2046,4095
830,830,0,2047,4095
831,831,0,2047,4000
832,832,0,2046,3824
833,833,0,2047,3581
834,834,0,2047,3283
835,835,0,2047,2940
836,836,0,2047,2563
837,837,0,2046,2167
838,838,0,2047,1766
839,839,0,2046,1375
840,840,0,2048,1009
841,841,0,2047,680
842,842,0,2046,402
843,843,0,2047,183
844,844,0,2047,33
845,845,0,2046,0
846,846,0,2046,0
847,847,0,2046,32
848,848,0,2047,182
849,849,0,2047,401
850,850,0,2046,679
851,851,0,2047,1007
852,852,0,2046,1374
853,853,0,2046,1764
854,854,0,2047,2166
855,855,0,2047,2562
856,856,0,2047,2940
857,857,0,2047,3284
858,858,0,2046,3582
859,859,0,2046,3824
860,860,0,2047,4000
861,861,0,2046,4095
862,862,0,2046,4095
863,863,0,2047,4082
864,864,0,2047,3958
865,865,0,2047,3763
866,866,0,2047,3505
867,867,0,2046,3193
868,868,0,2046,2838
869,869,0,2046,2454
870,870,0,2047,2055
871,871,0,2047,1656
872,872,0,2046,1270
873,873,0,2047,913
874,874,0,2047,597
875,875,0,2046,334
876,876,0,2046,134
877,877,0,2046,4
878,878,0,2047,0
879,879,0,2046,0
880,880,0,2047,66
881,881,0,2047,236
882,882,0,2046,472
883,883,0,2046,765
884,884,0,2047,1105
885,885,0,2046,1481
886,886,0,2046,1876
887,887,0,2046,2277
888,888,0,2047,2669
889,889,0,2047,3039
890,890,0,2047,3371
891,891,0,2047,3655
892,892,0,2047,3879
893,893,0,2046,4036
894,894,0,2047,4095
895,895,0,2047,4095
896,896,0,2047,4056
897,897,0,2047,3911
898,898,0,2047,3698
899,899,0,2046,3423
900,900,0,2047,3098
901,901,0,2047,2734
902,902,0,2047,2345
903,903,0,2047,1944
904,904,0,2046,1547
905,905,0,2047,1167
906,906,0,2046,821
907,907,0,2046,519
908,908,0,2046,272
909,909,0,2047,90
910,910,0,2047,0
911,911,0,2047,0
912,912,0,2046,0
913,913,0,2047,106
914,914,0,2046,295
915,915,0,2047,548
916,916,0,2046,855
917,917,0,2047,1207
918,918,0,2047,1589
919,919,0,2046,1986
920,920,0,2047,2388
921,921,0,2046,2775
922,922,0,2047,3135
923,923,0,2047,3455
924,924,0,2047,3724
925,925,0,2047,3929
926,926,0,2047,4067
927,927,0,2046,4095
928,928,0,2047,4095
929,929,0,2046,4023
930,930,0,2046,3859
931,931,0,2046,3627
932,932,0,2046,3337
933,933,0,2047,3001
934,934,0,2047,2628
935,935,0,2046,2234
936,936,0,2047,1833
937,937,0,2046,1440
938,938,0,2046,1068
939,939,0,2046,732
940,940,0,2046,443
941,941,0,2047,215
942,942,0,2047,53
943,943,0,2046,0
944,944,0,2046,0
945,945,0,2047,15
946,946,0,2047,152
947,947,0,2047,359
948,948,0,2046,628
949,949,0,2046,949
950,950,0,2046,1310
951,951,0,2047,1698
952,952,0,2046,2098
953,953,0,2046,2496
954,954,0,2046,2878
955,955,0,2047,3228
956,956,0,2046,3535
957,957,0,2046,3787
958,958,0,2046,3975
959,959,0,2047,4091
960,960,0,2047,4095
961,961,0,2047,4095
962,962,0,2046,3984
963,963,0,2046,3800
964,964,0,2047,3553
965,965,0,2047,3248
966,966,0,2046,2900
967,967,0,2046,2520
968,968,0,2046,2122
969,969,0,2046,1722
970,970,0,2047,1334
971,971,0,2046,971
972,972,0,2047,648
973,973,0,2047,374
974,974,0,2047,163
975,975,0,2047,20
976,976,0,2046,0
977,977,0,2046,0
978,978,0,2047,45
979,979,0,2047,202
980,980,0,2046,428
981,981,0,2046,713
982,982,0,2046,1046
983,983,0,2046,1416
984,984,0,2047,1809
985,985,0,2046,2210
986,986,0,2046,2605
987,987,0,2047,2979
988,988,0,2047,3319
989,989,0,2047,3611
990,990,0,2046,3847
991,991,0,2047,4015
992,992,0,2047,4095
993,993,0,2047,4095
994,994,0,2047,4072
995,995,0,2047,3940
996,996,0,2046,3738
997,997,0,2046,3473
998,998,0,2047,3155
999,999,0,2047,2797
1000,1000,0,2046,2412
1001,1001,0,2047,2011
1002,1002,0,2046,1612
1003,1003,0,2047,1230
1004,1004,0,2046,876
1005,1005,0,2047,566
1006,1006,0,2047,309
1007,1007,0,2047,117
1008,1008,0,2046,0
1009,1009,0,2046,0
1010,1010,0,2046,0
1011,1011,0,2047,81
1012,1012,0,2047,259
1013,1013,0,2046,501
1014,1014,0,2046,801
1015,1015,0,2046,1144
1016,1016,0,2047,1523
1017,1017,0,2047,1919
1018,1018,0,2047,2320
1019,1019,0,2046,2711
1020,1020,0,2046,3077
1021,1021,0,2046,3405
1022,1022,0,2047,3683
1023,1023,0,2047,3900
1024,1024,0,2047,4049
1025,1025,0,2047,4095
1026,1026,0,2047,4095
1027,1027,0,2046,4043
1028,1028,0,2047,3890
1029,1029,0,2046,3670
