Sample in Buffer,Sample in Window,TRIGGER,adc1_data_a_d0[11:0],adc1_data_b_d0[11:0]
0,0,0,2046,3879
1,1,0,2047,3669
2,2,0,2047,3404
3,3,0,2046,3094
4,4,0,2046,2748
5,5,0,2047,2379
6,6,0,2047,1999
7,7,0,2047,1620
8,8,0,2046,1255
9,9,0,2046,916
10,10,0,2047,615
11,11,0,2046,361
12,12,0,2046,164
13,13,0,2046,28
14,14,0,2047,0
15,15,0,2047,0
16,16,0,2047,34
17,17,0,2047,171
18,18,0,2046,373
19,19,0,2047,629
20,20,0,2047,933
21,21,0,2046,1274
22,22,0,2047,1641
23,23,0,2047,2021
24,24,0,2047,2402
25,25,0,2046,2769
26,26,0,2047,3114
27,27,0,2046,3423
28,28,0,2047,3683
29,29,0,2046,3890
30,30,0,2046,4035
31,31,0,2046,4095
32,32,0,2047,4095
33,33,0,2046,4059
34,34,0,2047,3929
35,35,0,2046,3737
36,36,0,2047,3488
37,37,0,2046,3190
38,38,0,2046,2853
39,39,0,2046,2489
40,40,0,2046,2111
41,41,0,2047,1730
42,42,0,2047,1359
43,43,0,2046,1013
44,44,0,2046,698
45,45,0,2046,430
46,46,0,2047,215
47,47,0,2047,61
48,48,0,2046,0
49,49,0,2047,0
50,50,0,2047,5
51,51,0,2047,125
52,52,0,2047,308
53,53,0,2046,549
54,54,0,2046,839
55,55,0,2047,1171
56,56,0,2047,1531
57,57,0,2047,1909
58,58,0,2046,2290
59,59,0,2046,2664
60,60,0,2047,3016
61,61,0,2047,3336
62,62,0,2046,3612
63,63,0,2046,3835
64,64,0,2046,3999
65,65,0,2046,4095
66,66,0,2046,4095
67,67,0,2046,4084
68,68,0,2047,3974
69,69,0,2046,3799
70,70,0,2046,3566
71,71,0,2046,3281
72,72,0,2046,2955
73,73,0,2047,2598
74,74,0,2046,2223
75,75,0,2046,1842
76,76,0,2046,1467
77,77,0,2047,1111
78,78,0,2046,787
79,79,0,2046,503
80,80,0,2046,272
81,81,0,2046,99
82,82,0,2047,0
83,83,0,2046,0
84,84,0,2046,0
85,85,0,2047,82
86,86,0,2047,247
87,87,0,2047,471
88,88,0,2046,749
89,89,0,2046,1070
90,90,0,2046,1423
91,91,0,2046,1796
92,92,0,2046,2179
93,93,0,2046,2556
94,94,0,2046,2916
95,95,0,2046,3245
96,96,0,2046,3536
97,97,0,2046,3776
98,98,0,2046,3958
99,99,0,2046,4075
100,100,0,2046,4095
101,101,0,2046,4095
102,102,0,2046,4014
103,103,0,2046,3857
104,104,0,2046,3640
105,105,0,2047,3370
106,106,0,2047,3055
107,107,0,2046,2705
108,108,0,2047,2334
109,109,0,2047,1954
110,110,0,2046,1575
111,111,0,2046,1213
112,112,0,2047,878
113,113,0,2047,582
114,114,0,2046,334
115,115,0,2046,144
116,116,0,2047,17
117,117,0,2046,0
118,118,0,2047,0
119,119,0,2047,46
120,120,0,2047,192
121,121,0,2047,400
122,122,0,2047,663
123,123,0,2046,972
124,124,0,2046,1316
125,125,0,2047,1685
126,126,0,2047,2066
127,127,0,2046,2446
128,128,0,2046,2813
129,129,0,2046,3152
130,130,0,2047,3455
131,131,0,2046,3711
132,132,0,2047,3910
133,133,0,2046,4047
134,134,0,2047,4095
135,135,0,2047,4095
136,136,0,2046,4047
137,137,0,2047,3909
138,138,0,2046,3710
139,139,0,2046,3454
140,140,0,2047,3152
141,141,0,2046,2811
142,142,0,2046,2444
143,143,0,2046,2066
144,144,0,2047,1685
145,145,0,2046,1317
146,146,0,2046,973
147,147,0,2046,664
148,148,0,2047,401
149,149,0,2047,193
150,150,0,2046,47
151,151,0,2047,0
152,152,0,2046,0
153,153,0,2047,16
154,154,0,2046,143
155,155,0,2047,333
156,156,0,2046,580
157,157,0,2046,877
158,158,0,2046,1212
159,159,0,2047,1576
160,160,0,2046,1954
161,161,0,2046,2336
162,162,0,2047,2707
163,163,0,2046,3057
164,164,0,2046,3371
165,165,0,2047,3642
166,166,0,2047,3858
167,167,0,2046,4014
168,168,0,2046,4095
169,169,0,2047,4095
170,170,0,2046,4075
171,171,0,2046,3956
172,172,0,2046,3774
173,173,0,2046,3535
174,174,0,2046,3245
175,175,0,2047,2915
176,176,0,2047,2555
177,177,0,2046,2177
178,178,0,2047,1797
179,179,0,2047,1423
180,180,0,2046,1071
181,181,0,2046,750
182,182,0,2046,473
183,183,0,2046,248
184,184,0,2046,83
185,185,0,2047,0
186,186,0,2047,0
187,187,0,2046,0
188,188,0,2046,98
189,189,0,2046,271
190,190,0,2046,502
191,191,0,2046,785
192,192,0,2047,1110
193,193,0,2046,1467
194,194,0,2047,1841
195,195,0,2046,2223
196,196,0,2046,2599
197,197,0,2047,2957
198,198,0,2047,3282
199,199,0,2046,3567
200,200,0,2046,3800
201,201,0,2046,3975
202,202,0,2047,4084
203,203,0,2046,4095
204,204,0,2046,4095
205,205,0,2046,3997
206,206,0,2047,3834
207,207,0,2046,3610
208,208,0,2047,3334
209,209,0,2046,3015
210,210,0,2046,2663
211,211,0,2046,2290
212,212,0,2046,1908
213,213,0,2046,1532
214,214,0,2046,1172
215,215,0,2047,840
216,216,0,2046,550
217,217,0,2046,309
218,218,0,2046,125
219,219,0,2046,6
220,220,0,2047,0
221,221,0,2047,0
222,222,0,2046,60
223,223,0,2046,214
224,224,0,2046,430
225,225,0,2047,697
226,226,0,2046,1012
227,227,0,2046,1359
228,228,0,2046,1731
229,229,0,2046,2111
230,230,0,2047,2490
231,231,0,2046,2855
232,232,0,2046,3191
233,233,0,2047,3489
234,234,0,2046,3738
235,235,0,2047,3930
236,236,0,2047,4060
237,237,0,2047,4095
238,238,0,2047,4095
239,239,0,2047,4033
240,240,0,2046,3889
241,241,0,2047,3682
242,242,0,2046,3420
243,243,0,2047,3113
244,244,0,2046,2769
245,245,0,2046,2401
246,246,0,2047,2021
247,247,0,2047,1640
248,248,0,2047,1275
249,249,0,2046,934
250,250,0,2047,630
251,251,0,2047,374
252,252,0,2047,173
253,253,0,2047,34
254,254,0,2047,0
255,255,0,2046,0
256,256,0,2046,27
257,257,0,2047,163
258,258,0,2047,360
259,259,0,2047,613
260,260,0,2046,915
261,261,0,2046,1254
262,262,0,2046,1620
263,263,0,2047,1999
264,264,0,2047,2381
265,265,0,2046,2749
266,266,0,2047,3096
267,267,0,2047,3406
268,268,0,2047,3670
269,269,0,2046,3880
270,270,0,2047,4028
271,271,0,2046,4095
272,272,0,2046,4095
273,273,0,2046,4063
274,274,0,2047,3938
275,275,0,2047,3748
276,276,0,2046,3503
277,277,0,2047,3207
278,278,0,2046,2872
279,279,0,2046,2510
280,280,0,2046,2132
281,281,0,2046,1751
282,282,0,2047,1380
283,283,0,2046,1030
284,284,0,2046,715
285,285,0,2047,443
286,286,0,2046,226
287,287,0,2046,67
288,288,0,2047,0
289,289,0,2046,0
290,290,0,2046,1
291,291,0,2047,116
292,292,0,2046,296
293,293,0,2046,533
294,294,0,2047,822
295,295,0,2046,1151
296,296,0,2046,1511
297,297,0,2047,1887
298,298,0,2047,2268
299,299,0,2046,2643
300,300,0,2046,2997
301,301,0,2046,3318
302,302,0,2047,3598
303,303,0,2046,3824
304,304,0,2047,3992
305,305,0,2047,4093
306,306,0,2047,4095
307,307,0,2046,4088
308,308,0,2046,3982
309,309,0,2046,3811
310,310,0,2046,3580
311,311,0,2046,3298
312,312,0,2047,2974
313,313,0,2047,2618
314,314,0,2046,2245
315,315,0,2047,1862
316,316,0,2047,1487
317,317,0,2047,1130
318,318,0,2047,803
319,319,0,2047,519
320,320,0,2047,283
321,321,0,2047,108
322,322,0,2047,0
323,323,0,2047,0
324,324,0,2046,0
325,325,0,2046,75
326,326,0,2047,236
327,327,0,2046,458
328,328,0,2047,733
329,329,0,2046,1051
330,330,0,2047,1403
331,331,0,2046,1776
332,332,0,2046,2157
333,333,0,2047,2535
334,334,0,2046,2896
335,335,0,2047,3228
336,336,0,2047,3521
337,337,0,2047,3764
338,338,0,2046,3949
339,339,0,2047,4070
340,340,0,2046,4095
341,341,0,2047,4095
342,342,0,2046,4019
343,343,0,2047,3867
344,344,0,2047,3654
345,345,0,2047,3386
346,346,0,2046,3073
347,347,0,2046,2726
348,348,0,2046,2356
349,349,0,2046,1974
350,350,0,2047,1596
351,351,0,2047,1233
352,352,0,2047,896
353,353,0,2046,597
354,354,0,2047,346
355,355,0,2046,152
356,356,0,2047,22
357,357,0,2046,0
358,358,0,2047,0
359,359,0,2046,41
360,360,0,2047,183
361,361,0,2047,387
362,362,0,2047,647
363,363,0,2047,954
364,364,0,2046,1297
365,365,0,2047,1664
366,366,0,2047,2045
367,367,0,2047,2425
368,368,0,2047,2792
369,369,0,2047,3134
370,370,0,2047,3440
371,371,0,2046,3698
372,372,0,2047,3901
373,373,0,2046,4042
374,374,0,2046,4095
375,375,0,2046,4095
376,376,0,2046,4052
377,377,0,2047,3919
378,378,0,2046,3722
379,379,0,2047,3469
380,380,0,2047,3169
381,381,0,2046,2831
382,382,0,2047,2466
383,383,0,2047,2087
384,384,0,2046,1706
385,385,0,2046,1337
386,386,0,2046,992
387,387,0,2046,680
388,388,0,2046,415
389,389,0,2046,203
390,390,0,2047,53
391,391,0,2047,0
392,392,0,2047,0
393,393,0,2046,11
394,394,0,2047,134
395,395,0,2046,321
396,396,0,2047,566
397,397,0,2046,859
398,398,0,2047,1193
399,399,0,2046,1555
400,400,0,2046,1933
401,401,0,2046,2315
402,402,0,2047,2687
403,403,0,2046,3037
404,404,0,2046,3355
405,405,0,2046,3628
406,406,0,2046,3848
407,407,0,2047,4007
408,408,0,2046,4095
409,409,0,2046,4095
410,410,0,2047,4079
411,411,0,2046,3964
412,412,0,2046,3787
413,413,0,2047,3549
414,414,0,2047,3262
415,415,0,2046,2934
416,416,0,2047,2575
417,417,0,2047,2199
418,418,0,2046,1818
419,419,0,2046,1444
420,420,0,2046,1089
421,421,0,2046,767
422,422,0,2046,488
423,423,0,2046,260
424,424,0,2046,91
425,425,0,2047,0
426,426,0,2047,0
427,427,0,2047,0
428,428,0,2046,91
429,429,0,2047,260
430,430,0,2047,488
431,431,0,2047,768
432,432,0,2046,1092
433,433,0,2047,1446
434,434,0,2046,1821
435,435,0,2046,2203
436,436,0,2046,2579
437,437,0,2047,2937
438,438,0,2046,3266
439,439,0,2047,3553
440,440,0,2046,3790
441,441,0,2047,3966
442,442,0,2046,4080
443,443,0,2047,4095
444,444,0,2047,4095
445,445,0,2047,4005
446,446,0,2047,3845
447,447,0,2047,3624
448,448,0,2047,3351
449,449,0,2046,3033
450,450,0,2046,2683
451,451,0,2046,2311
452,452,0,2046,1929
453,453,0,2046,1552
454,454,0,2046,1191
455,455,0,2046,858
456,456,0,2047,564
457,457,0,2046,319
458,458,0,2046,133
459,459,0,2046,11
460,460,0,2047,0
461,461,0,2046,0
462,462,0,2047,54
463,463,0,2046,203
464,464,0,2047,415
465,465,0,2047,681
466,466,0,2047,993
467,467,0,2046,1339
468,468,0,2047,1709
469,469,0,2046,2090
470,470,0,2047,2469
471,471,0,2047,2835
472,472,0,2047,3173
473,473,0,2046,3473
474,474,0,2046,3725
475,475,0,2046,3921
476,476,0,2047,4054
477,477,0,2046,4095
478,478,0,2046,4095
479,479,0,2046,4040
480,480,0,2046,3899
481,481,0,2046,3695
482,482,0,2046,3436
483,483,0,2046,3130
484,484,0,2047,2789
485,485,0,2047,2421
486,486,0,2046,2042
487,487,0,2046,1662
488,488,0,2046,1294
489,489,0,2046,952
490,490,0,2047,646
491,491,0,2046,387
492,492,0,2046,182
493,493,0,2047,40
494,494,0,2046,0
495,495,0,2047,0
496,496,0,2046,22
497,497,0,2046,153
498,498,0,2047,348
499,499,0,2047,598
500,500,0,2046,898
501,501,0,2046,1234
502,502,0,2047,1599
503,503,0,2047,1978
504,504,0,2047,2359
505,505,0,2047,2729
506,506,0,2047,3077
507,507,0,2047,3390
508,508,0,2047,3657
509,509,0,2046,3870
510,510,0,2047,4022
511,511,0,2046,4095
512,512,0,2047,4095
513,513,0,2047,4068
514,514,0,2047,3947
515,515,0,2046,3760
516,516,0,2046,3518
517,517,0,2047,3224
518,518,0,2046,2892
519,519,0,2047,2530
520,520,0,2046,2153
521,521,0,2046,1772
522,522,0,2047,1400
523,523,0,2047,1049
524,524,0,2046,732
525,525,0,2046,457
526,526,0,2046,236
527,527,0,2046,75
528,528,0,2047,0
529,529,0,2047,0
530,530,0,2046,0
531,531,0,2046,108
532,532,0,2047,285
533,533,0,2046,519
534,534,0,2047,805
535,535,0,2047,1132
536,536,0,2047,1490
537,537,0,2046,1866
538,538,0,2046,2248
539,539,0,2047,2624
540,540,0,2046,2978
541,541,0,2047,3302
542,542,0,2047,3585
543,543,0,2047,3814
544,544,0,2046,3985
545,545,0,2046,4089
546,546,0,2047,4095
547,547,0,2046,4091
548,548,0,2046,3989
549,549,0,2046,3822
550,550,0,2046,3594
551,551,0,2046,3315
552,552,0,2046,2993
553,553,0,2046,2640
554,554,0,2046,2265
555,555,0,2046,1884
556,556,0,2046,1507
557,557,0,2047,1149
558,558,0,2047,821
559,559,0,2046,532
560,560,0,2046,295
561,561,0,2047,115
562,562,0,2046,0
563,563,0,2047,0
564,564,0,2046,0
565,565,0,2047,68
566,566,0,2046,226
567,567,0,2046,444
568,568,0,2046,716
569,569,0,2046,1032
570,570,0,2046,1382
571,571,0,2047,1754
572,572,0,2047,2136
573,573,0,2047,2514
574,574,0,2046,2877
575,575,0,2047,3211
576,576,0,2047,3506
577,577,0,2046,3752
578,578,0,2046,3940
579,579,0,2046,4066
580,580,0,2047,4095
581,581,0,2047,4095
582,582,0,2046,4026
583,583,0,2047,3878
584,584,0,2047,3667
585,585,0,2046,3401
586,586,0,2046,3091
587,587,0,2046,2745
588,588,0,2047,2377
589,589,0,2046,1996
590,590,0,2046,1617
591,591,0,2046,1253
592,592,0,2046,914
593,593,0,2046,612
594,594,0,2046,359
595,595,0,2046,162
596,596,0,2046,27
597,597,0,2047,0
598,598,0,2046,0
599,599,0,2046,34
600,600,0,2047,173
601,601,0,2047,374
602,602,0,2047,632
603,603,0,2047,936
604,604,0,2046,1277
605,605,0,2047,1643
606,606,0,2046,2023
607,607,0,2046,2404
608,608,0,2047,2773
609,609,0,2046,3116
610,610,0,2046,3424
611,611,0,2047,3685
612,612,0,2046,3891
613,613,0,2046,4036
614,614,0,2046,4095
615,615,0,2046,4095
616,616,0,2046,4058
617,617,0,2047,3928
618,618,0,2047,3735
619,619,0,2046,3485
620,620,0,2046,3187
621,621,0,2046,2850
622,622,0,2046,2486
623,623,0,2047,2108
624,624,0,2046,1728
625,625,0,2046,1357
626,626,0,2047,1010
627,627,0,2046,696
628,628,0,2046,427
629,629,0,2046,213
630,630,0,2047,60
631,631,0,2047,0
632,632,0,2047,0
633,633,0,2047,5
634,634,0,2046,125
635,635,0,2047,309
636,636,0,2047,551
637,637,0,2047,842
638,638,0,2047,1174
639,639,0,2046,1534
640,640,0,2047,1912
641,641,0,2046,2294
642,642,0,2046,2666
643,643,0,2046,3019
644,644,0,2046,3338
645,645,0,2047,3614
646,646,0,2047,3837
647,647,0,2046,4000
648,648,0,2046,4095
649,649,0,2046,4095
650,650,0,2047,4083
651,651,0,2047,3972
652,652,0,2047,3797
653,653,0,2047,3564
654,654,0,2046,3279
655,655,0,2047,2953
656,656,0,2047,2596
657,657,0,2047,2220
658,658,0,2046,1839
659,659,0,2047,1463
660,660,0,2046,1108
661,661,0,2047,783
662,662,0,2047,501
663,663,0,2046,271
664,664,0,2047,98
665,665,0,2047,0
666,666,0,2046,0
667,667,0,2046,0
668,668,0,2047,83
669,669,0,2046,248
670,670,0,2046,474
671,671,0,2047,752
672,672,0,2046,1073
673,673,0,2047,1426
674,674,0,2046,1800
675,675,0,2047,2181
676,676,0,2046,2558
677,677,0,2046,2918
678,678,0,2046,3248
679,679,0,2046,3538
680,680,0,2046,3778
681,681,0,2046,3959
682,682,0,2047,4076
683,683,0,2046,4095
684,684,0,2046,4095
685,685,0,2047,4012
686,686,0,2047,3856
687,687,0,2047,3639
688,688,0,2047,3366
689,689,0,2047,3052
690,690,0,2046,2702
691,691,0,2046,2332
692,692,0,2047,1950
693,693,0,2046,1573
694,694,0,2046,1210
695,695,0,2046,876
696,696,0,2047,580
697,697,0,2046,333
698,698,0,2047,142
699,699,0,2046,16
700,700,0,2048,0
701,701,0,2047,0
702,702,0,2047,48
703,703,0,2047,194
704,704,0,2047,402
705,705,0,2046,665
706,706,0,2047,975
707,707,0,2047,1320
708,708,0,2047,1688
709,709,0,2047,2069
710,710,0,2045,2449
711,711,0,2047,2815
712,712,0,2046,3155
713,713,0,2046,3457
714,714,0,2047,3712
715,715,0,2046,3912
716,716,0,2047,4048
717,717,0,2047,4095
718,718,0,2046,4095
719,719,0,2047,4046
720,720,0,2046,3908
721,721,0,2046,3707
722,722,0,2047,3451
723,723,0,2046,3149
724,724,0,2046,2808
725,725,0,2046,2442
726,726,0,2046,2063
727,727,0,2046,1682
728,728,0,2046,1314
729,729,0,2046,970
730,730,0,2046,662
731,731,0,2046,400
732,732,0,2046,191
733,733,0,2046,46
734,734,0,2047,0
735,735,0,2047,0
736,736,0,2047,16
737,737,0,2047,144
738,738,0,2047,336
739,739,0,2047,583
740,740,0,2047,880
741,741,0,2047,1215
742,742,0,2047,1578
743,743,0,2047,1958
744,744,0,2047,2338
745,745,0,2047,2709
746,746,0,2046,3059
747,747,0,2046,3373
748,748,0,2046,3643
749,749,0,2046,3859
750,750,0,2047,4015
751,751,0,2046,4095
752,752,0,2047,4095
753,753,0,2047,4073
754,754,0,2046,3955
755,755,0,2046,3772
756,756,0,2046,3533
757,757,0,2047,3242
758,758,0,2046,2911
759,759,0,2047,2551
760,760,0,2046,2175
761,761,0,2046,1794
762,762,0,2046,1420
763,763,0,2047,1068
764,764,0,2047,748
765,765,0,2047,471
766,766,0,2046,247
767,767,0,2047,82
768,768,0,2046,0
769,769,0,2046,0
770,770,0,2047,0
771,771,0,2046,99
772,772,0,2047,272
773,773,0,2047,505
774,774,0,2046,788
775,775,0,2047,1113
776,776,0,2046,1470
777,777,0,2047,1846
778,778,0,2047,2226
779,779,0,2047,2603
780,780,0,2046,2959
781,781,0,2047,3285
782,782,0,2047,3570
783,783,0,2046,3802
784,784,0,2046,3976
785,785,0,2046,4085
786,786,0,2047,4095
787,787,0,2046,4095
788,788,0,2046,3997
789,789,0,2047,3833
790,790,0,2047,3609
791,791,0,2047,3332
792,792,0,2046,3012
793,793,0,2047,2659
794,794,0,2047,2286
795,795,0,2047,1905
796,796,0,2046,1528
797,797,0,2046,1169
798,798,0,2046,838
799,799,0,2047,547
800,800,0,2047,307
801,801,0,2047,124
802,802,0,2046,5
803,803,0,2046,0
804,804,0,2046,0
805,805,0,2046,62
806,806,0,2047,215
807,807,0,2047,430
808,808,0,2046,700
809,809,0,2046,1014
810,810,0,2047,1363
811,811,0,2046,1733
812,812,0,2046,2115
813,813,0,2047,2494
814,814,0,2046,2858
815,815,0,2047,3193
816,816,0,2046,3491
817,817,0,2046,3741
818,818,0,2047,3931
819,819,0,2047,4061
820,820,0,2047,4095
821,821,0,2047,4095
822,822,0,2047,4033
823,823,0,2047,3888
824,824,0,2046,3680
825,825,0,2046,3418
826,826,0,2046,3109
827,827,0,2046,2765
828,828,0,2046,2398
829,829,0,2046,2018
830,830,0,2046,1638
831,831,0,2047,1272
832,832,0,2046,932
833,833,0,2046,628
834,834,0,2046,371
835,835,0,2047,172
836,836,0,2046,33
837,837,0,2046,0
838,838,0,2046,0
839,839,0,2047,29
840,840,0,2047,163
841,841,0,2046,361
842,842,0,2046,616
843,843,0,2047,917
844,844,0,2047,1257
845,845,0,2046,1622
846,846,0,2046,2002
847,847,0,2047,2384
848,848,0,2047,2752
849,849,0,2047,3098
850,850,0,2046,3408
851,851,0,2046,3672
852,852,0,2046,3881
853,853,0,2047,4029
854,854,0,2046,4095
855,855,0,2046,4095
856,856,0,2047,4062
857,857,0,2046,3936
858,858,0,2046,3747
859,859,0,2046,3501
860,860,0,2047,3205
861,861,0,2046,2870
862,862,0,2047,2507
863,863,0,2047,2129
864,864,0,2047,1748
865,865,0,2047,1377
866,866,0,2047,1028
867,867,0,2047,713
868,868,0,2047,442
869,869,0,2047,224
870,870,0,2047,67
871,871,0,2046,0
872,872,0,2046,0
873,873,0,2047,2
874,874,0,2047,117
875,875,0,2046,298
876,876,0,2046,536
877,877,0,2047,825
878,878,0,2046,1154
879,879,0,2047,1513
880,880,0,2046,1890
881,881,0,2046,2272
882,882,0,2047,2646
883,883,0,2046,3000
884,884,0,2046,3321
885,885,0,2046,3600
886,886,0,2046,3826
887,887,0,2047,3992
888,888,0,2046,4093
889,889,0,2046,4095
890,890,0,2047,4087
891,891,0,2046,3980
892,892,0,2047,3809
893,893,0,2047,3578
894,894,0,2047,3295
895,895,0,2047,2971
896,896,0,2047,2616
897,897,0,2046,2242
898,898,0,2046,1860
899,899,0,2047,1484
900,900,0,2047,1127
901,901,0,2047,801
902,902,0,2047,516
903,903,0,2046,282
904,904,0,2046,106
905,905,0,2047,0
906,906,0,2046,0
907,907,0,2047,0
908,908,0,2047,77
909,909,0,2046,238
910,910,0,2046,460
911,911,0,2046,736
912,912,0,2046,1055
913,913,0,2047,1406
914,914,0,2046,1778
915,915,0,2047,2160
916,916,0,2046,2538
917,917,0,2046,2900
918,918,0,2046,3231
919,919,0,2046,3523
920,920,0,2047,3766
921,921,0,2047,3950
922,922,0,2046,4071
923,923,0,2047,4095
924,924,0,2046,4095
925,925,0,2047,4019
926,926,0,2046,3866
927,927,0,2046,3652
928,928,0,2046,3383
929,929,0,2046,3070
930,930,0,2047,2722
931,931,0,2046,2353
932,932,0,2046,1971
933,933,0,2046,1593
934,934,0,2046,1229
935,935,0,2046,892
936,936,0,2046,594
937,937,0,2046,345
938,938,0,2047,151
939,939,0,2046,21
940,940,0,2047,0
941,941,0,2046,0
942,942,0,2047,41
943,943,0,2046,183
944,944,0,2046,389
945,945,0,2047,650
946,946,0,2046,955
947,947,0,2047,1300
948,948,0,2047,1668
949,949,0,2046,2048
950,950,0,2047,2428
951,951,0,2046,2795
952,952,0,2047,3137
953,953,0,2046,3442
954,954,0,2047,3700
955,955,0,2046,3902
956,956,0,2046,4042
957,957,0,2047,4095
958,958,0,2046,4095
959,959,0,2047,4052
960,960,0,2046,3918
961,961,0,2047,3721
962,962,0,2046,3467
963,963,0,2046,3166
964,964,0,2047,2828
965,965,0,2047,2463
966,966,0,2047,2084
967,967,0,2047,1703
968,968,0,2046,1334
969,969,0,2046,988
970,970,0,2047,678
971,971,0,2046,412
972,972,0,2047,202
973,973,0,2046,52
974,974,0,2046,0
975,975,0,2047,0
976,976,0,2047,11
977,977,0,2046,135
978,978,0,2046,323
979,979,0,2046,567
980,980,0,2047,862
981,981,0,2047,1195
982,982,0,2047,1558
983,983,0,2046,1936
984,984,0,2047,2317
985,985,0,2046,2689
986,986,0,2046,3040
987,987,0,2047,3358
988,988,0,2047,3630
989,989,0,2046,3850
990,990,0,2046,4008
991,991,0,2047,4095
992,992,0,2046,4095
993,993,0,2046,4079
994,994,0,2046,3964
995,995,0,2046,3785
996,996,0,2046,3547
997,997,0,2046,3259
998,998,0,2046,2930
999,999,0,2047,2571
1000,1000,0,2046,2196
1001,1001,0,2047,1814
1002,1002,0,2046,1440
1003,1003,0,2047,1087
1004,1004,0,2046,765
1005,1005,0,2047,485
1006,1006,0,2047,258
1007,1007,0,2047,89
1008,1008,0,2047,0
1009,1009,0,2047,0
1010,1010,0,2047,0
1011,1011,0,2046,92
1012,1012,0,2047,262
1013,1013,0,2047,490
1014,1014,0,2046,771
1015,1015,0,2047,1094
1016,1016,0,2046,1449
1017,1017,0,2046,1824
1018,1018,0,2047,2206
1019,1019,0,2046,2582
1020,1020,0,2046,2940
1021,1021,0,2047,3268
1022,1022,0,2047,3554
1023,1023,0,2046,3791
1024,1024,0,2046,3968
1025,1025,0,2046,4081
1026,1026,0,2047,4095
1027,1027,0,2047,4095
1028,1028,0,2046,4004
1029,1029,0,2046,3843
1030,1030,0,2047,3622
