Sample in Buffer,Sample in Window,TRIGGER,adc1_data_a_d0[11:0],adc1_data_b_d0[11:0]
0,0,0,2047,6
1,1,0,2046,0
2,2,0,2047,0
3,3,0,2047,73
4,4,0,2046,212
5,5,0,2047,406
6,6,0,2046,647
7,7,0,2046,928
8,8,0,2047,1243
9,9,0,2047,1580
10,10,0,2047,1930
11,11,0,2047,2284
12,12,0,2047,2630
13,13,0,2046,2959
14,14,0,2046,3262
15,15,0,2047,3528
16,16,0,2047,3751
17,17,0,2046,3924
18,18,0,2047,4042
19,19,0,2047,4095
20,20,0,2046,4095
21,21,0,2047,4040
22,22,0,2047,3921
23,23,0,2047,3747
24,24,0,2047,3524
25,25,0,2046,3258
26,26,0,2046,2956
27,27,0,2047,2627
28,28,0,2046,2282
29,29,0,2046,1930
30,30,0,2047,1580
31,31,0,2046,1244
32,32,0,2047,931
33,33,0,2046,649
34,34,0,2047,409
35,35,0,2047,215
36,36,0,2046,76
37,37,0,2046,0
38,38,0,2047,0
39,39,0,2046,5
40,40,0,2046,101
41,41,0,2047,254
42,42,0,2047,459
43,43,0,2046,710
44,44,0,2046,999
45,45,0,2047,1320
46,46,0,2047,1661
47,47,0,2047,2013
48,48,0,2047,2367
49,49,0,2046,2710
50,50,0,2046,3033
51,51,0,2046,3328
52,52,0,2047,3585
53,53,0,2047,3797
54,54,0,2046,3957
55,55,0,2046,4061
56,56,0,2046,4095
57,57,0,2046,4092
58,58,0,2047,4016
59,59,0,2046,3884
60,60,0,2047,3699
61,61,0,2047,3465
62,62,0,2046,3189
63,63,0,2047,2881
64,64,0,2046,2547
65,65,0,2046,2199
66,66,0,2047,1847
67,67,0,2046,1499
68,68,0,2047,1168
69,69,0,2046,862
70,70,0,2047,589
71,71,0,2046,359
72,72,0,2046,177
73,73,0,2046,50
74,74,0,2047,0
75,75,0,2046,0
76,76,0,2047,22
77,77,0,2046,132
78,78,0,2047,298
79,79,0,2046,514
80,80,0,2047,775
81,81,0,2047,1073
82,82,0,2047,1398
83,83,0,2047,1744
84,84,0,2046,2097
85,85,0,2046,2449
86,86,0,2047,2788
87,87,0,2047,3106
88,88,0,2046,3392
89,89,0,2046,3639
90,90,0,2047,3839
91,91,0,2046,3987
92,92,0,2046,4077
93,93,0,2046,4095
94,94,0,2046,4080
95,95,0,2047,3991
96,96,0,2047,3845
97,97,0,2046,3648
98,98,0,2047,3404
99,99,0,2046,3120
100,100,0,2047,2803
101,101,0,2047,2466
102,102,0,2047,2117
103,103,0,2046,1764
104,104,0,2046,1419
105,105,0,2046,1093
106,106,0,2046,793
107,107,0,2047,531
108,108,0,2047,312
109,109,0,2047,142
110,110,0,2047,28
111,111,0,2046,0
112,112,0,2047,0
113,113,0,2046,44
114,114,0,2047,166
115,115,0,2046,344
116,116,0,2047,571
117,117,0,2047,842
118,118,0,2046,1147
119,119,0,2047,1479
120,120,0,2046,1826
121,121,0,2046,2180
122,122,0,2047,2529
123,123,0,2047,2865
124,124,0,2047,3176
125,125,0,2046,3454
126,126,0,2047,3690
127,127,0,2046,3878
128,128,0,2046,4014
129,129,0,2046,4090
130,130,0,2047,4095
131,131,0,2046,4064
132,132,0,2047,3961
133,133,0,2046,3804
134,134,0,2047,3594
135,135,0,2047,3340
136,136,0,2047,3047
137,137,0,2047,2726
138,138,0,2047,2385
139,139,0,2047,2034
140,140,0,2046,1681
141,141,0,2046,1341
142,142,0,2046,1020
143,143,0,2046,728
144,144,0,2047,475
145,145,0,2046,267
146,146,0,2046,111
147,147,0,2046,11
148,148,0,2047,0
149,149,0,2047,0
150,150,0,2047,67
151,151,0,2047,203
152,152,0,2047,393
153,153,0,2047,631
154,154,0,2046,911
155,155,0,2046,1223
156,156,0,2046,1559
157,157,0,2047,1910
158,158,0,2046,2263
159,159,0,2047,2610
160,160,0,2046,2941
161,161,0,2047,3245
162,162,0,2047,3513
163,163,0,2047,3739
164,164,0,2046,3915
165,165,0,2046,4037
166,166,0,2046,4095
167,167,0,2047,4095
168,168,0,2046,4045
169,169,0,2047,3929
170,170,0,2046,3759
171,171,0,2046,3538
172,172,0,2047,3274
173,173,0,2047,2975
174,174,0,2046,2647
175,175,0,2046,2303
176,176,0,2046,1950
177,177,0,2046,1601
178,178,0,2046,1263
179,179,0,2046,948
180,180,0,2047,665
181,181,0,2047,422
182,182,0,2047,225
183,183,0,2047,81
184,184,0,2047,0
185,185,0,2047,0
186,186,0,2047,1
187,187,0,2046,94
188,188,0,2047,243
189,189,0,2047,445
190,190,0,2046,694
191,191,0,2047,982
192,192,0,2047,1300
193,193,0,2046,1641
194,194,0,2046,1993
195,195,0,2047,2345
196,196,0,2046,2690
197,197,0,2047,3015
198,198,0,2047,3312
199,199,0,2047,3571
200,200,0,2047,3785
201,201,0,2047,3949
202,202,0,2046,4056
203,203,0,2046,4095
204,204,0,2046,4095
205,205,0,2047,4023
206,206,0,2047,3895
207,207,0,2046,3712
208,208,0,2046,3480
209,209,0,2046,3206
210,210,0,2047,2899
211,211,0,2047,2568
212,212,0,2047,2219
213,213,0,2046,1868
214,214,0,2047,1519
215,215,0,2046,1187
216,216,0,2046,879
217,217,0,2047,604
218,218,0,2046,371
219,219,0,2046,186
220,220,0,2047,56
221,221,0,2047,0
222,222,0,2046,0
223,223,0,2046,18
224,224,0,2046,124
225,225,0,2047,286
226,226,0,2046,500
227,227,0,2047,758
228,228,0,2046,1054
229,229,0,2046,1378
230,230,0,2046,1722
231,231,0,2046,2075
232,232,0,2046,2428
233,233,0,2046,2768
234,234,0,2046,3088
235,235,0,2047,3376
236,236,0,2047,3626
237,237,0,2046,3828
238,238,0,2046,3980
239,239,0,2047,4073
240,240,0,2047,4095
241,241,0,2047,4083
242,242,0,2047,3997
243,243,0,2046,3856
244,244,0,2047,3660
245,245,0,2047,3419
246,246,0,2046,3137
247,247,0,2046,2823
248,248,0,2046,2487
249,249,0,2047,2137
250,250,0,2047,1785
251,251,0,2046,1440
252,252,0,2047,1111
253,253,0,2047,811
254,254,0,2046,545
255,255,0,2047,323
256,256,0,2046,151
257,257,0,2046,34
258,258,0,2047,0
259,259,0,2046,0
260,260,0,2047,37
261,261,0,2047,158
262,262,0,2046,332
263,263,0,2046,557
264,264,0,2047,825
265,265,0,2046,1128
266,266,0,2046,1458
267,267,0,2047,1806
268,268,0,2046,2160
269,269,0,2047,2509
270,270,0,2047,2846
271,271,0,2046,3159
272,272,0,2046,3438
273,273,0,2047,3677
274,274,0,2046,3868
275,275,0,2046,4007
276,276,0,2046,4088
277,277,0,2046,4095
278,278,0,2046,4068
279,279,0,2047,3970
280,280,0,2047,3814
281,281,0,2047,3608
282,282,0,2046,3356
283,283,0,2047,3066
284,284,0,2047,2745
285,285,0,2047,2405
286,286,0,2046,2054
287,287,0,2046,1703
288,288,0,2046,1360
289,289,0,2046,1038
290,290,0,2047,745
291,291,0,2046,489
292,292,0,2047,278
293,293,0,2046,118
294,294,0,2046,15
295,295,0,2046,0
296,296,0,2047,0
297,297,0,2046,60
298,298,0,2047,194
299,299,0,2047,381
300,300,0,2047,617
301,301,0,2047,893
302,302,0,2047,1204
303,303,0,2046,1539
304,304,0,2047,1888
305,305,0,2047,2243
306,306,0,2047,2590
307,307,0,2047,2922
308,308,0,2046,3227
309,309,0,2046,3499
310,310,0,2046,3727
311,311,0,2046,3906
312,312,0,2047,4031
313,313,0,2046,4095
314,314,0,2047,4095
315,315,0,2046,4050
316,316,0,2046,3938
317,317,0,2046,3770
318,318,0,2047,3552
319,319,0,2046,3291
320,320,0,2046,2993
321,321,0,2047,2667
322,322,0,2046,2323
323,323,0,2046,1971
324,324,0,2047,1621
325,325,0,2047,1283
326,326,0,2046,966
327,327,0,2047,681
328,328,0,2046,435
329,329,0,2047,235
330,330,0,2046,89
331,331,0,2047,0
332,332,0,2046,0
333,333,0,2047,0
334,334,0,2046,87
335,335,0,2047,233
336,336,0,2046,432
337,337,0,2046,678
338,338,0,2047,964
339,339,0,2047,1281
340,340,0,2047,1620
341,341,0,2046,1972
342,342,0,2046,2325
343,343,0,2046,2670
344,344,0,2047,2996
345,345,0,2047,3294
346,346,0,2046,3557
347,347,0,2047,3774
348,348,0,2047,3941
349,349,0,2046,4052
350,350,0,2047,4095
351,351,0,2047,4095
352,352,0,2046,4028
353,353,0,2046,3903
354,354,0,2047,3723
355,355,0,2046,3495
356,356,0,2047,3224
357,357,0,2046,2918
358,358,0,2046,2588
359,359,0,2046,2241
360,360,0,2046,1888
361,361,0,2046,1540
362,362,0,2047,1206
363,363,0,2046,896
364,364,0,2047,620
365,365,0,2047,383
366,366,0,2047,196
367,367,0,2047,63
368,368,0,2047,0
369,369,0,2046,0
370,370,0,2046,13
371,371,0,2047,116
372,372,0,2047,276
373,373,0,2046,487
374,374,0,2047,742
375,375,0,2047,1036
376,376,0,2047,1359
377,377,0,2047,1702
378,378,0,2047,2055
379,379,0,2046,2407
380,380,0,2047,2749
381,381,0,2046,3069
382,382,0,2047,3360
383,383,0,2046,3612
384,384,0,2047,3818
385,385,0,2047,3973
386,386,0,2046,4068
387,387,0,2047,4095
388,388,0,2047,4086
389,389,0,2046,4004
390,390,0,2047,3866
391,391,0,2046,3674
392,392,0,2047,3434
393,393,0,2046,3154
394,394,0,2046,2843
395,395,0,2047,2507
396,396,0,2047,2158
397,397,0,2047,1806
398,398,0,2046,1459
399,399,0,2046,1130
400,400,0,2046,828
401,401,0,2046,559
402,402,0,2047,335
403,403,0,2047,160
404,404,0,2045,39
405,405,0,2047,0
406,406,0,2046,0
407,407,0,2046,32
408,408,0,2047,148
409,409,0,2047,320
410,410,0,2047,542
411,411,0,2046,808
412,412,0,2047,1109
413,413,0,2046,1437
414,414,0,2046,1784
415,415,0,2046,2138
416,416,0,2047,2488
417,417,0,2047,2827
418,418,0,2046,3141
419,419,0,2046,3423
420,420,0,2046,3664
421,421,0,2047,3858
422,422,0,2046,4001
423,423,0,2047,4084
424,424,0,2046,4095
425,425,0,2047,4072
426,426,0,2046,3977
427,427,0,2047,3825
428,428,0,2046,3622
429,429,0,2047,3372
430,430,0,2047,3084
431,431,0,2047,2766
432,432,0,2046,2426
433,433,0,2047,2075
434,434,0,2046,1723
435,435,0,2046,1381
436,436,0,2046,1057
437,437,0,2047,761
438,438,0,2047,503
439,439,0,2047,289
440,440,0,2046,126
441,441,0,2046,19
442,442,0,2047,0
443,443,0,2047,0
444,444,0,2047,55
445,445,0,2046,184
446,446,0,2046,369
447,447,0,2046,601
448,448,0,2046,876
449,449,0,2046,1185
450,450,0,2046,1518
451,451,0,2047,1867
452,452,0,2047,2221
453,453,0,2046,2570
454,454,0,2046,2903
455,455,0,2047,3211
456,456,0,2047,3484
457,457,0,2047,3715
458,458,0,2047,3897
459,459,0,2047,4025
460,460,0,2046,4095
461,461,0,2047,4095
462,462,0,2047,4055
463,463,0,2046,3946
464,464,0,2047,3782
465,465,0,2046,3566
466,466,0,2046,3308
467,467,0,2047,3012
468,468,0,2046,2688
469,469,0,2046,2344
470,470,0,2046,1993
471,471,0,2046,1642
472,472,0,2047,1302
473,473,0,2046,984
474,474,0,2046,697
475,475,0,2047,448
476,476,0,2047,245
477,477,0,2046,96
478,478,0,2047,2
479,479,0,2046,0
480,480,0,2047,0
481,481,0,2047,81
482,482,0,2046,222
483,483,0,2046,419
484,484,0,2047,663
485,485,0,2047,945
486,486,0,2047,1261
487,487,0,2046,1600
488,488,0,2047,1950
489,489,0,2046,2304
490,490,0,2046,2649
491,491,0,2046,2977
492,492,0,2047,3278
493,493,0,2046,3542
494,494,0,2047,3763
495,495,0,2047,3932
496,496,0,2046,4046
497,497,0,2046,4095
498,498,0,2046,4095
499,499,0,2046,4034
500,500,0,2046,3913
501,501,0,2046,3735
502,502,0,2046,3510
503,503,0,2047,3240
504,504,0,2047,2937
505,505,0,2046,2608
506,506,0,2046,2262
507,507,0,2047,1910
508,508,0,2047,1561
509,509,0,2046,1225
510,510,0,2047,914
511,511,0,2046,634
512,512,0,2047,396
513,513,0,2046,206
514,514,0,2046,68
515,515,0,2047,0
516,516,0,2047,0
517,517,0,2046,9
518,518,0,2046,109
519,519,0,2046,264
520,520,0,2046,472
521,521,0,2047,726
522,522,0,2047,1017
523,523,0,2046,1339
524,524,0,2047,1680
525,525,0,2046,2034
526,526,0,2046,2386
527,527,0,2046,2729
528,528,0,2046,3051
529,529,0,2046,3344
530,530,0,2046,3598
531,531,0,2046,3807
532,532,0,2046,3964
533,533,0,2047,4065
534,534,0,2047,4095
535,535,0,2046,4089
536,536,0,2046,4010
537,537,0,2046,3876
538,538,0,2046,3687
539,539,0,2047,3450
540,540,0,2047,3172
541,541,0,2047,2862
542,542,0,2047,2527
543,543,0,2046,2179
544,544,0,2047,1826
545,545,0,2047,1479
546,546,0,2046,1149
547,547,0,2046,845
548,548,0,2046,574
549,549,0,2046,346
550,550,0,2047,168
551,551,0,2047,44
552,552,0,2047,0
553,553,0,2046,0
554,554,0,2046,27
555,555,0,2046,140
556,556,0,2046,308
557,557,0,2046,528
558,558,0,2046,791
559,559,0,2046,1090
560,560,0,2047,1418
561,561,0,2046,1763
562,562,0,2046,2117
563,563,0,2046,2468
564,564,0,2046,2807
565,565,0,2046,3123
566,566,0,2046,3407
567,567,0,2046,3652
568,568,0,2046,3849
569,569,0,2046,3994
570,570,0,2046,4081
571,571,0,2047,4095
572,572,0,2047,4075
573,573,0,2046,3984
574,574,0,2047,3835
575,575,0,2046,3635
576,576,0,2046,3388
577,577,0,2046,3102
578,578,0,2047,2784
579,579,0,2046,2447
580,580,0,2046,2096
581,581,0,2046,1743
582,582,0,2047,1400
583,583,0,2046,1076
584,584,0,2047,778
585,585,0,2047,516
586,586,0,2046,300
587,587,0,2046,134
588,588,0,2046,23
589,589,0,2046,0
590,590,0,2047,0
591,591,0,2047,48
592,592,0,2047,175
593,593,0,2046,356
594,594,0,2047,586
595,595,0,2047,859
596,596,0,2047,1165
597,597,0,2047,1498
598,598,0,2047,1847
599,599,0,2046,2200
600,600,0,2047,2549
601,601,0,2047,2884
602,602,0,2047,3193
603,603,0,2047,3468
604,604,0,2047,3702
605,605,0,2047,3887
606,606,0,2047,4019
607,607,0,2046,4092
608,608,0,2047,4095
609,609,0,2047,4059
610,610,0,2046,3953
611,611,0,2046,3792
612,612,0,2046,3581
613,613,0,2046,3324
614,614,0,2047,3030
615,615,0,2047,2707
616,616,0,2047,2365
617,617,0,2046,2013
618,618,0,2046,1663
619,619,0,2046,1322
620,620,0,2047,1002
621,621,0,2047,713
622,622,0,2046,462
623,623,0,2046,257
624,624,0,2047,103
625,625,0,2047,6
626,626,0,2046,0
627,627,0,2047,0
628,628,0,2047,74
629,629,0,2046,213
630,630,0,2047,407
631,631,0,2047,647
632,632,0,2046,928
633,633,0,2047,1242
634,634,0,2046,1580
635,635,0,2047,1930
636,636,0,2047,2283
637,637,0,2047,2630
638,638,0,2046,2959
639,639,0,2046,3261
640,640,0,2047,3528
641,641,0,2047,3751
642,642,0,2047,3924
643,643,0,2046,4041
644,644,0,2046,4095
645,645,0,2046,4095
646,646,0,2046,4040
647,647,0,2046,3921
648,648,0,2047,3747
649,649,0,2047,3524
650,650,0,2046,3258
651,651,0,2047,2956
652,652,0,2046,2628
653,653,0,2046,2282
654,654,0,2047,1930
655,655,0,2047,1580
656,656,0,2046,1244
657,657,0,2047,931
658,658,0,2046,650
659,659,0,2047,409
660,660,0,2047,215
661,661,0,2046,75
662,662,0,2046,0
663,663,0,2047,0
664,664,0,2046,5
665,665,0,2046,100
666,666,0,2047,253
667,667,0,2047,458
668,668,0,2047,710
669,669,0,2046,999
670,670,0,2046,1320
671,671,0,2047,1661
672,672,0,2046,2013
673,673,0,2047,2366
674,674,0,2046,2708
675,675,0,2046,3033
676,676,0,2046,3328
677,677,0,2046,3584
678,678,0,2046,3796
679,679,0,2047,3957
680,680,0,2046,4061
681,681,0,2047,4095
682,682,0,2046,4093
683,683,0,2047,4017
684,684,0,2047,3885
685,685,0,2046,3700
686,686,0,2045,3465
687,687,0,2046,3190
688,688,0,2047,2881
689,689,0,2047,2547
690,690,0,2046,2200
691,691,0,2047,1848
692,692,0,2046,1500
693,693,0,2046,1168
694,694,0,2047,862
695,695,0,2047,589
696,696,0,2047,359
697,697,0,2047,178
698,698,0,2047,51
699,699,0,2046,0
700,700,0,2047,0
701,701,0,2046,22
702,702,0,2047,132
703,703,0,2046,297
704,704,0,2047,514
705,705,0,2046,774
706,706,0,2046,1072
707,707,0,2046,1398
708,708,0,2046,1743
709,709,0,2046,2096
710,710,0,2046,2447
711,711,0,2047,2788
712,712,0,2046,3105
713,713,0,2047,3392
714,714,0,2046,3638
715,715,0,2046,3838
716,716,0,2047,3986
717,717,0,2046,4077
718,718,0,2046,4095
719,719,0,2046,4079
720,720,0,2046,3991
721,721,0,2046,3846
722,722,0,2046,3648
723,723,0,2046,3403
724,724,0,2047,3120
725,725,0,2046,2804
726,726,0,2047,2467
727,727,0,2047,2117
728,728,0,2046,1765
729,729,0,2046,1420
730,730,0,2047,1094
731,731,0,2047,795
732,732,0,2046,532
733,733,0,2047,312
734,734,0,2046,142
735,735,0,2046,29
736,736,0,2046,0
737,737,0,2047,0
738,738,0,2047,43
739,739,0,2046,166
740,740,0,2046,344
741,741,0,2047,572
742,742,0,2046,841
743,743,0,2047,1147
744,744,0,2047,1478
745,745,0,2046,1826
746,746,0,2046,2180
747,747,0,2046,2530
748,748,0,2046,2865
749,749,0,2046,3176
750,750,0,2047,3453
751,751,0,2047,3690
752,752,0,2046,3878
753,753,0,2046,4013
754,754,0,2046,4090
755,755,0,2047,4095
756,756,0,2047,4064
757,757,0,2047,3962
758,758,0,2047,3803
759,759,0,2047,3594
760,760,0,2046,3340
761,761,0,2046,3048
762,762,0,2046,2727
763,763,0,2047,2385
764,764,0,2046,2033
765,765,0,2047,1681
766,766,0,2046,1342
767,767,0,2047,1020
768,768,0,2047,730
769,769,0,2047,475
770,770,0,2047,268
771,771,0,2047,111
772,772,0,2046,11
773,773,0,2047,0
774,774,0,2046,0
775,775,0,2046,67
776,776,0,2046,203
777,777,0,2046,393
778,778,0,2047,631
779,779,0,2047,911
780,780,0,2047,1223
781,781,0,2046,1559
782,782,0,2046,1909
783,783,0,2047,2263
784,784,0,2046,2610
785,785,0,2047,2940
786,786,0,2047,3244
787,787,0,2046,3513
788,788,0,2046,3739
789,789,0,2045,3916
790,790,0,2047,4035
791,791,0,2046,4095
792,792,0,2046,4095
793,793,0,2046,4045
794,794,0,2046,3930
795,795,0,2046,3759
796,796,0,2047,3539
797,797,0,2046,3275
798,798,0,2045,2975
799,799,0,2046,2648
800,800,0,2047,2303
801,801,0,2046,1951
802,802,0,2047,1601
803,803,0,2046,1264
804,804,0,2047,949
805,805,0,2046,665
806,806,0,2047,423
807,807,0,2047,226
808,808,0,2046,82
809,809,0,2046,0
810,810,0,2046,0
811,811,0,2046,2
812,812,0,2047,94
813,813,0,2047,242
814,814,0,2046,445
815,815,0,2047,693
816,816,0,2046,981
817,817,0,2046,1300
818,818,0,2047,1641
819,819,0,2046,1992
820,820,0,2046,2345
821,821,0,2046,2689
822,822,0,2047,3014
823,823,0,2046,3311
824,824,0,2046,3570
825,825,0,2047,3785
826,826,0,2046,3949
827,827,0,2047,4056
828,828,0,2046,4095
829,829,0,2046,4094
830,830,0,2046,4023
831,831,0,2046,3895
832,832,0,2046,3712
833,833,0,2047,3480
834,834,0,2046,3207
835,835,0,2046,2901
836,836,0,2046,2568
837,837,0,2046,2220
838,838,0,2047,1869
839,839,0,2046,1520
840,840,0,2047,1187
841,841,0,2046,879
842,842,0,2046,605
843,843,0,2046,372
844,844,0,2047,187
845,845,0,2046,56
846,846,0,2046,0
847,847,0,2046,0
848,848,0,2047,18
849,849,0,2047,124
850,850,0,2046,286
851,851,0,2046,500
852,852,0,2047,757
853,853,0,2047,1053
854,854,0,2046,1378
855,855,0,2047,1723
856,856,0,2047,2075
857,857,0,2046,2427
858,858,0,2046,2768
859,859,0,2046,3086
860,860,0,2047,3376
861,861,0,2046,3625
862,862,0,2046,3828
863,863,0,2046,3980
864,864,0,2046,4073
865,865,0,2046,4095
866,866,0,2047,4083
867,867,0,2046,3998
868,868,0,2047,3856
869,869,0,2046,3662
870,870,0,2046,3420
871,871,0,2047,3138
872,872,0,2047,2824
873,873,0,2046,2488
874,874,0,2046,2138
875,875,0,2046,1785
876,876,0,2046,1440
877,877,0,2046,1112
878,878,0,2047,811
879,879,0,2046,546
880,880,0,2046,324
881,881,0,2046,151
882,882,0,2047,33
883,883,0,2047,0
884,884,0,2046,0
885,885,0,2046,37
886,886,0,2046,157
887,887,0,2046,332
888,888,0,2046,557
889,889,0,2047,825
890,890,0,2046,1128
891,891,0,2047,1458
892,892,0,2046,1805
893,893,0,2047,2158
894,894,0,2047,2508
895,895,0,2047,2846
896,896,0,2047,3158
897,897,0,2047,3438
898,898,0,2046,3677
899,899,0,2046,3868
900,900,0,2047,4006
901,901,0,2046,4087
902,902,0,2047,4095
903,903,0,2047,4068
904,904,0,2047,3970
905,905,0,2047,3815
906,906,0,2046,3609
907,907,0,2046,3357
908,908,0,2047,3067
909,909,0,2046,2746
910,910,0,2047,2406
911,911,0,2046,2055
912,912,0,2046,1703
913,913,0,2046,1362
914,914,0,2047,1039
915,915,0,2046,745
916,916,0,2046,489
917,917,0,2047,279
918,918,0,2047,119
919,919,0,2046,14
920,920,0,2046,0
921,921,0,2046,0
922,922,0,2047,60
923,923,0,2047,193
924,924,0,2047,380
925,925,0,2047,616
926,926,0,2046,893
927,927,0,2046,1204
928,928,0,2046,1538
929,929,0,2046,1887
930,930,0,2047,2242
931,931,0,2046,2589
932,932,0,2047,2921
933,933,0,2046,3227
934,934,0,2046,3498
935,935,0,2047,3727
936,936,0,2047,3906
937,937,0,2047,4030
938,938,0,2047,4095
939,939,0,2046,4095
940,940,0,2047,4049
941,941,0,2047,3938
942,942,0,2046,3770
943,943,0,2047,3553
944,944,0,2046,3292
945,945,0,2047,2993
946,946,0,2046,2668
947,947,0,2046,2324
948,948,0,2047,1971
949,949,0,2046,1621
950,950,0,2047,1283
951,951,0,2047,967
952,952,0,2047,681
953,953,0,2046,435
954,954,0,2047,236
955,955,0,2046,89
956,956,0,2047,0
957,957,0,2046,0
958,958,0,2047,0
959,959,0,2046,86
960,960,0,2046,233
961,961,0,2046,432
962,962,0,2047,678
963,963,0,2046,963
964,964,0,2047,1281
965,965,0,2047,1619
966,966,0,2046,1971
967,967,0,2046,2324
968,968,0,2047,2670
969,969,0,2047,2996
970,970,0,2046,3295
971,971,0,2046,3556
972,972,0,2046,3773
973,973,0,2046,3940
974,974,0,2046,4051
975,975,0,2047,4095
976,976,0,2046,4095
977,977,0,2046,4028
978,978,0,2046,3903
979,979,0,2047,3724
980,980,0,2047,3495
981,981,0,2046,3224
982,982,0,2046,2919
983,983,0,2047,2588
984,984,0,2046,2241
985,985,0,2047,1889
986,986,0,2047,1540
987,987,0,2046,1206
988,988,0,2047,897
989,989,0,2047,620
990,990,0,2047,384
991,991,0,2047,197
992,992,0,2047,62
993,993,0,2047,0
994,994,0,2047,0
995,995,0,2047,13
996,996,0,2046,116
997,997,0,2046,275
998,998,0,2046,486
999,999,0,2047,741
1000,1000,0,2047,1035
1001,1001,0,2047,1358
1002,1002,0,2047,1701
1003,1003,0,2046,2054
1004,1004,0,2047,2407
1005,1005,0,2046,2749
1006,1006,0,2046,3069
1007,1007,0,2047,3359
1008,1008,0,2046,3611
1009,1009,0,2046,3817
1010,1010,0,2046,3972
1011,1011,0,2046,4069
1012,1012,0,2047,4095
1013,1013,0,2047,4086
1014,1014,0,2047,4005
1015,1015,0,2047,3865
1016,1016,0,2046,3674
1017,1017,0,2046,3435
1018,1018,0,2046,3156
1019,1019,0,2046,2843
1020,1020,0,2046,2508
1021,1021,0,2047,2159
1022,1022,0,2046,1806
1023,1023,0,2047,1460
1024,1024,0,2047,1132
1025,1025,0,2046,827
1026,1026,0,2046,559
1027,1027,0,2047,335
1028,1028,0,2047,160
1029,1029,0,2047,39
