Sample in Buffer,Sample in Window,TRIGGER,adc1_data_a_d0[11:0],adc1_data_b_d0[11:0]
0,0,0,2046,2643
1,1,0,2046,3487
2,2,0,2046,4001
3,3,0,2046,4066
4,4,0,2046,3668
5,5,0,2046,2898
6,6,0,2046,1931
7,7,0,2047,989
8,8,0,2046,286
9,9,0,2046,0
10,10,0,2047,150
11,11,0,2047,748
12,12,0,2046,1641
13,13,0,2046,2624
14,14,0,2046,3473
15,15,0,2046,3995
16,16,0,2046,4070
17,17,0,2046,3681
18,18,0,2046,2916
19,19,0,2046,1952
20,20,0,2046,1007
21,21,0,2046,298
22,22,0,2047,0
23,23,0,2046,142
24,24,0,2046,733
25,25,0,2046,1621
26,26,0,2046,2603
27,27,0,2046,3459
28,28,0,2046,3988
29,29,0,2046,4073
30,30,0,2047,3693
31,31,0,2047,2935
32,32,0,2046,1972
33,33,0,2046,1025
34,34,0,2047,308
35,35,0,2046,0
36,36,0,2046,135
37,37,0,2046,717
38,38,0,2046,1600
39,39,0,2046,2583
40,40,0,2047,3443
41,41,0,2046,3981
42,42,0,2047,4076
43,43,0,2046,3705
44,44,0,2046,2953
45,45,0,2046,1993
46,46,0,2046,1044
47,47,0,2046,320
48,48,0,2046,0
49,49,0,2046,126
50,50,0,2046,700
51,51,0,2046,1579
52,52,0,2046,2563
53,53,0,2046,3428
54,54,0,2046,3975
55,55,0,2047,4080
56,56,0,2046,3718
57,57,0,2046,2973
58,58,0,2047,2014
59,59,0,2046,1062
60,60,0,2046,331
61,61,0,2046,0
62,62,0,2046,119
63,63,0,2046,684
64,64,0,2047,1560
65,65,0,2046,2543
66,66,0,2046,3413
67,67,0,2046,3967
68,68,0,2046,4082
69,69,0,2046,3729
70,70,0,2046,2990
71,71,0,2047,2035
72,72,0,2046,1080
73,73,0,2047,343
74,74,0,2046,0
75,75,0,2046,112
76,76,0,2046,669
77,77,0,2047,1539
78,78,0,2046,2524
79,79,0,2046,3397
80,80,0,2046,3960
81,81,0,2046,4084
82,82,0,2047,3741
83,83,0,2046,3010
84,84,0,2047,2055
85,85,0,2047,1097
86,86,0,2046,355
87,87,0,2047,0
88,88,0,2046,104
89,89,0,2047,653
90,90,0,2046,1519
91,91,0,2046,2503
92,92,0,2046,3381
93,93,0,2046,3952
94,94,0,2046,4086
95,95,0,2046,3753
96,96,0,2046,3028
97,97,0,2046,2077
98,98,0,2046,1116
99,99,0,2047,367
100,100,0,2047,0
101,101,0,2046,97
102,102,0,2047,638
103,103,0,2047,1500
104,104,0,2047,2482
105,105,0,2047,3366
106,106,0,2047,3945
107,107,0,2047,4088
108,108,0,2046,3765
109,109,0,2047,3047
110,110,0,2046,2097
111,111,0,2047,1135
112,112,0,2047,379
113,113,0,2046,3
114,114,0,2047,90
115,115,0,2047,622
116,116,0,2046,1479
117,117,0,2046,2463
118,118,0,2046,3350
119,119,0,2047,3936
120,120,0,2047,4090
121,121,0,2047,3776
122,122,0,2046,3064
123,123,0,2047,2118
124,124,0,2046,1153
125,125,0,2046,392
126,126,0,2046,6
127,127,0,2047,83
128,128,0,2046,608
129,129,0,2047,1459
130,130,0,2046,2442
131,131,0,2046,3334
132,132,0,2047,3929
133,133,0,2047,4092
134,134,0,2046,3787
135,135,0,2047,3082
136,136,0,2046,2139
137,137,0,2046,1172
138,138,0,2046,405
139,139,0,2046,10
140,140,0,2047,77
141,141,0,2047,593
142,142,0,2046,1439
143,143,0,2046,2421
144,144,0,2046,3317
145,145,0,2046,3920
146,146,0,2047,4094
147,147,0,2046,3798
148,148,0,2046,3099
149,149,0,2046,2159
150,150,0,2046,1191
151,151,0,2046,418
152,152,0,2046,12
153,153,0,2046,71
154,154,0,2046,578
155,155,0,2046,1419
156,156,0,2046,2402
157,157,0,2047,3301
158,158,0,2046,3912
159,159,0,2047,4095
160,160,0,2046,3809
161,161,0,2046,3117
162,162,0,2046,2180
163,163,0,2046,1210
164,164,0,2047,430
165,165,0,2046,16
166,166,0,2047,65
167,167,0,2046,564
168,168,0,2047,1400
169,169,0,2046,2381
170,170,0,2047,3284
171,171,0,2046,3903
172,172,0,2046,4095
173,173,0,2046,3819
174,174,0,2047,3135
175,175,0,2047,2201
176,176,0,2046,1230
177,177,0,2046,443
178,178,0,2046,21
179,179,0,2047,59
180,180,0,2047,549
181,181,0,2046,1380
182,182,0,2046,2360
183,183,0,2046,3268
184,184,0,2046,3894
185,185,0,2046,4095
186,186,0,2046,3829
187,187,0,2046,3153
188,188,0,2046,2221
189,189,0,2047,1250
190,190,0,2046,457
191,191,0,2046,24
192,192,0,2047,53
193,193,0,2046,536
194,194,0,2047,1360
195,195,0,2046,2340
196,196,0,2046,3250
197,197,0,2047,3885
198,198,0,2047,4095
199,199,0,2046,3839
200,200,0,2046,3170
201,201,0,2046,2242
202,202,0,2046,1269
203,203,0,2046,469
204,204,0,2047,29
205,205,0,2047,48
206,206,0,2047,522
207,207,0,2046,1340
208,208,0,2047,2320
209,209,0,2046,3234
210,210,0,2047,3876
211,211,0,2047,4095
212,212,0,2046,3850
213,213,0,2047,3187
214,214,0,2047,2262
215,215,0,2047,1287
216,216,0,2046,483
217,217,0,2047,33
218,218,0,2046,43
219,219,0,2047,507
220,220,0,2047,1321
221,221,0,2047,2299
222,222,0,2047,3217
223,223,0,2046,3867
224,224,0,2046,4095
225,225,0,2046,3859
226,226,0,2046,3204
227,227,0,2046,2284
228,228,0,2047,1306
229,229,0,2046,496
230,230,0,2047,39
231,231,0,2046,37
232,232,0,2046,494
233,233,0,2046,1301
234,234,0,2046,2278
235,235,0,2046,3200
236,236,0,2046,3856
237,237,0,2046,4095
238,238,0,2047,3869
239,239,0,2046,3222
240,240,0,2046,2305
241,241,0,2046,1326
242,242,0,2047,511
243,243,0,2046,44
244,244,0,2046,33
245,245,0,2046,479
246,246,0,2046,1282
247,247,0,2047,2257
248,248,0,2047,3183
249,249,0,2046,3847
250,250,0,2047,4095
251,251,0,2046,3878
252,252,0,2046,3238
253,253,0,2046,2324
254,254,0,2046,1345
255,255,0,2047,525
256,256,0,2047,49
257,257,0,2047,28
258,258,0,2047,467
259,259,0,2046,1263
260,260,0,2047,2237
261,261,0,2047,3165
262,262,0,2047,3836
263,263,0,2046,4095
264,264,0,2047,3887
265,265,0,2047,3255
266,266,0,2046,2345
267,267,0,2047,1365
268,268,0,2047,538
269,269,0,2047,55
270,270,0,2047,25
271,271,0,2046,453
272,272,0,2046,1244
273,273,0,2047,2216
274,274,0,2047,3148
275,275,0,2047,3827
276,276,0,2046,4095
277,277,0,2046,3895
278,278,0,2047,3272
279,279,0,2046,2366
280,280,0,2047,1385
281,281,0,2047,553
282,282,0,2046,60
283,283,0,2047,20
284,284,0,2047,439
285,285,0,2047,1225
286,286,0,2046,2196
287,287,0,2046,3130
288,288,0,2046,3816
289,289,0,2046,4095
290,290,0,2047,3905
291,291,0,2046,3288
292,292,0,2046,2386
293,293,0,2046,1404
294,294,0,2046,568
295,295,0,2047,66
296,296,0,2047,16
297,297,0,2046,427
298,298,0,2047,1206
299,299,0,2047,2175
300,300,0,2046,3112
301,301,0,2046,3805
302,302,0,2047,4094
303,303,0,2046,3914
304,304,0,2046,3304
305,305,0,2047,2407
306,306,0,2046,1424
307,307,0,2047,583
308,308,0,2047,72
309,309,0,2046,12
310,310,0,2046,414
311,311,0,2046,1188
312,312,0,2046,2154
313,313,0,2046,3095
314,314,0,2047,3795
315,315,0,2046,4094
316,316,0,2046,3921
317,317,0,2046,3322
318,318,0,2047,2427
319,319,0,2046,1444
320,320,0,2046,597
321,321,0,2047,79
322,322,0,2046,8
323,323,0,2046,401
324,324,0,2047,1169
325,325,0,2047,2134
326,326,0,2047,3077
327,327,0,2046,3783
328,328,0,2046,4091
329,329,0,2046,3931
330,330,0,2046,3338
331,331,0,2047,2447
332,332,0,2047,1464
333,333,0,2046,612
334,334,0,2046,85
335,335,0,2046,5
336,336,0,2047,388
337,337,0,2046,1149
338,338,0,2047,2113
339,339,0,2047,3059
340,340,0,2047,3773
341,341,0,2046,4089
342,342,0,2046,3939
343,343,0,2046,3354
344,344,0,2046,2468
345,345,0,2046,1485
346,346,0,2046,627
347,347,0,2046,92
348,348,0,2046,2
349,349,0,2047,376
350,350,0,2047,1131
351,351,0,2046,2092
352,352,0,2046,3042
353,353,0,2047,3762
354,354,0,2046,4088
355,355,0,2046,3947
356,356,0,2047,3369
357,357,0,2046,2488
358,358,0,2047,1504
359,359,0,2047,643
360,360,0,2046,99
361,361,0,2047,0
362,362,0,2046,365
363,363,0,2046,1113
364,364,0,2047,2071
365,365,0,2046,3023
366,366,0,2047,3750
367,367,0,2047,4086
368,368,0,2046,3955
369,369,0,2046,3385
370,370,0,2047,2509
371,371,0,2046,1524
372,372,0,2047,657
373,373,0,2046,106
374,374,0,2047,0
375,375,0,2047,352
376,376,0,2046,1093
377,377,0,2046,2050
378,378,0,2046,3005
379,379,0,2046,3738
380,380,0,2046,4084
381,381,0,2047,3962
382,382,0,2047,3401
383,383,0,2046,2529
384,384,0,2046,1544
385,385,0,2046,674
386,386,0,2046,113
387,387,0,2046,0
388,388,0,2046,340
389,389,0,2046,1075
390,390,0,2047,2030
391,391,0,2047,2987
392,392,0,2046,3727
393,393,0,2047,4081
394,394,0,2046,3969
395,395,0,2046,3416
396,396,0,2046,2549
397,397,0,2046,1565
398,398,0,2046,688
399,399,0,2047,121
400,400,0,2046,0
401,401,0,2047,328
402,402,0,2047,1057
403,403,0,2046,2009
404,404,0,2047,2968
405,405,0,2045,3714
406,406,0,2046,4078
407,407,0,2046,3976
408,408,0,2047,3431
409,409,0,2047,2569
410,410,0,2046,1585
411,411,0,2046,704
412,412,0,2046,129
413,413,0,2047,0
414,414,0,2047,318
415,415,0,2046,1039
416,416,0,2047,1988
417,417,0,2047,2950
418,418,0,2046,3702
419,419,0,2046,4075
420,420,0,2047,3984
421,421,0,2046,3447
422,422,0,2047,2589
423,423,0,2046,1605
424,424,0,2046,720
425,425,0,2046,137
426,426,0,2046,0
427,427,0,2047,306
428,428,0,2047,1020
429,429,0,2046,1968
430,430,0,2046,2931
431,431,0,2046,3689
432,432,0,2046,4072
433,433,0,2046,3990
434,434,0,2046,3462
435,435,0,2046,2608
436,436,0,2046,1626
437,437,0,2046,736
438,438,0,2046,144
439,439,0,2047,0
440,440,0,2046,295
441,441,0,2047,1001
442,442,0,2046,1947
443,443,0,2046,2912
444,444,0,2046,3677
445,445,0,2047,4069
446,446,0,2046,3996
447,447,0,2046,3477
448,448,0,2046,2629
449,449,0,2046,1646
450,450,0,2047,753
451,451,0,2046,152
452,452,0,2047,0
453,453,0,2046,284
454,454,0,2047,985
455,455,0,2047,1926
456,456,0,2047,2893
457,457,0,2046,3665
458,458,0,2047,4065
459,459,0,2046,4003
460,460,0,2046,3492
461,461,0,2047,2649
462,462,0,2047,1665
463,463,0,2047,769
464,464,0,2046,161
465,465,0,2047,0
466,466,0,2047,273
467,467,0,2046,967
468,468,0,2046,1905
469,469,0,2046,2874
470,470,0,2047,3652
471,471,0,2046,4061
472,472,0,2046,4009
473,473,0,2047,3507
474,474,0,2047,2668
475,475,0,2047,1686
476,476,0,2046,785
477,477,0,2046,170
478,478,0,2047,0
479,479,0,2047,262
480,480,0,2046,949
481,481,0,2047,1885
482,482,0,2047,2856
483,483,0,2046,3639
484,484,0,2046,4058
485,485,0,2046,4016
486,486,0,2047,3521
487,487,0,2047,2688
488,488,0,2047,1707
489,489,0,2046,802
490,490,0,2046,178
491,491,0,2046,0
492,492,0,2047,252
493,493,0,2046,932
494,494,0,2046,1864
495,495,0,2046,2836
496,496,0,2046,3626
497,497,0,2046,4053
498,498,0,2046,4020
499,499,0,2046,3535
500,500,0,2046,2708
501,501,0,2046,1727
502,502,0,2046,818
503,503,0,2047,189
504,504,0,2046,0
505,505,0,2046,241
506,506,0,2046,914
507,507,0,2046,1844
508,508,0,2047,2817
509,509,0,2046,3613
510,510,0,2046,4049
511,511,0,2046,4026
512,512,0,2047,3549
513,513,0,2046,2727
514,514,0,2046,1748
515,515,0,2046,835
516,516,0,2046,197
517,517,0,2046,0
518,518,0,2046,232
519,519,0,2046,897
520,520,0,2046,1823
521,521,0,2046,2797
522,522,0,2046,3599
523,523,0,2046,4044
524,524,0,2046,4032
525,525,0,2046,3563
526,526,0,2047,2746
527,527,0,2046,1769
528,528,0,2047,852
529,529,0,2046,207
530,530,0,2046,0
531,531,0,2047,222
532,532,0,2046,880
533,533,0,2046,1802
534,534,0,2046,2779
535,535,0,2046,3586
536,536,0,2046,4039
537,537,0,2046,4037
538,538,0,2047,3577
539,539,0,2047,2766
540,540,0,2046,1789
541,541,0,2046,869
542,542,0,2046,215
543,543,0,2046,0
544,544,0,2047,212
545,545,0,2046,863
546,546,0,2046,1782
547,547,0,2047,2759
548,548,0,2046,3572
549,549,0,2046,4035
550,550,0,2047,4042
551,551,0,2047,3591
552,552,0,2047,2786
553,553,0,2046,1810
554,554,0,2046,886
555,555,0,2046,225
556,556,0,2046,0
557,557,0,2046,203
558,558,0,2046,846
559,559,0,2047,1761
560,560,0,2047,2740
561,561,0,2046,3558
562,562,0,2046,4030
563,563,0,2046,4047
564,564,0,2047,3604
565,565,0,2047,2805
566,566,0,2047,1830
567,567,0,2046,903
568,568,0,2046,236
569,569,0,2046,0
570,570,0,2046,193
571,571,0,2046,830
572,572,0,2046,1741
573,573,0,2046,2720
574,574,0,2046,3544
575,575,0,2047,4025
576,576,0,2046,4051
577,577,0,2046,3618
578,578,0,2046,2824
579,579,0,2047,1851
580,580,0,2046,921
581,581,0,2046,246
582,582,0,2047,0
583,583,0,2047,184
584,584,0,2046,812
585,585,0,2046,1720
586,586,0,2047,2701
587,587,0,2046,3530
588,588,0,2046,4019
589,589,0,2047,4055
590,590,0,2046,3631
591,591,0,2046,2843
592,592,0,2047,1871
593,593,0,2046,938
594,594,0,2046,256
595,595,0,2046,0
596,596,0,2046,175
597,597,0,2046,795
598,598,0,2047,1700
599,599,0,2046,2680
600,600,0,2047,3515
601,601,0,2047,4013
602,602,0,2047,4060
603,603,0,2047,3644
604,604,0,2046,2862
605,605,0,2047,1892
606,606,0,2047,955
607,607,0,2046,266
608,608,0,2046,0
609,609,0,2046,167
610,610,0,2046,779
611,611,0,2047,1679
612,612,0,2046,2661
613,613,0,2047,3501
614,614,0,2047,4007
615,615,0,2046,4063
616,616,0,2046,3657
617,617,0,2046,2881
618,618,0,2046,1913
619,619,0,2046,974
620,620,0,2046,277
621,621,0,2046,0
622,622,0,2046,158
623,623,0,2046,763
624,624,0,2046,1659
625,625,0,2046,2642
626,626,0,2046,3486
627,627,0,2047,4000
628,628,0,2047,4066
629,629,0,2046,3670
630,630,0,2047,2900
631,631,0,2047,1934
632,632,0,2046,991
633,633,0,2046,287
634,634,0,2046,0
635,635,0,2047,150
636,636,0,2046,747
637,637,0,2046,1638
638,638,0,2047,2621
639,639,0,2046,3471
640,640,0,2047,3993
641,641,0,2047,4071
642,642,0,2047,3682
643,643,0,2046,2918
644,644,0,2046,1954
645,645,0,2047,1010
646,646,0,2046,299
647,647,0,2046,0
648,648,0,2046,142
649,649,0,2046,730
650,650,0,2046,1618
651,651,0,2046,2601
652,652,0,2046,3456
653,653,0,2046,3987
654,654,0,2046,4073
655,655,0,2046,3695
656,656,0,2046,2937
657,657,0,2047,1975
658,658,0,2046,1027
659,659,0,2046,310
660,660,0,2047,0
661,661,0,2046,133
662,662,0,2046,715
663,663,0,2046,1598
664,664,0,2046,2582
665,665,0,2047,3442
666,666,0,2046,3980
667,667,0,2046,4076
668,668,0,2046,3707
669,669,0,2047,2956
670,670,0,2046,1995
671,671,0,2046,1045
672,672,0,2046,322
673,673,0,2046,0
674,674,0,2046,126
675,675,0,2047,699
676,676,0,2046,1577
677,677,0,2047,2562
678,678,0,2046,3426
679,679,0,2046,3973
680,680,0,2046,4079
681,681,0,2046,3719
682,682,0,2046,2974
683,683,0,2047,2017
684,684,0,2046,1064
685,685,0,2046,333
686,686,0,2046,0
687,687,0,2046,117
688,688,0,2046,683
689,689,0,2047,1558
690,690,0,2046,2541
691,691,0,2047,3410
692,692,0,2046,3967
693,693,0,2046,4082
694,694,0,2046,3731
695,695,0,2047,2994
696,696,0,2046,2037
697,697,0,2047,1082
698,698,0,2046,345
699,699,0,2046,0
700,700,0,2046,111
701,701,0,2047,668
702,702,0,2046,1537
703,703,0,2046,2522
704,704,0,2046,3395
705,705,0,2047,3959
706,706,0,2046,4084
707,707,0,2046,3742
708,708,0,2047,3012
709,709,0,2047,2058
710,710,0,2047,1101
711,711,0,2047,357
712,712,0,2046,0
713,713,0,2046,103
714,714,0,2046,652
715,715,0,2046,1517
716,716,0,2047,2501
717,717,0,2047,3379
718,718,0,2046,3952
719,719,0,2047,4087
720,720,0,2047,3755
721,721,0,2046,3031
722,722,0,2046,2079
723,723,0,2046,1119
724,724,0,2046,368
725,725,0,2046,0
726,726,0,2047,96
727,727,0,2046,637
728,728,0,2047,1497
729,729,0,2046,2481
730,730,0,2047,3363
731,731,0,2046,3944
732,732,0,2046,4088
733,733,0,2046,3766
734,734,0,2046,3048
735,735,0,2046,2100
736,736,0,2046,1137
737,737,0,2046,382
738,738,0,2046,3
739,739,0,2046,89
740,740,0,2047,622
741,741,0,2046,1477
742,742,0,2047,2460
743,743,0,2047,3348
744,744,0,2046,3936
745,745,0,2047,4091
746,746,0,2047,3777
747,747,0,2047,3066
748,748,0,2046,2120
749,749,0,2046,1156
750,750,0,2047,393
751,751,0,2046,6
752,752,0,2046,83
753,753,0,2046,606
754,754,0,2047,1457
755,755,0,2046,2440
756,756,0,2047,3332
757,757,0,2046,3928
758,758,0,2046,4093
759,759,0,2047,3788
760,760,0,2046,3084
761,761,0,2046,2141
762,762,0,2047,1175
763,763,0,2046,407
764,764,0,2046,9
765,765,0,2047,76
766,766,0,2047,592
767,767,0,2046,1437
768,768,0,2046,2419
769,769,0,2046,3315
770,770,0,2046,3919
771,771,0,2046,4094
772,772,0,2046,3799
773,773,0,2046,3101
774,774,0,2047,2162
775,775,0,2046,1193
776,776,0,2046,419
777,777,0,2047,13
778,778,0,2047,70
779,779,0,2047,576
780,780,0,2047,1417
781,781,0,2047,2400
782,782,0,2047,3300
783,783,0,2046,3911
784,784,0,2046,4095
785,785,0,2047,3810
786,786,0,2047,3119
787,787,0,2046,2182
788,788,0,2046,1212
789,789,0,2047,432
790,790,0,2046,17
791,791,0,2046,64
792,792,0,2046,562
793,793,0,2046,1397
794,794,0,2046,2379
795,795,0,2047,3283
796,796,0,2047,3902
797,797,0,2047,4095
798,798,0,2047,3820
799,799,0,2047,3137
800,800,0,2047,2204
801,801,0,2046,1232
802,802,0,2046,444
803,803,0,2046,21
804,804,0,2047,58
805,805,0,2047,548
806,806,0,2047,1378
807,807,0,2047,2358
808,808,0,2046,3265
809,809,0,2047,3893
810,810,0,2047,4095
811,811,0,2046,3831
812,812,0,2047,3154
813,813,0,2046,2224
814,814,0,2047,1251
815,815,0,2047,458
816,816,0,2046,25
817,817,0,2046,53
818,818,0,2046,534
819,819,0,2047,1359
820,820,0,2046,2338
821,821,0,2047,3249
822,822,0,2046,3884
823,823,0,2046,4095
824,824,0,2046,3840
825,825,0,2046,3172
826,826,0,2047,2244
827,827,0,2046,1270
828,828,0,2047,472
829,829,0,2047,30
830,830,0,2046,47
831,831,0,2047,520
832,832,0,2047,1339
833,833,0,2047,2318
834,834,0,2047,3232
835,835,0,2046,3875
836,836,0,2046,4095
837,837,0,2046,3850
838,838,0,2047,3189
839,839,0,2046,2265
840,840,0,2046,1289
841,841,0,2046,484
842,842,0,2046,35
843,843,0,2046,43
844,844,0,2047,505
845,845,0,2046,1319
846,846,0,2047,2297
847,847,0,2047,3215
848,848,0,2046,3866
849,849,0,2047,4095
850,850,0,2046,3860
851,851,0,2047,3206
852,852,0,2046,2286
853,853,0,2046,1309
854,854,0,2046,498
855,855,0,2046,40
856,856,0,2047,37
857,857,0,2046,492
858,858,0,2047,1300
859,859,0,2047,2277
860,860,0,2047,3198
861,861,0,2046,3855
862,862,0,2046,4095
863,863,0,2046,3869
864,864,0,2047,3223
865,865,0,2046,2306
866,866,0,2047,1328
867,867,0,2046,512
868,868,0,2047,44
869,869,0,2047,32
870,870,0,2046,478
871,871,0,2046,1280
872,872,0,2046,2255
873,873,0,2046,3181
874,874,0,2047,3845
875,875,0,2047,4095
876,876,0,2046,3879
877,877,0,2047,3241
878,878,0,2046,2328
879,879,0,2046,1348
880,880,0,2046,527
881,881,0,2047,50
882,882,0,2047,28
883,883,0,2046,465
884,884,0,2046,1262
885,885,0,2046,2234
886,886,0,2046,3163
887,887,0,2046,3836
888,888,0,2046,4095
889,889,0,2047,3887
890,890,0,2046,3257
891,891,0,2047,2348
892,892,0,2047,1367
893,893,0,2047,541
894,894,0,2046,55
895,895,0,2046,24
896,896,0,2046,451
897,897,0,2047,1242
898,898,0,2047,2214
899,899,0,2046,3146
900,900,0,2047,3825
901,901,0,2047,4095
902,902,0,2047,3897
903,903,0,2046,3273
904,904,0,2047,2367
905,905,0,2046,1386
906,906,0,2046,554
907,907,0,2046,62
908,908,0,2046,19
909,909,0,2047,438
910,910,0,2047,1223
911,911,0,2047,2194
912,912,0,2046,3130
913,913,0,2047,3815
914,914,0,2046,4095
915,915,0,2047,3906
916,916,0,2047,3290
917,917,0,2046,2389
918,918,0,2046,1406
919,919,0,2046,569
920,920,0,2046,67
921,921,0,2047,16
922,922,0,2046,426
923,923,0,2046,1204
924,924,0,2047,2173
925,925,0,2047,3111
926,926,0,2047,3804
927,927,0,2046,4095
928,928,0,2047,3914
929,929,0,2046,3306
930,930,0,2045,2409
931,931,0,2046,1426
932,932,0,2046,584
933,933,0,2046,73
934,934,0,2046,11
935,935,0,2046,413
936,936,0,2047,1185
937,937,0,2046,2153
938,938,0,2047,3093
939,939,0,2046,3793
940,940,0,2046,4093
941,941,0,2046,3923
942,942,0,2046,3323
943,943,0,2046,2429
944,944,0,2046,1446
945,945,0,2046,598
946,946,0,2046,79
947,947,0,2047,8
948,948,0,2046,400
949,949,0,2046,1166
950,950,0,2047,2132
951,951,0,2046,3075
952,952,0,2047,3782
953,953,0,2047,4091
954,954,0,2046,3931
955,955,0,2045,3339
956,956,0,2046,2450
957,957,0,2046,1466
958,958,0,2046,614
959,959,0,2046,86
960,960,0,2046,5
961,961,0,2046,387
962,962,0,2046,1147
963,963,0,2047,2110
964,964,0,2046,3057
965,965,0,2047,3772
966,966,0,2046,4090
967,967,0,2046,3940
968,968,0,2046,3355
969,969,0,2046,2470
970,970,0,2046,1486
971,971,0,2047,629
972,972,0,2047,93
973,973,0,2046,1
974,974,0,2046,375
975,975,0,2046,1128
976,976,0,2046,2090
977,977,0,2047,3040
978,978,0,2046,3760
979,979,0,2047,4088
980,980,0,2047,3948
981,981,0,2046,3371
982,982,0,2047,2490
983,983,0,2047,1506
984,984,0,2046,644
985,985,0,2046,100
986,986,0,2046,0
987,987,0,2046,363
988,988,0,2046,1110
989,989,0,2046,2069
990,990,0,2046,3021
991,991,0,2047,3749
992,992,0,2047,4085
993,993,0,2046,3955
994,994,0,2046,3387
995,995,0,2046,2510
996,996,0,2046,1526
997,997,0,2047,659
998,998,0,2046,107
999,999,0,2046,0
1000,1000,0,2046,351
1001,1001,0,2046,1091
1002,1002,0,2047,2048
1003,1003,0,2047,3003
1004,1004,0,2046,3737
1005,1005,0,2046,4084
1006,1006,0,2047,3963
1007,1007,0,2046,3402
1008,1008,0,2046,2530
1009,1009,0,2047,1547
1010,1010,0,2047,675
1011,1011,0,2046,114
1012,1012,0,2046,0
1013,1013,0,2046,339
1014,1014,0,2046,1073
1015,1015,0,2047,2027
1016,1016,0,2046,2985
1017,1017,0,2047,3725
1018,1018,0,2046,4080
1019,1019,0,2046,3970
1020,1020,0,2046,3418
1021,1021,0,2046,2550
1022,1022,0,2046,1566
1023,1023,0,2046,690
1024,1024,0,2046,122
1025,1025,0,2047,0
1026,1026,0,2046,327
1027,1027,0,2047,1055
1028,1028,0,2046,2007
