Sample in Buffer,Sample in Window,TRIGGER,adc1_data_a_d0[11:0],adc1_data_b_d0[11:0]
0,0,0,2047,444
1,1,0,2047,2261
2,2,0,2047,3496
3,3,0,2047,915
4,4,0,2046,1275
5,5,0,2046,3632
6,6,0,2046,1816
7,7,0,2047,582
8,8,0,2047,3160
9,9,0,2047,2802
10,10,0,2046,444
11,11,0,2047,2261
12,12,0,2046,3496
13,13,0,2046,917
14,14,0,2046,1275
15,15,0,2047,3633
16,16,0,2046,1816
17,17,0,2047,581
18,18,0,2046,3160
19,19,0,2047,2802
20,20,0,2047,444
21,21,0,2046,2261
22,22,0,2046,3496
23,23,0,2047,916
24,24,0,2047,1274
25,25,0,2047,3632
26,26,0,2046,1816
27,27,0,2047,581
28,28,0,2046,3160
29,29,0,2047,2802
30,30,0,2047,444
31,31,0,2046,2260
32,32,0,2047,3496
33,33,0,2046,916
34,34,0,2046,1274
35,35,0,2046,3633
36,36,0,2046,1816
37,37,0,2047,582
38,38,0,2047,3160
39,39,0,2047,2802
40,40,0,2046,444
41,41,0,2047,2260
42,42,0,2046,3495
43,43,0,2046,917
44,44,0,2047,1274
45,45,0,2047,3633
46,46,0,2046,1817
47,47,0,2047,581
48,48,0,2046,3161
49,49,0,2047,2802
50,50,0,2047,444
51,51,0,2047,2260
52,52,0,2047,3496
53,53,0,2046,916
54,54,0,2046,1274
55,55,0,2046,3632
56,56,0,2047,1817
57,57,0,2047,581
58,58,0,2047,3160
59,59,0,2046,2803
60,60,0,2047,444
61,61,0,2046,2260
62,62,0,2047,3496
63,63,0,2046,916
64,64,0,2046,1274
65,65,0,2046,3633
66,66,0,2047,1817
67,67,0,2047,581
68,68,0,2046,3160
69,69,0,2047,2803
70,70,0,2046,444
71,71,0,2046,2260
72,72,0,2046,3496
73,73,0,2046,916
74,74,0,2046,1275
75,75,0,2046,3633
76,76,0,2046,1817
77,77,0,2047,581
78,78,0,2046,3160
79,79,0,2046,2803
80,80,0,2046,445
81,81,0,2047,2260
82,82,0,2046,3496
83,83,0,2046,917
84,84,0,2047,1274
85,85,0,2047,3632
86,86,0,2046,1817
87,87,0,2046,580
88,88,0,2046,3160
89,89,0,2047,2803
90,90,0,2047,444
91,91,0,2046,2259
92,92,0,2047,3496
93,93,0,2047,917
94,94,0,2046,1273
95,95,0,2047,3632
96,96,0,2047,1818
97,97,0,2047,580
98,98,0,2046,3159
99,99,0,2046,2804
100,100,0,2046,444
101,101,0,2047,2259
102,102,0,2047,3496
103,103,0,2046,916
104,104,0,2046,1274
105,105,0,2047,3633
106,106,0,2047,1818
107,107,0,2046,581
108,108,0,2047,3160
109,109,0,2046,2803
110,110,0,2046,444
111,111,0,2047,2259
112,112,0,2047,3497
113,113,0,2047,917
114,114,0,2046,1273
115,115,0,2046,3632
116,116,0,2047,1818
117,117,0,2046,580
118,118,0,2047,3160
119,119,0,2046,2803
120,120,0,2047,444
121,121,0,2047,2259
122,122,0,2047,3496
123,123,0,2047,918
124,124,0,2047,1274
125,125,0,2046,3632
126,126,0,2047,1819
127,127,0,2046,580
128,128,0,2046,3160
129,129,0,2047,2804
130,130,0,2046,445
131,131,0,2046,2259
132,132,0,2046,3496
133,133,0,2046,917
134,134,0,2046,1273
135,135,0,2046,3632
136,136,0,2046,1818
137,137,0,2047,580
138,138,0,2047,3159
139,139,0,2046,2804
140,140,0,2046,444
141,141,0,2046,2259
142,142,0,2046,3496
143,143,0,2046,918
144,144,0,2046,1273
145,145,0,2046,3632
146,146,0,2046,1819
147,147,0,2046,580
148,148,0,2047,3159
149,149,0,2047,2804
150,150,0,2046,445
151,151,0,2047,2258
152,152,0,2046,3497
153,153,0,2047,917
154,154,0,2046,1273
155,155,0,2046,3632
156,156,0,2046,1819
157,157,0,2046,580
158,158,0,2047,3159
159,159,0,2047,2803
160,160,0,2046,445
161,161,0,2047,2257
162,162,0,2047,3497
163,163,0,2046,918
164,164,0,2046,1273
165,165,0,2047,3632
166,166,0,2047,1818
167,167,0,2046,581
168,168,0,2047,3159
169,169,0,2046,2804
170,170,0,2047,444
171,171,0,2046,2258
172,172,0,2046,3496
173,173,0,2047,918
174,174,0,2046,1272
175,175,0,2046,3632
176,176,0,2047,1819
177,177,0,2046,580
178,178,0,2047,3159
179,179,0,2046,2804
180,180,0,2046,445
181,181,0,2047,2258
182,182,0,2047,3497
183,183,0,2047,918
184,184,0,2046,1273
185,185,0,2046,3633
186,186,0,2046,1820
187,187,0,2046,579
188,188,0,2047,3159
189,189,0,2047,2804
190,190,0,2047,445
191,191,0,2046,2258
192,192,0,2047,3498
193,193,0,2046,919
194,194,0,2046,1272
195,195,0,2047,3632
196,196,0,2046,1819
197,197,0,2047,580
198,198,0,2047,3159
199,199,0,2046,2804
200,200,0,2046,444
201,201,0,2047,2258
202,202,0,2047,3497
203,203,0,2047,918
204,204,0,2047,1272
205,205,0,2046,3632
206,206,0,2046,1819
207,207,0,2047,579
208,208,0,2047,3159
209,209,0,2047,2804
210,210,0,2047,445
211,211,0,2047,2257
212,212,0,2047,3497
213,213,0,2046,919
214,214,0,2047,1273
215,215,0,2047,3631
216,216,0,2047,1820
217,217,0,2046,580
218,218,0,2047,3159
219,219,0,2047,2805
220,220,0,2047,445
221,221,0,2047,2258
222,222,0,2046,3496
223,223,0,2047,919
224,224,0,2047,1272
225,225,0,2047,3632
226,226,0,2047,1820
227,227,0,2046,580
228,228,0,2047,3158
229,229,0,2047,2804
230,230,0,2047,445
231,231,0,2047,2258
232,232,0,2046,3497
233,233,0,2046,918
234,234,0,2046,1272
235,235,0,2046,3632
236,236,0,2046,1820
237,237,0,2046,580
238,238,0,2047,3158
239,239,0,2046,2805
240,240,0,2047,445
241,241,0,2046,2257
242,242,0,2046,3497
243,243,0,2047,919
244,244,0,2047,1272
245,245,0,2046,3632
246,246,0,2046,1819
247,247,0,2047,580
248,248,0,2047,3158
249,249,0,2046,2805
250,250,0,2047,445
251,251,0,2047,2257
252,252,0,2046,3497
253,253,0,2046,919
254,254,0,2046,1273
255,255,0,2046,3632
256,256,0,2046,1820
257,257,0,2046,580
258,258,0,2047,3158
259,259,0,2047,2805
260,260,0,2046,444
261,261,0,2046,2257
262,262,0,2046,3497
263,263,0,2047,919
264,264,0,2046,1272
265,265,0,2047,3632
266,266,0,2047,1820
267,267,0,2046,580
268,268,0,2046,3158
269,269,0,2046,2805
270,270,0,2047,444
271,271,0,2046,2257
272,272,0,2047,3497
273,273,0,2046,919
274,274,0,2046,1272
275,275,0,2046,3632
276,276,0,2046,1820
277,277,0,2046,580
278,278,0,2046,3158
279,279,0,2046,2805
280,280,0,2046,445
281,281,0,2046,2256
282,282,0,2047,3497
283,283,0,2047,919
284,284,0,2047,1271
285,285,0,2047,3632
286,286,0,2047,1821
287,287,0,2047,580
288,288,0,2046,3159
289,289,0,2047,2805
290,290,0,2046,444
291,291,0,2046,2257
292,292,0,2047,3498
293,293,0,2047,919
294,294,0,2046,1271
295,295,0,2046,3632
296,296,0,2047,1820
297,297,0,2046,580
298,298,0,2046,3158
299,299,0,2046,2805
300,300,0,2047,444
301,301,0,2046,2257
302,302,0,2046,3497
303,303,0,2046,919
304,304,0,2046,1271
305,305,0,2046,3632
306,306,0,2046,1820
307,307,0,2047,580
308,308,0,2046,3157
309,309,0,2047,2805
310,310,0,2046,445
311,311,0,2046,2256
312,312,0,2047,3498
313,313,0,2047,919
314,314,0,2047,1271
315,315,0,2047,3632
316,316,0,2046,1820
317,317,0,2046,579
318,318,0,2046,3158
319,319,0,2047,2805
320,320,0,2046,444
321,321,0,2046,2256
322,322,0,2046,3498
323,323,0,2046,919
324,324,0,2046,1272
325,325,0,2047,3632
326,326,0,2047,1821
327,327,0,2046,580
328,328,0,2046,3158
329,329,0,2047,2805
330,330,0,2046,445
331,331,0,2047,2256
332,332,0,2046,3497
333,333,0,2046,919
334,334,0,2046,1271
335,335,0,2047,3632
336,336,0,2046,1820
337,337,0,2047,579
338,338,0,2046,3158
339,339,0,2046,2806
340,340,0,2046,445
341,341,0,2047,2256
342,342,0,2046,3498
343,343,0,2047,919
344,344,0,2046,1272
345,345,0,2047,3632
346,346,0,2046,1820
347,347,0,2047,579
348,348,0,2046,3157
349,349,0,2046,2806
350,350,0,2047,445
351,351,0,2047,2257
352,352,0,2047,3498
353,353,0,2047,920
354,354,0,2046,1271
355,355,0,2046,3632
356,356,0,2046,1820
357,357,0,2046,579
358,358,0,2046,3158
359,359,0,2047,2806
360,360,0,2046,445
361,361,0,2047,2256
362,362,0,2046,3498
363,363,0,2046,918
364,364,0,2046,1271
365,365,0,2046,3632
366,366,0,2046,1820
367,367,0,2046,580
368,368,0,2047,3158
369,369,0,2047,2806
370,370,0,2046,445
371,371,0,2047,2256
372,372,0,2047,3498
373,373,0,2047,919
374,374,0,2047,1272
375,375,0,2047,3632
376,376,0,2047,1821
377,377,0,2046,580
378,378,0,2047,3158
379,379,0,2046,2806
380,380,0,2046,445
381,381,0,2047,2257
382,382,0,2046,3498
383,383,0,2046,919
384,384,0,2046,1271
385,385,0,2046,3632
386,386,0,2047,1821
387,387,0,2046,580
388,388,0,2047,3158
389,389,0,2047,2805
390,390,0,2047,445
391,391,0,2046,2256
392,392,0,2047,3498
393,393,0,2046,919
394,394,0,2046,1271
395,395,0,2047,3632
396,396,0,2046,1821
397,397,0,2047,579
398,398,0,2046,3157
399,399,0,2047,2805
400,400,0,2047,444
401,401,0,2046,2257
402,402,0,2047,3498
403,403,0,2046,919
404,404,0,2046,1270
405,405,0,2046,3632
406,406,0,2046,1821
407,407,0,2046,579
408,408,0,2047,3158
409,409,0,2047,2806
410,410,0,2047,445
411,411,0,2047,2256
412,412,0,2047,3498
413,413,0,2046,920
414,414,0,2047,1271
415,415,0,2046,3632
416,416,0,2046,1822
417,417,0,2047,580
418,418,0,2046,3157
419,419,0,2046,2806
420,420,0,2046,445
421,421,0,2047,2256
422,422,0,2046,3498
423,423,0,2046,920
424,424,0,2047,1271
425,425,0,2047,3632
426,426,0,2047,1821
427,427,0,2046,579
428,428,0,2046,3158
429,429,0,2046,2806
430,430,0,2047,445
431,431,0,2046,2256
432,432,0,2047,3498
433,433,0,2047,919
434,434,0,2046,1272
435,435,0,2047,3632
436,436,0,2047,1821
437,437,0,2047,580
438,438,0,2047,3158
439,439,0,2047,2806
440,440,0,2046,445
441,441,0,2047,2256
442,442,0,2046,3497
443,443,0,2046,919
444,444,0,2046,1271
445,445,0,2047,3632
446,446,0,2046,1821
447,447,0,2047,579
448,448,0,2046,3157
449,449,0,2047,2806
450,450,0,2046,445
451,451,0,2047,2256
452,452,0,2047,3498
453,453,0,2046,920
454,454,0,2046,1271
455,455,0,2046,3632
456,456,0,2047,1821
457,457,0,2046,579
458,458,0,2047,3158
459,459,0,2047,2806
460,460,0,2047,446
461,461,0,2046,2256
462,462,0,2047,3497
463,463,0,2046,920
464,464,0,2047,1271
465,465,0,2047,3632
466,466,0,2047,1821
467,467,0,2047,580
468,468,0,2047,3158
469,469,0,2047,2806
470,470,0,2047,445
471,471,0,2047,2256
472,472,0,2047,3498
473,473,0,2047,919
474,474,0,2047,1271
475,475,0,2047,3632
476,476,0,2046,1822
477,477,0,2046,580
478,478,0,2046,3157
479,479,0,2047,2806
480,480,0,2046,445
481,481,0,2047,2256
482,482,0,2047,3498
483,483,0,2046,919
484,484,0,2046,1271
485,485,0,2047,3632
486,486,0,2046,1821
487,487,0,2047,579
488,488,0,2047,3157
489,489,0,2047,2806
490,490,0,2046,445
491,491,0,2046,2255
492,492,0,2046,3497
493,493,0,2046,919
494,494,0,2046,1271
495,495,0,2047,3632
496,496,0,2046,1821
497,497,0,2046,579
498,498,0,2046,3157
499,499,0,2046,2806
500,500,0,2046,445
501,501,0,2046,2256
502,502,0,2046,3498
503,503,0,2047,919
504,504,0,2047,1271
505,505,0,2047,3632
506,506,0,2046,1820
507,507,0,2046,579
508,508,0,2046,3157
509,509,0,2047,2806
510,510,0,2046,445
511,511,0,2046,2256
512,512,0,2046,3498
513,513,0,2046,920
514,514,0,2046,1271
515,515,0,2047,3632
516,516,0,2046,1821
517,517,0,2047,579
518,518,0,2047,3157
519,519,0,2047,2806
520,520,0,2047,445
521,521,0,2046,2256
522,522,0,2046,3498
523,523,0,2046,919
524,524,0,2047,1270
525,525,0,2046,3632
526,526,0,2046,1821
527,527,0,2047,579
528,528,0,2046,3157
529,529,0,2046,2806
530,530,0,2047,445
531,531,0,2046,2256
532,532,0,2046,3498
533,533,0,2046,920
534,534,0,2046,1270
535,535,0,2047,3632
536,536,0,2046,1821
537,537,0,2046,579
538,538,0,2047,3157
539,539,0,2046,2807
540,540,0,2047,445
541,541,0,2046,2256
542,542,0,2047,3498
543,543,0,2046,919
544,544,0,2046,1271
545,545,0,2047,3631
546,546,0,2047,1821
547,547,0,2046,578
548,548,0,2047,3157
549,549,0,2047,2806
550,550,0,2046,445
551,551,0,2046,2255
552,552,0,2047,3498
553,553,0,2047,920
554,554,0,2046,1270
555,555,0,2047,3632
556,556,0,2047,1821
557,557,0,2046,580
558,558,0,2046,3157
559,559,0,2046,2806
560,560,0,2046,446
561,561,0,2047,2256
562,562,0,2046,3497
563,563,0,2046,919
564,564,0,2046,1271
565,565,0,2047,3632
566,566,0,2047,1821
567,567,0,2047,579
568,568,0,2046,3157
569,569,0,2046,2806
570,570,0,2046,445
571,571,0,2047,2255
572,572,0,2047,3498
573,573,0,2047,919
574,574,0,2046,1271
575,575,0,2047,3631
576,576,0,2047,1821
577,577,0,2046,579
578,578,0,2047,3157
579,579,0,2046,2806
580,580,0,2046,445
581,581,0,2046,2256
582,582,0,2047,3498
583,583,0,2046,920
584,584,0,2047,1271
585,585,0,2047,3632
586,586,0,2047,1821
587,587,0,2047,579
588,588,0,2047,3157
589,589,0,2047,2807
590,590,0,2047,445
591,591,0,2047,2255
592,592,0,2046,3498
593,593,0,2046,920
594,594,0,2047,1271
595,595,0,2047,3632
596,596,0,2047,1821
597,597,0,2046,579
598,598,0,2047,3157
599,599,0,2046,2806
600,600,0,2047,446
601,601,0,2047,2255
602,602,0,2047,3498
603,603,0,2047,920
604,604,0,2047,1270
605,605,0,2047,3631
606,606,0,2047,1821
607,607,0,2046,579
608,608,0,2047,3157
609,609,0,2047,2806
610,610,0,2047,445
611,611,0,2047,2256
612,612,0,2047,3498
613,613,0,2047,920
614,614,0,2046,1271
615,615,0,2047,3632
616,616,0,2046,1822
617,617,0,2047,579
618,618,0,2047,3157
619,619,0,2047,2806
620,620,0,2047,445
621,621,0,2047,2255
622,622,0,2046,3498
623,623,0,2047,920
624,624,0,2046,1270
625,625,0,2046,3632
626,626,0,2047,1821
627,627,0,2047,579
628,628,0,2047,3157
629,629,0,2047,2806
630,630,0,2047,445
631,631,0,2046,2255
632,632,0,2046,3498
633,633,0,2047,920
634,634,0,2047,1270
635,635,0,2046,3632
636,636,0,2047,1821
637,637,0,2046,579
638,638,0,2046,3156
639,639,0,2047,2806
640,640,0,2047,445
641,641,0,2047,2255
642,642,0,2046,3498
643,643,0,2047,920
644,644,0,2047,1271
645,645,0,2047,3632
646,646,0,2047,1821
647,647,0,2047,579
648,648,0,2047,3157
649,649,0,2047,2807
650,650,0,2046,445
651,651,0,2046,2255
652,652,0,2047,3498
653,653,0,2047,920
654,654,0,2047,1270
655,655,0,2047,3632
656,656,0,2047,1821
657,657,0,2046,579
658,658,0,2047,3157
659,659,0,2047,2806
660,660,0,2046,445
661,661,0,2047,2255
662,662,0,2047,3498
663,663,0,2047,919
664,664,0,2046,1271
665,665,0,2046,3631
666,666,0,2047,1821
667,667,0,2047,579
668,668,0,2047,3157
669,669,0,2046,2807
670,670,0,2047,445
671,671,0,2047,2255
672,672,0,2046,3498
673,673,0,2046,920
674,674,0,2046,1270
675,675,0,2047,3631
676,676,0,2046,1822
677,677,0,2046,579
678,678,0,2047,3156
679,679,0,2046,2806
680,680,0,2047,445
681,681,0,2047,2255
682,682,0,2047,3499
683,683,0,2047,919
684,684,0,2046,1270
685,685,0,2047,3632
686,686,0,2047,1822
687,687,0,2047,578
688,688,0,2046,3156
689,689,0,2046,2807
690,690,0,2046,445
691,691,0,2046,2255
692,692,0,2047,3498
693,693,0,2047,919
694,694,0,2046,1270
695,695,0,2046,3631
696,696,0,2046,1821
697,697,0,2047,579
698,698,0,2047,3157
699,699,0,2047,2807
700,700,0,2046,445
701,701,0,2047,2255
702,702,0,2047,3498
703,703,0,2047,920
704,704,0,2047,1270
705,705,0,2047,3631
706,706,0,2047,1822
707,707,0,2046,579
708,708,0,2046,3156
709,709,0,2047,2807
710,710,0,2047,445
711,711,0,2047,2255
712,712,0,2046,3499
713,713,0,2047,920
714,714,0,2047,1270
715,715,0,2047,3632
716,716,0,2047,1822
717,717,0,2046,578
718,718,0,2046,3156
719,719,0,2046,2807
720,720,0,2046,445
721,721,0,2047,2255
722,722,0,2047,3499
723,723,0,2046,920
724,724,0,2046,1269
725,725,0,2046,3631
726,726,0,2047,1822
727,727,0,2046,579
728,728,0,2047,3156
729,729,0,2046,2807
730,730,0,2047,445
731,731,0,2047,2255
732,732,0,2047,3499
733,733,0,2047,921
734,734,0,2047,1270
735,735,0,2047,3632
736,736,0,2046,1822
737,737,0,2046,579
738,738,0,2046,3156
739,739,0,2047,2806
740,740,0,2047,445
741,741,0,2047,2255
742,742,0,2046,3498
743,743,0,2046,920
744,744,0,2046,1270
745,745,0,2046,3631
746,746,0,2046,1822
747,747,0,2047,579
748,748,0,2046,3156
749,749,0,2046,2808
750,750,0,2047,446
751,751,0,2046,2254
752,752,0,2047,3498
753,753,0,2046,921
754,754,0,2046,1270
755,755,0,2046,3631
756,756,0,2047,1822
757,757,0,2046,579
758,758,0,2046,3157
759,759,0,2046,2807
760,760,0,2047,446
761,761,0,2046,2254
762,762,0,2047,3499
763,763,0,2046,921
764,764,0,2047,1269
765,765,0,2046,3632
766,766,0,2046,1822
767,767,0,2047,578
768,768,0,2046,3156
769,769,0,2046,2807
770,770,0,2047,445
771,771,0,2046,2254
772,772,0,2047,3498
773,773,0,2046,920
774,774,0,2046,1270
775,775,0,2046,3632
776,776,0,2047,1822
777,777,0,2046,578
778,778,0,2047,3156
779,779,0,2047,2807
780,780,0,2046,445
781,781,0,2046,2254
782,782,0,2046,3497
783,783,0,2046,920
784,784,0,2046,1270
785,785,0,2047,3631
786,786,0,2046,1823
787,787,0,2046,579
788,788,0,2046,3156
789,789,0,2047,2807
790,790,0,2046,446
791,791,0,2047,2255
792,792,0,2047,3498
793,793,0,2046,920
794,794,0,2046,1270
795,795,0,2046,3632
796,796,0,2046,1822
797,797,0,2046,579
798,798,0,2047,3156
799,799,0,2046,2808
800,800,0,2046,445
801,801,0,2046,2254
802,802,0,2046,3498
803,803,0,2047,920
804,804,0,2046,1269
805,805,0,2046,3632
806,806,0,2046,1823
807,807,0,2047,579
808,808,0,2046,3156
809,809,0,2047,2807
810,810,0,2047,446
811,811,0,2046,2255
812,812,0,2046,3498
813,813,0,2046,921
814,814,0,2046,1269
815,815,0,2047,3631
816,816,0,2046,1823
817,817,0,2046,578
818,818,0,2046,3156
819,819,0,2047,2808
820,820,0,2047,446
821,821,0,2046,2254
822,822,0,2046,3499
823,823,0,2046,921
824,824,0,2046,1269
825,825,0,2047,3631
826,826,0,2046,1823
827,827,0,2046,579
828,828,0,2047,3156
829,829,0,2046,2808
830,830,0,2047,445
831,831,0,2046,2254
832,832,0,2046,3498
833,833,0,2047,921
834,834,0,2047,1269
835,835,0,2047,3631
836,836,0,2046,1823
837,837,0,2046,579
838,838,0,2046,3155
839,839,0,2046,2807
840,840,0,2047,446
841,841,0,2046,2254
842,842,0,2047,3498
843,843,0,2047,921
844,844,0,2047,1269
845,845,0,2047,3631
846,846,0,2047,1823
847,847,0,2046,578
848,848,0,2047,3156
849,849,0,2047,2808
850,850,0,2047,445
851,851,0,2046,2255
852,852,0,2046,3499
853,853,0,2046,921
854,854,0,2046,1269
855,855,0,2047,3632
856,856,0,2047,1823
857,857,0,2047,578
858,858,0,2047,3156
859,859,0,2047,2808
860,860,0,2047,445
861,861,0,2046,2253
862,862,0,2047,3499
863,863,0,2046,921
864,864,0,2047,1269
865,865,0,2046,3632
866,866,0,2046,1824
867,867,0,2046,578
868,868,0,2046,3155
869,869,0,2047,2808
870,870,0,2047,446
871,871,0,2047,2254
872,872,0,2046,3499
873,873,0,2046,921
874,874,0,2047,1269
875,875,0,2047,3631
876,876,0,2047,1824
877,877,0,2046,578
878,878,0,2046,3155
879,879,0,2047,2807
880,880,0,2047,445
881,881,0,2047,2253
882,882,0,2047,3499
883,883,0,2046,921
884,884,0,2046,1268
885,885,0,2047,3631
886,886,0,2047,1823
887,887,0,2046,578
888,888,0,2047,3155
889,889,0,2046,2808
890,890,0,2047,446
891,891,0,2047,2253
892,892,0,2047,3499
893,893,0,2046,922
894,894,0,2047,1268
895,895,0,2047,3631
896,896,0,2047,1822
897,897,0,2046,579
898,898,0,2046,3156
899,899,0,2047,2808
900,900,0,2046,445
901,901,0,2047,2254
902,902,0,2046,3499
903,903,0,2047,921
904,904,0,2046,1268
905,905,0,2047,3631
906,906,0,2047,1823
907,907,0,2046,578
908,908,0,2047,3156
909,909,0,2047,2809
910,910,0,2046,445
911,911,0,2046,2254
912,912,0,2047,3499
913,913,0,2047,921
914,914,0,2046,1268
915,915,0,2046,3631
916,916,0,2046,1823
917,917,0,2047,578
918,918,0,2047,3155
919,919,0,2047,2809
920,920,0,2047,446
921,921,0,2046,2252
922,922,0,2047,3499
923,923,0,2046,922
924,924,0,2046,1267
925,925,0,2046,3632
926,926,0,2046,1823
927,927,0,2047,578
928,928,0,2046,3155
929,929,0,2046,2808
930,930,0,2047,445
931,931,0,2046,2253
932,932,0,2046,3500
933,933,0,2047,921
934,934,0,2046,1268
935,935,0,2046,3631
936,936,0,2047,1824
937,937,0,2046,578
938,938,0,2046,3155
939,939,0,2046,2809
940,940,0,2046,446
941,941,0,2046,2253
942,942,0,2046,3498
943,943,0,2047,922
944,944,0,2046,1269
945,945,0,2047,3631
946,946,0,2046,1824
947,947,0,2047,578
948,948,0,2046,3155
949,949,0,2046,2808
950,950,0,2047,445
951,951,0,2046,2253
952,952,0,2046,3499
953,953,0,2046,921
954,954,0,2046,1269
955,955,0,2047,3631
956,956,0,2047,1824
957,957,0,2046,578
958,958,0,2046,3155
959,959,0,2046,2809
960,960,0,2046,446
961,961,0,2047,2253
962,962,0,2047,3498
963,963,0,2046,921
964,964,0,2046,1268
965,965,0,2046,3632
966,966,0,2047,1824
967,967,0,2047,578
968,968,0,2047,3155
969,969,0,2046,2808
970,970,0,2046,445
971,971,0,2046,2253
972,972,0,2047,3499
973,973,0,2046,922
974,974,0,2046,1268
975,975,0,2047,3632
976,976,0,2046,1824
977,977,0,2046,578
978,978,0,2047,3155
979,979,0,2047,2809
980,980,0,2046,446
981,981,0,2047,2252
982,982,0,2047,3499
983,983,0,2047,922
984,984,0,2046,1267
985,985,0,2046,3630
986,986,0,2047,1824
987,987,0,2046,577
988,988,0,2046,3155
989,989,0,2047,2809
990,990,0,2046,445
991,991,0,2047,2253
992,992,0,2046,3500
993,993,0,2046,922
994,994,0,2047,1268
995,995,0,2047,3632
996,996,0,2046,1824
997,997,0,2046,578
998,998,0,2047,3156
999,999,0,2046,2809
1000,1000,0,2046,446
1001,1001,0,2046,2252
1002,1002,0,2047,3499
1003,1003,0,2047,921
1004,1004,0,2046,1268
1005,1005,0,2046,3631
1006,1006,0,2046,1824
1007,1007,0,2046,578
1008,1008,0,2046,3155
1009,1009,0,2046,2809
1010,1010,0,2047,446
1011,1011,0,2047,2253
1012,1012,0,2047,3498
1013,1013,0,2047,921
1014,1014,0,2046,1268
1015,1015,0,2046,3631
1016,1016,0,2046,1824
1017,1017,0,2046,578
1018,1018,0,2046,3156
1019,1019,0,2047,2809
