Sample in Buffer,Sample in Window,TRIGGER,adc1_data_a_d0[11:0],adc1_data_b_d0[11:0]
0,0,0,2046,0
1,1,0,2046,76
2,2,0,2047,192
3,3,0,2047,345
4,4,0,2046,530
5,5,0,2047,744
6,6,0,2047,983
7,7,0,2046,1242
8,8,0,2046,1517
9,9,0,2046,1801
10,10,0,2046,2091
11,11,0,2046,2379
12,12,0,2047,2660
13,13,0,2046,2929
14,14,0,2047,3180
15,15,0,2046,3411
16,16,0,2046,3614
17,17,0,2046,3787
18,18,0,2047,3926
19,19,0,2047,4028
20,20,0,2046,4094
21,21,0,2047,4095
22,22,0,2046,4095
23,23,0,2046,4048
24,24,0,2046,3955
25,25,0,2047,3824
26,26,0,2047,3659
27,27,0,2046,3463
28,28,0,2047,3239
29,29,0,2047,2992
30,30,0,2046,2726
31,31,0,2046,2448
32,32,0,2046,2160
33,33,0,2046,1870
34,34,0,2046,1584
35,35,0,2047,1307
36,36,0,2046,1042
37,37,0,2046,798
38,38,0,2047,577
39,39,0,2046,385
40,40,0,2046,225
41,41,0,2047,99
42,42,0,2047,11
43,43,0,2046,0
44,44,0,2047,0
45,45,0,2046,0
46,46,0,2047,61
47,47,0,2047,170
48,48,0,2047,317
49,49,0,2047,497
50,50,0,2046,706
51,51,0,2047,941
52,52,0,2047,1197
53,53,0,2047,1470
54,54,0,2047,1753
55,55,0,2047,2043
56,56,0,2047,2330
57,57,0,2046,2613
58,58,0,2046,2884
59,59,0,2047,3140
60,60,0,2047,3373
61,61,0,2047,3582
62,62,0,2047,3760
63,63,0,2047,3905
64,64,0,2046,4014
65,65,0,2046,4085
66,66,0,2046,4095
67,67,0,2047,4095
68,68,0,2047,4060
69,69,0,2047,3973
70,70,0,2046,3848
71,71,0,2046,3689
72,72,0,2047,3498
73,73,0,2046,3279
74,74,0,2046,3035
75,75,0,2046,2772
76,76,0,2047,2495
77,77,0,2047,2209
78,78,0,2046,1920
79,79,0,2047,1632
80,80,0,2046,1351
81,81,0,2047,1086
82,82,0,2047,837
83,83,0,2046,612
84,84,0,2046,415
85,85,0,2047,249
86,86,0,2046,118
87,87,0,2046,23
88,88,0,2047,0
89,89,0,2047,0
90,90,0,2046,0
91,91,0,2047,45
92,92,0,2046,149
93,93,0,2047,290
94,94,0,2047,464
95,95,0,2046,669
96,96,0,2046,900
97,97,0,2047,1154
98,98,0,2046,1424
99,99,0,2047,1706
100,100,0,2046,1994
101,101,0,2047,2282
102,102,0,2047,2567
103,103,0,2046,2840
104,104,0,2046,3098
105,105,0,2047,3337
106,106,0,2047,3549
107,107,0,2046,3733
108,108,0,2047,3884
109,109,0,2047,3998
110,110,0,2046,4077
111,111,0,2047,4095
112,112,0,2046,4095
113,113,0,2047,4071
114,114,0,2046,3989
115,115,0,2046,3871
116,116,0,2046,3718
117,117,0,2047,3531
118,118,0,2047,3317
119,119,0,2046,3077
120,120,0,2047,2817
121,121,0,2046,2543
122,122,0,2047,2257
123,123,0,2047,1968
124,124,0,2047,1680
125,125,0,2046,1398
126,126,0,2046,1129
127,127,0,2046,877
128,128,0,2046,648
129,129,0,2046,446
130,130,0,2047,274
131,131,0,2046,137
132,132,0,2046,36
133,133,0,2046,0
134,134,0,2046,0
135,135,0,2046,0
136,136,0,2046,31
137,137,0,2046,129
138,138,0,2047,264
139,139,0,2047,433
140,140,0,2047,633
141,141,0,2047,859
142,142,0,2046,1109
143,143,0,2046,1377
144,144,0,2046,1658
145,145,0,2047,1946
146,146,0,2046,2235
147,147,0,2046,2520
148,148,0,2047,2796
149,149,0,2047,3057
150,150,0,2046,3298
151,151,0,2046,3515
152,152,0,2046,3703
153,153,0,2047,3861
154,154,0,2047,3982
155,155,0,2046,4067
156,156,0,2046,4095
157,157,0,2046,4095
158,158,0,2047,4081
159,159,0,2046,4007
160,160,0,2046,3893
161,161,0,2046,3746
162,162,0,2047,3565
163,163,0,2046,3355
164,164,0,2046,3118
165,165,0,2046,2862
166,166,0,2047,2589
167,167,0,2046,2305
168,168,0,2045,2016
169,169,0,2046,1727
170,170,0,2046,1444
171,171,0,2046,1173
172,172,0,2046,918
173,173,0,2046,685
174,174,0,2047,478
175,175,0,2046,301
176,176,0,2046,158
177,177,0,2046,51
178,178,0,2046,0
179,179,0,2047,0
180,180,0,2047,0
181,181,0,2046,19
182,182,0,2046,110
183,183,0,2046,239
184,184,0,2046,402
185,185,0,2047,598
186,186,0,2047,820
187,187,0,2047,1067
188,188,0,2046,1332
189,189,0,2046,1610
190,190,0,2046,1896
191,191,0,2046,2186
192,192,0,2047,2472
193,193,0,2047,2750
194,194,0,2046,3014
195,195,0,2047,3259
196,196,0,2046,3482
197,197,0,2046,3675
198,198,0,2046,3836
199,199,0,2046,3965
200,200,0,2046,4054
201,201,0,2046,4095
202,202,0,2046,4095
203,203,0,2046,4089
204,204,0,2047,4021
205,205,0,2046,3915
206,206,0,2047,3773
207,207,0,2047,3597
208,208,0,2046,3392
209,209,0,2046,3160
210,210,0,2046,2905
211,211,0,2046,2635
212,212,0,2047,2353
213,213,0,2046,2064
214,214,0,2047,1774
215,215,0,2047,1491
216,216,0,2047,1218
217,217,0,2047,959
218,218,0,2047,722
219,219,0,2047,511
220,220,0,2046,328
221,221,0,2045,179
222,222,0,2047,66
223,223,0,2047,0
224,224,0,2046,0
225,225,0,2046,0
226,226,0,2046,7
227,227,0,2047,92
228,228,0,2046,215
229,229,0,2047,373
230,230,0,2047,563
231,231,0,2047,781
232,232,0,2046,1024
233,233,0,2047,1286
234,234,0,2046,1563
235,235,0,2046,1848
236,236,0,2047,2138
237,237,0,2046,2425
238,238,0,2046,2704
239,239,0,2047,2971
240,240,0,2046,3220
241,241,0,2047,3446
242,242,0,2046,3644
243,243,0,2047,3812
244,244,0,2046,3946
245,245,0,2046,4042
246,246,0,2047,4095
247,247,0,2047,4095
248,248,0,2047,4095
249,249,0,2046,4035
250,250,0,2047,3936
251,251,0,2046,3799
252,252,0,2046,3629
253,253,0,2047,3429
254,254,0,2046,3201
255,255,0,2046,2951
256,256,0,2047,2682
257,257,0,2046,2401
258,258,0,2047,2113
259,259,0,2047,1823
260,260,0,2047,1538
261,261,0,2046,1262
262,262,0,2046,1001
263,263,0,2047,760
264,264,0,2047,544
265,265,0,2046,356
266,266,0,2046,201
267,267,0,2046,82
268,268,0,2047,0
269,269,0,2047,0
270,270,0,2046,0
271,271,0,2046,0
272,272,0,2046,76
273,273,0,2047,192
274,274,0,2047,344
275,275,0,2046,529
276,276,0,2046,743
277,277,0,2047,981
278,278,0,2047,1242
279,279,0,2046,1516
280,280,0,2046,1800
281,281,0,2046,2089
282,282,0,2046,2377
283,283,0,2046,2658
284,284,0,2046,2927
285,285,0,2047,3179
286,286,0,2047,3409
287,287,0,2047,3613
288,288,0,2046,3786
289,289,0,2047,3926
290,290,0,2046,4028
291,291,0,2047,4093
292,292,0,2047,4095
293,293,0,2047,4095
294,294,0,2046,4048
295,295,0,2047,3954
296,296,0,2046,3824
297,297,0,2046,3659
298,298,0,2046,3464
299,299,0,2047,3240
300,300,0,2047,2993
301,301,0,2046,2728
302,302,0,2046,2449
303,303,0,2046,2161
304,304,0,2047,1872
305,305,0,2046,1585
306,306,0,2046,1307
307,307,0,2047,1044
308,308,0,2047,799
309,309,0,2047,577
310,310,0,2046,386
311,311,0,2046,225
312,312,0,2046,100
313,313,0,2046,12
314,314,0,2047,0
315,315,0,2046,0
316,316,0,2047,0
317,317,0,2046,60
318,318,0,2046,170
319,319,0,2046,317
320,320,0,2046,496
321,321,0,2047,706
322,322,0,2047,940
323,323,0,2046,1197
324,324,0,2047,1469
325,325,0,2046,1752
326,326,0,2047,2042
327,327,0,2047,2329
328,328,0,2047,2612
329,329,0,2047,2884
330,330,0,2046,3138
331,331,0,2047,3373
332,332,0,2046,3581
333,333,0,2047,3759
334,334,0,2046,3905
335,335,0,2046,4014
336,336,0,2046,4086
337,337,0,2046,4095
338,338,0,2047,4095
339,339,0,2047,4060
340,340,0,2046,3973
341,341,0,2047,3848
342,342,0,2047,3689
343,343,0,2047,3498
344,344,0,2046,3279
345,345,0,2046,3036
346,346,0,2047,2773
347,347,0,2046,2496
348,348,0,2047,2209
349,349,0,2047,1921
350,350,0,2046,1633
351,351,0,2047,1353
352,352,0,2046,1086
353,353,0,2046,839
354,354,0,2046,613
355,355,0,2045,415
356,356,0,2046,250
357,357,0,2046,118
358,358,0,2046,24
359,359,0,2047,0
360,360,0,2046,0
361,361,0,2046,0
362,362,0,2047,44
363,363,0,2046,149
364,364,0,2047,290
365,365,0,2046,463
366,366,0,2046,668
367,367,0,2046,899
368,368,0,2046,1153
369,369,0,2047,1423
370,370,0,2046,1705
371,371,0,2046,1992
372,372,0,2046,2282
373,373,0,2046,2565
374,374,0,2046,2839
375,375,0,2046,3098
376,376,0,2046,3335
377,377,0,2046,3548
378,378,0,2046,3732
379,379,0,2046,3883
380,380,0,2047,3998
381,381,0,2047,4075
382,382,0,2046,4095
383,383,0,2047,4095
384,384,0,2047,4071
385,385,0,2046,3990
386,386,0,2047,3872
387,387,0,2047,3719
388,388,0,2046,3533
389,389,0,2046,3318
390,390,0,2046,3077
391,391,0,2046,2818
392,392,0,2046,2543
393,393,0,2047,2258
394,394,0,2047,1969
395,395,0,2047,1681
396,396,0,2047,1399
397,397,0,2047,1130
398,398,0,2046,879
399,399,0,2046,649
400,400,0,2046,447
401,401,0,2047,276
402,402,0,2046,138
403,403,0,2046,36
404,404,0,2047,0
405,405,0,2047,0
406,406,0,2046,0
407,407,0,2046,31
408,408,0,2047,129
409,409,0,2046,264
410,410,0,2046,432
411,411,0,2046,632
412,412,0,2046,860
413,413,0,2047,1109
414,414,0,2046,1376
415,415,0,2046,1657
416,416,0,2046,1945
417,417,0,2047,2233
418,418,0,2046,2519
419,419,0,2046,2795
420,420,0,2046,3056
421,421,0,2046,3298
422,422,0,2046,3515
423,423,0,2046,3704
424,424,0,2046,3859
425,425,0,2046,3981
426,426,0,2047,4065
427,427,0,2046,4095
428,428,0,2047,4095
429,429,0,2046,4080
430,430,0,2046,4006
431,431,0,2047,3894
432,432,0,2046,3746
433,433,0,2046,3565
434,434,0,2047,3355
435,435,0,2047,3120
436,436,0,2046,2863
437,437,0,2046,2590
438,438,0,2046,2306
439,439,0,2046,2017
440,440,0,2046,1728
441,441,0,2047,1446
442,442,0,2047,1174
443,443,0,2047,919
444,444,0,2047,686
445,445,0,2047,478
446,446,0,2046,301
447,447,0,2046,158
448,448,0,2046,51
449,449,0,2046,0
450,450,0,2047,0
451,451,0,2047,0
452,452,0,2047,19
453,453,0,2046,110
454,454,0,2047,238
455,455,0,2046,402
456,456,0,2046,597
457,457,0,2047,819
458,458,0,2046,1066
459,459,0,2047,1331
460,460,0,2046,1609
461,461,0,2047,1895
462,462,0,2047,2184
463,463,0,2046,2471
464,464,0,2046,2750
465,465,0,2047,3013
466,466,0,2046,3259
467,467,0,2047,3480
468,468,0,2047,3675
469,469,0,2046,3836
470,470,0,2046,3964
471,471,0,2046,4053
472,472,0,2047,4095
473,473,0,2046,4095
474,474,0,2046,4089
475,475,0,2047,4022
476,476,0,2046,3916
477,477,0,2046,3774
478,478,0,2047,3598
479,479,0,2046,3392
480,480,0,2046,3161
481,481,0,2047,2907
482,482,0,2046,2636
483,483,0,2047,2354
484,484,0,2046,2065
485,485,0,2046,1776
486,486,0,2046,1492
487,487,0,2047,1218
488,488,0,2047,960
489,489,0,2046,722
490,490,0,2046,511
491,491,0,2047,328
492,492,0,2047,180
493,493,0,2046,67
494,494,0,2047,0
495,495,0,2046,0
496,496,0,2047,0
497,497,0,2047,7
498,498,0,2046,92
499,499,0,2047,215
500,500,0,2047,372
501,501,0,2047,563
502,502,0,2047,781
503,503,0,2047,1023
504,504,0,2047,1285
505,505,0,2047,1561
506,506,0,2046,1848
507,507,0,2046,2137
508,508,0,2047,2424
509,509,0,2046,2704
510,510,0,2047,2970
511,511,0,2046,3219
512,512,0,2047,3445
513,513,0,2047,3644
514,514,0,2047,3812
515,515,0,2047,3944
516,516,0,2047,4041
517,517,0,2046,4095
518,518,0,2046,4095
519,519,0,2046,4095
520,520,0,2046,4036
521,521,0,2046,3936
522,522,0,2047,3800
523,523,0,2047,3630
524,524,0,2047,3429
525,525,0,2046,3201
526,526,0,2046,2950
527,527,0,2047,2682
528,528,0,2047,2402
529,529,0,2047,2114
530,530,0,2046,1824
531,531,0,2047,1539
532,532,0,2046,1263
533,533,0,2047,1002
534,534,0,2047,761
535,535,0,2046,544
536,536,0,2047,357
537,537,0,2047,202
538,538,0,2047,82
539,539,0,2046,1
540,540,0,2047,0
541,541,0,2047,0
542,542,0,2047,0
543,543,0,2047,75
544,544,0,2046,191
545,545,0,2047,344
546,546,0,2047,528
547,547,0,2047,742
548,548,0,2047,981
549,549,0,2046,1241
550,550,0,2046,1515
551,551,0,2047,1799
552,552,0,2047,2089
553,553,0,2046,2376
554,554,0,2047,2657
555,555,0,2046,2926
556,556,0,2047,3179
557,557,0,2045,3408
558,558,0,2046,3613
559,559,0,2047,3786
560,560,0,2047,3925
561,561,0,2046,4028
562,562,0,2047,4093
563,563,0,2047,4095
564,564,0,2046,4095
565,565,0,2046,4049
566,566,0,2046,3955
567,567,0,2047,3824
568,568,0,2047,3660
569,569,0,2047,3464
570,570,0,2046,3240
571,571,0,2047,2994
572,572,0,2047,2729
573,573,0,2046,2450
574,574,0,2047,2162
575,575,0,2046,1873
576,576,0,2046,1586
577,577,0,2046,1308
578,578,0,2047,1045
579,579,0,2047,799
580,580,0,2046,579
581,581,0,2046,386
582,582,0,2047,226
583,583,0,2047,100
584,584,0,2046,12
585,585,0,2047,0
586,586,0,2046,0
587,587,0,2047,0
588,588,0,2046,60
589,589,0,2046,170
590,590,0,2047,316
591,591,0,2046,496
592,592,0,2046,704
593,593,0,2047,939
594,594,0,2047,1195
595,595,0,2046,1469
596,596,0,2046,1752
597,597,0,2046,2040
598,598,0,2046,2328
599,599,0,2046,2612
600,600,0,2046,2883
601,601,0,2047,3138
602,602,0,2047,3373
603,603,0,2046,3580
604,604,0,2046,3759
605,605,0,2047,3904
606,606,0,2047,4014
607,607,0,2047,4085
608,608,0,2046,4095
609,609,0,2046,4095
610,610,0,2046,4061
611,611,0,2047,3974
612,612,0,2047,3849
613,613,0,2047,3690
614,614,0,2047,3499
615,615,0,2047,3280
616,616,0,2046,3037
617,617,0,2046,2775
618,618,0,2047,2497
619,619,0,2046,2211
620,620,0,2046,1921
621,621,0,2046,1634
622,622,0,2046,1354
623,623,0,2046,1088
624,624,0,2047,839
625,625,0,2047,614
626,626,0,2047,417
627,627,0,2047,251
628,628,0,2046,118
629,629,0,2046,25
630,630,0,2047,0
631,631,0,2046,0
632,632,0,2047,0
633,633,0,2047,45
634,634,0,2046,148
635,635,0,2047,289
636,636,0,2046,463
637,637,0,2046,668
638,638,0,2047,898
639,639,0,2046,1151
640,640,0,2046,1423
641,641,0,2047,1704
642,642,0,2046,1992
643,643,0,2047,2280
644,644,0,2046,2565
645,645,0,2046,2839
646,646,0,2046,3097
647,647,0,2046,3334
648,648,0,2046,3548
649,649,0,2046,3731
650,650,0,2047,3882
651,651,0,2046,3998
652,652,0,2047,4076
653,653,0,2046,4095
654,654,0,2047,4095
655,655,0,2047,4072
656,656,0,2047,3991
657,657,0,2046,3872
658,658,0,2047,3719
659,659,0,2046,3534
660,660,0,2046,3318
661,661,0,2046,3079
662,662,0,2047,2819
663,663,0,2047,2544
664,664,0,2046,2259
665,665,0,2046,1970
666,666,0,2047,1682
667,667,0,2047,1400
668,668,0,2046,1131
669,669,0,2047,879
670,670,0,2047,650
671,671,0,2046,448
672,672,0,2047,276
673,673,0,2047,138
674,674,0,2047,38
675,675,0,2047,0
676,676,0,2046,0
677,677,0,2046,0
678,678,0,2047,31
679,679,0,2046,128
680,680,0,2047,263
681,681,0,2047,431
682,682,0,2046,631
683,683,0,2047,859
684,684,0,2046,1108
685,685,0,2046,1375
686,686,0,2047,1656
687,687,0,2047,1943
688,688,0,2046,2233
689,689,0,2047,2518
690,690,0,2047,2794
691,691,0,2046,3054
692,692,0,2046,3297
693,693,0,2047,3514
694,694,0,2046,3704
695,695,0,2046,3859
696,696,0,2047,3981
697,697,0,2046,4065
698,698,0,2047,4095
699,699,0,2046,4095
700,700,0,2047,4081
701,701,0,2047,4007
702,702,0,2047,3894
703,703,0,2047,3746
704,704,0,2047,3567
705,705,0,2046,3356
706,706,0,2047,3121
707,707,0,2047,2864
708,708,0,2046,2591
709,709,0,2047,2308
710,710,0,2046,2018
711,711,0,2047,1729
712,712,0,2046,1446
713,713,0,2047,1175
714,714,0,2046,920
715,715,0,2047,687
716,716,0,2047,480
717,717,0,2047,302
718,718,0,2047,159
719,719,0,2046,52
720,720,0,2046,0
721,721,0,2046,0
722,722,0,2046,0
723,723,0,2047,19
724,724,0,2046,109
725,725,0,2046,238
726,726,0,2046,401
727,727,0,2047,596
728,728,0,2046,819
729,729,0,2046,1065
730,730,0,2047,1329
731,731,0,2047,1608
732,732,0,2046,1895
733,733,0,2047,2183
734,734,0,2046,2470
735,735,0,2046,2748
736,736,0,2047,3012
737,737,0,2047,3258
738,738,0,2046,3480
739,739,0,2047,3674
740,740,0,2046,3836
741,741,0,2046,3964
742,742,0,2046,4054
743,743,0,2046,4095
744,744,0,2046,4095
745,745,0,2046,4089
746,746,0,2047,4022
747,747,0,2047,3916
748,748,0,2047,3774
749,749,0,2047,3599
750,750,0,2047,3393
751,751,0,2047,3162
752,752,0,2046,2908
753,753,0,2047,2638
754,754,0,2046,2355
755,755,0,2046,2067
756,756,0,2046,1777
757,757,0,2046,1493
758,758,0,2047,1219
759,759,0,2046,960
760,760,0,2046,724
761,761,0,2046,512
762,762,0,2047,329
763,763,0,2046,180
764,764,0,2047,67
765,765,0,2047,0
766,766,0,2047,0
767,767,0,2046,0
768,768,0,2047,7
769,769,0,2046,92
770,770,0,2046,214
771,771,0,2047,372
772,772,0,2047,561
773,773,0,2047,780
774,774,0,2046,1022
775,775,0,2047,1285
776,776,0,2046,1561
777,777,0,2047,1847
778,778,0,2046,2136
779,779,0,2046,2422
780,780,0,2046,2703
781,781,0,2046,2969
782,782,0,2047,3218
783,783,0,2047,3444
784,784,0,2046,3643
785,785,0,2046,3811
786,786,0,2046,3945
787,787,0,2046,4040
788,788,0,2046,4095
789,789,0,2047,4095
790,790,0,2046,4095
791,791,0,2047,4036
792,792,0,2047,3936
793,793,0,2047,3800
794,794,0,2046,3631
795,795,0,2047,3429
796,796,0,2047,3202
797,797,0,2047,2951
798,798,0,2046,2683
799,799,0,2046,2403
800,800,0,2047,2115
801,801,0,2047,1825
802,802,0,2046,1540
803,803,0,2047,1264
804,804,0,2047,1003
805,805,0,2047,762
806,806,0,2047,545
807,807,0,2046,358
808,808,0,2047,202
809,809,0,2047,83
810,810,0,2047,2
811,811,0,2047,0
812,812,0,2047,0
813,813,0,2046,0
814,814,0,2047,75
815,815,0,2046,190
816,816,0,2047,343
817,817,0,2047,527
818,818,0,2046,741
819,819,0,2046,980
820,820,0,2046,1239
821,821,0,2047,1514
822,822,0,2046,1798
823,823,0,2046,2087
824,824,0,2047,2375
825,825,0,2047,2656
826,826,0,2047,2926
827,827,0,2046,3178
828,828,0,2047,3407
829,829,0,2047,3612
830,830,0,2047,3785
831,831,0,2046,3925
832,832,0,2047,4028
833,833,0,2046,4093
834,834,0,2046,4095
835,835,0,2047,4095
836,836,0,2046,4049
837,837,0,2047,3956
838,838,0,2047,3825
839,839,0,2046,3661
840,840,0,2046,3465
841,841,0,2047,3242
842,842,0,2046,2995
843,843,0,2047,2730
844,844,0,2046,2451
845,845,0,2047,2163
846,846,0,2047,1874
847,847,0,2047,1588
848,848,0,2047,1309
849,849,0,2047,1045
850,850,0,2046,801
851,851,0,2046,580
852,852,0,2047,387
853,853,0,2047,227
854,854,0,2047,100
855,855,0,2046,12
856,856,0,2047,0
857,857,0,2046,0
858,858,0,2046,0
859,859,0,2046,59
860,860,0,2047,169
861,861,0,2046,315
862,862,0,2047,494
863,863,0,2047,704
864,864,0,2047,939
865,865,0,2047,1195
866,866,0,2047,1466
867,867,0,2047,1750
868,868,0,2046,2039
869,869,0,2046,2327
870,870,0,2046,2610
871,871,0,2046,2882
872,872,0,2047,3137
873,873,0,2047,3371
874,874,0,2047,3579
875,875,0,2047,3758
876,876,0,2046,3904
877,877,0,2046,4013
878,878,0,2046,4085
879,879,0,2047,4095
880,880,0,2047,4095
881,881,0,2046,4061
882,882,0,2047,3974
883,883,0,2046,3850
884,884,0,2046,3691
885,885,0,2046,3500
886,886,0,2047,3281
887,887,0,2046,3038
888,888,0,2046,2775
889,889,0,2046,2498
890,890,0,2046,2212
891,891,0,2047,1923
892,892,0,2047,1635
893,893,0,2046,1355
894,894,0,2046,1088
895,895,0,2047,839
896,896,0,2046,614
897,897,0,2046,416
898,898,0,2047,251
899,899,0,2047,119
900,900,0,2047,24
901,901,0,2046,0
902,902,0,2046,0
903,903,0,2046,0
904,904,0,2047,45
905,905,0,2047,148
906,906,0,2047,287
907,907,0,2047,463
908,908,0,2046,667
909,909,0,2047,898
910,910,0,2046,1151
911,911,0,2046,1420
912,912,0,2046,1703
913,913,0,2046,1990
914,914,0,2046,2280
915,915,0,2047,2564
916,916,0,2047,2838
917,917,0,2046,3096
918,918,0,2046,3334
919,919,0,2046,3547
920,920,0,2046,3731
921,921,0,2047,3882
922,922,0,2047,3997
923,923,0,2046,4075
924,924,0,2046,4095
925,925,0,2047,4095
926,926,0,2046,4072
927,927,0,2046,3992
928,928,0,2046,3872
929,929,0,2047,3720
930,930,0,2046,3534
931,931,0,2047,3319
932,932,0,2046,3080
933,933,0,2047,2820
934,934,0,2046,2545
935,935,0,2046,2260
936,936,0,2046,1971
937,937,0,2047,1683
938,938,0,2046,1401
939,939,0,2046,1133
940,940,0,2046,880
941,941,0,2047,650
942,942,0,2046,448
943,943,0,2046,276
944,944,0,2046,138
945,945,0,2046,38
946,946,0,2046,0
947,947,0,2046,0
948,948,0,2047,0
949,949,0,2047,31
950,950,0,2046,128
951,951,0,2047,263
952,952,0,2046,431
953,953,0,2047,631
954,954,0,2046,858
955,955,0,2046,1108
956,956,0,2047,1374
957,957,0,2047,1655
958,958,0,2047,1943
959,959,0,2047,2231
960,960,0,2046,2517
961,961,0,2046,2793
962,962,0,2047,3054
963,963,0,2047,3295
964,964,0,2046,3513
965,965,0,2047,3702
966,966,0,2047,3859
967,967,0,2047,3980
968,968,0,2047,4065
969,969,0,2047,4095
970,970,0,2046,4095
971,971,0,2046,4081
972,972,0,2047,4006
973,973,0,2047,3895
974,974,0,2046,3748
975,975,0,2046,3568
976,976,0,2046,3358
977,977,0,2047,3121
978,978,0,2047,2865
979,979,0,2046,2592
980,980,0,2047,2309
981,981,0,2047,2020
982,982,0,2046,1730
983,983,0,2046,1447
984,984,0,2046,1176
985,985,0,2047,920
986,986,0,2046,687
987,987,0,2047,480
988,988,0,2046,303
989,989,0,2047,158
990,990,0,2046,52
991,991,0,2047,0
992,992,0,2046,0
993,993,0,2047,0
994,994,0,2046,18
995,995,0,2046,109
996,996,0,2047,237
997,997,0,2046,401
998,998,0,2046,595
999,999,0,2047,818
1000,1000,0,2046,1064
1001,1001,0,2047,1328
1002,1002,0,2047,1607
1003,1003,0,2047,1894
1004,1004,0,2047,2183
1005,1005,0,2047,2469
1006,1006,0,2047,2747
1007,1007,0,2046,3012
1008,1008,0,2047,3256
1009,1009,0,2046,3479
1010,1010,0,2047,3673
1011,1011,0,2046,3835
1012,1012,0,2047,3963
1013,1013,0,2046,4053
1014,1014,0,2046,4095
1015,1015,0,2046,4095
1016,1016,0,2047,4090
1017,1017,0,2047,4022
1018,1018,0,2046,3916
1019,1019,0,2046,3775
1020,1020,0,2046,3599
1021,1021,0,2047,3394
1022,1022,0,2046,3163
1023,1023,0,2046,2909
1024,1024,0,2047,2639
1025,1025,0,2047,2356
1026,1026,0,2046,2068
1027,1027,0,2046,1779
1028,1028,0,2046,1494
1029,1029,0,2047,1220
