Sample in Buffer,Sample in Window,TRIGGER,adc2_data_b_d0[11:0],adc2_data_a_d0[11:0]
0,0,0,2996,2049
1,1,0,3488,2050
2,2,0,3861,2049
3,3,0,4085,2049
4,4,0,4095,2049
5,5,0,4025,2049
6,6,0,3747,2049
7,7,0,3330,2049
8,8,0,2806,2049
9,9,0,2221,2050
10,10,0,1621,2049
11,11,0,1055,2049
12,12,0,572,2050
13,13,0,209,2049
14,14,0,0,2049
15,15,0,0,2050
16,16,0,81,2049
17,17,0,370,2050
18,18,0,797,2049
19,19,0,1327,2049
20,20,0,1914,2049
21,21,0,2514,2049
22,22,0,3075,2049
23,23,0,3551,2049
24,24,0,3904,2049
25,25,0,4095,2049
26,26,0,4095,2049
27,27,0,3995,2049
28,28,0,3694,2049
29,29,0,3258,2049
30,30,0,2723,2049
31,31,0,2133,2048
32,32,0,1534,2049
33,33,0,978,2049
34,34,0,510,2050
35,35,0,168,2050
36,36,0,0,2049
37,37,0,0,2049
38,38,0,114,2050
39,39,0,425,2049
40,40,0,869,2050
41,41,0,1410,2049
42,42,0,2003,2049
43,43,0,2600,2049
44,44,0,3150,2049
45,45,0,3612,2049
46,46,0,3943,2049
47,47,0,4095,2049
48,48,0,4095,2049
49,49,0,3960,2049
50,50,0,3637,2049
51,51,0,3185,2049
52,52,0,2639,2049
53,53,0,2044,2049
54,54,0,1449,2049
55,55,0,904,2049
56,56,0,451,2049
57,57,0,130,2049
58,58,0,0,2049
59,59,0,0,2049
60,60,0,149,2049
61,61,0,483,2049
62,62,0,943,2050
63,63,0,1496,2049
64,64,0,2092,2049
65,65,0,2684,2050
66,66,0,3225,2049
67,67,0,3669,2049
68,68,0,3979,2049
69,69,0,4095,2049
70,70,0,4095,2049
71,71,0,3922,2049
72,72,0,3579,2049
73,73,0,3109,2049
74,74,0,2553,2049
75,75,0,1956,2049
76,76,0,1365,2049
77,77,0,830,2049
78,78,0,395,2048
79,79,0,95,2049
80,80,0,0,2050
81,81,0,0,2049
82,82,0,190,2049
83,83,0,543,2049
84,84,0,1020,2049
85,85,0,1581,2049
86,86,0,2180,2049
87,87,0,2769,2049
88,88,0,3297,2049
89,89,0,3723,2050
90,90,0,4012,2049
91,91,0,4095,2049
92,92,0,4093,2049
93,93,0,3880,2049
94,94,0,3517,2049
95,95,0,3032,2049
96,96,0,2467,2049
97,97,0,1868,2049
98,98,0,1282,2050
99,99,0,759,2048
100,100,0,342,2049
101,101,0,65,2049
102,102,0,0,2049
103,103,0,8,2050
104,104,0,233,2049
105,105,0,607,2049
106,106,0,1098,2049
107,107,0,1668,2049
108,108,0,2268,2049
109,109,0,2851,2049
110,110,0,3366,2049
111,111,0,3775,2050
112,112,0,4041,2049
113,113,0,4095,2049
114,114,0,4073,2049
115,115,0,3837,2050
116,116,0,3452,2049
117,117,0,2952,2049
118,118,0,2379,2050
119,119,0,1778,2049
120,120,0,1200,2050
121,121,0,690,2049
122,122,0,292,2049
123,123,0,38,2050
124,124,0,0,2049
125,125,0,30,2048
126,126,0,280,2049
127,127,0,672,2049
128,128,0,1179,2049
129,129,0,1755,2049
130,130,0,2356,2049
131,131,0,2932,2049
132,132,0,3434,2049
133,133,0,3823,2049
134,134,0,4067,2049
135,135,0,4095,2049
136,136,0,4048,2049
137,137,0,3789,2049
138,138,0,3385,2049
139,139,0,2872,2049
140,140,0,2292,2049
141,141,0,1691,2049
142,142,0,1120,2049
143,143,0,624,2049
144,144,0,245,2049
145,145,0,14,2049
146,146,0,0,2049
147,147,0,57,2049
148,148,0,328,2049
149,149,0,740,2049
150,150,0,1259,2049
151,151,0,1843,2049
152,152,0,2443,2049
153,153,0,3011,2049
154,154,0,3500,2049
155,155,0,3869,2049
156,156,0,4088,2049
157,157,0,4095,2050
158,158,0,4020,2049
159,159,0,3737,2049
160,160,0,3316,2049
161,161,0,2790,2049
162,162,0,2204,2049
163,163,0,1605,2049
164,164,0,1041,2049
165,165,0,560,2049
166,166,0,201,2049
167,167,0,0,2050
168,168,0,0,2049
169,169,0,87,2049
170,170,0,381,2050
171,171,0,811,2049
172,172,0,1342,2050
173,173,0,1932,2049
174,174,0,2531,2049
175,175,0,3089,2049
176,176,0,3563,2049
177,177,0,3911,2050
178,178,0,4095,2049
179,179,0,4095,2049
180,180,0,3988,2048
181,181,0,3684,2049
182,182,0,3245,2049
183,183,0,2707,2049
184,184,0,2116,2049
185,185,0,1519,2049
186,186,0,964,2049
187,187,0,499,2049
188,188,0,161,2049
189,189,0,0,2049
190,190,0,0,2049
191,191,0,120,2050
192,192,0,436,2049
193,193,0,884,2049
194,194,0,1426,2049
195,195,0,2020,2049
196,196,0,2616,2049
197,197,0,3165,2049
198,198,0,3622,2050
199,199,0,3951,2049
200,200,0,4095,2049
201,201,0,4095,2049
202,202,0,3953,2049
203,203,0,3626,2049
204,204,0,3171,2049
205,205,0,2623,2049
206,206,0,2027,2049
207,207,0,1433,2049
208,208,0,890,2049
209,209,0,440,2049
210,210,0,123,2049
211,211,0,0,2049
212,212,0,0,2049
213,213,0,157,2049
214,214,0,494,2049
215,215,0,959,2048
216,216,0,1511,2050
217,217,0,2108,2050
218,218,0,2700,2049
219,219,0,3238,2049
220,220,0,3679,2049
221,221,0,3986,2050
222,222,0,4095,2049
223,223,0,4095,2049
224,224,0,3914,2050
225,225,0,3567,2050
226,226,0,3095,2048
227,227,0,2537,2050
228,228,0,1939,2048
229,229,0,1348,2049
230,230,0,816,2049
231,231,0,385,2049
232,232,0,90,2049
233,233,0,0,2049
234,234,0,0,2049
235,235,0,197,2049
236,236,0,555,2049
237,237,0,1035,2049
238,238,0,1598,2050
239,239,0,2197,2049
240,240,0,2784,2049
241,241,0,3311,2049
242,242,0,3734,2050
243,243,0,4018,2049
244,244,0,4095,2049
245,245,0,4090,2049
246,246,0,3872,2049
247,247,0,3505,2049
248,248,0,3018,2049
249,249,0,2450,2049
250,250,0,1850,2049
251,251,0,1267,2050
252,252,0,746,2049
253,253,0,333,2049
254,254,0,60,2049
255,255,0,0,2049
256,256,0,12,2049
257,257,0,241,2049
258,258,0,618,2049
259,259,0,1113,2050
260,260,0,1684,2049
261,261,0,2285,2049
262,262,0,2866,2049
263,263,0,3381,2049
264,264,0,3785,2049
265,265,0,4046,2049
266,266,0,4095,2049
267,267,0,4068,2050
268,268,0,3827,2049
269,269,0,3439,2049
270,270,0,2938,2049
271,271,0,2363,2049
272,272,0,1762,2049
273,273,0,1184,2049
274,274,0,678,2050
275,275,0,283,2049
276,276,0,33,2049
277,277,0,0,2049
278,278,0,36,2049
279,279,0,288,2050
280,280,0,685,2049
281,281,0,1194,2049
282,282,0,1772,2050
283,283,0,2373,2049
284,284,0,2947,2049
285,285,0,3448,2049
286,286,0,3833,2049
287,287,0,4071,2050
288,288,0,4095,2050
289,289,0,4043,2049
290,290,0,3779,2049
291,291,0,3373,2049
292,292,0,2857,2049
293,293,0,2275,2049
294,294,0,1675,2049
295,295,0,1105,2049
296,296,0,612,2049
297,297,0,237,2049
298,298,0,10,2049
299,299,0,0,2049
300,300,0,62,2050
301,301,0,338,2049
302,302,0,753,2049
303,303,0,1275,2049
304,304,0,1860,2049
305,305,0,2460,2049
306,306,0,3027,2049
307,307,0,3512,2050
308,308,0,3878,2049
309,309,0,4093,2050
310,310,0,4095,2049
311,311,0,4014,2049
312,312,0,3727,2049
313,313,0,3303,2049
314,314,0,2775,2049
315,315,0,2188,2049
316,316,0,1588,2049
317,317,0,1027,2049
318,318,0,549,2049
319,319,0,193,2049
320,320,0,0,2048
321,321,0,0,2050
322,322,0,93,2049
323,323,0,390,2049
324,324,0,824,2049
325,325,0,1358,2049
326,326,0,1948,2049
327,327,0,2547,2049
328,328,0,3103,2049
329,329,0,3574,2049
330,330,0,3919,2049
331,331,0,4095,2049
332,332,0,4095,2049
333,333,0,3982,2050
334,334,0,3673,2049
335,335,0,3230,2049
336,336,0,2691,2050
337,337,0,2099,2049
338,338,0,1502,2049
339,339,0,950,2049
340,340,0,488,2048
341,341,0,153,2049
342,342,0,0,2049
343,343,0,0,2049
344,344,0,127,2049
345,345,0,446,2049
346,346,0,898,2049
347,347,0,1442,2049
348,348,0,2037,2049
349,349,0,2632,2049
350,350,0,3179,2050
351,351,0,3633,2050
352,352,0,3957,2049
353,353,0,4095,2049
354,354,0,4095,2049
355,355,0,3946,2049
356,356,0,3616,2048
357,357,0,3157,2049
358,358,0,2607,2049
359,359,0,2011,2049
360,360,0,1417,2050
361,361,0,875,2049
362,362,0,430,2050
363,363,0,117,2049
364,364,0,0,2049
365,365,0,0,2049
366,366,0,164,2049
367,367,0,505,2049
368,368,0,972,2049
369,369,0,1527,2049
370,370,0,2125,2049
371,371,0,2716,2049
372,372,0,3252,2050
373,373,0,3689,2050
374,374,0,3992,2049
375,375,0,4095,2049
376,376,0,4095,2049
377,377,0,3906,2050
378,378,0,3555,2049
379,379,0,3080,2050
380,380,0,2521,2049
381,381,0,1922,2049
382,382,0,1334,2050
383,383,0,803,2050
384,384,0,376,2049
385,385,0,84,2049
386,386,0,0,2049
387,387,0,0,2050
388,388,0,206,2049
389,389,0,567,2049
390,390,0,1050,2048
391,391,0,1614,2049
392,392,0,2213,2050
393,393,0,2800,2050
394,394,0,3324,2049
395,395,0,3743,2049
396,396,0,4024,2049
397,397,0,4095,2050
398,398,0,4086,2049
399,399,0,3864,2050
400,400,0,3493,2050
401,401,0,3003,2050
402,402,0,2434,2049
403,403,0,1834,2049
404,404,0,1250,2049
405,405,0,733,2050
406,406,0,323,2049
407,407,0,54,2049
408,408,0,0,2049
409,409,0,16,2049
410,410,0,250,2049
411,411,0,631,2050
412,412,0,1128,2049
413,413,0,1701,2049
414,414,0,2302,2049
415,415,0,2882,2049
416,416,0,3393,2049
417,417,0,3794,2049
418,418,0,4051,2049
419,419,0,4095,2049
420,420,0,4064,2049
421,421,0,3818,2049
422,422,0,3427,2049
423,423,0,2923,2049
424,424,0,2346,2049
425,425,0,1745,2049
426,426,0,1169,2049
427,427,0,666,2049
428,428,0,273,2049
429,429,0,28,2049
430,430,0,0,2049
431,431,0,40,2049
432,432,0,298,2049
433,433,0,698,2049
434,434,0,1209,2050
435,435,0,1789,2049
436,436,0,2390,2049
437,437,0,2963,2050
438,438,0,3460,2049
439,439,0,3842,2049
440,440,0,4075,2049
441,441,0,4095,2049
442,442,0,4037,2050
443,443,0,3770,2049
444,444,0,3360,2050
445,445,0,2842,2049
446,446,0,2259,2048
447,447,0,1659,2049
448,448,0,1089,2049
449,449,0,599,2049
450,450,0,228,2049
451,451,0,6,2049
452,452,0,0,2049
453,453,0,67,2049
454,454,0,347,2049
455,455,0,766,2049
456,456,0,1290,2049
457,457,0,1876,2049
458,458,0,2477,2049
459,459,0,3041,2049
460,460,0,3523,2050
461,461,0,3886,2049
462,462,0,4095,2049
463,463,0,4095,2049
464,464,0,4008,2049
465,465,0,3718,2049
466,466,0,3290,2049
467,467,0,2760,2049
468,468,0,2171,2049
469,469,0,1572,2048
470,470,0,1011,2049
471,471,0,536,2049
472,472,0,185,2049
473,473,0,0,2049
474,474,0,0,2049
475,475,0,99,2050
476,476,0,401,2049
477,477,0,838,2049
478,478,0,1373,2049
479,479,0,1964,2050
480,480,0,2563,2049
481,481,0,3118,2049
482,482,0,3586,2049
483,483,0,3927,2050
484,484,0,4095,2049
485,485,0,4095,2049
486,486,0,3975,2049
487,487,0,3663,2050
488,488,0,3217,2050
489,489,0,2676,2049
490,490,0,2082,2050
491,491,0,1486,2050
492,492,0,936,2049
493,493,0,476,2049
494,494,0,146,2049
495,495,0,0,2049
496,496,0,0,2049
497,497,0,133,2050
498,498,0,457,2050
499,499,0,911,2049
500,500,0,1458,2049
501,501,0,2054,2050
502,502,0,2648,2050
503,503,0,3193,2049
504,504,0,3644,2049
505,505,0,3964,2050
506,506,0,4095,2049
507,507,0,4095,2049
508,508,0,3940,2049
509,509,0,3605,2049
510,510,0,3143,2049
511,511,0,2591,2049
512,512,0,1994,2049
513,513,0,1401,2050
514,514,0,862,2049
515,515,0,419,2049
516,516,0,110,2050
517,517,0,0,2049
518,518,0,0,2049
519,519,0,172,2049
520,520,0,517,2049
521,521,0,987,2050
522,522,0,1543,2049
523,523,0,2142,2049
524,524,0,2732,2050
525,525,0,3267,2049
526,526,0,3700,2049
527,527,0,3998,2050
528,528,0,4095,2049
529,529,0,4095,2049
530,530,0,3899,2048
531,531,0,3544,2050
532,532,0,3066,2050
533,533,0,2505,2049
534,534,0,1905,2049
535,535,0,1318,2049
536,536,0,789,2050
537,537,0,364,2050
538,538,0,78,2049
539,539,0,0,2050
540,540,0,0,2050
541,541,0,214,2050
542,542,0,578,2049
543,543,0,1064,2049
544,544,0,1630,2049
545,545,0,2230,2049
546,546,0,2815,2049
547,547,0,3337,2049
548,548,0,3754,2048
549,549,0,4028,2049
550,550,0,4095,2050
551,551,0,4082,2049
552,552,0,3856,2049
553,553,0,3480,2049
554,554,0,2988,2050
555,555,0,2419,2049
556,556,0,1818,2049
557,557,0,1235,2049
558,558,0,720,2049
559,559,0,314,2049
560,560,0,49,2049
561,561,0,0,2050
562,562,0,20,2049
563,563,0,258,2050
564,564,0,643,2049
565,565,0,1144,2048
566,566,0,1717,2049
567,567,0,2318,2049
568,568,0,2897,2049
569,569,0,3405,2050
570,570,0,3803,2049
571,571,0,4055,2049
572,572,0,4095,2049
573,573,0,4059,2049
574,574,0,3809,2049
575,575,0,3415,2049
576,576,0,2908,2049
577,577,0,2330,2049
578,578,0,1729,2049
579,579,0,1154,2049
580,580,0,653,2049
581,581,0,265,2049
582,582,0,24,2049
583,583,0,0,2050
584,584,0,45,2050
585,585,0,307,2049
586,586,0,710,2049
587,587,0,1224,2049
588,588,0,1805,2049
589,589,0,2406,2049
590,590,0,2976,2049
591,591,0,3472,2049
592,592,0,3850,2048
593,593,0,4080,2050
594,594,0,4095,2050
595,595,0,4032,2049
596,596,0,3759,2049
597,597,0,3347,2049
598,598,0,2827,2049
599,599,0,2242,2049
600,600,0,1642,2050
601,601,0,1076,2049
602,602,0,587,2049
603,603,0,220,2049
604,604,0,2,2048
605,605,0,0,2049
606,606,0,73,2049
607,607,0,357,2049
608,608,0,780,2049
609,609,0,1306,2049
610,610,0,1893,2049
611,611,0,2493,2049
612,612,0,3056,2049
613,613,0,3536,2049
614,614,0,3894,2050
615,615,0,4095,2049
616,616,0,4095,2049
617,617,0,4002,2049
618,618,0,3708,2050
619,619,0,3276,2049
620,620,0,2744,2049
621,621,0,2154,2049
622,622,0,1555,2050
623,623,0,997,2050
624,624,0,526,2049
625,625,0,178,2049
626,626,0,0,2049
627,627,0,0,2050
628,628,0,105,2049
629,629,0,411,2050
630,630,0,851,2049
631,631,0,1389,2050
632,632,0,1981,2049
633,633,0,2578,2049
634,634,0,3132,2049
635,635,0,3597,2049
636,636,0,3934,2049
637,637,0,4095,2049
638,638,0,4095,2049
639,639,0,3969,2050
640,640,0,3652,2049
641,641,0,3203,2049
642,642,0,2659,2049
643,643,0,2065,2050
644,644,0,1470,2049
645,645,0,922,2050
646,646,0,466,2049
647,647,0,139,2049
648,648,0,0,2049
649,649,0,0,2049
650,650,0,141,2049
651,651,0,469,2049
652,652,0,925,2049
653,653,0,1475,2049
654,654,0,2070,2049
655,655,0,2664,2049
656,656,0,3207,2049
657,657,0,3655,2050
658,658,0,3971,2050
659,659,0,4095,2050
660,660,0,4095,2050
661,661,0,3932,2049
662,662,0,3593,2049
663,663,0,3129,2049
664,664,0,2575,2049
665,665,0,1977,2049
666,666,0,1386,2049
667,667,0,848,2050
668,668,0,409,2049
669,669,0,104,2049
670,670,0,0,2050
671,671,0,0,2049
672,672,0,179,2049
673,673,0,528,2049
674,674,0,1001,2049
675,675,0,1560,2049
676,676,0,2158,2049
677,677,0,2747,2049
678,678,0,3279,2049
679,679,0,3710,2049
680,680,0,4005,2050
681,681,0,4095,2050
682,682,0,4095,2049
683,683,0,3892,2049
684,684,0,3533,2049
685,685,0,3051,2049
686,686,0,2488,2049
687,687,0,1889,2049
688,688,0,1302,2049
689,689,0,776,2050
690,690,0,355,2049
691,691,0,72,2050
692,692,0,0,2050
693,693,0,3,2049
694,694,0,222,2049
695,695,0,590,2049
696,696,0,1078,2049
697,697,0,1646,2049
698,698,0,2247,2049
699,699,0,2830,2049
700,700,0,3350,2049
701,701,0,3763,2049
702,702,0,4034,2050
703,703,0,4095,2049
704,704,0,4078,2049
705,705,0,3847,2050
706,706,0,3469,2049
707,707,0,2973,2049
708,708,0,2402,2049
709,709,0,1800,2049
710,710,0,1219,2049
711,711,0,707,2049
712,712,0,304,2050
713,713,0,44,2049
714,714,0,0,2050
715,715,0,24,2049
716,716,0,268,2049
717,717,0,656,2049
718,718,0,1158,2049
719,719,0,1734,2049
720,720,0,2335,2050
721,721,0,2912,2049
722,722,0,3419,2049
723,723,0,3812,2049
724,724,0,4061,2049
725,725,0,4095,2049
726,726,0,4055,2049
727,727,0,3801,2049
728,728,0,3402,2049
729,729,0,2892,2050
730,730,0,2313,2049
731,731,0,1712,2048
732,732,0,1139,2049
733,733,0,639,2048
734,734,0,256,2048
735,735,0,19,2050
736,736,0,0,2049
737,737,0,50,2049
738,738,0,316,2049
739,739,0,724,2049
740,740,0,1239,2049
741,741,0,1822,2049
742,742,0,2422,2049
743,743,0,2992,2049
744,744,0,3484,2049
745,745,0,3859,2050
746,746,0,4084,2049
747,747,0,4095,2049
748,748,0,4028,2049
749,749,0,3750,2049
750,750,0,3333,2050
751,751,0,2811,2049
752,752,0,2226,2050
753,753,0,1626,2049
754,754,0,1060,2049
755,755,0,575,2050
756,756,0,212,2049
757,757,0,0,2049
758,758,0,0,2049
759,759,0,79,2049
760,760,0,367,2049
761,761,0,793,2049
762,762,0,1321,2049
763,763,0,1909,2049
764,764,0,2509,2049
765,765,0,3070,2049
766,766,0,3547,2049
767,767,0,3902,2049
768,768,0,4095,2049
769,769,0,4095,2049
770,770,0,3997,2049
771,771,0,3697,2049
772,772,0,3263,2048
773,773,0,2728,2049
774,774,0,2138,2050
775,775,0,1540,2049
776,776,0,983,2049
777,777,0,514,2049
778,778,0,170,2049
779,779,0,0,2049
780,780,0,0,2050
781,781,0,111,2048
782,782,0,422,2049
783,783,0,865,2049
784,784,0,1405,2049
785,785,0,1999,2050
786,786,0,2594,2049
787,787,0,3146,2050
788,788,0,3608,2049
789,789,0,3941,2049
790,790,0,4095,2049
791,791,0,4095,2049
792,792,0,3962,2050
793,793,0,3640,2049
794,794,0,3189,2049
795,795,0,2644,2049
796,796,0,2048,2050
797,797,0,1453,2049
798,798,0,907,2048
799,799,0,454,2049
800,800,0,132,2050
801,801,0,0,2049
802,802,0,0,2049
803,803,0,148,2049
804,804,0,478,2050
805,805,0,939,2049
806,806,0,1490,2049
807,807,0,2086,2050
808,808,0,2680,2049
809,809,0,3222,2049
810,810,0,3666,2050
811,811,0,3977,2049
812,812,0,4095,2049
813,813,0,4095,2050
814,814,0,3924,2049
815,815,0,3582,2049
816,816,0,3114,2050
817,817,0,2558,2049
818,818,0,1961,2049
819,819,0,1370,2049
820,820,0,834,2049
821,821,0,398,2049
822,822,0,97,2049
823,823,0,0,2049
824,824,0,0,2050
825,825,0,188,2049
826,826,0,540,2048
827,827,0,1015,2049
828,828,0,1575,2049
829,829,0,2175,2049
830,830,0,2764,2049
831,831,0,3293,2049
832,832,0,3721,2049
833,833,0,4011,2049
834,834,0,4095,2050
835,835,0,4095,2049
836,836,0,3884,2049
837,837,0,3521,2049
838,838,0,3037,2049
839,839,0,2472,2049
840,840,0,1872,2049
841,841,0,1286,2049
842,842,0,762,2050
843,843,0,345,2049
844,844,0,67,2049
845,845,0,0,2049
846,846,0,6,2049
847,847,0,230,2049
848,848,0,603,2049
849,849,0,1093,2049
850,850,0,1662,2049
851,851,0,2263,2049
852,852,0,2846,2049
853,853,0,3363,2049
854,854,0,3772,2049
855,855,0,4039,2049
856,856,0,4095,2049
857,857,0,4074,2049
858,858,0,3838,2049
859,859,0,3456,2049
860,860,0,2958,2050
861,861,0,2384,2049
862,862,0,1784,2049
863,863,0,1204,2049
864,864,0,694,2050
865,865,0,295,2049
866,866,0,39,2050
867,867,0,0,2049
868,868,0,29,2049
869,869,0,276,2049
870,870,0,668,2049
871,871,0,1173,2049
872,872,0,1750,2049
873,873,0,2351,2048
874,874,0,2928,2049
875,875,0,3432,2050
876,876,0,3821,2049
877,877,0,4066,2050
878,878,0,4095,2049
879,879,0,4050,2050
880,880,0,3791,2049
881,881,0,3390,2049
882,882,0,2877,2049
883,883,0,2297,2049
884,884,0,1696,2049
885,885,0,1124,2049
886,886,0,628,2049
887,887,0,248,2049
888,888,0,15,2049
889,889,0,0,2049
890,890,0,55,2049
891,891,0,325,2049
892,892,0,736,2049
893,893,0,1255,2049
894,894,0,1838,2049
895,895,0,2439,2049
896,896,0,3007,2049
897,897,0,3496,2049
898,898,0,3867,2049
899,899,0,4088,2050
900,900,0,4095,2049
901,901,0,4022,2049
902,902,0,3740,2049
903,903,0,3320,2049
904,904,0,2796,2050
905,905,0,2209,2049
906,906,0,1610,2049
907,907,0,1045,2049
908,908,0,564,2049
909,909,0,204,2049
910,910,0,0,2049
911,911,0,0,2049
912,912,0,85,2049
913,913,0,377,2049
914,914,0,806,2049
915,915,0,1337,2049
916,916,0,1927,2049
917,917,0,2526,2048
918,918,0,3085,2049
919,919,0,3559,2050
920,920,0,3909,2049
921,921,0,4095,2049
922,922,0,4095,2049
923,923,0,3990,2049
924,924,0,3687,2049
925,925,0,3249,2049
926,926,0,2713,2049
927,927,0,2121,2049
928,928,0,1523,2049
929,929,0,969,2049
930,930,0,503,2049
931,931,0,163,2049
932,932,0,0,2049
933,933,0,0,2049
934,934,0,118,2049
935,935,0,432,2049
936,936,0,879,2050
937,937,0,1421,2049
938,938,0,2015,2050
939,939,0,2611,2049
940,940,0,3160,2049
941,941,0,3619,2049
942,942,0,3948,2049
943,943,0,4095,2049
944,944,0,4095,2049
945,945,0,3955,2049
946,946,0,3630,2049
947,947,0,3175,2049
948,948,0,2627,2049
949,949,0,2032,2050
950,950,0,1438,2049
951,951,0,893,2050
952,952,0,444,2049
953,953,0,125,2049
954,954,0,0,2050
955,955,0,0,2048
956,956,0,155,2049
957,957,0,491,2049
958,958,0,953,2049
959,959,0,1506,2049
960,960,0,2103,2049
961,961,0,2696,2049
962,962,0,3235,2049
963,963,0,3677,2049
964,964,0,3984,2050
965,965,0,4095,2049
966,966,0,4095,2049
967,967,0,3917,2050
968,968,0,3571,2049
969,969,0,3100,2049
970,970,0,2542,2049
971,971,0,1944,2049
972,972,0,1353,2049
973,973,0,820,2049
974,974,0,388,2050
975,975,0,92,2049
976,976,0,0,2049
977,977,0,0,2049
978,978,0,195,2049
979,979,0,552,2049
980,980,0,1030,2049
981,981,0,1593,2049
982,982,0,2191,2049
983,983,0,2779,2049
984,984,0,3307,2049
985,985,0,3731,2050
986,986,0,4016,2050
987,987,0,4095,2049
988,988,0,4091,2049
989,989,0,3875,2049
990,990,0,3509,2049
991,991,0,3022,2049
992,992,0,2456,2050
993,993,0,1855,2049
994,994,0,1271,2049
995,995,0,750,2049
996,996,0,335,2050
997,997,0,61,2049
998,998,0,0,2049
999,999,0,11,2049
1000,1000,0,238,2049
1001,1001,0,614,2049
1002,1002,0,1109,2049
1003,1003,0,1679,2049
1004,1004,0,2281,2050
1005,1005,0,2862,2050
1006,1006,0,3376,2049
1007,1007,0,3782,2049
1008,1008,0,4045,2049
1009,1009,0,4095,2049
1010,1010,0,4070,2049
1011,1011,0,3830,2049
1012,1012,0,3444,2050
1013,1013,0,2944,2050
1014,1014,0,2368,2050
1015,1015,0,1767,2049
1016,1016,0,1189,2050
1017,1017,0,681,2049
1018,1018,0,286,2050
1019,1019,0,34,2049
1020,1020,0,0,2049
1021,1021,0,34,2049
1022,1022,0,285,2049
1023,1023,0,681,2049
1024,1024,0,1189,2049
1025,1025,0,1767,2050
1026,1026,0,2367,2049
1027,1027,0,2942,2049
1028,1028,0,3443,2050
1029,1029,0,3830,2049
1030,1030,0,4070,2049
