Sample in Buffer,Sample in Window,TRIGGER,adc1_data_a_d0[11:0],adc1_data_b_d0[11:0]
0,0,0,2046,3881
1,1,0,2046,4074
2,2,0,2046,3661
3,3,0,2046,2764
4,4,0,2047,1650
5,5,0,2046,653
6,6,0,2047,68
7,7,0,2047,70
8,8,0,2046,659
9,9,0,2047,1659
10,10,0,2047,2772
11,11,0,2046,3667
12,12,0,2046,4076
13,13,0,2046,3877
14,14,0,2046,3132
15,15,0,2047,2060
16,16,0,2046,982
17,17,0,2046,218
18,18,0,2046,0
19,19,0,2047,385
20,20,0,2046,1265
21,21,0,2045,2375
22,22,0,2046,3385
23,23,0,2046,3995
24,24,0,2047,4020
25,25,0,2046,3455
26,26,0,2046,2468
27,27,0,2046,1353
28,28,0,2046,442
29,29,0,2047,6
30,30,0,2047,176
31,31,0,2047,902
32,32,0,2046,1965
33,33,0,2046,3051
34,34,0,2046,3835
35,35,0,2046,4083
36,36,0,2046,3722
37,37,0,2046,2859
38,38,0,2046,1751
39,39,0,2047,730
40,40,0,2047,98
41,41,0,2047,45
42,42,0,2046,585
43,43,0,2047,1558
44,44,0,2046,2674
45,45,0,2046,3602
46,46,0,2046,4063
47,47,0,2047,3921
48,48,0,2046,3217
49,49,0,2047,2163
50,50,0,2046,1071
51,51,0,2046,267
52,52,0,2047,0
53,53,0,2047,326
54,54,0,2046,1170
55,55,0,2047,2274
56,56,0,2046,3307
57,57,0,2047,3962
58,58,0,2047,4044
59,59,0,2046,3528
60,60,0,2046,2568
61,61,0,2046,1450
62,62,0,2046,508
63,63,0,2047,22
64,64,0,2046,136
65,65,0,2046,818
66,66,0,2046,1862
67,67,0,2046,2959
68,68,0,2046,3782
69,69,0,2046,4086
70,70,0,2047,3778
71,71,0,2047,2952
72,72,0,2047,1854
73,73,0,2047,811
74,74,0,2046,134
75,75,0,2046,24
76,76,0,2047,513
77,77,0,2046,1458
78,78,0,2046,2576
79,79,0,2047,3534
80,80,0,2047,4045
81,81,0,2046,3959
82,82,0,2046,3300
83,83,0,2046,2264
84,84,0,2046,1164
85,85,0,2046,322
86,86,0,2046,0
87,87,0,2047,272
88,88,0,2047,1078
89,89,0,2047,2171
90,90,0,2046,3224
91,91,0,2047,3924
92,92,0,2046,4061
93,93,0,2047,3597
94,94,0,2046,2666
95,95,0,2046,1550
96,96,0,2046,579
97,97,0,2047,42
98,98,0,2046,101
99,99,0,2046,737
100,100,0,2046,1760
101,101,0,2046,2867
102,102,0,2046,3727
103,103,0,2047,4084
104,104,0,2047,3830
105,105,0,2047,3043
106,106,0,2046,1957
107,107,0,2046,896
108,108,0,2046,174
109,109,0,2047,9
110,110,0,2047,447
111,111,0,2046,1360
112,112,0,2047,2476
113,113,0,2046,3461
114,114,0,2046,4022
115,115,0,2046,3992
116,116,0,2046,3380
117,117,0,2046,2367
118,118,0,2047,1258
119,119,0,2046,380
120,120,0,2047,0
121,121,0,2046,222
122,122,0,2046,989
123,123,0,2046,2068
124,124,0,2046,3138
125,125,0,2046,3881
126,126,0,2046,4075
127,127,0,2046,3661
128,128,0,2046,2764
129,129,0,2046,1651
130,130,0,2046,653
131,131,0,2046,68
132,132,0,2046,70
133,133,0,2046,658
134,134,0,2046,1659
135,135,0,2047,2772
136,136,0,2046,3666
137,137,0,2046,4075
138,138,0,2046,3878
139,139,0,2047,3132
140,140,0,2047,2060
141,141,0,2046,982
142,142,0,2046,219
143,143,0,2046,0
144,144,0,2047,384
145,145,0,2047,1264
146,146,0,2047,2375
147,147,0,2046,3385
148,148,0,2046,3994
149,149,0,2046,4021
150,150,0,2046,3456
151,151,0,2046,2468
152,152,0,2047,1354
153,153,0,2046,442
154,154,0,2046,7
155,155,0,2047,177
156,156,0,2047,901
157,157,0,2046,1965
158,158,0,2047,3051
159,159,0,2047,3834
160,160,0,2046,4082
161,161,0,2046,3722
162,162,0,2046,2860
163,163,0,2046,1752
164,164,0,2046,731
165,165,0,2047,99
166,166,0,2047,45
167,167,0,2046,584
168,168,0,2046,1557
169,169,0,2047,2674
170,170,0,2046,3601
171,171,0,2046,4062
172,172,0,2046,3921
173,173,0,2046,3217
174,174,0,2047,2164
175,175,0,2046,1071
176,176,0,2047,268
177,177,0,2046,0
178,178,0,2047,325
179,179,0,2047,1169
180,180,0,2046,2273
181,181,0,2047,3306
182,182,0,2046,3961
183,183,0,2047,4044
184,184,0,2046,3528
185,185,0,2046,2569
186,186,0,2046,1452
187,187,0,2046,510
188,188,0,2046,23
189,189,0,2047,136
190,190,0,2046,817
191,191,0,2046,1862
192,192,0,2046,2959
193,193,0,2046,3782
194,194,0,2047,4086
195,195,0,2047,3778
196,196,0,2047,2953
197,197,0,2046,1854
198,198,0,2045,811
199,199,0,2047,134
200,200,0,2046,24
201,201,0,2047,514
202,202,0,2047,1458
203,203,0,2046,2575
204,204,0,2046,3533
205,205,0,2046,4045
206,206,0,2046,3959
207,207,0,2046,3300
208,208,0,2047,2265
209,209,0,2047,1164
210,210,0,2047,322
211,211,0,2046,0
212,212,0,2046,272
213,213,0,2046,1077
214,214,0,2045,2170
215,215,0,2047,3223
216,216,0,2047,3923
217,217,0,2046,4061
218,218,0,2046,3597
219,219,0,2046,2668
220,220,0,2046,1550
221,221,0,2046,579
222,222,0,2047,43
223,223,0,2047,100
224,224,0,2046,736
225,225,0,2046,1760
226,226,0,2046,2866
227,227,0,2046,3726
228,228,0,2047,4083
229,229,0,2046,3831
230,230,0,2046,3045
231,231,0,2047,1958
232,232,0,2046,896
233,233,0,2047,174
234,234,0,2046,8
235,235,0,2047,447
236,236,0,2046,1360
237,237,0,2046,2475
238,238,0,2047,3461
239,239,0,2046,4022
240,240,0,2046,3992
241,241,0,2046,3381
242,242,0,2046,2368
243,243,0,2047,1258
244,244,0,2046,381
245,245,0,2047,0
246,246,0,2046,222
247,247,0,2046,988
248,248,0,2047,2067
249,249,0,2047,3138
250,250,0,2046,3881
251,251,0,2047,4074
252,252,0,2046,3662
253,253,0,2047,2765
254,254,0,2046,1651
255,255,0,2047,654
256,256,0,2046,68
257,257,0,2046,69
258,258,0,2047,658
259,259,0,2046,1658
260,260,0,2047,2771
261,261,0,2047,3666
262,262,0,2046,4075
263,263,0,2046,3878
264,264,0,2046,3133
265,265,0,2046,2061
266,266,0,2046,983
267,267,0,2047,219
268,268,0,2047,0
269,269,0,2047,384
270,270,0,2046,1264
271,271,0,2047,2374
272,272,0,2046,3385
273,273,0,2046,3995
274,274,0,2046,4020
275,275,0,2046,3456
276,276,0,2046,2469
277,277,0,2046,1355
278,278,0,2046,443
279,279,0,2046,7
280,280,0,2046,176
281,281,0,2046,901
282,282,0,2046,1964
283,283,0,2046,3050
284,284,0,2046,3834
285,285,0,2047,4082
286,286,0,2047,3722
287,287,0,2046,2860
288,288,0,2046,1753
289,289,0,2046,731
290,290,0,2046,99
291,291,0,2046,43
292,292,0,2046,584
293,293,0,2046,1557
294,294,0,2046,2673
295,295,0,2046,3601
296,296,0,2047,4063
297,297,0,2046,3921
298,298,0,2047,3219
299,299,0,2047,2164
300,300,0,2047,1072
301,301,0,2046,268
302,302,0,2047,0
303,303,0,2047,325
304,304,0,2047,1169
305,305,0,2047,2273
306,306,0,2047,3306
307,307,0,2046,3961
308,308,0,2047,4044
309,309,0,2047,3529
310,310,0,2046,2569
311,311,0,2046,1452
312,312,0,2047,510
313,313,0,2046,23
314,314,0,2046,136
315,315,0,2046,817
316,316,0,2047,1861
317,317,0,2047,2959
318,318,0,2046,3782
319,319,0,2047,4085
320,320,0,2046,3779
321,321,0,2047,2954
322,322,0,2047,1855
323,323,0,2046,812
324,324,0,2046,134
325,325,0,2046,23
326,326,0,2047,513
327,327,0,2046,1457
328,328,0,2046,2574
329,329,0,2046,3532
330,330,0,2047,4045
331,331,0,2046,3959
332,332,0,2046,3301
333,333,0,2047,2267
334,334,0,2047,1165
335,335,0,2047,323
336,336,0,2047,0
337,337,0,2046,271
338,338,0,2047,1077
339,339,0,2047,2169
340,340,0,2046,3223
341,341,0,2046,3923
342,342,0,2047,4062
343,343,0,2046,3598
344,344,0,2046,2668
345,345,0,2047,1552
346,346,0,2046,580
347,347,0,2047,43
348,348,0,2046,101
349,349,0,2047,735
350,350,0,2046,1759
351,351,0,2046,2866
352,352,0,2047,3726
353,353,0,2046,4083
354,354,0,2046,3831
355,355,0,2047,3045
356,356,0,2046,1959
357,357,0,2047,897
358,358,0,2046,175
359,359,0,2047,8
360,360,0,2046,446
361,361,0,2046,1360
362,362,0,2046,2475
363,363,0,2047,3461
364,364,0,2046,4022
365,365,0,2047,3992
366,366,0,2046,3380
367,367,0,2046,2369
368,368,0,2047,1259
369,369,0,2046,382
370,370,0,2046,0
371,371,0,2047,221
372,372,0,2046,988
373,373,0,2046,2068
374,374,0,2047,3137
375,375,0,2046,3881
376,376,0,2047,4075
377,377,0,2046,3662
378,378,0,2046,2766
379,379,0,2046,1652
380,380,0,2046,654
381,381,0,2046,69
382,382,0,2046,70
383,383,0,2046,657
384,384,0,2046,1657
385,385,0,2047,2770
386,386,0,2046,3665
387,387,0,2047,4075
388,388,0,2046,3878
389,389,0,2046,3133
390,390,0,2046,2061
391,391,0,2047,984
392,392,0,2047,219
393,393,0,2046,0
394,394,0,2046,384
395,395,0,2046,1264
396,396,0,2047,2373
397,397,0,2047,3384
398,398,0,2046,3994
399,399,0,2046,4021
400,400,0,2046,3457
401,401,0,2046,2470
402,402,0,2046,1354
403,403,0,2046,443
404,404,0,2046,8
405,405,0,2046,176
406,406,0,2047,901
407,407,0,2045,1964
408,408,0,2046,3050
409,409,0,2046,3834
410,410,0,2047,4083
411,411,0,2047,3723
412,412,0,2046,2860
413,413,0,2046,1753
414,414,0,2046,732
415,415,0,2046,99
416,416,0,2046,44
417,417,0,2046,584
418,418,0,2046,1556
419,419,0,2046,2673
420,420,0,2047,3601
421,421,0,2046,4063
422,422,0,2046,3922
423,423,0,2046,3218
424,424,0,2046,2165
425,425,0,2046,1073
426,426,0,2046,269
427,427,0,2047,0
428,428,0,2046,324
429,429,0,2046,1168
430,430,0,2046,2271
431,431,0,2046,3305
432,432,0,2046,3961
433,433,0,2046,4043
434,434,0,2046,3530
435,435,0,2046,2571
436,436,0,2046,1453
437,437,0,2047,510
438,438,0,2046,23
439,439,0,2046,136
440,440,0,2046,816
441,441,0,2047,1860
442,442,0,2046,2958
443,443,0,2046,3782
444,444,0,2047,4085
445,445,0,2046,3779
446,446,0,2046,2954
447,447,0,2046,1856
448,448,0,2046,813
449,449,0,2046,134
450,450,0,2046,22
451,451,0,2046,512
452,452,0,2047,1457
453,453,0,2046,2574
454,454,0,2047,3532
455,455,0,2046,4045
456,456,0,2046,3959
457,457,0,2046,3301
458,458,0,2047,2267
459,459,0,2047,1165
460,460,0,2046,322
461,461,0,2046,0
462,462,0,2046,270
463,463,0,2046,1076
464,464,0,2046,2169
465,465,0,2046,3222
466,466,0,2046,3922
467,467,0,2046,4061
468,468,0,2047,3599
469,469,0,2047,2669
470,470,0,2047,1552
471,471,0,2046,581
472,472,0,2046,43
473,473,0,2046,100
474,474,0,2046,735
475,475,0,2046,1758
476,476,0,2047,2865
477,477,0,2046,3726
478,478,0,2046,4083
479,479,0,2046,3831
480,480,0,2046,3045
481,481,0,2047,1959
482,482,0,2046,897
483,483,0,2046,174
484,484,0,2046,8
485,485,0,2046,446
486,486,0,2046,1359
487,487,0,2046,2475
488,488,0,2047,3459
489,489,0,2047,4021
490,490,0,2046,3992
491,491,0,2046,3381
492,492,0,2047,2370
493,493,0,2046,1259
494,494,0,2046,381
495,495,0,2046,0
496,496,0,2047,221
497,497,0,2046,986
498,498,0,2047,2067
499,499,0,2046,3137
500,500,0,2046,3881
501,501,0,2047,4075
502,502,0,2046,3662
503,503,0,2046,2766
504,504,0,2046,1653
505,505,0,2047,654
506,506,0,2046,68
507,507,0,2046,69
508,508,0,2046,657
509,509,0,2046,1657
510,510,0,2046,2770
511,511,0,2046,3665
512,512,0,2047,4076
513,513,0,2046,3879
514,514,0,2046,3133
515,515,0,2046,2062
516,516,0,2046,984
517,517,0,2046,220
518,518,0,2047,0
519,519,0,2047,383
520,520,0,2046,1262
521,521,0,2047,2373
522,522,0,2047,3383
523,523,0,2046,3994
524,524,0,2046,4020
525,525,0,2046,3457
526,526,0,2046,2469
527,527,0,2047,1355
528,528,0,2047,444
529,529,0,2046,7
530,530,0,2046,176
531,531,0,2046,899
532,532,0,2047,1963
533,533,0,2047,3049
534,534,0,2046,3833
535,535,0,2046,4083
536,536,0,2046,3723
537,537,0,2046,2861
538,538,0,2046,1754
539,539,0,2047,732
540,540,0,2047,99
541,541,0,2047,44
542,542,0,2046,583
543,543,0,2047,1556
544,544,0,2047,2672
545,545,0,2046,3601
546,546,0,2046,4063
547,547,0,2047,3922
548,548,0,2047,3219
549,549,0,2046,2164
550,550,0,2046,1072
551,551,0,2047,269
552,552,0,2047,0
553,553,0,2047,325
554,554,0,2045,1168
555,555,0,2046,2271
556,556,0,2046,3304
557,557,0,2046,3961
558,558,0,2047,4044
559,559,0,2046,3529
560,560,0,2047,2571
561,561,0,2046,1454
562,562,0,2046,510
563,563,0,2047,23
564,564,0,2046,135
565,565,0,2046,817
566,566,0,2047,1860
567,567,0,2046,2958
568,568,0,2046,3781
569,569,0,2046,4085
570,570,0,2046,3779
571,571,0,2046,2955
572,572,0,2046,1856
573,573,0,2047,813
574,574,0,2046,135
575,575,0,2047,23
576,576,0,2047,512
577,577,0,2047,1456
578,578,0,2046,2573
579,579,0,2047,3532
580,580,0,2047,4045
581,581,0,2047,3960
582,582,0,2046,3302
583,583,0,2046,2267
584,584,0,2046,1165
585,585,0,2047,323
586,586,0,2046,0
587,587,0,2047,270
588,588,0,2046,1077
589,589,0,2047,2168
590,590,0,2047,3222
591,591,0,2046,3923
592,592,0,2046,4061
593,593,0,2046,3599
594,594,0,2046,2670
595,595,0,2046,1552
596,596,0,2046,580
597,597,0,2046,43
598,598,0,2047,100
599,599,0,2046,734
600,600,0,2046,1758
601,601,0,2047,2865
602,602,0,2047,3725
603,603,0,2046,4082
604,604,0,2046,3831
605,605,0,2047,3045
606,606,0,2046,1959
607,607,0,2046,897
608,608,0,2046,175
609,609,0,2046,7
610,610,0,2046,445
611,611,0,2046,1359
612,612,0,2046,2474
613,613,0,2046,3460
614,614,0,2046,4022
615,615,0,2046,3994
616,616,0,2047,3381
617,617,0,2046,2370
618,618,0,2046,1260
619,619,0,2046,381
620,620,0,2046,0
621,621,0,2046,220
622,622,0,2047,986
623,623,0,2046,2065
624,624,0,2046,3136
625,625,0,2047,3880
626,626,0,2046,4075
627,627,0,2046,3663
628,628,0,2046,2767
629,629,0,2046,1653
630,630,0,2046,655
631,631,0,2046,69
632,632,0,2046,69
633,633,0,2046,657
634,634,0,2047,1656
635,635,0,2046,2770
636,636,0,2047,3665
637,637,0,2046,4076
638,638,0,2046,3879
639,639,0,2046,3133
640,640,0,2046,2062
641,641,0,2046,984
642,642,0,2046,220
643,643,0,2046,0
644,644,0,2046,383
645,645,0,2047,1262
646,646,0,2047,2373
647,647,0,2047,3384
648,648,0,2047,3993
649,649,0,2046,4021
650,650,0,2046,3457
651,651,0,2047,2470
652,652,0,2047,1356
653,653,0,2047,444
654,654,0,2046,7
655,655,0,2046,175
656,656,0,2047,899
657,657,0,2047,1963
658,658,0,2047,3049
659,659,0,2047,3833
660,660,0,2046,4083
661,661,0,2047,3724
662,662,0,2046,2862
663,663,0,2046,1755
664,664,0,2046,733
665,665,0,2046,100
666,666,0,2047,44
667,667,0,2046,582
668,668,0,2046,1555
669,669,0,2047,2672
670,670,0,2046,3600
671,671,0,2046,4063
672,672,0,2046,3922
673,673,0,2046,3219
674,674,0,2047,2165
675,675,0,2047,1074
676,676,0,2046,269
677,677,0,2047,0
678,678,0,2046,325
679,679,0,2047,1167
680,680,0,2046,2270
681,681,0,2046,3304
682,682,0,2047,3961
683,683,0,2046,4044
684,684,0,2047,3530
685,685,0,2047,2571
686,686,0,2046,1454
687,687,0,2046,511
688,688,0,2046,22
689,689,0,2047,135
690,690,0,2046,816
691,691,0,2046,1860
692,692,0,2046,2957
693,693,0,2046,3781
694,694,0,2046,4086
695,695,0,2046,3780
696,696,0,2046,2955
697,697,0,2046,1856
698,698,0,2046,813
699,699,0,2047,134
700,700,0,2047,23
701,701,0,2046,512
702,702,0,2046,1456
703,703,0,2047,2574
704,704,0,2046,3531
705,705,0,2046,4045
706,706,0,2047,3959
707,707,0,2047,3302
708,708,0,2046,2268
709,709,0,2046,1166
710,710,0,2046,323
711,711,0,2047,0
712,712,0,2047,271
713,713,0,2046,1076
714,714,0,2046,2168
715,715,0,2046,3221
716,716,0,2046,3923
717,717,0,2046,4062
718,718,0,2046,3599
719,719,0,2047,2670
720,720,0,2047,1552
721,721,0,2047,581
722,722,0,2046,43
723,723,0,2046,101
724,724,0,2047,734
725,725,0,2047,1757
726,726,0,2047,2864
727,727,0,2047,3725
728,728,0,2047,4083
729,729,0,2046,3832
730,730,0,2047,3046
731,731,0,2046,1960
732,732,0,2046,898
733,733,0,2046,175
734,734,0,2046,8
735,735,0,2047,445
736,736,0,2046,1358
737,737,0,2047,2473
738,738,0,2046,3459
739,739,0,2046,4021
740,740,0,2047,3992
741,741,0,2046,3381
742,742,0,2046,2369
743,743,0,2046,1260
744,744,0,2046,382
745,745,0,2046,0
746,746,0,2046,221
747,747,0,2046,987
748,748,0,2046,2066
749,749,0,2046,3137
750,750,0,2046,3879
751,751,0,2046,4075
752,752,0,2047,3663
753,753,0,2046,2767
754,754,0,2047,1654
755,755,0,2046,656
756,756,0,2046,68
757,757,0,2046,69
758,758,0,2047,656
759,759,0,2046,1656
760,760,0,2046,2768
761,761,0,2047,3664
762,762,0,2046,4076
763,763,0,2047,3879
764,764,0,2046,3134
765,765,0,2046,2063
766,766,0,2047,984
767,767,0,2046,220
768,768,0,2047,0
769,769,0,2047,383
770,770,0,2047,1262
771,771,0,2047,2372
772,772,0,2047,3383
773,773,0,2047,3993
774,774,0,2047,4021
775,775,0,2046,3458
776,776,0,2047,2471
777,777,0,2046,1356
778,778,0,2046,444
779,779,0,2047,7
780,780,0,2046,175
781,781,0,2046,900
782,782,0,2047,1962
783,783,0,2046,3048
784,784,0,2046,3834
785,785,0,2047,4083
786,786,0,2047,3723
787,787,0,2046,2862
788,788,0,2046,1755
789,789,0,2046,733
790,790,0,2046,99
791,791,0,2046,44
792,792,0,2046,582
793,793,0,2046,1555
794,794,0,2046,2672
795,795,0,2046,3600
796,796,0,2047,4063
797,797,0,2047,3922
798,798,0,2046,3219
799,799,0,2047,2166
800,800,0,2046,1074
801,801,0,2046,270
802,802,0,2047,0
803,803,0,2047,324
804,804,0,2046,1167
805,805,0,2047,2270
806,806,0,2046,3304
807,807,0,2046,3961
808,808,0,2047,4043
809,809,0,2046,3530
810,810,0,2047,2571
811,811,0,2046,1454
812,812,0,2047,511
813,813,0,2046,23
814,814,0,2047,135
815,815,0,2046,815
816,816,0,2047,1859
817,817,0,2046,2956
818,818,0,2046,3781
819,819,0,2046,4086
820,820,0,2046,3780
821,821,0,2046,2956
822,822,0,2047,1857
823,823,0,2047,813
824,824,0,2046,134
825,825,0,2047,23
826,826,0,2046,511
827,827,0,2047,1456
828,828,0,2046,2573
829,829,0,2047,3531
830,830,0,2046,4044
831,831,0,2046,3960
832,832,0,2046,3302
833,833,0,2047,2268
834,834,0,2046,1166
835,835,0,2047,323
836,836,0,2046,0
837,837,0,2047,270
838,838,0,2046,1075
839,839,0,2047,2168
840,840,0,2047,3221
841,841,0,2046,3923
842,842,0,2047,4062
843,843,0,2046,3598
844,844,0,2046,2669
845,845,0,2047,1553
846,846,0,2046,581
847,847,0,2046,44
848,848,0,2047,100
849,849,0,2046,734
850,850,0,2046,1757
851,851,0,2047,2863
852,852,0,2046,3725
853,853,0,2046,4083
854,854,0,2046,3832
855,855,0,2046,3046
856,856,0,2047,1960
857,857,0,2046,898
858,858,0,2046,175
859,859,0,2047,8
860,860,0,2046,445
861,861,0,2046,1358
862,862,0,2047,2473
863,863,0,2046,3459
864,864,0,2046,4021
865,865,0,2047,3992
866,866,0,2046,3382
867,867,0,2046,2371
868,868,0,2046,1260
869,869,0,2046,381
870,870,0,2046,0
871,871,0,2047,220
872,872,0,2046,986
873,873,0,2046,2064
874,874,0,2046,3135
875,875,0,2047,3880
876,876,0,2046,4075
877,877,0,2046,3664
878,878,0,2046,2768
879,879,0,2046,1655
880,880,0,2046,656
881,881,0,2046,69
882,882,0,2047,69
883,883,0,2047,656
884,884,0,2047,1655
885,885,0,2046,2769
886,886,0,2046,3664
887,887,0,2046,4075
888,888,0,2046,3879
889,889,0,2047,3135
890,890,0,2047,2063
891,891,0,2047,985
892,892,0,2046,220
893,893,0,2046,0
894,894,0,2046,383
895,895,0,2046,1261
896,896,0,2046,2372
897,897,0,2046,3383
898,898,0,2046,3994
899,899,0,2047,4021
900,900,0,2046,3458
901,901,0,2046,2472
902,902,0,2046,1356
903,903,0,2046,445
904,904,0,2046,7
905,905,0,2046,176
906,906,0,2046,898
907,907,0,2047,1962
908,908,0,2047,3048
909,909,0,2047,3833
910,910,0,2047,4083
911,911,0,2046,3724
912,912,0,2047,2863
913,913,0,2046,1755
914,914,0,2046,733
915,915,0,2047,99
916,916,0,2046,43
917,917,0,2046,582
918,918,0,2046,1554
919,919,0,2047,2671
920,920,0,2046,3599
921,921,0,2046,4062
922,922,0,2046,3922
923,923,0,2046,3220
924,924,0,2047,2166
925,925,0,2046,1075
926,926,0,2046,269
927,927,0,2046,0
928,928,0,2046,324
929,929,0,2047,1168
930,930,0,2046,2270
931,931,0,2046,3304
932,932,0,2046,3961
933,933,0,2046,4044
934,934,0,2046,3531
935,935,0,2046,2572
936,936,0,2047,1454
937,937,0,2047,511
938,938,0,2046,23
939,939,0,2046,135
940,940,0,2047,814
941,941,0,2047,1859
942,942,0,2047,2956
943,943,0,2046,3780
944,944,0,2046,4086
945,945,0,2046,3780
946,946,0,2046,2955
947,947,0,2046,1857
948,948,0,2046,814
949,949,0,2046,135
950,950,0,2047,23
951,951,0,2046,512
952,952,0,2047,1456
953,953,0,2047,2573
954,954,0,2046,3531
955,955,0,2046,4045
956,956,0,2046,3960
957,957,0,2046,3303
958,958,0,2046,2269
959,959,0,2046,1167
960,960,0,2046,323
961,961,0,2046,0
962,962,0,2046,270
963,963,0,2047,1075
964,964,0,2046,2167
965,965,0,2047,3220
966,966,0,2047,3922
967,967,0,2046,4062
968,968,0,2046,3600
969,969,0,2047,2671
970,970,0,2046,1554
971,971,0,2046,581
972,972,0,2046,43
973,973,0,2046,100
974,974,0,2046,734
975,975,0,2047,1757
976,976,0,2046,2863
977,977,0,2046,3724
978,978,0,2047,4083
979,979,0,2046,3832
980,980,0,2046,3046
981,981,0,2047,1961
982,982,0,2046,898
983,983,0,2046,175
984,984,0,2046,7
985,985,0,2046,445
986,986,0,2046,1357
987,987,0,2047,2473
988,988,0,2046,3458
989,989,0,2046,4021
990,990,0,2046,3993
991,991,0,2046,3382
992,992,0,2046,2371
993,993,0,2047,1260
994,994,0,2046,382
995,995,0,2046,0
996,996,0,2046,220
997,997,0,2047,985
998,998,0,2046,2064
999,999,0,2046,3135
1000,1000,0,2046,3879
1001,1001,0,2047,4075
1002,1002,0,2046,3664
1003,1003,0,2046,2768
1004,1004,0,2047,1655
1005,1005,0,2046,656
1006,1006,0,2046,70
1007,1007,0,2046,68
1008,1008,0,2047,656
1009,1009,0,2047,1655
1010,1010,0,2046,2768
1011,1011,0,2047,3664
1012,1012,0,2046,4076
1013,1013,0,2046,3879
1014,1014,0,2046,3135
1015,1015,0,2046,2064
1016,1016,0,2047,986
1017,1017,0,2046,220
1018,1018,0,2046,0
1019,1019,0,2047,382
1020,1020,0,2047,1261
1021,1021,0,2047,2372
1022,1022,0,2046,3382
1023,1023,0,2046,3993
1024,1024,0,2046,4021
1025,1025,0,2047,3458
1026,1026,0,2046,2472
1027,1027,0,2046,1357
