Sample in Buffer,Sample in Window,TRIGGER,adc1_data_a_d0[11:0],adc1_data_b_d0[11:0]
0,0,0,2046,2518
1,1,0,2047,1067
2,2,0,2047,133
3,3,0,2046,212
4,4,0,2046,1262
5,5,0,2046,2726
6,6,0,2046,3823
7,7,0,2047,3972
8,8,0,2046,3092
9,9,0,2046,1652
10,10,0,2046,419
11,11,0,2046,45
12,12,0,2047,732
13,13,0,2046,2114
14,14,0,2046,3456
15,15,0,2046,4043
16,16,0,2046,3564
17,17,0,2046,2275
18,18,0,2047,859
19,19,0,2046,70
20,20,0,2046,328
21,21,0,2046,1495
22,22,0,2047,2951
23,23,0,2046,3922
24,24,0,2047,3890
25,25,0,2047,2874
26,26,0,2047,1413
27,27,0,2047,285
28,28,0,2047,88
29,29,0,2046,929
30,30,0,2046,2360
31,31,0,2047,3620
32,32,0,2046,4039
33,33,0,2046,3394
34,34,0,2047,2028
35,35,0,2046,668
36,36,0,2046,36
37,37,0,2046,469
38,38,0,2046,1737
39,39,0,2046,3164
40,40,0,2047,3993
41,41,0,2046,3782
42,42,0,2046,2644
43,43,0,2046,1184
44,44,0,2046,179
45,45,0,2046,162
46,46,0,2047,1143
47,47,0,2046,2600
48,48,0,2046,3759
49,49,0,2047,4003
50,50,0,2046,3201
51,51,0,2047,1782
52,52,0,2047,498
53,53,0,2047,34
54,54,0,2047,636
55,55,0,2047,1983
56,56,0,2046,3360
57,57,0,2046,4034
58,58,0,2047,3646
59,59,0,2047,2404
60,60,0,2046,967
61,61,0,2046,100
62,62,0,2046,262
63,63,0,2047,1370
64,64,0,2046,2833
65,65,0,2047,3873
66,66,0,2046,3937
67,67,0,2046,2992
68,68,0,2046,1539
69,69,0,2046,352
70,70,0,2046,62
71,71,0,2046,822
72,72,0,2047,2229
73,73,0,2046,3536
74,74,0,2047,4045
75,75,0,2047,3488
76,76,0,2046,2159
77,77,0,2047,767
78,78,0,2047,51
79,79,0,2046,392
80,80,0,2047,1608
81,81,0,2047,3053
82,82,0,2047,3959
83,83,0,2046,3843
84,84,0,2047,2768
85,85,0,2046,1304
86,86,0,2046,232
87,87,0,2047,118
88,88,0,2046,1028
89,89,0,2047,2473
90,90,0,2046,3688
91,91,0,2047,4025
92,92,0,2046,3305
93,93,0,2046,1912
94,94,0,2046,586
95,95,0,2047,32
96,96,0,2046,545
97,97,0,2047,1852
98,98,0,2046,3258
99,99,0,2047,4017
100,100,0,2046,3722
101,101,0,2047,2533
102,102,0,2047,1080
103,103,0,2046,137
104,104,0,2046,206
105,105,0,2046,1249
106,106,0,2046,2712
107,107,0,2047,3816
108,108,0,2046,3976
109,109,0,2046,3105
110,110,0,2047,1667
111,111,0,2047,427
112,112,0,2046,43
113,113,0,2046,721
114,114,0,2047,2099
115,115,0,2046,3445
116,116,0,2047,4043
117,117,0,2047,3575
118,118,0,2046,2290
119,119,0,2046,871
120,120,0,2047,73
121,121,0,2046,320
122,122,0,2046,1481
123,123,0,2046,2938
124,124,0,2046,3917
125,125,0,2046,3897
126,126,0,2046,2889
127,127,0,2047,1428
128,128,0,2046,293
129,129,0,2047,85
130,130,0,2047,916
131,131,0,2047,2344
132,132,0,2046,3610
133,133,0,2047,4039
134,134,0,2047,3405
135,135,0,2046,2043
136,136,0,2047,680
137,137,0,2046,38
138,138,0,2047,461
139,139,0,2047,1722
140,140,0,2046,3151
141,141,0,2046,3990
142,142,0,2046,3790
143,143,0,2046,2658
144,144,0,2046,1198
145,145,0,2046,183
146,146,0,2046,157
147,147,0,2047,1130
148,148,0,2047,2586
149,149,0,2047,3752
150,150,0,2046,4006
151,151,0,2047,3214
152,152,0,2047,1797
153,153,0,2047,509
154,154,0,2047,34
155,155,0,2046,625
156,156,0,2047,1967
157,157,0,2046,3349
158,158,0,2046,4033
159,159,0,2047,3656
160,160,0,2047,2419
161,161,0,2047,980
162,162,0,2046,104
163,163,0,2047,256
164,164,0,2047,1356
165,165,0,2047,2819
166,166,0,2047,3868
167,167,0,2046,3943
168,168,0,2046,3005
169,169,0,2047,1554
170,170,0,2046,360
171,171,0,2046,59
172,172,0,2046,810
173,173,0,2047,2214
174,174,0,2047,3525
175,175,0,2047,4046
176,176,0,2047,3498
177,177,0,2047,2175
178,178,0,2047,779
179,179,0,2046,53
180,180,0,2046,382
181,181,0,2047,1593
182,182,0,2046,3039
183,183,0,2046,3954
184,184,0,2046,3850
185,185,0,2046,2782
186,186,0,2046,1319
187,187,0,2047,238
188,188,0,2046,114
189,189,0,2047,1014
190,190,0,2046,2458
191,191,0,2047,3679
192,192,0,2047,4027
193,193,0,2046,3318
194,194,0,2046,1928
195,195,0,2047,596
196,196,0,2046,32
197,197,0,2046,535
198,198,0,2047,1837
199,199,0,2047,3246
200,200,0,2046,4014
201,201,0,2047,3730
202,202,0,2047,2547
203,203,0,2046,1094
204,204,0,2046,143
205,205,0,2047,199
206,206,0,2046,1234
207,207,0,2047,2696
208,208,0,2047,3809
209,209,0,2047,3980
210,210,0,2046,3117
211,211,0,2046,1682
212,212,0,2046,436
213,213,0,2046,42
214,214,0,2046,709
215,215,0,2047,2084
216,216,0,2046,3434
217,217,0,2046,4042
218,218,0,2046,3585
219,219,0,2046,2305
220,220,0,2046,884
221,221,0,2046,76
222,222,0,2046,311
223,223,0,2046,1466
224,224,0,2047,2925
225,225,0,2046,3913
226,226,0,2046,3902
227,227,0,2047,2902
228,228,0,2047,1443
229,229,0,2046,299
230,230,0,2047,81
231,231,0,2046,903
232,232,0,2047,2329
233,233,0,2047,3600
234,234,0,2046,4041
235,235,0,2046,3416
236,236,0,2047,2059
237,237,0,2047,691
238,238,0,2047,39
239,239,0,2046,451
240,240,0,2047,1707
241,241,0,2046,3139
242,242,0,2047,3985
243,243,0,2046,3797
244,244,0,2047,2673
245,245,0,2046,1211
246,246,0,2047,189
247,247,0,2047,150
248,248,0,2046,1115
249,249,0,2047,2571
250,250,0,2046,3743
251,251,0,2046,4009
252,252,0,2046,3227
253,253,0,2046,1813
254,254,0,2046,519
255,255,0,2047,33
256,256,0,2046,613
257,257,0,2046,1951
258,258,0,2046,3336
259,259,0,2047,4031
260,260,0,2047,3665
261,261,0,2046,2434
262,262,0,2046,994
263,263,0,2046,108
264,264,0,2047,248
265,265,0,2047,1342
266,266,0,2046,2804
267,267,0,2047,3860
268,268,0,2046,3947
269,269,0,2046,3019
270,270,0,2046,1568
271,271,0,2046,369
272,272,0,2047,57
273,273,0,2047,798
274,274,0,2047,2199
275,275,0,2046,3515
276,276,0,2047,4045
277,277,0,2047,3508
278,278,0,2046,2189
279,279,0,2046,791
280,280,0,2047,55
281,281,0,2046,374
282,282,0,2046,1577
283,283,0,2046,3027
284,284,0,2047,3951
285,285,0,2046,3857
286,286,0,2047,2796
287,287,0,2046,1333
288,288,0,2046,245
289,289,0,2046,111
290,290,0,2047,1001
291,291,0,2047,2443
292,292,0,2046,3670
293,293,0,2047,4029
294,294,0,2047,3330
295,295,0,2047,1943
296,296,0,2046,607
297,297,0,2046,32
298,298,0,2046,524
299,299,0,2047,1822
300,300,0,2045,3234
301,301,0,2046,4011
302,302,0,2046,3739
303,303,0,2046,2564
304,304,0,2047,1108
305,305,0,2046,148
306,306,0,2046,193
307,307,0,2047,1220
308,308,0,2047,2682
309,309,0,2046,3801
310,310,0,2047,3984
311,311,0,2046,3130
312,312,0,2046,1698
313,313,0,2047,446
314,314,0,2046,40
315,315,0,2047,697
316,316,0,2046,2068
317,317,0,2046,3423
318,318,0,2046,4042
319,319,0,2046,3594
320,320,0,2046,2321
321,321,0,2046,897
322,322,0,2046,80
323,323,0,2046,304
324,324,0,2046,1452
325,325,0,2047,2910
326,326,0,2046,3906
327,327,0,2047,3908
328,328,0,2046,2916
329,329,0,2047,1457
330,330,0,2046,307
331,331,0,2047,78
332,332,0,2047,890
333,333,0,2047,2313
334,334,0,2046,3590
335,335,0,2047,4042
336,336,0,2046,3427
337,337,0,2047,2074
338,338,0,2047,703
339,339,0,2046,40
340,340,0,2047,441
341,341,0,2046,1691
342,342,0,2046,3126
343,343,0,2046,3983
344,344,0,2046,3805
345,345,0,2046,2688
346,346,0,2046,1226
347,347,0,2046,196
348,348,0,2046,146
349,349,0,2046,1101
350,350,0,2047,2556
351,351,0,2046,3735
352,352,0,2047,4012
353,353,0,2046,3239
354,354,0,2046,1828
355,355,0,2047,528
356,356,0,2047,32
357,357,0,2047,603
358,358,0,2046,1936
359,359,0,2047,3324
360,360,0,2046,4029
361,361,0,2046,3674
362,362,0,2046,2451
363,363,0,2046,1007
364,364,0,2046,112
365,365,0,2047,242
366,366,0,2046,1327
367,367,0,2046,2790
368,368,0,2046,3854
369,369,0,2046,3953
370,370,0,2046,3032
371,371,0,2047,1584
372,372,0,2046,378
373,373,0,2047,55
374,374,0,2046,786
375,375,0,2046,2183
376,376,0,2046,3504
377,377,0,2046,4046
378,378,0,2047,3520
379,379,0,2047,2206
380,380,0,2046,804
381,381,0,2046,57
382,382,0,2047,365
383,383,0,2046,1562
384,384,0,2046,3013
385,385,0,2047,3945
386,386,0,2047,3863
387,387,0,2046,2811
388,388,0,2046,1347
389,389,0,2046,252
390,390,0,2046,106
391,391,0,2046,988
392,392,0,2046,2428
393,393,0,2046,3661
394,394,0,2046,4031
395,395,0,2046,3342
396,396,0,2046,1959
397,397,0,2047,619
398,398,0,2046,33
399,399,0,2047,514
400,400,0,2047,1806
401,401,0,2046,3221
402,402,0,2046,4008
403,403,0,2047,3747
404,404,0,2046,2578
405,405,0,2046,1122
406,406,0,2046,153
407,407,0,2046,187
408,408,0,2046,1205
409,409,0,2046,2666
410,410,0,2046,3794
411,411,0,2047,3987
412,412,0,2047,3144
413,413,0,2047,1713
414,414,0,2047,455
415,415,0,2046,39
416,416,0,2046,685
417,417,0,2047,2052
418,418,0,2047,3411
419,419,0,2046,4041
420,420,0,2046,3605
421,421,0,2046,2336
422,422,0,2046,910
423,423,0,2047,83
424,424,0,2046,296
425,425,0,2046,1436
426,426,0,2046,2896
427,427,0,2047,3900
428,428,0,2046,3914
429,429,0,2047,2930
430,430,0,2046,1472
431,431,0,2046,316
432,432,0,2045,74
433,433,0,2046,878
434,434,0,2046,2298
435,435,0,2047,3580
436,436,0,2046,4042
437,437,0,2046,3438
438,438,0,2046,2090
439,439,0,2046,714
440,440,0,2047,42
441,441,0,2047,431
442,442,0,2046,1676
443,443,0,2046,3112
444,444,0,2046,3979
445,445,0,2046,3812
446,446,0,2047,2702
447,447,0,2047,1241
448,448,0,2047,203
449,449,0,2046,140
450,450,0,2046,1089
451,451,0,2046,2541
452,452,0,2047,3727
453,453,0,2047,4014
454,454,0,2047,3251
455,455,0,2047,1843
456,456,0,2046,539
457,457,0,2046,31
458,458,0,2047,592
459,459,0,2047,1921
460,460,0,2046,3312
461,461,0,2047,4026
462,462,0,2047,3684
463,463,0,2046,2466
464,464,0,2046,1021
465,465,0,2046,117
466,466,0,2046,235
467,467,0,2046,1312
468,468,0,2047,2776
469,469,0,2047,3847
470,470,0,2046,3956
471,471,0,2046,3046
472,472,0,2046,1600
473,473,0,2046,387
474,474,0,2047,52
475,475,0,2046,774
476,476,0,2046,2168
477,477,0,2046,3493
478,478,0,2046,4046
479,479,0,2047,3529
480,480,0,2045,2221
481,481,0,2047,816
482,482,0,2047,60
483,483,0,2046,356
484,484,0,2047,1547
485,485,0,2047,2999
486,486,0,2047,3940
487,487,0,2047,3870
488,488,0,2047,2825
489,489,0,2046,1363
490,490,0,2047,259
491,491,0,2046,102
492,492,0,2046,974
493,493,0,2046,2413
494,494,0,2047,3652
495,495,0,2046,4033
496,496,0,2046,3354
497,497,0,2046,1975
498,498,0,2047,629
499,499,0,2046,34
500,500,0,2047,504
501,501,0,2046,1790
502,502,0,2047,3208
503,503,0,2047,4004
504,504,0,2046,3755
505,505,0,2046,2592
506,506,0,2046,1136
507,507,0,2046,159
508,508,0,2046,181
509,509,0,2046,1191
510,510,0,2046,2651
511,511,0,2046,3786
512,512,0,2046,3991
513,513,0,2046,3158
514,514,0,2046,1729
515,515,0,2046,465
516,516,0,2046,38
517,517,0,2046,674
518,518,0,2046,2036
519,519,0,2047,3400
520,520,0,2046,4039
521,521,0,2046,3614
522,522,0,2045,2352
523,523,0,2046,923
524,524,0,2046,87
525,525,0,2046,288
526,526,0,2046,1421
527,527,0,2047,2882
528,528,0,2046,3895
529,529,0,2047,3920
530,530,0,2046,2945
531,531,0,2046,1487
532,532,0,2046,324
533,533,0,2046,71
534,534,0,2046,865
535,535,0,2046,2283
536,536,0,2047,3570
537,537,0,2047,4044
538,538,0,2046,3450
539,539,0,2046,2106
540,540,0,2047,727
541,541,0,2046,44
542,542,0,2046,423
543,543,0,2046,1660
544,544,0,2047,3099
545,545,0,2047,3974
546,546,0,2046,3820
547,547,0,2046,2718
548,548,0,2046,1256
549,549,0,2046,209
550,550,0,2047,136
551,551,0,2046,1074
552,552,0,2046,2525
553,553,0,2046,3718
554,554,0,2046,4016
555,555,0,2046,3264
556,556,0,2046,1859
557,557,0,2046,550
558,558,0,2046,32
559,559,0,2046,580
560,560,0,2046,1905
561,561,0,2046,3300
562,562,0,2047,4024
563,563,0,2046,3692
564,564,0,2046,2481
565,565,0,2046,1034
566,566,0,2047,121
567,567,0,2047,228
568,568,0,2047,1297
569,569,0,2046,2760
570,570,0,2046,3841
571,571,0,2047,3961
572,572,0,2046,3060
573,573,0,2047,1615
574,574,0,2046,396
575,575,0,2047,50
576,576,0,2046,761
577,577,0,2046,2151
578,578,0,2046,3482
579,579,0,2047,4045
580,580,0,2046,3540
581,581,0,2047,2238
582,582,0,2047,829
583,583,0,2046,63
584,584,0,2046,347
585,585,0,2046,1532
586,586,0,2047,2984
587,587,0,2047,3935
588,588,0,2046,3876
589,589,0,2046,2840
590,590,0,2047,1378
591,591,0,2047,266
592,592,0,2047,97
593,593,0,2047,961
594,594,0,2046,2397
595,595,0,2046,3642
596,596,0,2046,4035
597,597,0,2047,3366
598,598,0,2046,1991
599,599,0,2046,641
600,600,0,2046,34
601,601,0,2046,494
602,602,0,2047,1774
603,603,0,2046,3195
604,604,0,2046,4002
605,605,0,2046,3763
606,606,0,2046,2608
607,607,0,2047,1150
608,608,0,2047,165
609,609,0,2047,176
610,610,0,2046,1176
611,611,0,2047,2637
612,612,0,2046,3778
613,613,0,2046,3995
614,614,0,2047,3171
615,615,0,2047,1744
616,616,0,2047,475
617,617,0,2047,37
618,618,0,2047,662
619,619,0,2046,2020
620,620,0,2047,3388
621,621,0,2046,4037
622,622,0,2047,3625
623,623,0,2047,2368
624,624,0,2046,936
625,625,0,2047,91
626,626,0,2046,280
627,627,0,2046,1406
628,628,0,2047,2868
629,629,0,2047,3888
630,630,0,2047,3925
631,631,0,2047,2959
632,632,0,2047,1503
633,633,0,2046,332
634,634,0,2047,68
635,635,0,2047,853
636,636,0,2046,2266
637,637,0,2046,3560
638,638,0,2046,4044
639,639,0,2047,3462
640,640,0,2047,2122
641,641,0,2046,739
642,642,0,2046,46
643,643,0,2047,413
644,644,0,2046,1645
645,645,0,2047,3085
646,646,0,2047,3969
647,647,0,2046,3827
648,648,0,2047,2733
649,649,0,2046,1270
650,650,0,2046,215
651,651,0,2046,131
652,652,0,2047,1060
653,653,0,2046,2510
654,654,0,2047,3710
655,655,0,2047,4019
656,656,0,2046,3276
657,657,0,2046,1875
658,658,0,2046,560
659,659,0,2046,31
660,660,0,2047,570
661,661,0,2047,1890
662,662,0,2046,3287
663,663,0,2046,4022
664,664,0,2047,3701
665,665,0,2046,2496
666,666,0,2047,1048
667,667,0,2046,126
668,668,0,2046,221
669,669,0,2046,1283
670,670,0,2047,2746
671,671,0,2046,3833
672,672,0,2046,3966
673,673,0,2047,3073
674,674,0,2047,1631
675,675,0,2047,405
676,676,0,2047,48
677,677,0,2046,749
678,678,0,2047,2136
679,679,0,2047,3471
680,680,0,2047,4045
681,681,0,2047,3550
682,682,0,2047,2254
683,683,0,2046,841
684,684,0,2047,66
685,685,0,2046,340
686,686,0,2046,1516
687,687,0,2047,2971
688,688,0,2047,3931
689,689,0,2046,3883
690,690,0,2047,2854
691,691,0,2047,1393
692,692,0,2047,274
693,693,0,2047,93
694,694,0,2047,948
695,695,0,2047,2381
696,696,0,2046,3633
697,697,0,2046,4036
698,698,0,2046,3377
699,699,0,2046,2006
700,700,0,2046,653
701,701,0,2047,36
702,702,0,2046,484
703,703,0,2047,1758
704,704,0,2047,3182
705,705,0,2047,3998
706,706,0,2046,3771
707,707,0,2046,2623
708,708,0,2046,1164
709,709,0,2046,170
710,710,0,2046,170
711,711,0,2046,1162
712,712,0,2047,2622
713,713,0,2047,3770
714,714,0,2046,3999
715,715,0,2047,3183
716,716,0,2046,1760
717,717,0,2047,485
718,718,0,2047,36
719,719,0,2047,651
720,720,0,2047,2004
721,721,0,2046,3375
722,722,0,2046,4036
723,723,0,2047,3633
724,724,0,2047,2382
725,725,0,2047,949
726,726,0,2047,94
727,727,0,2047,273
728,728,0,2047,1391
729,729,0,2046,2853
730,730,0,2047,3882
731,731,0,2046,3931
732,732,0,2047,2973
733,733,0,2046,1519
734,734,0,2046,340
735,735,0,2046,66
736,736,0,2047,839
737,737,0,2047,2250
738,738,0,2047,3550
739,739,0,2046,4045
740,740,0,2046,3473
741,741,0,2046,2137
742,742,0,2046,750
743,743,0,2046,48
744,744,0,2047,403
745,745,0,2047,1629
746,746,0,2047,3071
747,747,0,2046,3965
748,748,0,2047,3834
749,749,0,2046,2747
750,750,0,2047,1284
751,751,0,2046,222
752,752,0,2047,125
753,753,0,2046,1046
754,754,0,2047,2494
755,755,0,2047,3700
756,756,0,2046,4021
757,757,0,2046,3289
758,758,0,2046,1890
759,759,0,2046,571
760,760,0,2046,32
761,761,0,2046,559
762,762,0,2046,1873
763,763,0,2046,3275
764,764,0,2047,4019
765,765,0,2047,3711
766,766,0,2047,2511
767,767,0,2046,1062
768,768,0,2046,131
769,769,0,2046,214
770,770,0,2046,1268
771,771,0,2046,2731
772,772,0,2047,3826
773,773,0,2046,3970
774,774,0,2046,3087
775,775,0,2046,1647
776,776,0,2046,415
777,777,0,2046,46
778,778,0,2047,737
779,779,0,2046,2120
780,780,0,2047,3460
781,781,0,2047,4045
782,782,0,2046,3561
783,783,0,2046,2269
784,784,0,2047,854
785,785,0,2046,69
786,786,0,2046,330
787,787,0,2046,1501
788,788,0,2046,2957
789,789,0,2046,3925
790,790,0,2046,3888
791,791,0,2046,2868
792,792,0,2046,1408
793,793,0,2046,282
794,794,0,2046,90
795,795,0,2047,934
796,796,0,2046,2365
797,797,0,2046,3623
798,798,0,2046,4037
799,799,0,2046,3389
800,800,0,2046,2022
801,801,0,2045,664
802,802,0,2047,36
803,803,0,2047,473
804,804,0,2046,1743
805,805,0,2046,3169
806,806,0,2046,3994
807,807,0,2047,3779
808,808,0,2047,2638
809,809,0,2046,1179
810,810,0,2047,176
811,811,0,2047,164
812,812,0,2046,1148
813,813,0,2047,2607
814,814,0,2046,3763
815,815,0,2047,4002
816,816,0,2046,3196
817,817,0,2046,1776
818,818,0,2047,494
819,819,0,2046,34
820,820,0,2047,639
821,821,0,2047,1989
822,822,0,2047,3365
823,823,0,2047,4035
824,824,0,2046,3643
825,825,0,2046,2399
826,826,0,2046,962
827,827,0,2046,98
828,828,0,2045,265
829,829,0,2046,1376
830,830,0,2047,2839
831,831,0,2047,3876
832,832,0,2046,3935
833,833,0,2047,2986
834,834,0,2046,1534
835,835,0,2046,348
836,836,0,2046,63
837,837,0,2047,827
838,838,0,2046,2236
839,839,0,2046,3539
840,840,0,2047,4045
841,841,0,2046,3484
842,842,0,2046,2154
843,843,0,2046,762
844,844,0,2046,50
845,845,0,2047,395
846,846,0,2046,1613
847,847,0,2046,3058
848,848,0,2046,3961
849,849,0,2046,3840
850,850,0,2047,2762
851,851,0,2046,1299
852,852,0,2046,229
853,853,0,2046,121
854,854,0,2047,1032
855,855,0,2046,2479
856,856,0,2046,3691
857,857,0,2047,4024
858,858,0,2046,3301
859,859,0,2047,1907
860,860,0,2047,581
861,861,0,2046,31
862,862,0,2047,549
863,863,0,2047,1857
864,864,0,2046,3263
865,865,0,2047,4017
866,866,0,2046,3719
867,867,0,2046,2527
868,868,0,2047,1075
869,869,0,2047,136
870,870,0,2046,208
871,871,0,2047,1253
872,872,0,2047,2716
873,873,0,2047,3819
874,874,0,2047,3974
875,875,0,2046,3100
876,876,0,2046,1661
877,877,0,2046,424
878,878,0,2047,44
879,879,0,2047,725
880,880,0,2046,2105
881,881,0,2046,3448
882,882,0,2047,4043
883,883,0,2047,3571
884,884,0,2046,2284
885,885,0,2046,867
886,886,0,2046,72
887,887,0,2046,322
888,888,0,2046,1486
889,889,0,2046,2943
890,890,0,2046,3919
891,891,0,2047,3895
892,892,0,2046,2883
893,893,0,2047,1422
894,894,0,2046,289
895,895,0,2046,86
896,896,0,2046,921
897,897,0,2047,2350
898,898,0,2046,3614
899,899,0,2046,4039
900,900,0,2046,3401
901,901,0,2046,2038
902,902,0,2046,675
903,903,0,2046,38
904,904,0,2047,464
905,905,0,2047,1728
906,906,0,2046,3157
907,907,0,2046,3991
908,908,0,2047,3787
909,909,0,2046,2653
910,910,0,2047,1192
911,911,0,2047,182
912,912,0,2046,158
913,913,0,2046,1134
914,914,0,2047,2591
915,915,0,2047,3754
916,916,0,2046,4005
917,917,0,2047,3210
918,918,0,2047,1791
919,919,0,2046,505
920,920,0,2046,33
921,921,0,2046,628
922,922,0,2046,1973
923,923,0,2047,3352
924,924,0,2047,4033
925,925,0,2047,3653
926,926,0,2047,2414
927,927,0,2046,975
928,928,0,2046,102
929,929,0,2047,258
930,930,0,2047,1361
931,931,0,2047,2824
932,932,0,2047,3869
933,933,0,2047,3941
934,934,0,2046,3000
935,935,0,2046,1548
936,936,0,2046,358
937,937,0,2047,60
938,938,0,2046,815
939,939,0,2047,2220
940,940,0,2046,3529
941,941,0,2046,4045
942,942,0,2047,3495
943,943,0,2046,2169
944,944,0,2047,774
945,945,0,2047,52
946,946,0,2046,386
947,947,0,2046,1598
948,948,0,2047,3045
949,949,0,2046,3957
950,950,0,2046,3847
951,951,0,2046,2777
952,952,0,2046,1313
953,953,0,2047,235
954,954,0,2047,116
955,955,0,2046,1019
956,956,0,2047,2464
957,957,0,2046,3683
958,958,0,2046,4027
959,959,0,2046,3314
960,960,0,2047,1922
961,961,0,2046,593
962,962,0,2046,32
963,963,0,2047,538
964,964,0,2046,1842
965,965,0,2047,3250
966,966,0,2047,4014
967,967,0,2047,3728
968,968,0,2047,2542
969,969,0,2046,1089
970,970,0,2047,141
971,971,0,2046,202
972,972,0,2046,1239
973,973,0,2047,2702
974,974,0,2047,3812
975,975,0,2046,3979
976,976,0,2046,3113
977,977,0,2047,1677
978,978,0,2047,433
979,979,0,2047,42
980,980,0,2047,713
981,981,0,2047,2089
982,982,0,2047,3439
983,983,0,2047,4043
984,984,0,2046,3581
985,985,0,2047,2300
986,986,0,2046,878
987,987,0,2047,74
988,988,0,2046,314
989,989,0,2047,1472
990,990,0,2047,2929
991,991,0,2046,3913
992,992,0,2046,3900
993,993,0,2047,2898
994,994,0,2046,1437
995,995,0,2047,298
996,996,0,2046,82
997,997,0,2047,909
998,998,0,2046,2335
999,999,0,2047,3604
1000,1000,0,2047,4040
1001,1001,0,2046,3413
1002,1002,0,2046,2053
1003,1003,0,2047,687
1004,1004,0,2046,39
1005,1005,0,2047,454
1006,1006,0,2046,1712
1007,1007,0,2046,3143
1008,1008,0,2046,3987
1009,1009,0,2047,3795
1010,1010,0,2046,2667
1011,1011,0,2047,1206
1012,1012,0,2046,188
1013,1013,0,2046,153
1014,1014,0,2047,1121
1015,1015,0,2046,2576
1016,1016,0,2046,3746
1017,1017,0,2046,4008
1018,1018,0,2046,3221
1019,1019,0,2047,1807
1020,1020,0,2046,515
1021,1021,0,2046,33
1022,1022,0,2046,618
1023,1023,0,2046,1957
1024,1024,0,2047,3341
