Sample in Buffer,Sample in Window,TRIGGER,adc1_data_a_d0[11:0],adc1_data_b_d0[11:0]
0,0,0,2046,3916
1,1,0,2047,4069
2,2,0,2046,3636
3,3,0,2047,2742
4,4,0,2047,1645
5,5,0,2046,661
6,6,0,2046,76
7,7,0,2046,55
8,8,0,2046,607
9,9,0,2046,1573
10,10,0,2046,2672
11,11,0,2046,3589
12,12,0,2047,4058
13,13,0,2046,3944
14,14,0,2046,3280
15,15,0,2047,2258
16,16,0,2047,1173
17,17,0,2047,337
18,18,0,2046,0
19,19,0,2046,237
20,20,0,2046,1003
21,21,0,2046,2067
22,22,0,2046,3123
23,23,0,2046,3865
24,24,0,2046,4081
25,25,0,2046,3707
26,26,0,2046,2851
27,27,0,2046,1760
28,28,0,2046,750
29,29,0,2047,112
30,30,0,2046,29
31,31,0,2046,526
32,32,0,2046,1459
33,33,0,2046,2559
34,34,0,2047,3509
35,35,0,2046,4035
36,36,0,2047,3984
37,37,0,2046,3372
38,38,0,2046,2374
39,39,0,2046,1279
40,40,0,2047,405
41,41,0,2046,0
42,42,0,2046,184
43,43,0,2047,904
44,44,0,2046,1950
45,45,0,2046,3022
46,46,0,2046,3810
47,47,0,2046,4086
48,48,0,2046,3772
49,49,0,2046,2957
50,50,0,2046,1878
51,51,0,2047,844
52,52,0,2047,154
53,53,0,2046,10
54,54,0,2047,449
55,55,0,2046,1348
56,56,0,2046,2445
57,57,0,2047,3425
58,58,0,2046,4006
59,59,0,2046,4018
60,60,0,2046,3458
61,61,0,2046,2490
62,62,0,2046,1391
63,63,0,2047,478
64,64,0,2046,17
65,65,0,2047,138
66,66,0,2047,807
67,67,0,2046,1832
68,68,0,2047,2917
69,69,0,2046,3747
70,70,0,2046,4085
71,71,0,2046,3832
72,72,0,2047,3061
73,73,0,2047,1994
74,74,0,2046,941
75,75,0,2046,204
76,76,0,2046,0
77,77,0,2047,377
78,78,0,2047,1238
79,79,0,2047,2330
80,80,0,2046,3337
81,81,0,2047,3969
82,82,0,2046,4045
83,83,0,2047,3541
84,84,0,2046,2603
85,85,0,2046,1502
86,86,0,2046,558
87,87,0,2047,38
88,88,0,2046,97
89,89,0,2046,716
90,90,0,2047,1716
91,91,0,2046,2809
92,92,0,2047,3680
93,93,0,2047,4076
94,94,0,2046,3886
95,95,0,2046,3160
96,96,0,2047,2113
97,97,0,2046,1042
98,98,0,2046,260
99,99,0,2046,0
100,100,0,2047,312
101,101,0,2047,1130
102,102,0,2047,2213
103,103,0,2046,3244
104,104,0,2046,3928
105,105,0,2046,4065
106,106,0,2047,3618
107,107,0,2046,2715
108,108,0,2047,1617
109,109,0,2046,640
110,110,0,2047,67
111,111,0,2047,62
112,112,0,2046,628
113,113,0,2046,1600
114,114,0,2046,2699
115,115,0,2047,3608
116,116,0,2047,4063
117,117,0,2046,3934
118,118,0,2046,3257
119,119,0,2046,2229
120,120,0,2046,1147
121,121,0,2047,320
122,122,0,2046,0
123,123,0,2047,251
124,124,0,2046,1028
125,125,0,2046,2096
126,126,0,2046,3147
127,127,0,2046,3878
128,128,0,2047,4078
129,129,0,2046,3690
130,130,0,2046,2825
131,131,0,2046,1732
132,132,0,2046,729
133,133,0,2046,102
134,134,0,2046,34
135,135,0,2046,545
136,136,0,2046,1487
137,137,0,2047,2587
138,138,0,2046,3529
139,139,0,2046,4041
140,140,0,2047,3974
141,141,0,2046,3350
142,142,0,2046,2346
143,143,0,2046,1253
144,144,0,2046,387
145,145,0,2046,0
146,146,0,2047,197
147,147,0,2046,927
148,148,0,2046,1978
149,149,0,2046,3046
150,150,0,2046,3824
151,151,0,2047,4086
152,152,0,2046,3757
153,153,0,2046,2932
154,154,0,2047,1849
155,155,0,2046,821
156,156,0,2046,144
157,157,0,2046,14
158,158,0,2046,467
159,159,0,2046,1374
160,160,0,2046,2473
161,161,0,2047,3447
162,162,0,2047,4014
163,163,0,2046,4010
164,164,0,2046,3438
165,165,0,2046,2461
166,166,0,2046,1364
167,167,0,2046,459
168,168,0,2046,11
169,169,0,2046,148
170,170,0,2046,830
171,171,0,2046,1861
172,172,0,2047,2942
173,173,0,2047,3763
174,174,0,2046,4086
175,175,0,2046,3818
176,176,0,2047,3036
177,177,0,2046,1967
178,178,0,2046,917
179,179,0,2046,192
180,180,0,2046,0
181,181,0,2047,394
182,182,0,2046,1264
183,183,0,2046,2357
184,184,0,2046,3358
185,185,0,2046,3979
186,186,0,2046,4039
187,187,0,2046,3521
188,188,0,2047,2576
189,189,0,2046,1476
190,190,0,2046,538
191,191,0,2046,32
192,192,0,2047,106
193,193,0,2046,738
194,194,0,2046,1744
195,195,0,2046,2836
196,196,0,2046,3697
197,197,0,2047,4080
198,198,0,2046,3873
199,199,0,2047,3137
200,200,0,2046,2084
201,201,0,2046,1018
202,202,0,2045,245
203,203,0,2046,0
204,204,0,2046,326
205,205,0,2047,1157
206,206,0,2047,2241
207,207,0,2046,3267
208,208,0,2046,3938
209,209,0,2046,4060
210,210,0,2046,3600
211,211,0,2046,2688
212,212,0,2046,1589
213,213,0,2046,619
214,214,0,2046,60
215,215,0,2045,70
216,216,0,2047,648
217,217,0,2046,1629
218,218,0,2047,2726
219,219,0,2047,3626
220,220,0,2047,4066
221,221,0,2046,3923
222,222,0,2046,3235
223,223,0,2046,2201
224,224,0,2046,1122
225,225,0,2046,305
226,226,0,2047,0
227,227,0,2046,266
228,228,0,2046,1053
229,229,0,2047,2124
230,230,0,2047,3171
231,231,0,2047,3891
232,232,0,2047,4076
233,233,0,2046,3673
234,234,0,2047,2798
235,235,0,2046,1705
236,236,0,2046,707
237,237,0,2046,93
238,238,0,2046,41
239,239,0,2046,564
240,240,0,2046,1514
241,241,0,2046,2615
242,242,0,2046,3548
243,243,0,2046,4047
244,244,0,2046,3965
245,245,0,2046,3327
246,246,0,2046,2317
247,247,0,2046,1228
248,248,0,2046,371
249,249,0,2046,0
250,250,0,2046,209
251,251,0,2047,951
252,252,0,2046,2007
253,253,0,2046,3071
254,254,0,2046,3838
255,255,0,2046,4084
256,256,0,2046,3741
257,257,0,2047,2907
258,258,0,2047,1821
259,259,0,2046,799
260,260,0,2046,133
261,261,0,2046,18
262,262,0,2046,486
263,263,0,2046,1402
264,264,0,2046,2501
265,265,0,2046,3467
266,266,0,2046,4021
267,267,0,2046,4002
268,268,0,2046,3417
269,269,0,2046,2434
270,270,0,2046,1337
271,271,0,2046,443
272,272,0,2046,8
273,273,0,2046,159
274,274,0,2046,854
275,275,0,2046,1889
276,276,0,2047,2968
277,277,0,2046,3779
278,278,0,2046,4087
279,279,0,2047,3804
280,280,0,2046,3012
281,281,0,2046,1938
282,282,0,2046,894
283,283,0,2046,181
284,284,0,2046,3
285,285,0,2047,412
286,286,0,2046,1291
287,287,0,2047,2386
288,288,0,2046,3381
289,289,0,2046,3988
290,290,0,2046,4032
291,291,0,2047,3502
292,292,0,2046,2548
293,293,0,2046,1448
294,294,0,2046,519
295,295,0,2047,27
296,296,0,2047,116
297,297,0,2046,760
298,298,0,2046,1772
299,299,0,2047,2862
300,300,0,2046,3713
301,301,0,2047,4082
302,302,0,2046,3861
303,303,0,2046,3113
304,304,0,2046,2055
305,305,0,2046,993
306,306,0,2046,233
307,307,0,2046,0
308,308,0,2046,343
309,309,0,2047,1182
310,310,0,2046,2270
311,311,0,2046,3289
312,312,0,2046,3949
313,313,0,2046,4056
314,314,0,2046,3581
315,315,0,2046,2662
316,316,0,2046,1562
317,317,0,2046,600
318,318,0,2046,52
319,319,0,2046,78
320,320,0,2046,670
321,321,0,2046,1656
322,322,0,2046,2752
323,323,0,2047,3644
324,324,0,2046,4071
325,325,0,2046,3911
326,326,0,2046,3211
327,327,0,2046,2173
328,328,0,2046,1096
329,329,0,2045,290
330,330,0,2046,0
331,331,0,2046,280
332,332,0,2046,1077
333,333,0,2047,2152
334,334,0,2047,3194
335,335,0,2046,3903
336,336,0,2046,4073
337,337,0,2046,3656
338,338,0,2046,2773
339,339,0,2046,1677
340,340,0,2047,686
341,341,0,2047,85
342,342,0,2046,48
343,343,0,2046,584
344,344,0,2046,1541
345,345,0,2046,2641
346,346,0,2046,3568
347,347,0,2046,4052
348,348,0,2046,3955
349,349,0,2046,3306
350,350,0,2046,2290
351,351,0,2046,1202
352,352,0,2047,355
353,353,0,2046,0
354,354,0,2047,222
355,355,0,2046,975
356,356,0,2046,2035
357,357,0,2047,3095
358,358,0,2046,3851
359,359,0,2047,4084
360,360,0,2046,3725
361,361,0,2047,2881
362,362,0,2046,1792
363,363,0,2047,776
364,364,0,2046,123
365,365,0,2047,24
366,366,0,2046,504
367,367,0,2047,1427
368,368,0,2047,2528
369,369,0,2046,3487
370,370,0,2047,4027
371,371,0,2047,3993
372,372,0,2046,3396
373,373,0,2046,2406
374,374,0,2046,1311
375,375,0,2046,424
376,376,0,2046,4
377,377,0,2046,171
378,378,0,2046,877
379,379,0,2047,1918
380,380,0,2046,2993
381,381,0,2047,3793
382,382,0,2046,4087
383,383,0,2046,3790
384,384,0,2046,2987
385,385,0,2046,1910
386,386,0,2047,870
387,387,0,2046,167
388,388,0,2046,5
389,389,0,2047,430
390,390,0,2046,1317
391,391,0,2047,2413
392,392,0,2046,3402
393,393,0,2047,3996
394,394,0,2046,4025
395,395,0,2047,3482
396,396,0,2046,2521
397,397,0,2046,1421
398,398,0,2046,500
399,399,0,2046,22
400,400,0,2047,125
401,401,0,2047,782
402,402,0,2047,1801
403,403,0,2046,2888
404,404,0,2046,3729
405,405,0,2046,4084
406,406,0,2046,3847
407,407,0,2046,3089
408,408,0,2046,2027
409,409,0,2047,968
410,410,0,2047,220
411,411,0,2046,0
412,412,0,2046,359
413,413,0,2046,1208
414,414,0,2046,2297
415,415,0,2046,3312
416,416,0,2046,3959
417,417,0,2046,4051
418,418,0,2047,3563
419,419,0,2046,2634
420,420,0,2046,1535
421,421,0,2046,580
422,422,0,2046,46
423,423,0,2047,87
424,424,0,2046,691
425,425,0,2046,1684
426,426,0,2046,2779
427,427,0,2046,3660
428,428,0,2047,4074
429,429,0,2046,3899
430,430,0,2046,3187
431,431,0,2046,2145
432,432,0,2047,1070
433,433,0,2047,276
434,434,0,2046,0
435,435,0,2046,294
436,436,0,2046,1102
437,437,0,2047,2180
438,438,0,2047,3217
439,439,0,2047,3914
440,440,0,2047,4070
441,441,0,2047,3639
442,442,0,2046,2746
443,443,0,2046,1649
444,444,0,2046,664
445,445,0,2046,76
446,446,0,2046,54
447,447,0,2046,605
448,448,0,2046,1569
449,449,0,2046,2668
450,450,0,2047,3586
451,451,0,2046,4058
452,452,0,2046,3946
453,453,0,2046,3283
454,454,0,2046,2262
455,455,0,2046,1176
456,456,0,2046,339
457,457,0,2046,0
458,458,0,2046,235
459,459,0,2046,999
460,460,0,2046,2063
461,461,0,2047,3120
462,462,0,2046,3864
463,463,0,2046,4081
464,464,0,2047,3710
465,465,0,2047,2855
466,466,0,2046,1765
467,467,0,2047,754
468,468,0,2047,113
469,469,0,2046,28
470,470,0,2046,523
471,471,0,2047,1455
472,472,0,2046,2557
473,473,0,2046,3507
474,474,0,2046,4034
475,475,0,2047,3986
476,476,0,2047,3375
477,477,0,2047,2379
478,478,0,2046,1284
479,479,0,2046,408
480,480,0,2046,2
481,481,0,2047,183
482,482,0,2047,900
483,483,0,2046,1946
484,484,0,2046,3018
485,485,0,2046,3808
486,486,0,2046,4087
487,487,0,2047,3774
488,488,0,2046,2961
489,489,0,2047,1882
490,490,0,2046,847
491,491,0,2047,157
492,492,0,2046,9
493,493,0,2046,447
494,494,0,2046,1344
495,495,0,2047,2442
496,496,0,2046,3423
497,497,0,2047,4004
498,498,0,2047,4018
499,499,0,2046,3462
500,500,0,2046,2493
501,501,0,2047,1394
502,502,0,2047,481
503,503,0,2047,17
504,504,0,2047,136
505,505,0,2047,805
506,506,0,2045,1828
507,507,0,2046,2913
508,508,0,2047,3745
509,509,0,2046,4085
510,510,0,2046,3833
511,511,0,2047,3064
512,512,0,2046,1999
513,513,0,2046,944
514,514,0,2046,207
515,515,0,2046,0
516,516,0,2046,375
517,517,0,2047,1234
518,518,0,2046,2326
519,519,0,2046,3334
520,520,0,2046,3968
521,521,0,2047,4045
522,522,0,2046,3543
523,523,0,2047,2608
524,524,0,2046,1507
525,525,0,2046,560
526,526,0,2047,39
527,527,0,2046,95
528,528,0,2047,713
529,529,0,2046,1712
530,530,0,2047,2807
531,531,0,2047,3678
532,532,0,2046,4077
533,533,0,2046,3888
534,534,0,2046,3164
535,535,0,2046,2116
536,536,0,2046,1046
537,537,0,2046,262
538,538,0,2046,0
539,539,0,2046,310
540,540,0,2047,1127
541,541,0,2047,2209
542,542,0,2046,3241
543,543,0,2046,3925
544,544,0,2047,4066
545,545,0,2046,3621
546,546,0,2046,2719
547,547,0,2046,1621
548,548,0,2046,643
549,549,0,2046,68
550,550,0,2047,62
551,551,0,2047,625
552,552,0,2047,1596
553,553,0,2046,2696
554,554,0,2047,3605
555,555,0,2047,4062
556,556,0,2046,3935
557,557,0,2046,3260
558,558,0,2046,2233
559,559,0,2047,1151
560,560,0,2046,323
561,561,0,2046,0
562,562,0,2046,250
563,563,0,2046,1025
564,564,0,2047,2092
565,565,0,2046,3143
566,566,0,2046,3876
567,567,0,2046,4079
568,568,0,2046,3693
569,569,0,2047,2828
570,570,0,2046,1737
571,571,0,2047,731
572,572,0,2046,104
573,573,0,2047,34
574,574,0,2046,543
575,575,0,2046,1483
576,576,0,2046,2583
577,577,0,2046,3526
578,578,0,2046,4040
579,579,0,2046,3976
580,580,0,2047,3353
581,581,0,2047,2350
582,582,0,2046,1258
583,583,0,2046,391
584,584,0,2046,0
585,585,0,2046,195
586,586,0,2046,924
587,587,0,2046,1973
588,588,0,2046,3043
589,589,0,2047,3821
590,590,0,2046,4086
591,591,0,2046,3759
592,592,0,2047,2935
593,593,0,2046,1853
594,594,0,2046,824
595,595,0,2046,145
596,596,0,2046,12
597,597,0,2046,465
598,598,0,2046,1371
599,599,0,2046,2469
600,600,0,2046,3444
601,601,0,2046,4012
602,602,0,2046,4011
603,603,0,2047,3441
604,604,0,2046,2466
605,605,0,2046,1367
606,606,0,2046,463
607,607,0,2046,12
608,608,0,2046,147
609,609,0,2046,827
610,610,0,2046,1857
611,611,0,2047,2939
612,612,0,2047,3761
613,613,0,2046,4086
614,614,0,2046,3821
615,615,0,2047,3040
616,616,0,2046,1971
617,617,0,2046,921
618,618,0,2046,194
619,619,0,2046,0
620,620,0,2047,393
621,621,0,2046,1261
622,622,0,2047,2354
623,623,0,2047,3356
624,624,0,2046,3977
625,625,0,2046,4039
626,626,0,2046,3524
627,627,0,2046,2580
628,628,0,2046,1479
629,629,0,2047,541
630,630,0,2046,33
631,631,0,2047,105
632,632,0,2046,735
633,633,0,2046,1740
634,634,0,2046,2831
635,635,0,2046,3694
636,636,0,2046,4079
637,637,0,2046,3875
638,638,0,2046,3140
639,639,0,2046,2088
640,640,0,2047,1021
641,641,0,2046,248
642,642,0,2046,0
643,643,0,2047,325
644,644,0,2047,1153
645,645,0,2047,2238
646,646,0,2046,3263
647,647,0,2047,3936
648,648,0,2046,4061
649,649,0,2046,3603
650,650,0,2047,2692
651,651,0,2047,1593
652,652,0,2046,623
653,653,0,2046,61
654,654,0,2047,69
655,655,0,2046,645
656,656,0,2046,1624
657,657,0,2046,2722
658,658,0,2046,3622
659,659,0,2047,4066
660,660,0,2046,3925
661,661,0,2046,3237
662,662,0,2046,2205
663,663,0,2046,1125
664,664,0,2046,307
665,665,0,2047,0
666,666,0,2046,263
667,667,0,2046,1048
668,668,0,2046,2120
669,669,0,2046,3167
670,670,0,2046,3888
671,671,0,2046,4076
672,672,0,2046,3677
673,673,0,2046,2802
674,674,0,2046,1709
675,675,0,2046,710
676,676,0,2047,94
677,677,0,2046,40
678,678,0,2046,562
679,679,0,2046,1510
680,680,0,2047,2610
681,681,0,2046,3546
682,682,0,2047,4046
683,683,0,2047,3966
684,684,0,2046,3331
685,685,0,2046,2321
686,686,0,2046,1231
687,687,0,2046,373
688,688,0,2047,0
689,689,0,2047,207
690,690,0,2046,948
691,691,0,2047,2002
692,692,0,2047,3068
693,693,0,2047,3835
694,694,0,2046,4084
695,695,0,2046,3744
696,696,0,2046,2910
697,697,0,2046,1825
698,698,0,2046,801
699,699,0,2046,135
700,700,0,2047,18
701,701,0,2046,483
702,702,0,2046,1397
703,703,0,2046,2497
704,704,0,2046,3464
705,705,0,2047,4019
706,706,0,2046,4003
707,707,0,2046,3421
708,708,0,2046,2438
709,709,0,2046,1340
710,710,0,2046,444
711,711,0,2046,9
712,712,0,2046,157
713,713,0,2047,850
714,714,0,2047,1884
715,715,0,2047,2963
716,716,0,2046,3775
717,717,0,2046,4086
718,718,0,2046,3806
719,719,0,2046,3015
720,720,0,2046,1942
721,721,0,2046,897
722,722,0,2046,181
723,723,0,2047,2
724,724,0,2047,409
725,725,0,2046,1287
726,726,0,2046,2382
727,727,0,2046,3376
728,728,0,2046,3986
729,729,0,2046,4033
730,730,0,2046,3504
731,731,0,2046,2552
732,732,0,2046,1453
733,733,0,2046,521
734,734,0,2046,27
735,735,0,2047,115
736,736,0,2046,756
737,737,0,2047,1768
738,738,0,2046,2858
739,739,0,2047,3711
740,740,0,2046,4082
741,741,0,2047,3862
742,742,0,2046,3117
743,743,0,2046,2060
744,744,0,2046,997
745,745,0,2046,235
746,746,0,2046,0
747,747,0,2047,340
748,748,0,2046,1178
749,749,0,2046,2266
750,750,0,2046,3286
751,751,0,2046,3946
752,752,0,2046,4056
753,753,0,2046,3584
754,754,0,2046,2665
755,755,0,2046,1566
756,756,0,2047,602
757,757,0,2046,53
758,758,0,2047,77
759,759,0,2046,667
760,760,0,2046,1652
761,761,0,2046,2749
762,762,0,2047,3640
763,763,0,2046,4070
764,764,0,2047,3913
765,765,0,2046,3214
766,766,0,2046,2178
767,767,0,2047,1100
768,768,0,2047,292
769,769,0,2046,0
770,770,0,2046,278
771,771,0,2047,1073
772,772,0,2047,2148
773,773,0,2047,3190
774,774,0,2047,3900
775,775,0,2047,4074
776,776,0,2046,3658
777,777,0,2047,2776
778,778,0,2047,1681
779,779,0,2047,689
780,780,0,2046,86
781,781,0,2046,46
782,782,0,2046,582
783,783,0,2046,1538
784,784,0,2046,2638
785,785,0,2047,3565
786,786,0,2046,4052
787,787,0,2046,3957
788,788,0,2046,3309
789,789,0,2046,2294
790,790,0,2046,1206
791,791,0,2046,357
792,792,0,2046,0
793,793,0,2046,221
794,794,0,2046,972
795,795,0,2046,2031
796,796,0,2046,3092
797,797,0,2046,3849
798,798,0,2046,4083
799,799,0,2046,3728
800,800,0,2047,2885
801,801,0,2046,1797
802,802,0,2047,779
803,803,0,2046,124
804,804,0,2046,23
805,805,0,2046,501
806,806,0,2047,1425
807,807,0,2046,2524
808,808,0,2046,3484
809,809,0,2047,4027
810,810,0,2046,3995
811,811,0,2046,3398
812,812,0,2046,2410
813,813,0,2046,1314
814,814,0,2046,426
815,815,0,2046,5
816,816,0,2046,169
817,817,0,2046,873
818,818,0,2046,1914
819,819,0,2047,2989
820,820,0,2046,3791
821,821,0,2046,4087
822,822,0,2046,3791
823,823,0,2046,2990
824,824,0,2046,1913
825,825,0,2046,874
826,826,0,2046,170
827,827,0,2047,5
828,828,0,2046,426
829,829,0,2046,1314
830,830,0,2047,2409
831,831,0,2046,3398
832,832,0,2046,3996
833,833,0,2047,4027
834,834,0,2046,3484
835,835,0,2047,2525
836,836,0,2046,1425
837,837,0,2046,502
838,838,0,2046,22
839,839,0,2046,124
840,840,0,2047,778
841,841,0,2047,1797
842,842,0,2046,2884
843,843,0,2047,3727
844,844,0,2046,4084
845,845,0,2047,3850
846,846,0,2047,3092
847,847,0,2046,2031
848,848,0,2046,972
849,849,0,2046,222
850,850,0,2047,0
851,851,0,2047,357
852,852,0,2046,1205
853,853,0,2046,2293
854,854,0,2046,3308
855,855,0,2046,3957
856,856,0,2047,4052
857,857,0,2046,3565
858,858,0,2046,2638
859,859,0,2047,1538
860,860,0,2046,582
861,861,0,2047,46
862,862,0,2046,85
863,863,0,2046,688
864,864,0,2046,1680
865,865,0,2047,2775
866,866,0,2046,3658
867,867,0,2047,4074
868,868,0,2047,3902
869,869,0,2046,3191
870,870,0,2046,2149
871,871,0,2046,1074
872,872,0,2046,277
873,873,0,2046,0
874,874,0,2046,293
875,875,0,2046,1098
876,876,0,2046,2176
877,877,0,2046,3214
878,878,0,2046,3912
879,879,0,2047,4070
880,880,0,2047,3640
881,881,0,2047,2749
882,882,0,2046,1652
883,883,0,2047,667
884,884,0,2046,78
885,885,0,2046,53
886,886,0,2047,602
887,887,0,2047,1565
888,888,0,2046,2665
889,889,0,2046,3583
890,890,0,2046,4057
891,891,0,2046,3947
892,892,0,2046,3287
893,893,0,2047,2266
894,894,0,2047,1180
895,895,0,2046,341
896,896,0,2046,0
897,897,0,2046,234
898,898,0,2047,996
899,899,0,2047,2059
900,900,0,2046,3116
901,901,0,2047,3862
902,902,0,2046,4082
903,903,0,2046,3712
904,904,0,2046,2859
905,905,0,2046,1769
906,906,0,2046,756
907,907,0,2047,114
908,908,0,2046,28
909,909,0,2047,520
910,910,0,2047,1451
911,911,0,2047,2552
912,912,0,2047,3504
913,913,0,2047,4033
914,914,0,2046,3987
915,915,0,2046,3378
916,916,0,2046,2382
917,917,0,2047,1287
918,918,0,2046,409
919,919,0,2047,1
920,920,0,2046,181
921,921,0,2046,897
922,922,0,2047,1942
923,923,0,2047,3015
924,924,0,2047,3806
925,925,0,2046,4087
926,926,0,2046,3776
927,927,0,2046,2965
928,928,0,2046,1885
929,929,0,2046,850
930,930,0,2046,158
931,931,0,2047,8
932,932,0,2046,444
933,933,0,2047,1340
934,934,0,2046,2438
935,935,0,2047,3419
936,936,0,2046,4003
937,937,0,2046,4019
938,938,0,2046,3464
939,939,0,2046,2497
940,940,0,2047,1398
941,941,0,2047,484
942,942,0,2046,17
943,943,0,2046,135
944,944,0,2046,802
945,945,0,2046,1825
946,946,0,2047,2910
947,947,0,2046,3743
948,948,0,2047,4085
949,949,0,2046,3836
950,950,0,2046,3068
951,951,0,2046,2003
952,952,0,2046,949
953,953,0,2046,208
954,954,0,2046,0
955,955,0,2046,373
956,956,0,2046,1231
957,957,0,2047,2322
958,958,0,2046,3331
959,959,0,2047,3967
960,960,0,2046,4047
961,961,0,2046,3547
962,962,0,2046,2611
963,963,0,2046,1511
964,964,0,2046,562
965,965,0,2046,40
966,966,0,2046,94
967,967,0,2046,710
968,968,0,2047,1708
969,969,0,2046,2802
970,970,0,2046,3675
971,971,0,2046,4077
972,972,0,2046,3889
973,973,0,2046,3168
974,974,0,2046,2120
975,975,0,2046,1049
976,976,0,2047,263
977,977,0,2046,0
978,978,0,2046,307
979,979,0,2046,1124
980,980,0,2046,2205
981,981,0,2046,3238
982,982,0,2046,3925
983,983,0,2046,4067
984,984,0,2046,3623
985,985,0,2047,2723
986,986,0,2046,1625
987,987,0,2046,646
988,988,0,2046,69
989,989,0,2046,60
990,990,0,2046,622
991,991,0,2047,1593
992,992,0,2046,2692
993,993,0,2046,3603
994,994,0,2046,4061
995,995,0,2046,3936
996,996,0,2047,3264
997,997,0,2047,2237
998,998,0,2046,1154
999,999,0,2046,325
1000,1000,0,2047,0
1001,1001,0,2046,247
1002,1002,0,2046,1021
1003,1003,0,2046,2087
1004,1004,0,2047,3140
1005,1005,0,2046,3875
1006,1006,0,2047,4080
1007,1007,0,2047,3695
1008,1008,0,2046,2832
1009,1009,0,2046,1740
1010,1010,0,2046,734
1011,1011,0,2046,105
1012,1012,0,2046,33
1013,1013,0,2046,539
1014,1014,0,2046,1479
1015,1015,0,2046,2580
1016,1016,0,2047,3524
1017,1017,0,2046,4040
1018,1018,0,2046,3977
1019,1019,0,2046,3356
1020,1020,0,2046,2354
1021,1021,0,2046,1260
1022,1022,0,2046,392
1023,1023,0,2046,0
1024,1024,0,2046,193
1025,1025,0,2046,920
1026,1026,0,2046,1971
1027,1027,0,2047,3040
