Sample in Buffer,Sample in Window,TRIGGER,adc1_data_a_d0[11:0],adc1_data_b_d0[11:0]
0,0,0,2047,0
1,1,0,2046,316
2,2,0,2047,1219
3,3,0,2047,2401
4,4,0,2047,3459
5,5,0,2047,4034
6,6,0,2047,3929
7,7,0,2047,3180
8,8,0,2047,2043
9,9,0,2046,904
10,10,0,2046,151
11,11,0,2047,40
12,12,0,2046,609
13,13,0,2047,1666
14,14,0,2046,2849
15,15,0,2046,3756
16,16,0,2047,4078
17,17,0,2046,3705
18,18,0,2046,2765
19,19,0,2047,1577
20,20,0,2046,547
21,21,0,2046,24
22,22,0,2047,188
23,23,0,2047,981
24,24,0,2046,2134
25,25,0,2047,3254
26,26,0,2046,3961
27,27,0,2046,4012
28,28,0,2046,3393
29,29,0,2047,2310
30,30,0,2046,1136
31,31,0,2047,269
32,32,0,2047,3
33,33,0,2047,432
34,34,0,2046,1407
35,35,0,2047,2597
36,36,0,2047,3597
37,37,0,2047,4066
38,38,0,2047,3845
39,39,0,2046,3008
40,40,0,2046,1842
41,41,0,2046,743
42,42,0,2046,84
43,43,0,2047,90
44,44,0,2046,760
45,45,0,2047,1865
46,46,0,2047,3030
47,47,0,2047,3855
48,48,0,2046,4063
49,49,0,2047,3580
50,50,0,2046,2574
51,51,0,2047,1385
52,52,0,2047,418
53,53,0,2046,2
54,54,0,2047,280
55,55,0,2046,1157
56,56,0,2046,2334
57,57,0,2047,3410
58,58,0,2046,4019
59,59,0,2047,3954
60,60,0,2046,3235
61,61,0,2046,2111
62,62,0,2046,961
63,63,0,2046,178
64,64,0,2046,28
65,65,0,2047,563
66,66,0,2046,1600
67,67,0,2047,2786
68,68,0,2047,3718
69,69,0,2046,4077
70,70,0,2047,3743
71,71,0,2047,2827
72,72,0,2046,1643
73,73,0,2046,594
74,74,0,2047,36
75,75,0,2047,160
76,76,0,2046,923
77,77,0,2047,2066
78,78,0,2046,3200
79,79,0,2046,3938
80,80,0,2047,4029
81,81,0,2046,3442
82,82,0,2047,2378
83,83,0,2046,1197
84,84,0,2046,304
85,85,0,2046,0
86,86,0,2046,391
87,87,0,2046,1342
88,88,0,2047,2531
89,89,0,2046,3552
90,90,0,2047,4057
91,91,0,2046,3875
92,92,0,2046,3067
93,93,0,2047,1910
94,94,0,2047,797
95,95,0,2046,104
96,96,0,2046,72
97,97,0,2046,708
98,98,0,2046,1797
99,99,0,2047,2970
100,100,0,2046,3824
101,101,0,2047,4071
102,102,0,2046,3624
103,103,0,2046,2638
104,104,0,2047,1448
105,105,0,2046,459
106,106,0,2047,8
107,107,0,2047,247
108,108,0,2047,1097
109,109,0,2047,2266
110,110,0,2046,3359
111,111,0,2047,4001
112,112,0,2047,3976
113,113,0,2046,3290
114,114,0,2046,2178
115,115,0,2046,1019
116,116,0,2046,206
117,117,0,2046,18
118,118,0,2047,516
119,119,0,2046,1534
120,120,0,2046,2722
121,121,0,2047,3679
122,122,0,2046,4076
123,123,0,2046,3779
124,124,0,2046,2890
125,125,0,2047,1710
126,126,0,2046,643
127,127,0,2046,50
128,128,0,2046,135
129,129,0,2046,867
130,130,0,2046,1998
131,131,0,2047,3144
132,132,0,2047,3911
133,133,0,2046,4042
134,134,0,2046,3491
135,135,0,2046,2444
136,136,0,2047,1260
137,137,0,2046,340
138,138,0,2047,0
139,139,0,2046,351
140,140,0,2046,1279
141,141,0,2046,2465
142,142,0,2047,3505
143,143,0,2047,4047
144,144,0,2046,3903
145,145,0,2046,3126
146,146,0,2046,1977
147,147,0,2047,851
148,148,0,2046,127
149,149,0,2046,55
150,150,0,2046,657
151,151,0,2046,1731
152,152,0,2046,2908
153,153,0,2046,3790
154,154,0,2047,4075
155,155,0,2046,3666
156,156,0,2046,2703
157,157,0,2047,1514
158,158,0,2046,504
159,159,0,2046,14
160,160,0,2047,215
161,161,0,2046,1037
162,162,0,2046,2199
163,163,0,2046,3306
164,164,0,2046,3982
165,165,0,2047,3996
166,166,0,2046,3342
167,167,0,2046,2246
168,168,0,2046,1078
169,169,0,2047,238
170,170,0,2047,9
171,171,0,2047,473
172,172,0,2046,1469
173,173,0,2046,2659
174,174,0,2047,3637
175,175,0,2046,4071
176,176,0,2046,3814
177,177,0,2046,2951
178,178,0,2046,1777
179,179,0,2046,693
180,180,0,2046,66
181,181,0,2047,112
182,182,0,2047,812
183,183,0,2046,1931
184,184,0,2047,3086
185,185,0,2046,3884
186,186,0,2047,4054
187,187,0,2047,3537
188,188,0,2047,2511
189,189,0,2046,1323
190,190,0,2046,379
191,191,0,2047,0
192,192,0,2047,314
193,193,0,2046,1216
194,194,0,2047,2398
195,195,0,2047,3457
196,196,0,2047,4033
197,197,0,2046,3930
198,198,0,2046,3183
199,199,0,2046,2045
200,200,0,2046,907
201,201,0,2046,153
202,202,0,2046,41
203,203,0,2047,609
204,204,0,2046,1664
205,205,0,2047,2847
206,206,0,2046,3755
207,207,0,2046,4078
208,208,0,2046,3707
209,209,0,2047,2767
210,210,0,2047,1581
211,211,0,2046,549
212,212,0,2046,25
213,213,0,2046,186
214,214,0,2047,978
215,215,0,2047,2132
216,216,0,2046,3252
217,217,0,2047,3961
218,218,0,2047,4013
219,219,0,2047,3395
220,220,0,2046,2313
221,221,0,2046,1139
222,222,0,2046,271
223,223,0,2046,3
224,224,0,2047,429
225,225,0,2046,1403
226,226,0,2046,2594
227,227,0,2047,3594
228,228,0,2046,4065
229,229,0,2047,3845
230,230,0,2046,3011
231,231,0,2047,1844
232,232,0,2046,744
233,233,0,2047,85
234,234,0,2047,90
235,235,0,2046,758
236,236,0,2047,1863
237,237,0,2046,3027
238,238,0,2047,3855
239,239,0,2046,4063
240,240,0,2046,3582
241,241,0,2046,2577
242,242,0,2046,1387
243,243,0,2046,420
244,244,0,2047,3
245,245,0,2047,279
246,246,0,2047,1155
247,247,0,2047,2332
248,248,0,2046,3408
249,249,0,2047,4019
250,250,0,2046,3954
251,251,0,2046,3238
252,252,0,2046,2113
253,253,0,2046,963
254,254,0,2047,179
255,255,0,2047,28
256,256,0,2047,561
257,257,0,2047,1597
258,258,0,2047,2784
259,259,0,2047,3716
260,260,0,2046,4078
261,261,0,2046,3744
262,262,0,2046,2830
263,263,0,2047,1646
264,264,0,2047,597
265,265,0,2047,36
266,266,0,2046,159
267,267,0,2047,920
268,268,0,2046,2063
269,269,0,2046,3197
270,270,0,2046,3936
271,271,0,2047,4030
272,272,0,2046,3444
273,273,0,2047,2380
274,274,0,2047,1200
275,275,0,2046,305
276,276,0,2047,0
277,277,0,2047,389
278,278,0,2047,1339
279,279,0,2046,2528
280,280,0,2047,3549
281,281,0,2046,4057
282,282,0,2046,3876
283,283,0,2047,3070
284,284,0,2047,1913
285,285,0,2046,798
286,286,0,2046,105
287,287,0,2046,71
288,288,0,2047,706
289,289,0,2047,1796
290,290,0,2046,2968
291,291,0,2046,3823
292,292,0,2047,4070
293,293,0,2047,3626
294,294,0,2046,2641
295,295,0,2046,1452
296,296,0,2047,461
297,297,0,2047,8
298,298,0,2047,246
299,299,0,2046,1094
300,300,0,2047,2263
301,301,0,2046,3357
302,302,0,2047,4001
303,303,0,2046,3977
304,304,0,2046,3292
305,305,0,2047,2181
306,306,0,2046,1021
307,307,0,2047,208
308,308,0,2047,18
309,309,0,2046,515
310,310,0,2047,1531
311,311,0,2047,2720
312,312,0,2047,3677
313,313,0,2046,4075
314,314,0,2047,3780
315,315,0,2047,2892
316,316,0,2046,1712
317,317,0,2047,645
318,318,0,2046,51
319,319,0,2047,133
320,320,0,2047,864
321,321,0,2046,1995
322,322,0,2046,3142
323,323,0,2047,3911
324,324,0,2046,4043
325,325,0,2047,3492
326,326,0,2046,2447
327,327,0,2046,1262
328,328,0,2047,342
329,329,0,2046,0
330,330,0,2046,349
331,331,0,2047,1276
332,332,0,2047,2462
333,333,0,2047,3504
334,334,0,2047,4045
335,335,0,2047,3904
336,336,0,2046,3128
337,337,0,2047,1980
338,338,0,2047,853
339,339,0,2047,129
340,340,0,2047,54
341,341,0,2047,656
342,342,0,2046,1728
343,343,0,2045,2906
344,344,0,2046,3788
345,345,0,2047,4075
346,346,0,2046,3667
347,347,0,2047,2705
348,348,0,2046,1516
349,349,0,2047,505
350,350,0,2046,15
351,351,0,2046,214
352,352,0,2046,1035
353,353,0,2047,2196
354,354,0,2047,3305
355,355,0,2047,3980
356,356,0,2047,3996
357,357,0,2047,3345
358,358,0,2047,2249
359,359,0,2047,1081
360,360,0,2047,239
361,361,0,2046,9
362,362,0,2046,470
363,363,0,2046,1466
364,364,0,2047,2656
365,365,0,2046,3636
366,366,0,2046,4071
367,367,0,2046,3815
368,368,0,2046,2952
369,369,0,2046,1780
370,370,0,2047,695
371,371,0,2047,68
372,372,0,2047,110
373,373,0,2047,810
374,374,0,2047,1928
375,375,0,2047,3083
376,376,0,2047,3883
377,377,0,2047,4054
378,378,0,2047,3539
379,379,0,2047,2513
380,380,0,2046,1325
381,381,0,2047,380
382,382,0,2047,0
383,383,0,2046,312
384,384,0,2047,1213
385,385,0,2047,2395
386,386,0,2047,3456
387,387,0,2047,4033
388,388,0,2047,3930
389,389,0,2046,3184
390,390,0,2047,2048
391,391,0,2047,909
392,392,0,2046,153
393,393,0,2047,40
394,394,0,2047,606
395,395,0,2046,1660
396,396,0,2047,2844
397,397,0,2046,3752
398,398,0,2046,4077
399,399,0,2046,3708
400,400,0,2046,2769
401,401,0,2047,1582
402,402,0,2046,552
403,403,0,2046,25
404,404,0,2046,185
405,405,0,2047,976
406,406,0,2047,2128
407,407,0,2046,3250
408,408,0,2046,3960
409,409,0,2047,4014
410,410,0,2046,3397
411,411,0,2046,2316
412,412,0,2047,1141
413,413,0,2047,272
414,414,0,2047,4
415,415,0,2047,428
416,416,0,2046,1401
417,417,0,2046,2591
418,418,0,2047,3593
419,419,0,2046,4065
420,420,0,2046,3848
421,421,0,2046,3013
422,422,0,2047,1848
423,423,0,2046,747
424,424,0,2046,86
425,425,0,2047,90
426,426,0,2047,757
427,427,0,2046,1860
428,428,0,2047,3024
429,429,0,2046,3853
430,430,0,2047,4064
431,431,0,2047,3584
432,432,0,2046,2579
433,433,0,2046,1390
434,434,0,2047,421
435,435,0,2047,4
436,436,0,2046,278
437,437,0,2047,1152
438,438,0,2047,2329
439,439,0,2046,3406
440,440,0,2046,4018
441,441,0,2046,3955
442,442,0,2047,3240
443,443,0,2047,2116
444,444,0,2046,966
445,445,0,2046,180
446,446,0,2047,27
447,447,0,2047,559
448,448,0,2047,1595
449,449,0,2047,2782
450,450,0,2047,3715
451,451,0,2047,4076
452,452,0,2047,3745
453,453,0,2047,2832
454,454,0,2046,1649
455,455,0,2047,598
456,456,0,2046,37
457,457,0,2046,158
458,458,0,2046,919
459,459,0,2046,2062
460,460,0,2046,3195
461,461,0,2047,3936
462,462,0,2047,4030
463,463,0,2047,3446
464,464,0,2046,2383
465,465,0,2047,1203
466,466,0,2046,306
467,467,0,2046,0
468,468,0,2046,388
469,469,0,2046,1337
470,470,0,2046,2526
471,471,0,2046,3547
472,472,0,2047,4057
473,473,0,2047,3878
474,474,0,2046,3072
475,475,0,2047,1915
476,476,0,2046,801
477,477,0,2047,106
478,478,0,2047,71
479,479,0,2047,704
480,480,0,2046,1793
481,481,0,2047,2965
482,482,0,2046,3821
483,483,0,2046,4071
484,484,0,2047,3628
485,485,0,2047,2643
486,486,0,2047,1454
487,487,0,2046,463
488,488,0,2046,8
489,489,0,2047,244
490,490,0,2047,1092
491,491,0,2047,2261
492,492,0,2047,3355
493,493,0,2046,3999
494,494,0,2046,3977
495,495,0,2047,3294
496,496,0,2046,2184
497,497,0,2046,1023
498,498,0,2046,209
499,499,0,2047,17
500,500,0,2047,513
501,501,0,2047,1529
502,502,0,2046,2718
503,503,0,2046,3676
504,504,0,2046,4075
505,505,0,2046,3781
506,506,0,2046,2894
507,507,0,2046,1715
508,508,0,2046,648
509,509,0,2046,52
510,510,0,2047,133
511,511,0,2046,863
512,512,0,2046,1993
513,513,0,2047,3139
514,514,0,2046,3910
515,515,0,2046,4043
516,516,0,2047,3494
517,517,0,2046,2449
518,518,0,2047,1265
519,519,0,2046,343
520,520,0,2046,0
521,521,0,2047,349
522,522,0,2046,1274
523,523,0,2047,2460
524,524,0,2047,3502
525,525,0,2047,4046
526,526,0,2047,3906
527,527,0,2046,3130
528,528,0,2047,1982
529,529,0,2047,854
530,530,0,2046,129
531,531,0,2047,54
532,532,0,2046,654
533,533,0,2047,1726
534,534,0,2046,2904
535,535,0,2047,3788
536,536,0,2046,4075
537,537,0,2046,3669
538,538,0,2047,2708
539,539,0,2046,1519
540,540,0,2046,508
541,541,0,2047,16
542,542,0,2046,214
543,543,0,2047,1032
544,544,0,2046,2194
545,545,0,2047,3302
546,546,0,2047,3980
547,547,0,2047,3998
548,548,0,2046,3348
549,549,0,2047,2251
550,550,0,2046,1083
551,551,0,2045,240
552,552,0,2046,9
553,553,0,2046,469
554,554,0,2046,1463
555,555,0,2046,2653
556,556,0,2046,3634
557,557,0,2047,4071
558,558,0,2046,3816
559,559,0,2047,2955
560,560,0,2047,1782
561,561,0,2047,697
562,562,0,2046,69
563,563,0,2046,109
564,564,0,2047,808
565,565,0,2046,1925
566,566,0,2046,3081
567,567,0,2047,3882
568,568,0,2046,4054
569,569,0,2046,3541
570,570,0,2046,2516
571,571,0,2047,1328
572,572,0,2047,382
573,573,0,2047,0
574,574,0,2046,312
575,575,0,2046,1211
576,576,0,2046,2392
577,577,0,2047,3453
578,578,0,2046,4032
579,579,0,2046,3932
580,580,0,2046,3186
581,581,0,2047,2051
582,582,0,2046,911
583,583,0,2046,154
584,584,0,2046,39
585,585,0,2047,605
586,586,0,2047,1659
587,587,0,2047,2842
588,588,0,2046,3751
589,589,0,2047,4077
590,590,0,2046,3710
591,591,0,2046,2772
592,592,0,2047,1585
593,593,0,2046,552
594,594,0,2046,26
595,595,0,2048,184
596,596,0,2046,974
597,597,0,2047,2125
598,598,0,2046,3248
599,599,0,2047,3958
600,600,0,2046,4015
601,601,0,2046,3399
602,602,0,2047,2319
603,603,0,2047,1143
604,604,0,2047,273
605,605,0,2047,3
606,606,0,2047,427
607,607,0,2047,1399
608,608,0,2047,2588
609,609,0,2046,3591
610,610,0,2046,4065
611,611,0,2046,3848
612,612,0,2047,3015
613,613,0,2047,1850
614,614,0,2046,749
615,615,0,2047,86
616,616,0,2046,89
617,617,0,2047,754
618,618,0,2047,1858
619,619,0,2046,3021
620,620,0,2046,3852
621,621,0,2046,4064
622,622,0,2047,3586
623,623,0,2047,2582
624,624,0,2047,1392
625,625,0,2047,423
626,626,0,2046,4
627,627,0,2047,276
628,628,0,2047,1149
629,629,0,2047,2325
630,630,0,2047,3403
631,631,0,2047,4017
632,632,0,2047,3956
633,633,0,2046,3242
634,634,0,2046,2119
635,635,0,2047,968
636,636,0,2046,181
637,637,0,2046,27
638,638,0,2047,557
639,639,0,2046,1591
640,640,0,2046,2779
641,641,0,2046,3713
642,642,0,2046,4078
643,643,0,2047,3747
644,644,0,2047,2835
645,645,0,2046,1652
646,646,0,2046,600
647,647,0,2047,38
648,648,0,2046,156
649,649,0,2047,917
650,650,0,2047,2058
651,651,0,2047,3193
652,652,0,2047,3935
653,653,0,2047,4031
654,654,0,2047,3448
655,655,0,2047,2386
656,656,0,2047,1205
657,657,0,2046,308
658,658,0,2046,0
659,659,0,2047,385
660,660,0,2047,1335
661,661,0,2047,2523
662,662,0,2046,3546
663,663,0,2047,4056
664,664,0,2047,3879
665,665,0,2046,3075
666,666,0,2046,1918
667,667,0,2047,802
668,668,0,2046,108
669,669,0,2047,70
670,670,0,2047,702
671,671,0,2047,1790
672,672,0,2046,2962
673,673,0,2047,3819
674,674,0,2047,4071
675,675,0,2047,3630
676,676,0,2046,2647
677,677,0,2047,1456
678,678,0,2046,464
679,679,0,2046,9
680,680,0,2046,243
681,681,0,2047,1089
682,682,0,2046,2257
683,683,0,2046,3352
684,684,0,2047,3999
685,685,0,2046,3978
686,686,0,2046,3296
687,687,0,2047,2186
688,688,0,2046,1026
689,689,0,2047,210
690,690,0,2046,16
691,691,0,2047,511
692,692,0,2047,1526
693,693,0,2046,2714
694,694,0,2046,3674
695,695,0,2046,4076
696,696,0,2047,3783
697,697,0,2047,2897
698,698,0,2047,1719
699,699,0,2047,650
700,700,0,2046,52
701,701,0,2047,131
702,702,0,2047,860
703,703,0,2046,1990
704,704,0,2046,3136
705,705,0,2046,3908
706,706,0,2047,4044
707,707,0,2047,3497
708,708,0,2047,2452
709,709,0,2046,1268
710,710,0,2047,345
711,711,0,2047,0
712,712,0,2045,347
713,713,0,2047,1271
714,714,0,2047,2457
715,715,0,2046,3500
716,716,0,2046,4045
717,717,0,2046,3908
718,718,0,2046,3132
719,719,0,2047,1986
720,720,0,2047,857
721,721,0,2047,131
722,722,0,2047,53
723,723,0,2046,651
724,724,0,2047,1722
725,725,0,2046,2900
726,726,0,2046,3786
727,727,0,2047,4075
728,728,0,2047,3671
729,729,0,2046,2711
730,730,0,2046,1522
731,731,0,2046,509
732,732,0,2046,16
733,733,0,2046,212
734,734,0,2046,1030
735,735,0,2047,2190
736,736,0,2047,3300
737,737,0,2047,3979
738,738,0,2046,3998
739,739,0,2046,3349
740,740,0,2046,2254
741,741,0,2047,1085
742,742,0,2047,241
743,743,0,2046,8
744,744,0,2046,467
745,745,0,2047,1460
746,746,0,2047,2651
747,747,0,2046,3631
748,748,0,2046,4071
749,749,0,2046,3817
750,750,0,2047,2958
751,751,0,2047,1786
752,752,0,2046,700
753,753,0,2047,69
754,754,0,2046,109
755,755,0,2046,805
756,756,0,2046,1922
757,757,0,2047,3078
758,758,0,2047,3880
759,759,0,2046,4054
760,760,0,2046,3543
761,761,0,2047,2518
762,762,0,2047,1331
763,763,0,2047,384
764,764,0,2046,0
765,765,0,2047,309
766,766,0,2047,1208
767,767,0,2046,2390
768,768,0,2047,3451
769,769,0,2046,4032
770,770,0,2047,3933
771,771,0,2046,3189
772,772,0,2046,2054
773,773,0,2046,913
774,774,0,2047,156
775,775,0,2047,38
776,776,0,2046,602
777,777,0,2046,1655
778,778,0,2047,2839
779,779,0,2047,3749
780,780,0,2046,4078
781,781,0,2046,3711
782,782,0,2047,2775
783,783,0,2047,1589
784,784,0,2046,555
785,785,0,2046,26
786,786,0,2047,182
787,787,0,2047,971
788,788,0,2047,2123
789,789,0,2047,3244
790,790,0,2047,3957
791,791,0,2046,4015
792,792,0,2046,3401
793,793,0,2047,2322
794,794,0,2046,1147
795,795,0,2047,275
796,796,0,2046,3
797,797,0,2047,424
798,798,0,2046,1395
799,799,0,2047,2585
800,800,0,2047,3589
801,801,0,2047,4064
802,802,0,2047,3849
803,803,0,2046,3018
804,804,0,2046,1853
805,805,0,2047,751
806,806,0,2047,87
807,807,0,2046,87
808,808,0,2046,751
809,809,0,2046,1853
810,810,0,2047,3020
811,811,0,2046,3851
812,812,0,2046,4064
813,813,0,2046,3588
814,814,0,2046,2585
815,815,0,2046,1394
816,816,0,2046,425
817,817,0,2046,3
818,818,0,2047,275
819,819,0,2047,1147
820,820,0,2046,2323
821,821,0,2047,3402
822,822,0,2046,4017
823,823,0,2047,3957
824,824,0,2046,3245
825,825,0,2046,2121
826,826,0,2046,970
827,827,0,2047,182
828,828,0,2046,26
829,829,0,2047,555
830,830,0,2046,1589
831,831,0,2047,2776
832,832,0,2047,3711
833,833,0,2046,4077
834,834,0,2046,3749
835,835,0,2046,2838
836,836,0,2047,1654
837,837,0,2046,602
838,838,0,2046,39
839,839,0,2046,155
840,840,0,2046,914
841,841,0,2047,2054
842,842,0,2047,3190
843,843,0,2047,3933
844,844,0,2046,4030
845,845,0,2047,3450
846,846,0,2047,2388
847,847,0,2046,1208
848,848,0,2047,309
849,849,0,2047,0
850,850,0,2046,384
851,851,0,2047,1332
852,852,0,2046,2519
853,853,0,2047,3543
854,854,0,2046,4055
855,855,0,2046,3880
856,856,0,2046,3077
857,857,0,2046,1921
858,858,0,2046,806
859,859,0,2046,109
860,860,0,2046,69
861,861,0,2046,700
862,862,0,2047,1787
863,863,0,2046,2959
864,864,0,2047,3818
865,865,0,2047,4071
866,866,0,2046,3631
867,867,0,2046,2649
868,868,0,2046,1459
869,869,0,2047,467
870,870,0,2046,8
871,871,0,2047,241
872,872,0,2046,1086
873,873,0,2046,2254
874,874,0,2046,3350
875,875,0,2046,3999
876,876,0,2047,3979
877,877,0,2047,3299
878,878,0,2046,2189
879,879,0,2047,1029
880,880,0,2047,212
881,881,0,2046,17
882,882,0,2046,510
883,883,0,2047,1523
884,884,0,2047,2712
885,885,0,2046,3672
886,886,0,2047,4075
887,887,0,2047,3785
888,888,0,2047,2899
889,889,0,2046,1722
890,890,0,2046,650
891,891,0,2046,53
892,892,0,2047,130
893,893,0,2046,857
894,894,0,2047,1986
895,895,0,2046,3134
896,896,0,2047,3907
897,897,0,2046,4044
898,898,0,2047,3498
899,899,0,2046,2456
900,900,0,2046,1270
901,901,0,2046,347
902,902,0,2046,0
903,903,0,2046,345
904,904,0,2046,1267
905,905,0,2046,2454
906,906,0,2046,3498
907,907,0,2046,4044
908,908,0,2046,3909
909,909,0,2047,3135
910,910,0,2047,1989
911,911,0,2047,860
912,912,0,2047,131
913,913,0,2047,52
914,914,0,2046,649
915,915,0,2047,1719
916,916,0,2047,2898
917,917,0,2046,3784
918,918,0,2046,4075
919,919,0,2047,3673
920,920,0,2046,2714
921,921,0,2046,1525
922,922,0,2046,511
923,923,0,2047,17
924,924,0,2046,211
925,925,0,2047,1027
926,926,0,2047,2187
927,927,0,2046,3297
928,928,0,2046,3979
929,929,0,2046,3999
930,930,0,2046,3352
931,931,0,2047,2257
932,932,0,2047,1089
933,933,0,2047,243
934,934,0,2047,9
935,935,0,2046,466
936,936,0,2046,1457
937,937,0,2046,2647
938,938,0,2047,3630
939,939,0,2047,4071
940,940,0,2047,3819
941,941,0,2047,2961
942,942,0,2047,1788
943,943,0,2047,702
944,944,0,2047,70
945,945,0,2046,107
946,946,0,2046,803
947,947,0,2047,1920
948,948,0,2046,3076
949,949,0,2046,3879
950,950,0,2046,4055
951,951,0,2046,3545
952,952,0,2047,2521
953,953,0,2047,1333
954,954,0,2046,385
955,955,0,2047,0
956,956,0,2047,309
957,957,0,2047,1206
958,958,0,2047,2387
959,959,0,2046,3449
960,960,0,2047,4031
961,961,0,2046,3934
962,962,0,2047,3191
963,963,0,2047,2056
964,964,0,2047,915
965,965,0,2046,157
966,966,0,2046,38
967,967,0,2046,601
968,968,0,2046,1652
969,969,0,2046,2836
970,970,0,2046,3748
971,971,0,2047,4077
972,972,0,2047,3712
973,973,0,2046,2778
974,974,0,2047,1590
975,975,0,2046,556
976,976,0,2047,27
977,977,0,2046,181
978,978,0,2046,969
979,979,0,2046,2120
980,980,0,2047,3243
981,981,0,2046,3956
982,982,0,2046,4016
983,983,0,2046,3403
984,984,0,2047,2324
985,985,0,2047,1149
986,986,0,2047,276
987,987,0,2046,2
988,988,0,2046,423
989,989,0,2047,1393
990,990,0,2046,2582
991,991,0,2047,3587
992,992,0,2046,4065
993,993,0,2046,3851
994,994,0,2046,3021
995,995,0,2047,1857
996,996,0,2046,754
997,997,0,2047,88
998,998,0,2046,86
999,999,0,2047,750
1000,1000,0,2047,1851
1001,1001,0,2046,3016
1002,1002,0,2047,3849
1003,1003,0,2046,4064
1004,1004,0,2046,3590
1005,1005,0,2047,2587
1006,1006,0,2046,1398
1007,1007,0,2046,427
1008,1008,0,2046,3
1009,1009,0,2047,274
1010,1010,0,2047,1144
1011,1011,0,2046,2320
1012,1012,0,2047,3400
1013,1013,0,2046,4015
1014,1014,0,2047,3958
1015,1015,0,2047,3247
1016,1016,0,2047,2125
1017,1017,0,2047,973
1018,1018,0,2047,184
1019,1019,0,2047,26
1020,1020,0,2047,554
1021,1021,0,2046,1587
1022,1022,0,2046,2773
1023,1023,0,2046,3710
1024,1024,0,2046,4077
1025,1025,0,2046,3750
1026,1026,0,2047,2840
1027,1027,0,2047,1658
