Sample in Buffer,Sample in Window,TRIGGER,adc1_data_a_d0[11:0],adc1_data_b_d0[11:0]
0,0,0,2046,25
1,1,0,2046,529
2,2,0,2046,1496
3,3,0,2046,2630
4,4,0,2046,3582
5,5,0,2046,4059
6,6,0,2047,3917
7,7,0,2046,3197
8,8,0,2047,2121
9,9,0,2046,1021
10,10,0,2046,233
11,11,0,2046,0
12,12,0,2046,390
13,13,0,2045,1289
14,14,0,2046,2418
15,15,0,2047,3430
16,16,0,2046,4014
17,17,0,2046,3993
18,18,0,2046,3370
19,19,0,2046,2340
20,20,0,2046,1216
21,21,0,2046,345
22,22,0,2046,0
23,23,0,2047,270
24,24,0,2046,1089
25,25,0,2046,2201
26,26,0,2046,3262
27,27,0,2046,3946
28,28,0,2046,4046
29,29,0,2047,3529
30,30,0,2046,2554
31,31,0,2046,1421
32,32,0,2047,478
33,33,0,2046,13
34,34,0,2046,171
35,35,0,2046,901
36,36,0,2047,1981
37,37,0,2047,3079
38,38,0,2046,3857
39,39,0,2046,4076
40,40,0,2046,3670
41,41,0,2046,2763
42,42,0,2046,1632
43,43,0,2046,628
44,44,0,2046,56
45,45,0,2046,91
46,46,0,2047,725
47,47,0,2046,1763
48,48,0,2046,2885
49,49,0,2047,3746
50,50,0,2047,4083
51,51,0,2046,3793
52,52,0,2047,2963
53,53,0,2046,1850
54,54,0,2046,794
55,55,0,2046,121
56,56,0,2046,35
57,57,0,2046,565
58,58,0,2045,1548
59,59,0,2046,2681
60,60,0,2046,3616
61,61,0,2047,4067
62,62,0,2046,3895
63,63,0,2046,3153
64,64,0,2047,2068
65,65,0,2046,975
66,66,0,2047,208
67,67,0,2046,3
68,68,0,2047,422
69,69,0,2046,1338
70,70,0,2046,2470
71,71,0,2046,3468
72,72,0,2047,4028
73,73,0,2046,3976
74,74,0,2046,3329
75,75,0,2046,2287
76,76,0,2046,1167
77,77,0,2047,315
78,78,0,2046,0
79,79,0,2046,298
80,80,0,2046,1137
81,81,0,2046,2254
82,82,0,2047,3304
83,83,0,2046,3965
84,84,0,2046,4035
85,85,0,2047,3492
86,86,0,2047,2503
87,87,0,2046,1371
88,88,0,2046,444
89,89,0,2046,6
90,90,0,2046,193
91,91,0,2046,946
92,92,0,2046,2035
93,93,0,2046,3124
94,94,0,2046,3881
95,95,0,2047,4072
96,96,0,2047,3638
97,97,0,2047,2713
98,98,0,2046,1582
99,99,0,2046,589
100,100,0,2046,43
101,101,0,2046,109
102,102,0,2046,768
103,103,0,2046,1816
104,104,0,2047,2933
105,105,0,2046,3774
106,106,0,2046,4084
107,107,0,2047,3764
108,108,0,2046,2915
109,109,0,2046,1797
110,110,0,2046,752
111,111,0,2047,103
112,112,0,2046,47
113,113,0,2046,603
114,114,0,2046,1599
115,115,0,2046,2731
116,116,0,2046,3650
117,117,0,2046,4074
118,118,0,2046,3873
119,119,0,2046,3108
120,120,0,2047,2015
121,121,0,2047,929
122,122,0,2046,184
123,123,0,2046,9
124,124,0,2047,455
125,125,0,2046,1389
126,126,0,2046,2521
127,127,0,2047,3506
128,128,0,2046,4039
129,129,0,2046,3959
130,130,0,2046,3288
131,131,0,2046,2233
132,132,0,2046,1119
133,133,0,2046,287
134,134,0,2047,0
135,135,0,2046,326
136,136,0,2047,1185
137,137,0,2047,2306
138,138,0,2046,3345
139,139,0,2047,3982
140,140,0,2046,4022
141,141,0,2046,3454
142,142,0,2046,2450
143,143,0,2046,1321
144,144,0,2046,410
145,145,0,2047,1
146,146,0,2046,216
147,147,0,2046,991
148,148,0,2046,2088
149,149,0,2047,3169
150,150,0,2046,3903
151,151,0,2046,4064
152,152,0,2046,3604
153,153,0,2046,2662
154,154,0,2046,1529
155,155,0,2046,552
156,156,0,2047,31
157,157,0,2046,127
158,158,0,2046,810
159,159,0,2046,1869
160,160,0,2046,2979
161,161,0,2047,3802
162,162,0,2047,4083
163,163,0,2046,3736
164,164,0,2046,2866
165,165,0,2046,1744
166,166,0,2046,712
167,167,0,2046,86
168,168,0,2046,60
169,169,0,2046,642
170,170,0,2047,1652
171,171,0,2046,2780
172,172,0,2046,3682
173,173,0,2046,4078
174,174,0,2046,3848
175,175,0,2047,3062
176,176,0,2046,1963
177,177,0,2046,886
178,178,0,2046,163
179,179,0,2046,16
180,180,0,2046,490
181,181,0,2045,1439
182,182,0,2046,2573
183,183,0,2046,3542
184,184,0,2046,4050
185,185,0,2047,3939
186,186,0,2046,3245
187,187,0,2046,2180
188,188,0,2046,1072
189,189,0,2047,261
190,190,0,2046,0
191,191,0,2046,356
192,192,0,2046,1234
193,193,0,2046,2359
194,194,0,2047,3386
195,195,0,2047,3999
196,196,0,2046,4009
197,197,0,2047,3415
198,198,0,2046,2398
199,199,0,2046,1271
200,200,0,2046,378
201,201,0,2046,0
202,202,0,2046,241
203,203,0,2046,1038
204,204,0,2047,2141
205,205,0,2047,3213
206,206,0,2047,3924
207,207,0,2046,4056
208,208,0,2046,3569
209,209,0,2047,2610
210,210,0,2046,1477
211,211,0,2046,517
212,212,0,2046,23
213,213,0,2046,147
214,214,0,2047,852
215,215,0,2047,1922
216,216,0,2046,3027
217,217,0,2046,3829
218,218,0,2046,4081
219,219,0,2046,3705
220,220,0,2047,2818
221,221,0,2046,1691
222,222,0,2045,671
223,223,0,2046,71
224,224,0,2046,74
225,225,0,2046,681
226,226,0,2046,1704
227,227,0,2046,2830
228,228,0,2046,3713
229,229,0,2046,4081
230,230,0,2047,3822
231,231,0,2047,3015
232,232,0,2046,1909
233,233,0,2047,842
234,234,0,2047,142
235,235,0,2046,25
236,236,0,2046,525
237,237,0,2047,1491
238,238,0,2046,2624
239,239,0,2047,3578
240,240,0,2046,4059
241,241,0,2046,3918
242,242,0,2046,3202
243,243,0,2047,2127
244,244,0,2046,1026
245,245,0,2046,235
246,246,0,2046,0
247,247,0,2046,387
248,248,0,2046,1283
249,249,0,2047,2411
250,250,0,2047,3425
251,251,0,2046,4013
252,252,0,2046,3995
253,253,0,2047,3375
254,254,0,2046,2346
255,255,0,2045,1222
256,256,0,2046,349
257,257,0,2046,0
258,258,0,2046,267
259,259,0,2047,1084
260,260,0,2046,2194
261,261,0,2046,3256
262,262,0,2046,3944
263,263,0,2047,4047
264,264,0,2046,3533
265,265,0,2046,2560
266,266,0,2046,1427
267,267,0,2046,482
268,268,0,2047,14
269,269,0,2046,169
270,270,0,2046,896
271,271,0,2046,1975
272,272,0,2046,3074
273,273,0,2046,3854
274,274,0,2047,4077
275,275,0,2046,3674
276,276,0,2046,2768
277,277,0,2046,1640
278,278,0,2046,632
279,279,0,2045,57
280,280,0,2046,90
281,281,0,2046,720
282,282,0,2046,1757
283,283,0,2046,2879
284,284,0,2046,3743
285,285,0,2046,4083
286,286,0,2046,3796
287,287,0,2046,2968
288,288,0,2046,1856
289,289,0,2046,799
290,290,0,2046,122
291,291,0,2046,35
292,292,0,2046,561
293,293,0,2046,1542
294,294,0,2047,2675
295,295,0,2046,3612
296,296,0,2046,4066
297,297,0,2046,3897
298,298,0,2046,3158
299,299,0,2046,2074
300,300,0,2046,980
301,301,0,2046,210
302,302,0,2047,2
303,303,0,2047,419
304,304,0,2046,1332
305,305,0,2046,2463
306,306,0,2047,3464
307,307,0,2046,4026
308,308,0,2047,3978
309,309,0,2046,3334
310,310,0,2046,2293
311,311,0,2047,1173
312,312,0,2045,319
313,313,0,2045,0
314,314,0,2046,294
315,315,0,2046,1131
316,316,0,2046,2248
317,317,0,2046,3298
318,318,0,2046,3963
319,319,0,2046,4036
320,320,0,2046,3496
321,321,0,2046,2508
322,322,0,2046,1376
323,323,0,2046,447
324,324,0,2046,7
325,325,0,2046,189
326,326,0,2046,941
327,327,0,2046,2029
328,328,0,2046,3119
329,329,0,2046,3878
330,330,0,2046,4072
331,331,0,2046,3641
332,332,0,2047,2719
333,333,0,2046,1588
334,334,0,2047,594
335,335,0,2046,44
336,336,0,2046,107
337,337,0,2046,763
338,338,0,2046,1810
339,339,0,2046,2927
340,340,0,2046,3772
341,341,0,2046,4084
342,342,0,2047,3768
343,343,0,2046,2920
344,344,0,2046,1803
345,345,0,2046,757
346,346,0,2046,104
347,347,0,2047,47
348,348,0,2046,599
349,349,0,2046,1593
350,350,0,2046,2725
351,351,0,2046,3645
352,352,0,2046,4072
353,353,0,2047,3875
354,354,0,2047,3113
355,355,0,2046,2022
356,356,0,2046,935
357,357,0,2046,188
358,358,0,2047,8
359,359,0,2047,451
360,360,0,2046,1383
361,361,0,2046,2515
362,362,0,2047,3501
363,363,0,2047,4038
364,364,0,2046,3960
365,365,0,2046,3293
366,366,0,2047,2240
367,367,0,2046,1126
368,368,0,2046,290
369,369,0,2046,0
370,370,0,2046,323
371,371,0,2046,1179
372,372,0,2046,2300
373,373,0,2046,3340
374,374,0,2046,3981
375,375,0,2046,4024
376,376,0,2046,3458
377,377,0,2046,2456
378,378,0,2046,1326
379,379,0,2046,414
380,380,0,2046,2
381,381,0,2046,214
382,382,0,2046,986
383,383,0,2047,2082
384,384,0,2046,3164
385,385,0,2047,3900
386,386,0,2046,4065
387,387,0,2046,3607
388,388,0,2046,2669
389,389,0,2046,1535
390,390,0,2046,557
391,391,0,2046,33
392,392,0,2046,125
393,393,0,2046,805
394,394,0,2046,1862
395,395,0,2046,2975
396,396,0,2047,3799
397,397,0,2046,4083
398,398,0,2046,3738
399,399,0,2046,2873
400,400,0,2046,1750
401,401,0,2046,716
402,402,0,2047,87
403,403,0,2046,59
404,404,0,2047,637
405,405,0,2046,1646
406,406,0,2046,2775
407,407,0,2046,3678
408,408,0,2046,4078
409,409,0,2047,3851
410,410,0,2047,3068
411,411,0,2046,1968
412,412,0,2046,890
413,413,0,2046,165
414,414,0,2047,16
415,415,0,2046,487
416,416,0,2046,1433
417,417,0,2046,2567
418,418,0,2046,3538
419,419,0,2046,4049
420,420,0,2046,3943
421,421,0,2046,3250
422,422,0,2046,2187
423,423,0,2046,1078
424,424,0,2046,263
425,425,0,2046,0
426,426,0,2046,352
427,427,0,2046,1228
428,428,0,2046,2352
429,429,0,2046,3381
430,430,0,2046,3996
431,431,0,2045,4011
432,432,0,2046,3419
433,433,0,2046,2404
434,434,0,2046,1276
435,435,0,2046,383
436,436,0,2046,0
437,437,0,2046,237
438,438,0,2046,1031
439,439,0,2046,2134
440,440,0,2046,3208
441,441,0,2046,3922
442,442,0,2046,4057
443,443,0,2046,3574
444,444,0,2046,2617
445,445,0,2046,1483
446,446,0,2046,520
447,447,0,2047,24
448,448,0,2046,145
449,449,0,2046,848
450,450,0,2047,1916
451,451,0,2047,3022
452,452,0,2046,3826
453,453,0,2047,4081
454,454,0,2047,3709
455,455,0,2046,2823
456,456,0,2046,1697
457,457,0,2046,676
458,458,0,2046,72
459,459,0,2046,73
460,460,0,2046,676
461,461,0,2046,1699
462,462,0,2046,2825
463,463,0,2046,3710
464,464,0,2046,4082
465,465,0,2046,3825
466,466,0,2046,3022
467,467,0,2046,1915
468,468,0,2046,847
469,469,0,2046,145
470,470,0,2046,23
471,471,0,2046,521
472,472,0,2047,1484
473,473,0,2046,2618
474,474,0,2046,3574
475,475,0,2046,4057
476,476,0,2046,3921
477,477,0,2046,3207
478,478,0,2046,2134
479,479,0,2046,1031
480,480,0,2047,238
481,481,0,2046,0
482,482,0,2046,382
483,483,0,2047,1276
484,484,0,2046,2405
485,485,0,2046,3420
486,486,0,2046,4011
487,487,0,2047,3996
488,488,0,2046,3380
489,489,0,2046,2351
490,490,0,2047,1228
491,491,0,2046,352
492,492,0,2047,0
493,493,0,2046,264
494,494,0,2046,1079
495,495,0,2046,2188
496,496,0,2046,3251
497,497,0,2046,3942
498,498,0,2046,4048
499,499,0,2046,3537
500,500,0,2046,2566
501,501,0,2046,1432
502,502,0,2046,486
503,503,0,2046,15
504,504,0,2046,166
505,505,0,2046,891
506,506,0,2046,1969
507,507,0,2046,3068
508,508,0,2046,3850
509,509,0,2047,4077
510,510,0,2047,3677
511,511,0,2046,2774
512,512,0,2047,1646
513,513,0,2046,637
514,514,0,2046,58
515,515,0,2046,88
516,516,0,2046,716
517,517,0,2046,1751
518,518,0,2047,2874
519,519,0,2047,3739
520,520,0,2046,4084
521,521,0,2046,3798
522,522,0,2046,2974
523,523,0,2046,1862
524,524,0,2046,804
525,525,0,2046,125
526,526,0,2047,33
527,527,0,2046,558
528,528,0,2046,1536
529,529,0,2047,2669
530,530,0,2046,3608
531,531,0,2047,4066
532,532,0,2046,3899
533,533,0,2046,3163
534,534,0,2045,2080
535,535,0,2046,986
536,536,0,2046,213
537,537,0,2046,1
538,538,0,2046,415
539,539,0,2046,1327
540,540,0,2046,2457
541,541,0,2045,3459
542,542,0,2046,4024
543,543,0,2046,3981
544,544,0,2046,3339
545,545,0,2046,2299
546,546,0,2046,1179
547,547,0,2047,323
548,548,0,2046,0
549,549,0,2046,291
550,550,0,2046,1126
551,551,0,2046,2241
552,552,0,2046,3294
553,553,0,2046,3961
554,554,0,2046,4038
555,555,0,2046,3501
556,556,0,2046,2514
557,557,0,2046,1382
558,558,0,2046,451
559,559,0,2047,7
560,560,0,2046,187
561,561,0,2047,935
562,562,0,2046,2022
563,563,0,2046,3114
564,564,0,2046,3875
565,565,0,2046,4072
566,566,0,2047,3645
567,567,0,2046,2724
568,568,0,2046,1593
569,569,0,2046,598
570,570,0,2046,46
571,571,0,2046,105
572,572,0,2046,758
573,573,0,2046,1804
574,574,0,2046,2922
575,575,0,2046,3768
576,576,0,2046,4084
577,577,0,2046,3771
578,578,0,2046,2926
579,579,0,2046,1809
580,580,0,2046,762
581,581,0,2047,107
582,582,0,2046,45
583,583,0,2046,594
584,584,0,2047,1588
585,585,0,2046,2719
586,586,0,2046,3642
587,587,0,2047,4072
588,588,0,2046,3879
589,589,0,2046,3117
590,590,0,2045,2027
591,591,0,2046,941
592,592,0,2046,189
593,593,0,2046,7
594,594,0,2046,448
595,595,0,2046,1376
596,596,0,2046,2509
597,597,0,2046,3497
598,598,0,2046,4037
599,599,0,2045,3963
600,600,0,2047,3298
601,601,0,2046,2246
602,602,0,2046,1130
603,603,0,2046,295
604,604,0,2046,0
605,605,0,2045,320
606,606,0,2047,1173
607,607,0,2047,2294
608,608,0,2046,3335
609,609,0,2046,3978
610,610,0,2046,4026
611,611,0,2046,3462
612,612,0,2047,2462
613,613,0,2046,1332
614,614,0,2046,418
615,615,0,2046,2
616,616,0,2046,211
617,617,0,2046,980
618,618,0,2046,2075
619,619,0,2045,3159
620,620,0,2046,3898
621,621,0,2046,4066
622,622,0,2047,3611
623,623,0,2045,2674
624,624,0,2047,1541
625,625,0,2046,561
626,626,0,2047,34
627,627,0,2046,123
628,628,0,2046,800
629,629,0,2046,1856
630,630,0,2046,2970
631,631,0,2046,3796
632,632,0,2047,4084
633,633,0,2046,3742
634,634,0,2046,2878
635,635,0,2046,1757
636,636,0,2046,720
637,637,0,2046,90
638,638,0,2046,57
639,639,0,2046,633
640,640,0,2047,1640
641,641,0,2046,2769
642,642,0,2047,3675
643,643,0,2046,4077
644,644,0,2046,3853
645,645,0,2046,3072
646,646,0,2047,1975
647,647,0,2046,896
648,648,0,2046,167
649,649,0,2046,14
650,650,0,2046,481
651,651,0,2046,1427
652,652,0,2046,2561
653,653,0,2046,3534
654,654,0,2047,4047
655,655,0,2046,3944
656,656,0,2047,3255
657,657,0,2046,2193
658,658,0,2047,1084
659,659,0,2046,267
660,660,0,2046,0
661,661,0,2046,350
662,662,0,2047,1222
663,663,0,2046,2346
664,664,0,2047,3375
665,665,0,2046,3994
666,666,0,2046,4011
667,667,0,2046,3424
668,668,0,2046,2410
669,669,0,2046,1282
670,670,0,2046,387
671,671,0,2046,0
672,672,0,2046,236
673,673,0,2046,1027
674,674,0,2046,2128
675,675,0,2046,3203
676,676,0,2046,3920
677,677,0,2046,4059
678,678,0,2046,3578
679,679,0,2046,2623
680,680,0,2046,1490
681,681,0,2046,525
682,682,0,2046,25
683,683,0,2046,142
684,684,0,2046,842
685,685,0,2046,1909
686,686,0,2046,3017
687,687,0,2046,3823
688,688,0,2046,4081
689,689,0,2046,3712
690,690,0,2046,2829
691,691,0,2046,1703
692,692,0,2046,681
693,693,0,2046,74
694,694,0,2046,70
695,695,0,2046,672
696,696,0,2046,1692
697,697,0,2046,2819
698,698,0,2046,3706
699,699,0,2046,4081
700,700,0,2046,3828
701,701,0,2046,3026
702,702,0,2046,1921
703,703,0,2046,852
704,704,0,2046,147
705,705,0,2047,22
706,706,0,2046,517
707,707,0,2046,1478
708,708,0,2046,2612
709,709,0,2046,3569
710,710,0,2046,4057
711,711,0,2046,3924
712,712,0,2046,3212
713,713,0,2046,2140
714,714,0,2047,1037
715,715,0,2047,241
716,716,0,2046,0
717,717,0,2046,380
718,718,0,2046,1272
719,719,0,2046,2399
720,720,0,2046,3415
721,721,0,2046,4009
722,722,0,2046,3998
723,723,0,2046,3385
724,724,0,2046,2357
725,725,0,2046,1234
726,726,0,2046,355
727,727,0,2047,0
728,728,0,2046,261
729,729,0,2046,1073
730,730,0,2046,2182
731,731,0,2046,3246
732,732,0,2046,3940
733,733,0,2046,4050
734,734,0,2047,3542
735,735,0,2046,2572
736,736,0,2046,1439
737,737,0,2046,490
738,738,0,2046,16
739,739,0,2046,161
740,740,0,2047,886
741,741,0,2046,1963
742,742,0,2046,3063
743,743,0,2046,3849
744,744,0,2046,4078
745,745,0,2046,3680
746,746,0,2046,2780
747,747,0,2047,1651
748,748,0,2046,641
749,749,0,2047,60
750,750,0,2047,87
751,751,0,2046,711
752,752,0,2046,1745
753,753,0,2046,2868
754,754,0,2046,3736
755,755,0,2046,4083
756,756,0,2046,3802
757,757,0,2046,2980
758,758,0,2047,1868
759,759,0,2046,809
760,760,0,2046,127
761,761,0,2046,32
762,762,0,2047,553
763,763,0,2046,1530
764,764,0,2046,2663
765,765,0,2046,3604
766,766,0,2047,4064
767,767,0,2046,3903
768,768,0,2046,3168
769,769,0,2046,2087
770,770,0,2046,990
771,771,0,2047,216
772,772,0,2046,1
773,773,0,2046,410
774,774,0,2046,1321
775,775,0,2047,2451
776,776,0,2047,3455
777,777,0,2046,4023
778,778,0,2046,3982
779,779,0,2046,3344
780,780,0,2046,2305
781,781,0,2046,1185
782,782,0,2046,326
783,783,0,2046,0
784,784,0,2046,288
785,785,0,2046,1120
786,786,0,2046,2234
787,787,0,2046,3289
788,788,0,2046,3959
789,789,0,2046,4039
790,790,0,2046,3504
791,791,0,2046,2520
792,792,0,2046,1389
793,793,0,2046,456
794,794,0,2046,9
795,795,0,2046,185
796,796,0,2045,930
797,797,0,2047,2016
798,798,0,2046,3109
799,799,0,2046,3872
800,800,0,2046,4073
801,801,0,2046,3649
802,802,0,2046,2731
803,803,0,2046,1600
804,804,0,2046,603
805,805,0,2046,47
806,806,0,2045,103
807,807,0,2046,753
808,808,0,2047,1797
809,809,0,2046,2916
810,810,0,2047,3764
811,811,0,2046,4084
812,812,0,2047,3775
813,813,0,2046,2932
814,814,0,2046,1815
815,815,0,2046,767
816,816,0,2046,109
817,817,0,2046,43
818,818,0,2046,590
819,819,0,2047,1581
820,820,0,2046,2713
821,821,0,2046,3638
822,822,0,2046,4071
823,823,0,2046,3881
824,824,0,2046,3123
825,825,0,2046,2034
826,826,0,2047,946
827,827,0,2047,193
828,828,0,2046,7
829,829,0,2047,444
830,830,0,2046,1371
831,831,0,2046,2503
832,832,0,2046,3493
833,833,0,2046,4036
834,834,0,2047,3964
835,835,0,2046,3303
836,836,0,2046,2252
837,837,0,2046,1136
838,838,0,2046,298
839,839,0,2046,0
840,840,0,2046,316
841,841,0,2046,1168
842,842,0,2045,2288
843,843,0,2045,3331
844,844,0,2046,3977
845,845,0,2046,4027
846,846,0,2046,3467
847,847,0,2046,2468
848,848,0,2047,1338
849,849,0,2046,423
850,850,0,2046,2
851,851,0,2046,208
852,852,0,2046,976
853,853,0,2046,2070
854,854,0,2046,3154
855,855,0,2046,3895
856,856,0,2045,4066
857,857,0,2047,3615
858,858,0,2046,2680
859,859,0,2046,1547
860,860,0,2046,565
861,861,0,2046,36
862,862,0,2046,121
863,863,0,2047,795
864,864,0,2046,1850
865,865,0,2046,2964
866,866,0,2046,3793
867,867,0,2046,4084
868,868,0,2046,3745
869,869,0,2046,2885
870,870,0,2047,1762
871,871,0,2046,726
872,872,0,2047,92
873,873,0,2047,55
874,874,0,2046,629
875,875,0,2046,1634
876,876,0,2047,2764
877,877,0,2046,3671
878,878,0,2046,4077
879,879,0,2046,3857
880,880,0,2046,3079
881,881,0,2047,1980
882,882,0,2046,901
883,883,0,2046,170
884,884,0,2046,13
885,885,0,2046,478
886,886,0,2046,1422
887,887,0,2046,2555
888,888,0,2046,3529
889,889,0,2046,4046
890,890,0,2046,3946
891,891,0,2047,3260
892,892,0,2046,2199
893,893,0,2046,1089
894,894,0,2046,270
895,895,0,2046,0
896,896,0,2047,345
897,897,0,2046,1217
898,898,0,2046,2341
899,899,0,2046,3372
900,900,0,2046,3993
901,901,0,2046,4014
902,902,0,2046,3429
903,903,0,2046,2416
904,904,0,2047,1288
905,905,0,2046,390
906,906,0,2046,0
907,907,0,2047,232
908,908,0,2046,1021
909,909,0,2046,2122
910,910,0,2046,3197
911,911,0,2046,3917
912,912,0,2046,4059
913,913,0,2047,3581
914,914,0,2047,2629
915,915,0,2046,1496
916,916,0,2046,529
917,917,0,2047,26
918,918,0,2046,140
919,919,0,2046,838
920,920,0,2046,1903
921,921,0,2046,3011
922,922,0,2046,3819
923,923,0,2046,4081
924,924,0,2046,3715
925,925,0,2046,2835
926,926,0,2046,1710
927,927,0,2046,686
928,928,0,2046,76
929,929,0,2047,69
930,930,0,2046,667
931,931,0,2047,1686
932,932,0,2047,2814
933,933,0,2046,3703
934,934,0,2046,4080
935,935,0,2047,3831
936,936,0,2046,3032
937,937,0,2046,1927
938,938,0,2046,857
939,939,0,2046,149
940,940,0,2046,21
941,941,0,2046,512
942,942,0,2047,1472
943,943,0,2046,2606
944,944,0,2047,3565
945,945,0,2046,4056
946,946,0,2046,3926
947,947,0,2047,3217
948,948,0,2046,2146
949,949,0,2046,1042
950,950,0,2047,244
951,951,0,2046,0
952,952,0,2047,376
953,953,0,2045,1266
954,954,0,2046,2393
955,955,0,2046,3411
956,956,0,2046,4007
957,957,0,2047,3999
958,958,0,2046,3390
959,959,0,2046,2364
960,960,0,2046,1238
961,961,0,2046,359
962,962,0,2046,0
963,963,0,2046,258
964,964,0,2046,1068
965,965,0,2046,2176
966,966,0,2047,3240
967,967,0,2046,3937
968,968,0,2046,4050
969,969,0,2046,3546
970,970,0,2047,2578
971,971,0,2046,1445
972,972,0,2046,494
973,973,0,2046,17
974,974,0,2047,161
975,975,0,2046,881
976,976,0,2046,1956
977,977,0,2047,3058
978,978,0,2046,3845
979,979,0,2046,4078
980,980,0,2046,3684
981,981,0,2046,2786
982,982,0,2047,1658
983,983,0,2046,646
984,984,0,2046,62
985,985,0,2046,84
986,986,0,2046,707
987,987,0,2046,1739
988,988,0,2046,2863
989,989,0,2046,3732
990,990,0,2047,4083
991,991,0,2046,3805
992,992,0,2047,2985
993,993,0,2046,1874
994,994,0,2046,814
995,995,0,2046,129
996,996,0,2047,30
997,997,0,2046,549
998,998,0,2046,1524
999,999,0,2046,2657
1000,1000,0,2047,3600
1001,1001,0,2046,4063
1002,1002,0,2046,3905
1003,1003,0,2047,3173
1004,1004,0,2046,2092
1005,1005,0,2046,996
1006,1006,0,2046,219
1007,1007,0,2046,0
1008,1008,0,2046,408
1009,1009,0,2046,1315
1010,1010,0,2046,2445
1011,1011,0,2046,3450
1012,1012,0,2046,4021
1013,1013,0,2046,3984
1014,1014,0,2046,3349
1015,1015,0,2046,2312
1016,1016,0,2046,1190
1017,1017,0,2046,329
1018,1018,0,2046,0
1019,1019,0,2046,284
1020,1020,0,2046,1115
1021,1021,0,2046,2229
1022,1022,0,2046,3284
1023,1023,0,2046,3956
1024,1024,0,2046,4040
1025,1025,0,2047,3509
1026,1026,0,2046,2526
1027,1027,0,2047,1394
