Sample in Buffer,Sample in Window,TRIGGER,adc1_data_a_d0[11:0],adc1_data_b_d0[11:0]
0,0,0,2046,4006
1,1,0,2046,4095
2,2,0,2047,4095
3,3,0,2046,4052
4,4,0,2046,3888
5,5,0,2046,3642
6,6,0,2046,3326
7,7,0,2047,2955
8,8,0,2047,2543
9,9,0,2046,2110
10,10,0,2047,1675
11,11,0,2046,1256
12,12,0,2046,870
13,13,0,2046,537
14,14,0,2046,268
15,15,0,2046,77
16,16,0,2047,0
17,17,0,2047,0
18,18,0,2046,29
19,19,0,2047,191
20,20,0,2046,433
21,21,0,2047,745
22,22,0,2047,1115
23,23,0,2047,1524
24,24,0,2046,1957
25,25,0,2046,2393
26,26,0,2047,2815
27,27,0,2046,3203
28,28,0,2046,3539
29,29,0,2046,3811
30,30,0,2046,4005
31,31,0,2047,4095
32,32,0,2046,4095
33,33,0,2047,4054
34,34,0,2046,3890
35,35,0,2047,3646
36,36,0,2046,3331
37,37,0,2047,2960
38,38,0,2046,2548
39,39,0,2046,2115
40,40,0,2046,1680
41,41,0,2046,1261
42,42,0,2047,875
43,43,0,2046,540
44,44,0,2046,271
45,45,0,2046,79
46,46,0,2047,0
47,47,0,2047,0
48,48,0,2047,28
49,49,0,2047,188
50,50,0,2047,430
51,51,0,2046,742
52,52,0,2046,1109
53,53,0,2046,1519
54,54,0,2046,1952
55,55,0,2046,2388
56,56,0,2046,2811
57,57,0,2047,3198
58,58,0,2046,3535
59,59,0,2047,3809
60,60,0,2047,4003
61,61,0,2047,4095
62,62,0,2046,4095
63,63,0,2047,4055
64,64,0,2046,3892
65,65,0,2047,3648
66,66,0,2046,3334
67,67,0,2046,2964
68,68,0,2046,2554
69,69,0,2046,2121
70,70,0,2046,1686
71,71,0,2046,1266
72,72,0,2047,880
73,73,0,2046,544
74,74,0,2047,274
75,75,0,2046,81
76,76,0,2047,0
77,77,0,2046,0
78,78,0,2047,26
79,79,0,2047,186
80,80,0,2047,427
81,81,0,2046,737
82,82,0,2045,1106
83,83,0,2046,1514
84,84,0,2047,1947
85,85,0,2047,2383
86,86,0,2046,2805
87,87,0,2046,3194
88,88,0,2046,3532
89,89,0,2047,3805
90,90,0,2047,4001
91,91,0,2046,4095
92,92,0,2046,4095
93,93,0,2047,4056
94,94,0,2047,3895
95,95,0,2046,3652
96,96,0,2046,3339
97,97,0,2046,2969
98,98,0,2046,2559
99,99,0,2046,2126
100,100,0,2047,1691
101,101,0,2046,1270
102,102,0,2047,884
103,103,0,2046,548
104,104,0,2046,276
105,105,0,2046,82
106,106,0,2046,0
107,107,0,2046,0
108,108,0,2046,25
109,109,0,2047,183
110,110,0,2046,424
111,111,0,2046,733
112,112,0,2046,1101
113,113,0,2046,1508
114,114,0,2047,1941
115,115,0,2046,2379
116,116,0,2046,2800
117,117,0,2046,3189
118,118,0,2046,3529
119,119,0,2046,3803
120,120,0,2047,4000
121,121,0,2046,4095
122,122,0,2046,4095
123,123,0,2046,4058
124,124,0,2047,3897
125,125,0,2046,3655
126,126,0,2046,3343
127,127,0,2046,2974
128,128,0,2047,2564
129,129,0,2046,2132
130,130,0,2046,1696
131,131,0,2046,1276
132,132,0,2046,888
133,133,0,2046,551
134,134,0,2046,280
135,135,0,2046,85
136,136,0,2046,0
137,137,0,2046,0
138,138,0,2046,24
139,139,0,2047,180
140,140,0,2047,420
141,141,0,2046,730
142,142,0,2046,1096
143,143,0,2046,1503
144,144,0,2047,1936
145,145,0,2046,2373
146,146,0,2045,2795
147,147,0,2047,3185
148,148,0,2046,3526
149,149,0,2047,3800
150,150,0,2046,3997
151,151,0,2046,4095
152,152,0,2046,4095
153,153,0,2046,4059
154,154,0,2047,3899
155,155,0,2046,3659
156,156,0,2046,3347
157,157,0,2046,2979
158,158,0,2046,2569
159,159,0,2046,2137
160,160,0,2047,1701
161,161,0,2046,1281
162,162,0,2047,893
163,163,0,2046,555
164,164,0,2047,282
165,165,0,2046,86
166,166,0,2046,0
167,167,0,2047,0
168,168,0,2046,23
169,169,0,2046,179
170,170,0,2046,416
171,171,0,2046,725
172,172,0,2046,1091
173,173,0,2046,1498
174,174,0,2047,1931
175,175,0,2046,2368
176,176,0,2046,2790
177,177,0,2046,3180
178,178,0,2047,3520
179,179,0,2046,3798
180,180,0,2046,3995
181,181,0,2046,4095
182,182,0,2046,4095
183,183,0,2046,4060
184,184,0,2046,3903
185,185,0,2046,3662
186,186,0,2046,3351
187,187,0,2046,2983
188,188,0,2046,2574
189,189,0,2047,2142
190,190,0,2046,1707
191,191,0,2046,1285
192,192,0,2046,897
193,193,0,2046,559
194,194,0,2046,285
195,195,0,2047,88
196,196,0,2046,0
197,197,0,2046,0
198,198,0,2046,21
199,199,0,2046,176
200,200,0,2046,412
201,201,0,2047,721
202,202,0,2047,1087
203,203,0,2047,1493
204,204,0,2047,1926
205,205,0,2046,2362
206,206,0,2047,2785
207,207,0,2047,3176
208,208,0,2046,3517
209,209,0,2046,3795
210,210,0,2046,3994
211,211,0,2046,4095
212,212,0,2047,4095
213,213,0,2046,4062
214,214,0,2046,3905
215,215,0,2047,3666
216,216,0,2046,3355
217,217,0,2046,2989
218,218,0,2046,2580
219,219,0,2046,2148
220,220,0,2046,1711
221,221,0,2046,1290
222,222,0,2047,903
223,223,0,2047,563
224,224,0,2047,288
225,225,0,2046,90
226,226,0,2046,0
227,227,0,2046,0
228,228,0,2046,19
229,229,0,2046,174
230,230,0,2046,410
231,231,0,2046,717
232,232,0,2046,1082
233,233,0,2046,1488
234,234,0,2046,1919
235,235,0,2047,2356
236,236,0,2046,2780
237,237,0,2047,3172
238,238,0,2047,3514
239,239,0,2046,3791
240,240,0,2046,3991
241,241,0,2046,4095
242,242,0,2046,4095
243,243,0,2046,4063
244,244,0,2046,3907
245,245,0,2046,3669
246,246,0,2047,3359
247,247,0,2047,2993
248,248,0,2046,2584
249,249,0,2046,2153
250,250,0,2046,1717
251,251,0,2047,1296
252,252,0,2046,907
253,253,0,2047,566
254,254,0,2046,291
255,255,0,2047,92
256,256,0,2046,0
257,257,0,2047,0
258,258,0,2047,18
259,259,0,2046,171
260,260,0,2047,406
261,261,0,2047,713
262,262,0,2046,1077
263,263,0,2046,1483
264,264,0,2046,1915
265,265,0,2047,2352
266,266,0,2046,2776
267,267,0,2046,3167
268,268,0,2046,3509
269,269,0,2047,3788
270,270,0,2047,3990
271,271,0,2047,4095
272,272,0,2046,4095
273,273,0,2047,4065
274,274,0,2046,3909
275,275,0,2047,3672
276,276,0,2046,3363
277,277,0,2046,2997
278,278,0,2046,2590
279,279,0,2047,2158
280,280,0,2046,1722
281,281,0,2046,1300
282,282,0,2046,910
283,283,0,2046,570
284,284,0,2047,294
285,285,0,2047,94
286,286,0,2046,0
287,287,0,2047,0
288,288,0,2046,16
289,289,0,2047,169
290,290,0,2046,404
291,291,0,2046,709
292,292,0,2047,1072
293,293,0,2047,1478
294,294,0,2046,1909
295,295,0,2047,2347
296,296,0,2046,2770
297,297,0,2046,3163
298,298,0,2046,3506
299,299,0,2046,3785
300,300,0,2047,3987
301,301,0,2046,4095
302,302,0,2047,4095
303,303,0,2046,4066
304,304,0,2046,3911
305,305,0,2046,3676
306,306,0,2046,3367
307,307,0,2046,3002
308,308,0,2046,2595
309,309,0,2046,2163
310,310,0,2047,1727
311,311,0,2046,1305
312,312,0,2047,915
313,313,0,2047,574
314,314,0,2046,297
315,315,0,2047,96
316,316,0,2046,0
317,317,0,2047,0
318,318,0,2047,15
319,319,0,2047,167
320,320,0,2046,400
321,321,0,2046,706
322,322,0,2047,1067
323,323,0,2047,1473
324,324,0,2047,1905
325,325,0,2046,2341
326,326,0,2046,2765
327,327,0,2046,3158
328,328,0,2046,3503
329,329,0,2047,3782
330,330,0,2047,3986
331,331,0,2046,4095
332,332,0,2046,4095
333,333,0,2046,4067
334,334,0,2047,3914
335,335,0,2047,3679
336,336,0,2046,3372
337,337,0,2047,3007
338,338,0,2046,2599
339,339,0,2046,2169
340,340,0,2046,1733
341,341,0,2046,1310
342,342,0,2046,920
343,343,0,2046,578
344,344,0,2046,300
345,345,0,2046,98
346,346,0,2046,0
347,347,0,2047,0
348,348,0,2047,14
349,349,0,2046,165
350,350,0,2047,397
351,351,0,2046,700
352,352,0,2047,1063
353,353,0,2046,1469
354,354,0,2047,1899
355,355,0,2047,2335
356,356,0,2046,2760
357,357,0,2047,3154
358,358,0,2046,3499
359,359,0,2047,3779
360,360,0,2046,3983
361,361,0,2046,4095
362,362,0,2046,4095
363,363,0,2047,4068
364,364,0,2046,3916
365,365,0,2047,3682
366,366,0,2046,3375
367,367,0,2047,3011
368,368,0,2046,2606
369,369,0,2047,2174
370,370,0,2047,1738
371,371,0,2046,1315
372,372,0,2046,924
373,373,0,2046,582
374,374,0,2046,303
375,375,0,2046,100
376,376,0,2046,0
377,377,0,2046,0
378,378,0,2047,12
379,379,0,2046,162
380,380,0,2047,394
381,381,0,2046,696
382,382,0,2047,1058
383,383,0,2046,1463
384,384,0,2047,1894
385,385,0,2047,2331
386,386,0,2046,2756
387,387,0,2046,3149
388,388,0,2046,3495
389,389,0,2047,3776
390,390,0,2046,3981
391,391,0,2046,4095
392,392,0,2047,4095
393,393,0,2047,4070
394,394,0,2047,3918
395,395,0,2047,3685
396,396,0,2046,3380
397,397,0,2047,3016
398,398,0,2047,2610
399,399,0,2047,2179
400,400,0,2047,1743
401,401,0,2046,1320
402,402,0,2046,928
403,403,0,2046,585
404,404,0,2046,306
405,405,0,2046,101
406,406,0,2046,0
407,407,0,2046,0
408,408,0,2047,10
409,409,0,2046,160
410,410,0,2046,390
411,411,0,2047,692
412,412,0,2047,1053
413,413,0,2046,1459
414,414,0,2046,1888
415,415,0,2047,2326
416,416,0,2046,2750
417,417,0,2046,3145
418,418,0,2046,3490
419,419,0,2047,3773
420,420,0,2046,3980
421,421,0,2046,4095
422,422,0,2046,4095
423,423,0,2046,4071
424,424,0,2046,3921
425,425,0,2046,3689
426,426,0,2046,3385
427,427,0,2047,3021
428,428,0,2047,2615
429,429,0,2047,2185
430,430,0,2046,1748
431,431,0,2046,1325
432,432,0,2046,933
433,433,0,2047,589
434,434,0,2046,309
435,435,0,2046,103
436,436,0,2046,0
437,437,0,2046,0
438,438,0,2047,10
439,439,0,2046,157
440,440,0,2046,388
441,441,0,2046,689
442,442,0,2047,1049
443,443,0,2046,1453
444,444,0,2047,1883
445,445,0,2046,2320
446,446,0,2046,2746
447,447,0,2046,3140
448,448,0,2047,3486
449,449,0,2046,3770
450,450,0,2046,3978
451,451,0,2046,4095
452,452,0,2046,4095
453,453,0,2046,4073
454,454,0,2046,3924
455,455,0,2047,3691
456,456,0,2046,3388
457,457,0,2046,3026
458,458,0,2046,2620
459,459,0,2046,2190
460,460,0,2046,1754
461,461,0,2046,1330
462,462,0,2046,937
463,463,0,2046,593
464,464,0,2046,312
465,465,0,2046,105
466,466,0,2046,0
467,467,0,2047,0
468,468,0,2046,9
469,469,0,2047,156
470,470,0,2046,384
471,471,0,2046,685
472,472,0,2047,1044
473,473,0,2046,1449
474,474,0,2046,1878
475,475,0,2046,2315
476,476,0,2046,2741
477,477,0,2046,3135
478,478,0,2046,3483
479,479,0,2046,3768
480,480,0,2046,3976
481,481,0,2046,4095
482,482,0,2046,4095
483,483,0,2046,4074
484,484,0,2047,3926
485,485,0,2046,3695
486,486,0,2046,3392
487,487,0,2046,3030
488,488,0,2046,2625
489,489,0,2046,2195
490,490,0,2046,1759
491,491,0,2046,1335
492,492,0,2047,942
493,493,0,2047,597
494,494,0,2046,314
495,495,0,2045,108
496,496,0,2046,0
497,497,0,2047,0
498,498,0,2046,7
499,499,0,2046,152
500,500,0,2047,380
501,501,0,2046,680
502,502,0,2046,1040
503,503,0,2047,1443
504,504,0,2046,1872
505,505,0,2046,2310
506,506,0,2046,2735
507,507,0,2046,3131
508,508,0,2046,3480
509,509,0,2046,3764
510,510,0,2046,3973
511,511,0,2046,4095
512,512,0,2046,4095
513,513,0,2046,4075
514,514,0,2046,3928
515,515,0,2046,3698
516,516,0,2046,3396
517,517,0,2046,3035
518,518,0,2046,2631
519,519,0,2047,2201
520,520,0,2046,1764
521,521,0,2047,1340
522,522,0,2046,946
523,523,0,2047,601
524,524,0,2047,317
525,525,0,2046,109
526,526,0,2046,0
527,527,0,2046,0
528,528,0,2047,6
529,529,0,2046,150
530,530,0,2047,378
531,531,0,2047,677
532,532,0,2046,1035
533,533,0,2046,1438
534,534,0,2046,1867
535,535,0,2047,2304
536,536,0,2046,2730
537,537,0,2046,3127
538,538,0,2047,3475
539,539,0,2046,3761
540,540,0,2046,3971
541,541,0,2047,4095
542,542,0,2046,4095
543,543,0,2046,4077
544,544,0,2047,3931
545,545,0,2047,3701
546,546,0,2046,3400
547,547,0,2046,3040
548,548,0,2046,2636
549,549,0,2047,2206
550,550,0,2046,1769
551,551,0,2047,1345
552,552,0,2046,951
553,553,0,2047,605
554,554,0,2046,321
555,555,0,2047,112
556,556,0,2046,0
557,557,0,2047,0
558,558,0,2047,5
559,559,0,2046,149
560,560,0,2047,375
561,561,0,2046,673
562,562,0,2046,1031
563,563,0,2046,1432
564,564,0,2047,1863
565,565,0,2047,2299
566,566,0,2047,2725
567,567,0,2046,3122
568,568,0,2047,3472
569,569,0,2046,3759
570,570,0,2047,3970
571,571,0,2047,4095
572,572,0,2047,4095
573,573,0,2047,4078
574,574,0,2046,3933
575,575,0,2046,3705
576,576,0,2047,3404
577,577,0,2046,3045
578,578,0,2046,2641
579,579,0,2046,2212
580,580,0,2046,1774
581,581,0,2046,1350
582,582,0,2046,956
583,583,0,2046,609
584,584,0,2046,324
585,585,0,2046,114
586,586,0,2046,0
587,587,0,2047,0
588,588,0,2046,4
589,589,0,2046,146
590,590,0,2046,371
591,591,0,2046,669
592,592,0,2047,1026
593,593,0,2046,1428
594,594,0,2047,1856
595,595,0,2046,2294
596,596,0,2046,2720
597,597,0,2046,3117
598,598,0,2047,3467
599,599,0,2046,3755
600,600,0,2046,3967
601,601,0,2046,4095
602,602,0,2046,4095
603,603,0,2047,4079
604,604,0,2046,3935
605,605,0,2047,3708
606,606,0,2046,3408
607,607,0,2046,3048
608,608,0,2047,2645
609,609,0,2046,2216
610,610,0,2046,1780
611,611,0,2047,1354
612,612,0,2046,960
613,613,0,2047,613
614,614,0,2046,326
615,615,0,2047,116
616,616,0,2046,0
617,617,0,2046,0
618,618,0,2046,3
619,619,0,2046,144
620,620,0,2047,368
621,621,0,2046,665
622,622,0,2047,1021
623,623,0,2047,1423
624,624,0,2047,1851
625,625,0,2046,2289
626,626,0,2046,2715
627,627,0,2046,3113
628,628,0,2046,3464
629,629,0,2046,3752
630,630,0,2047,3965
631,631,0,2046,4094
632,632,0,2046,4095
633,633,0,2047,4080
634,634,0,2046,3937
635,635,0,2046,3710
636,636,0,2046,3412
637,637,0,2046,3053
638,638,0,2046,2650
639,639,0,2047,2222
640,640,0,2047,1785
641,641,0,2047,1360
642,642,0,2047,965
643,643,0,2046,617
644,644,0,2046,330
645,645,0,2047,118
646,646,0,2046,0
647,647,0,2046,0
648,648,0,2046,2
649,649,0,2046,142
650,650,0,2046,365
651,651,0,2046,661
652,652,0,2047,1017
653,653,0,2046,1417
654,654,0,2046,1846
655,655,0,2047,2284
656,656,0,2046,2710
657,657,0,2046,3108
658,658,0,2046,3459
659,659,0,2046,3749
660,660,0,2046,3963
661,661,0,2046,4093
662,662,0,2047,4095
663,663,0,2046,4081
664,664,0,2047,3940
665,665,0,2047,3713
666,666,0,2046,3416
667,667,0,2047,3058
668,668,0,2046,2656
669,669,0,2047,2227
670,670,0,2046,1790
671,671,0,2046,1365
672,672,0,2047,968
673,673,0,2047,621
674,674,0,2046,333
675,675,0,2047,121
676,676,0,2046,0
677,677,0,2046,0
678,678,0,2046,0
679,679,0,2046,140
680,680,0,2047,362
681,681,0,2047,656
682,682,0,2047,1011
683,683,0,2046,1412
684,684,0,2047,1841
685,685,0,2046,2278
686,686,0,2047,2705
687,687,0,2046,3103
688,688,0,2046,3456
689,689,0,2047,3745
690,690,0,2047,3961
691,691,0,2046,4092
692,692,0,2046,4095
693,693,0,2047,4083
694,694,0,2046,3942
695,695,0,2046,3717
696,696,0,2046,3420
697,697,0,2046,3063
698,698,0,2046,2661
699,699,0,2047,2231
700,700,0,2046,1796
701,701,0,2046,1369
702,702,0,2046,973
703,703,0,2046,624
704,704,0,2046,336
705,705,0,2046,122
706,706,0,2046,0
707,707,0,2047,0
708,708,0,2047,0
709,709,0,2047,138
710,710,0,2047,359
711,711,0,2046,652
712,712,0,2047,1007
713,713,0,2046,1407
714,714,0,2046,1836
715,715,0,2046,2273
716,716,0,2047,2700
717,717,0,2046,3099
718,718,0,2047,3452
719,719,0,2047,3743
720,720,0,2046,3960
721,721,0,2047,4091
722,722,0,2046,4095
723,723,0,2046,4084
724,724,0,2047,3944
725,725,0,2046,3722
726,726,0,2046,3424
727,727,0,2046,3067
728,728,0,2046,2665
729,729,0,2046,2237
730,730,0,2047,1801
731,731,0,2047,1375
732,732,0,2047,978
733,733,0,2047,628
734,734,0,2047,339
735,735,0,2046,125
736,736,0,2047,0
737,737,0,2046,0
738,738,0,2047,0
739,739,0,2046,135
740,740,0,2047,355
741,741,0,2046,648
742,742,0,2047,1002
743,743,0,2046,1402
744,744,0,2047,1831
745,745,0,2046,2267
746,746,0,2047,2695
747,747,0,2046,3095
748,748,0,2046,3448
749,749,0,2046,3740
750,750,0,2047,3957
751,751,0,2046,4091
752,752,0,2046,4095
753,753,0,2046,4085
754,754,0,2047,3946
755,755,0,2046,3725
756,756,0,2046,3428
757,757,0,2046,3072
758,758,0,2046,2670
759,759,0,2046,2243
760,760,0,2047,1806
761,761,0,2047,1380
762,762,0,2046,982
763,763,0,2046,632
764,764,0,2046,343
765,765,0,2046,127
766,766,0,2047,0
767,767,0,2047,0
768,768,0,2046,0
769,769,0,2047,133
770,770,0,2046,352
771,771,0,2047,644
772,772,0,2046,999
773,773,0,2046,1397
774,774,0,2047,1824
775,775,0,2047,2262
776,776,0,2046,2691
777,777,0,2047,3090
778,778,0,2047,3445
779,779,0,2047,3737
780,780,0,2047,3955
781,781,0,2047,4089
782,782,0,2047,4095
783,783,0,2046,4085
784,784,0,2046,3948
785,785,0,2047,3727
786,786,0,2046,3433
787,787,0,2046,3077
788,788,0,2046,2676
789,789,0,2046,2248
790,790,0,2046,1811
791,791,0,2046,1385
792,792,0,2046,987
793,793,0,2046,636
794,794,0,2047,346
795,795,0,2047,129
796,796,0,2046,0
797,797,0,2046,0
798,798,0,2046,0
799,799,0,2046,131
800,800,0,2046,349
801,801,0,2046,641
802,802,0,2046,993
803,803,0,2047,1392
804,804,0,2046,1819
805,805,0,2047,2258
806,806,0,2046,2685
807,807,0,2047,3085
808,808,0,2046,3440
809,809,0,2046,3733
810,810,0,2046,3953
811,811,0,2047,4088
812,812,0,2046,4095
813,813,0,2046,4087
814,814,0,2047,3950
815,815,0,2047,3730
816,816,0,2047,3436
817,817,0,2046,3081
818,818,0,2047,2681
819,819,0,2047,2253
820,820,0,2047,1817
821,821,0,2046,1390
822,822,0,2047,992
823,823,0,2047,640
824,824,0,2046,348
825,825,0,2047,131
826,826,0,2047,0
827,827,0,2046,0
828,828,0,2047,0
829,829,0,2046,129
830,830,0,2046,346
831,831,0,2046,636
832,832,0,2047,989
833,833,0,2046,1388
834,834,0,2047,1814
835,835,0,2046,2252
836,836,0,2047,2680
837,837,0,2047,3081
838,838,0,2046,3437
839,839,0,2046,3730
840,840,0,2046,3951
841,841,0,2046,4087
842,842,0,2046,4095
843,843,0,2046,4089
844,844,0,2046,3953
845,845,0,2046,3734
846,846,0,2046,3441
847,847,0,2046,3086
848,848,0,2046,2686
849,849,0,2046,2258
850,850,0,2046,1822
851,851,0,2046,1395
852,852,0,2046,997
853,853,0,2046,643
854,854,0,2046,351
855,855,0,2046,133
856,856,0,2046,0
857,857,0,2047,0
858,858,0,2046,0
859,859,0,2046,127
860,860,0,2046,343
861,861,0,2046,632
862,862,0,2046,984
863,863,0,2046,1382
864,864,0,2046,1808
865,865,0,2046,2246
866,866,0,2046,2675
867,867,0,2046,3076
868,868,0,2046,3432
869,869,0,2046,3728
870,870,0,2047,3948
871,871,0,2046,4086
872,872,0,2046,4095
873,873,0,2047,4089
874,874,0,2047,3955
875,875,0,2046,3736
876,876,0,2046,3444
877,877,0,2046,3091
878,878,0,2047,2691
879,879,0,2047,2264
880,880,0,2047,1827
881,881,0,2046,1400
882,882,0,2046,1001
883,883,0,2046,647
884,884,0,2047,354
885,885,0,2047,134
886,886,0,2046,0
887,887,0,2047,0
888,888,0,2046,0
889,889,0,2046,125
890,890,0,2046,339
891,891,0,2046,629
892,892,0,2047,980
893,893,0,2047,1377
894,894,0,2047,1804
895,895,0,2046,2241
896,896,0,2046,2670
897,897,0,2047,3072
898,898,0,2046,3428
899,899,0,2046,3724
900,900,0,2046,3946
901,901,0,2046,4085
902,902,0,2046,4095
903,903,0,2046,4091
904,904,0,2046,3957
905,905,0,2046,3741
906,906,0,2046,3448
907,907,0,2046,3095
908,908,0,2047,2697
909,909,0,2047,2270
910,910,0,2047,1832
911,911,0,2046,1405
912,912,0,2047,1006
913,913,0,2047,651
914,914,0,2046,357
915,915,0,2046,137
916,916,0,2046,0
917,917,0,2047,0
918,918,0,2046,0
919,919,0,2047,122
920,920,0,2046,337
921,921,0,2046,625
922,922,0,2046,975
923,923,0,2046,1372
924,924,0,2046,1798
925,925,0,2046,2236
926,926,0,2046,2665
927,927,0,2047,3067
928,928,0,2047,3425
929,929,0,2046,3721
930,930,0,2047,3944
931,931,0,2047,4083
932,932,0,2046,4095
933,933,0,2046,4092
934,934,0,2046,3960
935,935,0,2046,3743
936,936,0,2046,3452
937,937,0,2047,3100
938,938,0,2047,2702
939,939,0,2046,2274
940,940,0,2047,1838
941,941,0,2047,1410
942,942,0,2047,1010
943,943,0,2046,656
944,944,0,2046,361
945,945,0,2046,140
946,946,0,2046,0
947,947,0,2046,0
948,948,0,2046,0
949,949,0,2046,120
950,950,0,2047,334
951,951,0,2046,621
952,952,0,2047,970
953,953,0,2047,1367
954,954,0,2047,1793
955,955,0,2047,2231
956,956,0,2046,2660
957,957,0,2046,3063
958,958,0,2046,3421
959,959,0,2046,3717
960,960,0,2047,3941
961,961,0,2047,4082
962,962,0,2048,4095
963,963,0,2046,4092
964,964,0,2046,3961
965,965,0,2046,3746
966,966,0,2046,3456
967,967,0,2046,3105
968,968,0,2046,2707
969,969,0,2046,2280
970,970,0,2046,1843
971,971,0,2046,1415
972,972,0,2046,1015
973,973,0,2047,659
974,974,0,2046,363
975,975,0,2047,142
976,976,0,2046,2
977,977,0,2046,0
978,978,0,2047,0
979,979,0,2046,118
980,980,0,2046,331
981,981,0,2046,617
982,982,0,2047,966
983,983,0,2047,1362
984,984,0,2047,1788
985,985,0,2047,2225
986,986,0,2046,2654
987,987,0,2047,3058
988,988,0,2046,3416
989,989,0,2047,3714
990,990,0,2047,3940
991,991,0,2046,4082
992,992,0,2046,4095
993,993,0,2046,4093
994,994,0,2046,3963
995,995,0,2046,3749
996,996,0,2047,3460
997,997,0,2046,3109
998,998,0,2047,2711
999,999,0,2046,2285
1000,1000,0,2047,1848
1001,1001,0,2046,1420
1002,1002,0,2046,1019
1003,1003,0,2047,663
1004,1004,0,2047,367
1005,1005,0,2047,143
1006,1006,0,2046,2
1007,1007,0,2046,0
1008,1008,0,2046,0
1009,1009,0,2046,116
1010,1010,0,2047,328
1011,1011,0,2047,614
1012,1012,0,2046,962
1013,1013,0,2046,1357
1014,1014,0,2047,1782
1015,1015,0,2046,2220
1016,1016,0,2046,2649
1017,1017,0,2047,3053
1018,1018,0,2046,3412
1019,1019,0,2046,3711
1020,1020,0,2047,3937
1021,1021,0,2046,4081
1022,1022,0,2046,4095
1023,1023,0,2047,4095
1024,1024,0,2046,3966
1025,1025,0,2046,3752
1026,1026,0,2046,3464
1027,1027,0,2046,3113
1028,1028,0,2047,2716
1029,1029,0,2046,2291
