Sample in Buffer,Sample in Window,TRIGGER,adc1_data_a_d0[11:0],adc1_data_b_d0[11:0]
0,0,0,2046,3779
1,1,0,2046,3455
2,2,0,2046,3051
3,3,0,2046,2589
4,4,0,2047,2094
5,5,0,2046,1598
6,6,0,2046,1126
7,7,0,2047,707
8,8,0,2047,363
9,9,0,2047,115
10,10,0,2046,0
11,11,0,2047,0
12,12,0,2047,54
13,13,0,2046,266
14,14,0,2046,579
15,15,0,2046,976
16,16,0,2046,1432
17,17,0,2047,1924
18,18,0,2046,2421
19,19,0,2046,2897
20,20,0,2046,3324
21,21,0,2047,3678
22,22,0,2046,3938
23,23,0,2047,4090
24,24,0,2047,4095
25,25,0,2046,4040
26,26,0,2046,3841
27,27,0,2046,3538
28,28,0,2046,3152
29,29,0,2047,2700
30,30,0,2046,2211
31,31,0,2046,1713
32,32,0,2046,1233
33,33,0,2046,799
34,34,0,2046,435
35,35,0,2046,164
36,36,0,2047,0
37,37,0,2047,0
38,38,0,2046,21
39,39,0,2046,207
40,40,0,2047,498
41,41,0,2046,877
42,42,0,2046,1321
43,43,0,2046,1807
44,44,0,2046,2306
45,45,0,2046,2790
46,46,0,2046,3230
47,47,0,2047,3603
48,48,0,2045,3887
49,49,0,2046,4065
50,50,0,2046,4095
51,51,0,2047,4070
52,52,0,2047,3896
53,53,0,2046,3617
54,54,0,2046,3248
55,55,0,2047,2809
56,56,0,2046,2328
57,57,0,2046,1828
58,58,0,2047,1342
59,59,0,2046,894
60,60,0,2046,513
61,61,0,2046,219
62,62,0,2046,28
63,63,0,2046,0
64,64,0,2047,0
65,65,0,2046,154
66,66,0,2046,422
67,67,0,2047,782
68,68,0,2045,1214
69,69,0,2046,1692
70,70,0,2046,2190
71,71,0,2046,2679
72,72,0,2047,3133
73,73,0,2046,3523
74,74,0,2047,3830
75,75,0,2046,4032
76,76,0,2046,4095
77,77,0,2047,4094
78,78,0,2046,3947
79,79,0,2047,3691
80,80,0,2046,3341
81,81,0,2047,2916
82,82,0,2046,2442
83,83,0,2046,1945
84,84,0,2047,1452
85,85,0,2046,994
86,86,0,2046,594
87,87,0,2046,278
88,88,0,2047,62
89,89,0,2047,0
90,90,0,2046,0
91,91,0,2047,107
92,92,0,2046,350
93,93,0,2046,691
94,94,0,2046,1108
95,95,0,2045,1577
96,96,0,2046,2074
97,97,0,2046,2567
98,98,0,2046,3032
99,99,0,2047,3439
100,100,0,2047,3766
101,101,0,2046,3995
102,102,0,2047,4095
103,103,0,2047,4095
104,104,0,2046,3991
105,105,0,2047,3760
106,106,0,2047,3430
107,107,0,2046,3021
108,108,0,2046,2556
109,109,0,2046,2061
110,110,0,2046,1566
111,111,0,2046,1097
112,112,0,2047,681
113,113,0,2047,343
114,114,0,2046,103
115,115,0,2047,0
116,116,0,2047,0
117,117,0,2046,66
118,118,0,2046,285
119,119,0,2046,603
120,120,0,2046,1005
121,121,0,2047,1465
122,122,0,2046,1958
123,123,0,2047,2455
124,124,0,2046,2928
125,125,0,2047,3351
126,126,0,2047,3698
127,127,0,2047,3951
128,128,0,2047,4095
129,129,0,2046,4095
130,130,0,2047,4030
131,131,0,2047,3823
132,132,0,2046,3515
133,133,0,2047,3122
134,134,0,2046,2668
135,135,0,2047,2177
136,136,0,2047,1679
137,137,0,2046,1201
138,138,0,2046,771
139,139,0,2047,413
140,140,0,2046,149
141,141,0,2046,0
142,142,0,2047,0
143,143,0,2046,31
144,144,0,2046,224
145,145,0,2046,521
146,146,0,2046,905
147,147,0,2046,1354
148,148,0,2047,1841
149,149,0,2047,2339
150,150,0,2046,2821
151,151,0,2047,3258
152,152,0,2047,3626
153,153,0,2046,3902
154,154,0,2046,4073
155,155,0,2046,4095
156,156,0,2046,4061
157,157,0,2046,3880
158,158,0,2046,3595
159,159,0,2047,3220
160,160,0,2047,2777
161,161,0,2046,2293
162,162,0,2046,1794
163,163,0,2046,1310
164,164,0,2046,866
165,165,0,2046,489
166,166,0,2046,201
167,167,0,2046,18
168,168,0,2046,0
169,169,0,2047,2
170,170,0,2046,169
171,171,0,2047,444
172,172,0,2046,810
173,173,0,2047,1244
174,174,0,2047,1725
175,175,0,2046,2224
176,176,0,2046,2711
177,177,0,2046,3162
178,178,0,2047,3548
179,179,0,2046,3847
180,180,0,2046,4042
181,181,0,2046,4095
182,182,0,2047,4087
183,183,0,2046,3933
184,184,0,2046,3670
185,185,0,2046,3313
186,186,0,2046,2886
187,187,0,2047,2408
188,188,0,2047,1911
189,189,0,2047,1420
190,190,0,2046,964
191,191,0,2046,571
192,192,0,2046,260
193,193,0,2046,51
194,194,0,2046,0
195,195,0,2046,0
196,196,0,2046,120
197,197,0,2047,371
198,198,0,2046,717
199,199,0,2047,1139
200,200,0,2046,1610
201,201,0,2046,2108
202,202,0,2047,2601
203,203,0,2046,3062
204,204,0,2046,3464
205,205,0,2046,3786
206,206,0,2046,4007
207,207,0,2047,4095
208,208,0,2046,4095
209,209,0,2046,3979
210,210,0,2046,3740
211,211,0,2046,3405
212,212,0,2046,2991
213,213,0,2046,2523
214,214,0,2046,2028
215,215,0,2046,1532
216,216,0,2047,1065
217,217,0,2046,655
218,218,0,2046,323
219,219,0,2046,90
220,220,0,2046,0
221,221,0,2046,0
222,222,0,2047,77
223,223,0,2046,304
224,224,0,2046,629
225,225,0,2046,1034
226,226,0,2046,1497
227,227,0,2046,1991
228,228,0,2046,2488
229,229,0,2046,2960
230,230,0,2046,3377
231,231,0,2047,3719
232,232,0,2046,3965
233,233,0,2047,4095
234,234,0,2046,4095
235,235,0,2046,4019
236,236,0,2046,3804
237,237,0,2046,3491
238,238,0,2047,3093
239,239,0,2047,2636
240,240,0,2046,2143
241,241,0,2046,1645
242,242,0,2047,1170
243,243,0,2047,745
244,244,0,2047,393
245,245,0,2046,135
246,246,0,2047,0
247,247,0,2046,0
248,248,0,2046,40
249,249,0,2047,241
250,250,0,2046,545
251,251,0,2046,934
252,252,0,2046,1386
253,253,0,2047,1875
254,254,0,2047,2373
255,255,0,2047,2853
256,256,0,2047,3285
257,257,0,2046,3648
258,258,0,2046,3917
259,259,0,2047,4080
260,260,0,2046,4095
261,261,0,2046,4053
262,262,0,2046,3864
263,263,0,2046,3572
264,264,0,2046,3192
265,265,0,2047,2746
266,266,0,2047,2259
267,267,0,2046,1761
268,268,0,2046,1278
269,269,0,2046,838
270,270,0,2046,468
271,271,0,2047,185
272,272,0,2047,10
273,273,0,2046,0
274,274,0,2046,10
275,275,0,2046,185
276,276,0,2046,466
277,277,0,2047,837
278,278,0,2046,1276
279,279,0,2047,1759
280,280,0,2047,2258
281,281,0,2046,2745
282,282,0,2047,3191
283,283,0,2047,3571
284,284,0,2046,3864
285,285,0,2046,4052
286,286,0,2046,4095
287,287,0,2046,4080
288,288,0,2046,3919
289,289,0,2046,3649
290,290,0,2046,3287
291,291,0,2046,2855
292,292,0,2046,2375
293,293,0,2047,1876
294,294,0,2046,1387
295,295,0,2046,935
296,296,0,2047,547
297,297,0,2047,242
298,298,0,2046,40
299,299,0,2046,0
300,300,0,2046,0
301,301,0,2046,134
302,302,0,2046,392
303,303,0,2046,743
304,304,0,2047,1168
305,305,0,2047,1644
306,306,0,2046,2141
307,307,0,2046,2634
308,308,0,2047,3092
309,309,0,2046,3489
310,310,0,2046,3804
311,311,0,2047,4018
312,312,0,2046,4095
313,313,0,2046,4095
314,314,0,2047,3966
315,315,0,2046,3721
316,316,0,2046,3378
317,317,0,2046,2961
318,318,0,2047,2490
319,319,0,2046,1993
320,320,0,2046,1499
321,321,0,2046,1036
322,322,0,2046,631
323,323,0,2047,305
324,324,0,2047,78
325,325,0,2046,0
326,326,0,2046,0
327,327,0,2046,90
328,328,0,2046,322
329,329,0,2046,654
330,330,0,2047,1064
331,331,0,2047,1530
332,332,0,2047,2025
333,333,0,2046,2521
334,334,0,2046,2989
335,335,0,2047,3403
336,336,0,2047,3740
337,337,0,2046,3979
338,338,0,2046,4095
339,339,0,2046,4095
340,340,0,2047,4008
341,341,0,2046,3787
342,342,0,2046,3466
343,343,0,2046,3064
344,344,0,2046,2603
345,345,0,2047,2110
346,346,0,2046,1613
347,347,0,2046,1139
348,348,0,2046,718
349,349,0,2046,372
350,350,0,2046,121
351,351,0,2046,0
352,352,0,2046,0
353,353,0,2046,50
354,354,0,2046,259
355,355,0,2047,568
356,356,0,2046,962
357,357,0,2046,1418
358,358,0,2046,1909
359,359,0,2046,2407
360,360,0,2047,2883
361,361,0,2046,3313
362,362,0,2046,3669
363,363,0,2046,3931
364,364,0,2046,4087
365,365,0,2046,4095
366,366,0,2047,4043
367,367,0,2046,3848
368,368,0,2046,3549
369,369,0,2047,3164
370,370,0,2046,2714
371,371,0,2046,2226
372,372,0,2047,1727
373,373,0,2047,1247
374,374,0,2046,810
375,375,0,2046,445
376,376,0,2047,170
377,377,0,2046,3
378,378,0,2046,0
379,379,0,2047,18
380,380,0,2047,200
381,381,0,2046,488
382,382,0,2047,865
383,383,0,2046,1307
384,384,0,2046,1793
385,385,0,2047,2291
386,386,0,2047,2776
387,387,0,2046,3219
388,388,0,2047,3594
389,389,0,2046,3880
390,390,0,2047,4061
391,391,0,2046,4095
392,392,0,2046,4073
393,393,0,2046,3903
394,394,0,2046,3626
395,395,0,2047,3260
396,396,0,2047,2823
397,397,0,2046,2341
398,398,0,2046,1843
399,399,0,2046,1355
400,400,0,2046,907
401,401,0,2046,523
402,402,0,2046,226
403,403,0,2046,31
404,404,0,2046,0
405,405,0,2047,0
406,406,0,2046,148
407,407,0,2047,413
408,408,0,2046,770
409,409,0,2047,1199
410,410,0,2046,1677
411,411,0,2047,2175
412,412,0,2046,2665
413,413,0,2047,3121
414,414,0,2046,3513
415,415,0,2046,3822
416,416,0,2046,4029
417,417,0,2046,4095
418,418,0,2047,4095
419,419,0,2046,3952
420,420,0,2046,3700
421,421,0,2047,3352
422,422,0,2046,2930
423,423,0,2046,2456
424,424,0,2046,1959
425,425,0,2046,1467
426,426,0,2046,1006
427,427,0,2046,605
428,428,0,2046,286
429,429,0,2047,67
430,430,0,2046,0
431,431,0,2046,0
432,432,0,2046,102
433,433,0,2046,342
434,434,0,2047,679
435,435,0,2046,1095
436,436,0,2046,1563
437,437,0,2047,2060
438,438,0,2046,2554
439,439,0,2046,3019
440,440,0,2046,3429
441,441,0,2046,3758
442,442,0,2046,3991
443,443,0,2046,4095
444,444,0,2046,4095
445,445,0,2046,3997
446,446,0,2046,3768
447,447,0,2046,3441
448,448,0,2046,3034
449,449,0,2046,2570
450,450,0,2046,2075
451,451,0,2046,1579
452,452,0,2046,1109
453,453,0,2045,692
454,454,0,2046,352
455,455,0,2046,108
456,456,0,2046,0
457,457,0,2046,0
458,458,0,2047,60
459,459,0,2047,277
460,460,0,2046,593
461,461,0,2046,992
462,462,0,2046,1450
463,463,0,2047,1942
464,464,0,2046,2440
465,465,0,2047,2915
466,466,0,2047,3339
467,467,0,2047,3690
468,468,0,2047,3947
469,469,0,2046,4094
470,470,0,2046,4095
471,471,0,2047,4034
472,472,0,2046,3831
473,473,0,2046,3525
474,474,0,2046,3135
475,475,0,2047,2682
476,476,0,2046,2191
477,477,0,2047,1694
478,478,0,2047,1215
479,479,0,2047,783
480,480,0,2046,423
481,481,0,2046,155
482,482,0,2047,0
483,483,0,2047,0
484,484,0,2046,26
485,485,0,2047,218
486,486,0,2046,512
487,487,0,2047,893
488,488,0,2046,1340
489,489,0,2047,1826
490,490,0,2046,2325
491,491,0,2046,2808
492,492,0,2047,3247
493,493,0,2046,3616
494,494,0,2046,3896
495,495,0,2046,4069
496,496,0,2047,4095
497,497,0,2047,4065
498,498,0,2046,3888
499,499,0,2047,3605
500,500,0,2047,3232
501,501,0,2046,2792
502,502,0,2046,2308
503,503,0,2046,1809
504,504,0,2046,1323
505,505,0,2046,878
506,506,0,2047,499
507,507,0,2046,209
508,508,0,2047,22
509,509,0,2046,0
510,510,0,2046,0
511,511,0,2046,163
512,512,0,2046,435
513,513,0,2046,798
514,514,0,2046,1230
515,515,0,2046,1711
516,516,0,2046,2209
517,517,0,2046,2698
518,518,0,2046,3150
519,519,0,2046,3537
520,520,0,2045,3840
521,521,0,2046,4039
522,522,0,2047,4095
523,523,0,2046,4090
524,524,0,2046,3939
525,525,0,2046,3679
526,526,0,2046,3326
527,527,0,2046,2900
528,528,0,2046,2423
529,529,0,2046,1925
530,530,0,2046,1434
531,531,0,2047,976
532,532,0,2046,581
533,533,0,2047,267
534,534,0,2046,56
535,535,0,2047,0
536,536,0,2047,0
537,537,0,2046,114
538,538,0,2046,362
539,539,0,2047,706
540,540,0,2046,1124
541,541,0,2046,1596
542,542,0,2046,2093
543,543,0,2046,2586
544,544,0,2047,3048
545,545,0,2046,3453
546,546,0,2047,3777
547,547,0,2046,4002
548,548,0,2046,4095
549,549,0,2046,4095
550,550,0,2046,3984
551,551,0,2046,3748
552,552,0,2047,3415
553,553,0,2046,3004
554,554,0,2047,2537
555,555,0,2046,2041
556,556,0,2046,1546
557,557,0,2047,1078
558,558,0,2046,666
559,559,0,2046,332
560,560,0,2046,95
561,561,0,2046,0
562,562,0,2047,0
563,563,0,2046,72
564,564,0,2046,295
565,565,0,2046,618
566,566,0,2046,1022
567,567,0,2046,1483
568,568,0,2046,1976
569,569,0,2046,2473
570,570,0,2047,2946
571,571,0,2047,3366
572,572,0,2046,3711
573,573,0,2046,3960
574,574,0,2046,4095
575,575,0,2046,4095
576,576,0,2046,4024
577,577,0,2046,3812
578,578,0,2047,3500
579,579,0,2046,3106
580,580,0,2047,2649
581,581,0,2047,2158
582,582,0,2047,1659
583,583,0,2046,1183
584,584,0,2047,756
585,585,0,2046,402
586,586,0,2046,141
587,587,0,2046,0
588,588,0,2046,0
589,589,0,2046,35
590,590,0,2046,233
591,591,0,2046,534
592,592,0,2047,921
593,593,0,2046,1372
594,594,0,2046,1860
595,595,0,2046,2358
596,596,0,2047,2839
597,597,0,2046,3274
598,598,0,2047,3638
599,599,0,2046,3911
600,600,0,2046,4077
601,601,0,2046,4095
602,602,0,2046,4057
603,603,0,2046,3872
604,604,0,2046,3582
605,605,0,2046,3204
606,606,0,2046,2760
607,607,0,2046,2274
608,608,0,2047,1775
609,609,0,2046,1291
610,610,0,2046,850
611,611,0,2046,477
612,612,0,2046,193
613,613,0,2046,14
614,614,0,2046,0
615,615,0,2046,6
616,616,0,2046,178
617,617,0,2046,456
618,618,0,2047,825
619,619,0,2046,1262
620,620,0,2047,1744
621,621,0,2047,2243
622,622,0,2047,2730
623,623,0,2046,3178
624,624,0,2046,3561
625,625,0,2046,3856
626,626,0,2046,4047
627,627,0,2046,4095
628,628,0,2046,4084
629,629,0,2046,3924
630,630,0,2046,3658
631,631,0,2047,3299
632,632,0,2046,2867
633,633,0,2046,2390
634,634,0,2046,1891
635,635,0,2046,1401
636,636,0,2047,948
637,637,0,2047,557
638,638,0,2046,250
639,639,0,2046,45
640,640,0,2046,0
641,641,0,2046,0
642,642,0,2046,128
643,643,0,2046,383
644,644,0,2047,732
645,645,0,2046,1155
646,646,0,2046,1629
647,647,0,2046,2126
648,648,0,2046,2619
649,649,0,2046,3078
650,650,0,2046,3479
651,651,0,2046,3796
652,652,0,2047,4014
653,653,0,2046,4095
654,654,0,2046,4095
655,655,0,2046,3971
656,656,0,2046,3729
657,657,0,2046,3389
658,658,0,2046,2974
659,659,0,2046,2505
660,660,0,2046,2008
661,661,0,2047,1513
662,662,0,2046,1048
663,663,0,2046,641
664,664,0,2047,312
665,665,0,2046,83
666,666,0,2046,0
667,667,0,2047,0
668,668,0,2046,84
669,669,0,2046,314
670,670,0,2047,643
671,671,0,2046,1051
672,672,0,2046,1516
673,673,0,2046,2010
674,674,0,2046,2506
675,675,0,2046,2976
676,676,0,2046,3392
677,677,0,2046,3730
678,678,0,2046,3973
679,679,0,2046,4095
680,680,0,2046,4095
681,681,0,2046,4013
682,682,0,2046,3795
683,683,0,2047,3476
684,684,0,2047,3076
685,685,0,2046,2617
686,686,0,2046,2124
687,687,0,2046,1627
688,688,0,2047,1153
689,689,0,2046,729
690,690,0,2046,381
691,691,0,2047,126
692,692,0,2047,0
693,693,0,2046,0
694,694,0,2046,46
695,695,0,2046,251
696,696,0,2046,558
697,697,0,2047,950
698,698,0,2046,1404
699,699,0,2046,1894
700,700,0,2047,2392
701,701,0,2046,2870
702,702,0,2046,3301
703,703,0,2047,3659
704,704,0,2046,3926
705,705,0,2047,4084
706,706,0,2046,4095
707,707,0,2047,4048
708,708,0,2046,3855
709,709,0,2046,3558
710,710,0,2046,3175
711,711,0,2046,2728
712,712,0,2047,2241
713,713,0,2046,1741
714,714,0,2047,1260
715,715,0,2046,822
716,716,0,2047,454
717,717,0,2046,176
718,718,0,2046,5
719,719,0,2047,0
720,720,0,2046,14
721,721,0,2046,193
722,722,0,2047,478
723,723,0,2047,852
724,724,0,2046,1293
725,725,0,2046,1778
726,726,0,2046,2277
727,727,0,2046,2762
728,728,0,2047,3207
729,729,0,2046,3583
730,730,0,2046,3873
731,731,0,2046,4057
732,732,0,2047,4095
733,733,0,2046,4076
734,734,0,2046,3910
735,735,0,2047,3636
736,736,0,2046,3272
737,737,0,2046,2838
738,738,0,2047,2356
739,739,0,2046,1857
740,740,0,2046,1370
741,741,0,2046,919
742,742,0,2047,533
743,743,0,2047,232
744,744,0,2046,35
745,745,0,2046,0
746,746,0,2046,0
747,747,0,2047,142
748,748,0,2047,403
749,749,0,2046,758
750,750,0,2046,1186
751,751,0,2046,1663
752,752,0,2047,2161
753,753,0,2046,2652
754,754,0,2046,3107
755,755,0,2046,3503
756,756,0,2046,3814
757,757,0,2047,4025
758,758,0,2047,4095
759,759,0,2046,4095
760,760,0,2047,3959
761,761,0,2046,3708
762,762,0,2046,3363
763,763,0,2046,2943
764,764,0,2046,2471
765,765,0,2047,1974
766,766,0,2046,1480
767,767,0,2046,1019
768,768,0,2047,616
769,769,0,2046,294
770,770,0,2046,71
771,771,0,2046,0
772,772,0,2046,0
773,773,0,2046,96
774,774,0,2046,334
775,775,0,2046,669
776,776,0,2046,1082
777,777,0,2047,1548
778,778,0,2047,2044
779,779,0,2046,2539
780,780,0,2046,3007
781,781,0,2046,3418
782,782,0,2047,3750
783,783,0,2046,3985
784,784,0,2046,4095
785,785,0,2046,4095
786,786,0,2047,4001
787,787,0,2046,3776
788,788,0,2046,3452
789,789,0,2046,3046
790,790,0,2046,2584
791,791,0,2047,2091
792,792,0,2046,1593
793,793,0,2046,1123
794,794,0,2046,703
795,795,0,2047,360
796,796,0,2046,113
797,797,0,2046,0
798,798,0,2046,0
799,799,0,2046,56
800,800,0,2047,269
801,801,0,2046,582
802,802,0,2047,979
803,803,0,2046,1436
804,804,0,2047,1928
805,805,0,2046,2426
806,806,0,2047,2902
807,807,0,2047,3328
808,808,0,2046,3681
809,809,0,2047,3940
810,810,0,2046,4091
811,811,0,2046,4095
812,812,0,2047,4038
813,813,0,2046,3839
814,814,0,2047,3536
815,815,0,2046,3147
816,816,0,2046,2696
817,817,0,2046,2207
818,818,0,2047,1709
819,819,0,2046,1228
820,820,0,2046,795
821,821,0,2047,432
822,822,0,2047,162
823,823,0,2046,0
824,824,0,2047,0
825,825,0,2047,23
826,826,0,2046,209
827,827,0,2046,502
828,828,0,2046,881
829,829,0,2047,1325
830,830,0,2047,1811
831,831,0,2047,2310
832,832,0,2046,2794
833,833,0,2046,3234
834,834,0,2046,3605
835,835,0,2046,3889
836,836,0,2046,4065
837,837,0,2046,4095
838,838,0,2046,4069
839,839,0,2047,3894
840,840,0,2046,3615
841,841,0,2046,3245
842,842,0,2046,2806
843,843,0,2046,2322
844,844,0,2046,1823
845,845,0,2046,1337
846,846,0,2046,890
847,847,0,2046,509
848,848,0,2046,216
849,849,0,2047,26
850,850,0,2046,0
851,851,0,2047,0
852,852,0,2047,156
853,853,0,2046,425
854,854,0,2046,786
855,855,0,2046,1217
856,856,0,2046,1696
857,857,0,2046,2195
858,858,0,2046,2684
859,859,0,2047,3137
860,860,0,2046,3527
861,861,0,2046,3832
862,862,0,2047,4035
863,863,0,2046,4095
864,864,0,2046,4093
865,865,0,2047,3945
866,866,0,2047,3688
867,867,0,2047,3337
868,868,0,2047,2913
869,869,0,2046,2438
870,870,0,2046,1940
871,871,0,2047,1448
872,872,0,2047,990
873,873,0,2047,591
874,874,0,2047,275
875,875,0,2046,60
876,876,0,2046,0
877,877,0,2046,0
878,878,0,2046,108
879,879,0,2046,353
880,880,0,2046,694
881,881,0,2047,1111
882,882,0,2046,1582
883,883,0,2046,2077
884,884,0,2047,2572
885,885,0,2046,3036
886,886,0,2046,3443
887,887,0,2047,3769
888,888,0,2046,3998
889,889,0,2046,4095
890,890,0,2046,4095
891,891,0,2046,3990
892,892,0,2047,3758
893,893,0,2046,3427
894,894,0,2046,3017
895,895,0,2046,2552
896,896,0,2046,2056
897,897,0,2046,1560
898,898,0,2047,1092
899,899,0,2046,678
900,900,0,2047,341
901,901,0,2046,100
902,902,0,2047,0
903,903,0,2046,0
904,904,0,2046,67
905,905,0,2047,287
906,906,0,2046,607
907,907,0,2046,1009
908,908,0,2046,1468
909,909,0,2047,1962
910,910,0,2047,2459
911,911,0,2046,2932
912,912,0,2046,3354
913,913,0,2047,3702
914,914,0,2046,3954
915,915,0,2047,4095
916,916,0,2046,4095
917,917,0,2046,4028
918,918,0,2046,3820
919,919,0,2046,3512
920,920,0,2046,3118
921,921,0,2046,2664
922,922,0,2047,2172
923,923,0,2046,1675
924,924,0,2046,1197
925,925,0,2046,768
926,926,0,2046,411
927,927,0,2046,146
928,928,0,2046,0
929,929,0,2046,0
930,930,0,2046,32
931,931,0,2046,226
932,932,0,2046,524
933,933,0,2046,909
934,934,0,2047,1358
935,935,0,2046,1845
936,936,0,2046,2344
937,937,0,2046,2825
938,938,0,2046,3262
939,939,0,2046,3630
940,940,0,2047,3905
941,941,0,2046,4074
942,942,0,2047,4095
943,943,0,2046,4060
944,944,0,2047,3879
945,945,0,2046,3592
946,946,0,2047,3217
947,947,0,2046,2773
948,948,0,2047,2288
949,949,0,2046,1790
950,950,0,2046,1306
951,951,0,2046,862
952,952,0,2047,486
953,953,0,2046,199
954,954,0,2046,16
955,955,0,2046,0
956,956,0,2047,2
957,957,0,2047,171
958,958,0,2046,446
959,959,0,2047,812
960,960,0,2047,1249
961,961,0,2047,1729
962,962,0,2046,2229
963,963,0,2046,2716
964,964,0,2047,3165
965,965,0,2046,3551
966,966,0,2046,3849
967,967,0,2046,4044
968,968,0,2047,4095
969,969,0,2046,4086
970,970,0,2046,3930
971,971,0,2047,3667
972,972,0,2047,3310
973,973,0,2046,2882
974,974,0,2046,2404
975,975,0,2047,1906
976,976,0,2047,1416
977,977,0,2047,960
978,978,0,2046,567
979,979,0,2047,257
980,980,0,2046,50
981,981,0,2046,0
982,982,0,2046,0
983,983,0,2046,122
984,984,0,2046,374
985,985,0,2047,720
986,986,0,2046,1141
987,987,0,2046,1615
988,988,0,2047,2112
989,989,0,2046,2605
990,990,0,2046,3066
991,991,0,2046,3468
992,992,0,2047,3788
993,993,0,2046,4010
994,994,0,2046,4095
995,995,0,2047,4095
996,996,0,2047,3977
997,997,0,2046,3737
998,998,0,2046,3402
999,999,0,2047,2987
1000,1000,0,2047,2518
1001,1001,0,2047,2022
1002,1002,0,2046,1527
1003,1003,0,2047,1062
1004,1004,0,2046,652
1005,1005,0,2047,321
1006,1006,0,2047,87
1007,1007,0,2046,0
1008,1008,0,2047,0
1009,1009,0,2046,79
1010,1010,0,2046,306
1011,1011,0,2046,631
1012,1012,0,2046,1038
1013,1013,0,2046,1501
1014,1014,0,2046,1996
1015,1015,0,2047,2492
1016,1016,0,2046,2963
1017,1017,0,2047,3381
1018,1018,0,2047,3722
1019,1019,0,2047,3967
1020,1020,0,2046,4095
1021,1021,0,2046,4095
1022,1022,0,2046,4018
1023,1023,0,2046,3803
1024,1024,0,2047,3487
1025,1025,0,2046,3089
1026,1026,0,2046,2631
1027,1027,0,2047,2139
1028,1028,0,2046,1641
1029,1029,0,2046,1166
