Sample in Buffer,Sample in Window,TRIGGER,adc1_data_a_d0[11:0],adc1_data_b_d0[11:0]
0,0,0,2046,2313
1,1,0,2046,1482
2,2,0,2047,743
3,3,0,2046,211
4,4,0,2047,0
5,5,0,2047,71
6,6,0,2047,486
7,7,0,2047,1151
8,8,0,2047,1960
9,9,0,2047,2781
10,10,0,2047,3483
11,11,0,2046,3950
12,12,0,2046,4095
13,13,0,2046,3934
14,14,0,2046,3453
15,15,0,2046,2743
16,16,0,2046,1919
17,17,0,2047,1115
18,18,0,2046,458
19,19,0,2046,59
20,20,0,2046,0
21,21,0,2046,230
22,22,0,2046,774
23,23,0,2046,1522
24,24,0,2046,2355
25,25,0,2047,3134
26,26,0,2046,3738
27,27,0,2047,4068
28,28,0,2046,4068
29,29,0,2046,3742
30,30,0,2046,3140
31,31,0,2046,2359
32,32,0,2046,1528
33,33,0,2046,779
34,34,0,2047,233
35,35,0,2046,0
36,36,0,2046,57
37,37,0,2047,455
38,38,0,2046,1109
39,39,0,2046,1913
40,40,0,2046,2738
41,41,0,2046,3448
42,42,0,2046,3932
43,43,0,2046,4095
44,44,0,2046,3954
45,45,0,2047,3487
46,46,0,2046,2786
47,47,0,2047,1965
48,48,0,2046,1157
49,49,0,2046,490
50,50,0,2047,74
51,51,0,2046,0
52,52,0,2046,208
53,53,0,2047,738
54,54,0,2046,1477
55,55,0,2047,2308
56,56,0,2047,3095
57,57,0,2046,3711
58,58,0,2047,4058
59,59,0,2047,4078
60,60,0,2046,3769
61,61,0,2047,3180
62,62,0,2046,2406
63,63,0,2046,1574
64,64,0,2046,817
65,65,0,2046,257
66,66,0,2047,0
67,67,0,2046,43
68,68,0,2046,425
69,69,0,2046,1067
70,70,0,2046,1866
71,71,0,2047,2692
72,72,0,2046,3413
73,73,0,2046,3913
74,74,0,2046,4095
75,75,0,2046,3971
76,76,0,2046,3520
77,77,0,2047,2830
78,78,0,2047,2013
79,79,0,2046,1199
80,80,0,2046,521
81,81,0,2046,89
82,82,0,2047,0
83,83,0,2047,187
84,84,0,2047,701
85,85,0,2046,1432
86,86,0,2047,2261
87,87,0,2046,3054
88,88,0,2046,3683
89,89,0,2047,4046
90,90,0,2046,4085
91,91,0,2046,3794
92,92,0,2046,3218
93,93,0,2047,2452
94,94,0,2047,1621
95,95,0,2047,855
96,96,0,2047,281
97,97,0,2047,0
98,98,0,2047,31
99,99,0,2046,396
100,100,0,2047,1026
101,101,0,2046,1820
102,102,0,2047,2648
103,103,0,2047,3378
104,104,0,2047,3892
105,105,0,2047,4095
106,106,0,2047,3988
107,107,0,2046,3553
108,108,0,2047,2874
109,109,0,2046,2059
110,110,0,2047,1242
111,111,0,2046,554
112,112,0,2046,105
113,113,0,2047,0
114,114,0,2046,166
115,115,0,2046,666
116,116,0,2047,1388
117,117,0,2046,2214
118,118,0,2047,3013
119,119,0,2046,3654
120,120,0,2046,4034
121,121,0,2047,4092
122,122,0,2046,3818
123,123,0,2047,3256
124,124,0,2046,2499
125,125,0,2046,1666
126,126,0,2046,893
127,127,0,2046,307
128,128,0,2047,0
129,129,0,2047,21
130,130,0,2047,368
131,131,0,2047,985
132,132,0,2047,1772
133,133,0,2046,2602
134,134,0,2046,3342
135,135,0,2047,3871
136,136,0,2047,4095
137,137,0,2047,4003
138,138,0,2046,3584
139,139,0,2046,2916
140,140,0,2047,2107
141,141,0,2047,1285
142,142,0,2047,587
143,143,0,2046,122
144,144,0,2046,0
145,145,0,2046,147
146,146,0,2046,631
147,147,0,2046,1343
148,148,0,2047,2167
149,149,0,2047,2971
150,150,0,2047,3624
151,151,0,2046,4021
152,152,0,2047,4095
153,153,0,2046,3842
154,154,0,2046,3294
155,155,0,2046,2544
156,156,0,2047,1712
157,157,0,2047,934
158,158,0,2046,333
159,159,0,2047,7
160,160,0,2046,10
161,161,0,2047,341
162,162,0,2046,945
163,163,0,2046,1726
164,164,0,2047,2558
165,165,0,2047,3305
166,166,0,2046,3849
167,167,0,2046,4095
168,168,0,2046,4017
169,169,0,2046,3615
170,170,0,2047,2958
171,171,0,2047,2153
172,172,0,2046,1330
173,173,0,2046,621
174,174,0,2047,140
175,175,0,2048,0
176,176,0,2046,128
177,177,0,2046,597
178,178,0,2047,1299
179,179,0,2046,2120
180,180,0,2046,2929
181,181,0,2047,3593
182,182,0,2047,4007
183,183,0,2046,4095
184,184,0,2047,3864
185,185,0,2046,3331
186,186,0,2047,2590
187,187,0,2047,1759
188,188,0,2047,973
189,189,0,2046,361
190,190,0,2047,18
191,191,0,2046,1
192,192,0,2047,314
193,193,0,2046,905
194,194,0,2047,1680
195,195,0,2046,2512
196,196,0,2046,3268
197,197,0,2046,3825
198,198,0,2047,4094
199,199,0,2046,4031
200,200,0,2046,3646
201,201,0,2046,3000
202,202,0,2046,2200
203,203,0,2046,1374
204,204,0,2047,655
205,205,0,2046,160
206,206,0,2046,0
207,207,0,2046,110
208,208,0,2047,563
209,209,0,2046,1256
210,210,0,2046,2073
211,211,0,2046,2886
212,212,0,2046,3562
213,213,0,2047,3991
214,214,0,2046,4095
215,215,0,2047,3886
216,216,0,2046,3367
217,217,0,2047,2635
218,218,0,2046,1805
219,219,0,2046,1014
220,220,0,2047,388
221,221,0,2047,29
222,222,0,2047,0
223,223,0,2047,289
224,224,0,2046,867
225,225,0,2046,1634
226,226,0,2046,2466
227,227,0,2047,3229
228,228,0,2047,3801
229,229,0,2047,4087
230,230,0,2047,4043
231,231,0,2047,3675
232,232,0,2046,3041
233,233,0,2046,2247
234,234,0,2046,1419
235,235,0,2047,690
236,236,0,2047,180
237,237,0,2047,0
238,238,0,2046,93
239,239,0,2046,531
240,240,0,2046,1212
241,241,0,2046,2027
242,242,0,2046,2843
243,243,0,2047,3529
244,244,0,2046,3976
245,245,0,2046,4095
246,246,0,2046,3907
247,247,0,2046,3404
248,248,0,2046,2679
249,249,0,2046,1852
250,250,0,2047,1054
251,251,0,2047,416
252,252,0,2046,40
253,253,0,2046,0
254,254,0,2047,264
255,255,0,2046,828
256,256,0,2047,1587
257,257,0,2047,2420
258,258,0,2047,3190
259,259,0,2047,3775
260,260,0,2047,4080
261,261,0,2046,4055
262,262,0,2046,3703
263,263,0,2046,3083
264,264,0,2046,2294
265,265,0,2047,1463
266,266,0,2046,727
267,267,0,2046,202
268,268,0,2046,0
269,269,0,2047,77
270,270,0,2047,499
271,271,0,2046,1170
272,272,0,2046,1980
273,273,0,2046,2800
274,274,0,2046,3497
275,275,0,2046,3958
276,276,0,2047,4095
277,277,0,2047,3927
278,278,0,2047,3438
279,279,0,2047,2724
280,280,0,2046,1899
281,281,0,2046,1096
282,282,0,2046,446
283,283,0,2047,53
284,284,0,2046,0
285,285,0,2046,240
286,286,0,2046,790
287,287,0,2046,1542
288,288,0,2046,2374
289,289,0,2047,3151
290,290,0,2047,3750
291,291,0,2046,4072
292,292,0,2046,4065
293,293,0,2046,3730
294,294,0,2046,3123
295,295,0,2047,2340
296,296,0,2046,1510
297,297,0,2047,763
298,298,0,2046,224
299,299,0,2046,0
300,300,0,2046,63
301,301,0,2046,467
302,302,0,2047,1127
303,303,0,2047,1933
304,304,0,2046,2756
305,305,0,2047,3463
306,306,0,2046,3940
307,307,0,2047,4095
308,308,0,2046,3946
309,309,0,2046,3473
310,310,0,2047,2768
311,311,0,2047,1945
312,312,0,2046,1139
313,313,0,2047,477
314,314,0,2047,68
315,315,0,2047,0
316,316,0,2046,218
317,317,0,2046,754
318,318,0,2046,1497
319,319,0,2047,2328
320,320,0,2046,3111
321,321,0,2047,3723
322,322,0,2047,4062
323,323,0,2047,4074
324,324,0,2047,3758
325,325,0,2046,3162
326,326,0,2046,2387
327,327,0,2047,1555
328,328,0,2046,800
329,329,0,2046,246
330,330,0,2046,0
331,331,0,2047,49
332,332,0,2047,437
333,333,0,2047,1085
334,334,0,2046,1886
335,335,0,2047,2711
336,336,0,2047,3429
337,337,0,2047,3921
338,338,0,2047,4095
339,339,0,2047,3963
340,340,0,2047,3506
341,341,0,2046,2811
342,342,0,2046,1993
343,343,0,2046,1181
344,344,0,2046,508
345,345,0,2047,82
346,346,0,2046,0
347,347,0,2046,196
348,348,0,2046,717
349,349,0,2047,1452
350,350,0,2046,2281
351,351,0,2047,3071
352,352,0,2046,3695
353,353,0,2046,4052
354,354,0,2046,4082
355,355,0,2046,3783
356,356,0,2046,3202
357,357,0,2046,2432
358,358,0,2047,1600
359,359,0,2046,839
360,360,0,2046,270
361,361,0,2047,0
362,362,0,2046,37
363,363,0,2047,408
364,364,0,2046,1044
365,365,0,2047,1839
366,366,0,2047,2667
367,367,0,2047,3393
368,368,0,2046,3902
369,369,0,2047,4095
370,370,0,2046,3980
371,371,0,2046,3539
372,372,0,2046,2855
373,373,0,2046,2039
374,374,0,2047,1224
375,375,0,2046,540
376,376,0,2046,98
377,377,0,2046,0
378,378,0,2047,174
379,379,0,2047,680
380,380,0,2046,1406
381,381,0,2046,2235
382,382,0,2046,3030
383,383,0,2046,3667
384,384,0,2046,4040
385,385,0,2047,4089
386,386,0,2046,3807
387,387,0,2046,3240
388,388,0,2047,2479
389,389,0,2046,1646
390,390,0,2047,877
391,391,0,2046,296
392,392,0,2046,0
393,393,0,2046,25
394,394,0,2046,380
395,395,0,2046,1003
396,396,0,2047,1793
397,397,0,2046,2622
398,398,0,2046,3357
399,399,0,2047,3880
400,400,0,2047,4095
401,401,0,2047,3996
402,402,0,2047,3571
403,403,0,2046,2898
404,404,0,2046,2085
405,405,0,2047,1267
406,406,0,2047,572
407,407,0,2047,114
408,408,0,2046,0
409,409,0,2046,154
410,410,0,2046,646
411,411,0,2047,1362
412,412,0,2046,2187
413,413,0,2046,2989
414,414,0,2046,3637
415,415,0,2047,4027
416,416,0,2047,4095
417,417,0,2046,3831
418,418,0,2046,3278
419,419,0,2047,2524
420,420,0,2046,1692
421,421,0,2047,917
422,422,0,2047,322
423,423,0,2046,4
424,424,0,2047,15
425,425,0,2046,352
426,426,0,2046,962
427,427,0,2047,1746
428,428,0,2047,2577
429,429,0,2046,3321
430,430,0,2046,3859
431,431,0,2046,4095
432,432,0,2046,4011
433,433,0,2046,3602
434,434,0,2046,2940
435,435,0,2047,2133
436,436,0,2047,1311
437,437,0,2046,605
438,438,0,2046,133
439,439,0,2046,0
440,440,0,2046,136
441,441,0,2046,612
442,442,0,2047,1318
443,443,0,2046,2140
444,444,0,2046,2947
445,445,0,2047,3606
446,446,0,2046,4013
447,447,0,2047,4095
448,448,0,2047,3854
449,449,0,2047,3315
450,450,0,2047,2570
451,451,0,2046,1739
452,452,0,2046,956
453,453,0,2047,348
454,454,0,2046,13
455,455,0,2047,6
456,456,0,2046,326
457,457,0,2046,923
458,458,0,2045,1700
459,459,0,2047,2532
460,460,0,2046,3284
461,461,0,2047,3836
462,462,0,2046,4095
463,463,0,2046,4025
464,464,0,2047,3632
465,465,0,2047,2982
466,466,0,2047,2180
467,467,0,2046,1356
468,468,0,2046,640
469,469,0,2046,152
470,470,0,2047,0
471,471,0,2046,117
472,472,0,2046,578
473,473,0,2047,1274
474,474,0,2047,2094
475,475,0,2047,2905
476,476,0,2047,3576
477,477,0,2046,3998
478,478,0,2047,4095
479,479,0,2046,3878
480,480,0,2047,3352
481,481,0,2046,2615
482,482,0,2046,1785
483,483,0,2047,997
484,484,0,2046,376
485,485,0,2046,24
486,486,0,2047,0
487,487,0,2046,300
488,488,0,2047,883
489,489,0,2047,1654
490,490,0,2046,2487
491,491,0,2047,3246
492,492,0,2046,3812
493,493,0,2046,4091
494,494,0,2046,4038
495,495,0,2046,3662
496,496,0,2046,3024
497,497,0,2047,2227
498,498,0,2046,1400
499,499,0,2046,676
500,500,0,2047,171
501,501,0,2047,0
502,502,0,2046,100
503,503,0,2047,546
504,504,0,2047,1230
505,505,0,2046,2047
506,506,0,2047,2861
507,507,0,2046,3544
508,508,0,2047,3983
509,509,0,2046,4095
510,510,0,2047,3898
511,511,0,2046,3388
512,512,0,2046,2660
513,513,0,2047,1832
514,514,0,2046,1037
515,515,0,2046,404
516,516,0,2047,36
517,517,0,2047,0
518,518,0,2046,275
519,519,0,2046,845
520,520,0,2046,1608
521,521,0,2047,2440
522,522,0,2046,3207
523,523,0,2047,3786
524,524,0,2047,4083
525,525,0,2046,4049
526,526,0,2047,3691
527,527,0,2047,3064
528,528,0,2046,2274
529,529,0,2046,1444
530,530,0,2047,711
531,531,0,2047,192
532,532,0,2046,0
533,533,0,2047,85
534,534,0,2046,513
535,535,0,2047,1188
536,536,0,2047,2000
537,537,0,2046,2819
538,538,0,2047,3511
539,539,0,2047,3966
540,540,0,2046,4095
541,541,0,2047,3919
542,542,0,2047,3424
543,543,0,2047,2704
544,544,0,2046,1879
545,545,0,2046,1078
546,546,0,2046,433
547,547,0,2046,47
548,548,0,2047,0
549,549,0,2047,250
550,550,0,2047,807
551,551,0,2046,1562
552,552,0,2046,2394
553,553,0,2047,3169
554,554,0,2047,3760
555,555,0,2046,4076
556,556,0,2046,4059
557,557,0,2047,3719
558,558,0,2046,3106
559,559,0,2046,2320
560,560,0,2047,1489
561,561,0,2046,748
562,562,0,2047,214
563,563,0,2046,0
564,564,0,2047,69
565,565,0,2046,481
566,566,0,2046,1145
567,567,0,2046,1954
568,568,0,2046,2775
569,569,0,2047,3478
570,570,0,2046,3948
571,571,0,2046,4095
572,572,0,2047,3938
573,573,0,2046,3458
574,574,0,2046,2748
575,575,0,2047,1925
576,576,0,2046,1120
577,577,0,2046,463
578,578,0,2046,62
579,579,0,2046,0
580,580,0,2046,227
581,581,0,2046,769
582,582,0,2047,1516
583,583,0,2046,2348
584,584,0,2046,3129
585,585,0,2047,3735
586,586,0,2047,4066
587,587,0,2047,4070
588,588,0,2046,3746
589,589,0,2046,3145
590,590,0,2047,2366
591,591,0,2046,1535
592,592,0,2046,784
593,593,0,2046,237
594,594,0,2046,0
595,595,0,2047,56
596,596,0,2046,451
597,597,0,2046,1103
598,598,0,2046,1906
599,599,0,2046,2731
600,600,0,2046,3444
601,601,0,2046,3930
602,602,0,2046,4095
603,603,0,2047,3956
604,604,0,2047,3491
605,605,0,2046,2792
606,606,0,2046,1972
607,607,0,2046,1162
608,608,0,2046,494
609,609,0,2046,75
610,610,0,2047,0
611,611,0,2046,205
612,612,0,2046,733
613,613,0,2047,1471
614,614,0,2046,2301
615,615,0,2046,3089
616,616,0,2046,3707
617,617,0,2046,4056
618,618,0,2046,4079
619,619,0,2045,3772
620,620,0,2046,3185
621,621,0,2046,2413
622,622,0,2046,1580
623,623,0,2047,822
624,624,0,2047,260
625,625,0,2046,0
626,626,0,2047,42
627,627,0,2047,421
628,628,0,2046,1062
629,629,0,2046,1859
630,630,0,2046,2686
631,631,0,2047,3409
632,632,0,2047,3910
633,633,0,2046,4095
634,634,0,2047,3973
635,635,0,2046,3525
636,636,0,2046,2837
637,637,0,2047,2019
638,638,0,2046,1205
639,639,0,2046,526
640,640,0,2046,91
641,641,0,2047,0
642,642,0,2047,183
643,643,0,2047,697
644,644,0,2046,1426
645,645,0,2047,2256
646,646,0,2047,3048
647,647,0,2046,3678
648,648,0,2046,4045
649,649,0,2046,4086
650,650,0,2047,3797
651,651,0,2047,3224
652,652,0,2046,2459
653,653,0,2047,1626
654,654,0,2046,860
655,655,0,2047,285
656,656,0,2046,0
657,657,0,2047,30
658,658,0,2046,393
659,659,0,2046,1020
660,660,0,2047,1813
661,661,0,2047,2642
662,662,0,2046,3373
663,663,0,2046,3889
664,664,0,2047,4095
665,665,0,2047,3990
666,666,0,2047,3556
667,667,0,2046,2879
668,668,0,2046,2066
669,669,0,2046,1248
670,670,0,2047,558
671,671,0,2046,107
672,672,0,2046,0
673,673,0,2046,163
674,674,0,2047,660
675,675,0,2046,1381
676,676,0,2047,2208
677,677,0,2046,3007
678,678,0,2046,3650
679,679,0,2046,4033
680,680,0,2046,4093
681,681,0,2046,3822
682,682,0,2047,3262
683,683,0,2046,2504
684,684,0,2046,1672
685,685,0,2047,899
686,686,0,2046,310
687,687,0,2047,0
688,688,0,2047,19
689,689,0,2046,364
690,690,0,2047,980
691,691,0,2047,1767
692,692,0,2047,2597
693,693,0,2047,3337
694,694,0,2046,3868
695,695,0,2046,4095
696,696,0,2047,4005
697,697,0,2046,3588
698,698,0,2047,2922
699,699,0,2047,2113
700,700,0,2046,1292
701,701,0,2047,591
702,702,0,2046,125
703,703,0,2047,0
704,704,0,2046,144
705,705,0,2047,626
706,706,0,2047,1337
707,707,0,2046,2161
708,708,0,2046,2965
709,709,0,2047,3620
710,710,0,2047,4018
711,711,0,2046,4095
712,712,0,2046,3845
713,713,0,2046,3299
714,714,0,2046,2550
715,715,0,2046,1719
716,716,0,2046,938
717,717,0,2047,337
718,718,0,2046,9
719,719,0,2047,9
720,720,0,2047,337
721,721,0,2047,940
722,722,0,2047,1720
723,723,0,2046,2551
724,724,0,2046,3301
725,725,0,2047,3845
726,726,0,2047,4095
727,727,0,2047,4020
728,728,0,2046,3619
729,729,0,2047,2964
730,730,0,2047,2160
731,731,0,2046,1335
732,732,0,2046,625
733,733,0,2046,143
734,734,0,2047,0
735,735,0,2047,125
736,736,0,2046,592
737,737,0,2047,1294
738,738,0,2046,2114
739,739,0,2047,2923
740,740,0,2046,3589
741,741,0,2047,4005
742,742,0,2047,4095
743,743,0,2047,3868
744,744,0,2046,3336
745,745,0,2046,2596
746,746,0,2046,1765
747,747,0,2046,979
748,748,0,2046,364
749,749,0,2046,19
750,750,0,2046,0
751,751,0,2047,311
752,752,0,2046,900
753,753,0,2046,1674
754,754,0,2047,2506
755,755,0,2046,3263
756,756,0,2047,3822
757,757,0,2046,4093
758,758,0,2046,4033
759,759,0,2047,3649
760,760,0,2046,3006
761,761,0,2046,2207
762,762,0,2047,1380
763,763,0,2046,660
764,764,0,2047,163
765,765,0,2047,0
766,766,0,2047,107
767,767,0,2047,559
768,768,0,2046,1249
769,769,0,2047,2067
770,770,0,2046,2880
771,771,0,2047,3558
772,772,0,2046,3990
773,773,0,2046,4095
774,774,0,2046,3889
775,775,0,2046,3372
776,776,0,2047,2640
777,777,0,2047,1812
778,778,0,2046,1020
779,779,0,2046,392
780,780,0,2046,30
781,781,0,2047,0
782,782,0,2047,285
783,783,0,2046,861
784,784,0,2046,1627
785,785,0,2046,2460
786,786,0,2047,3224
787,787,0,2047,3797
788,788,0,2047,4087
789,789,0,2047,4044
790,790,0,2047,3678
791,791,0,2047,3047
792,792,0,2047,2252
793,793,0,2046,1425
794,794,0,2046,696
795,795,0,2047,183
796,796,0,2047,0
797,797,0,2046,91
798,798,0,2047,526
799,799,0,2046,1206
800,800,0,2046,2020
801,801,0,2047,2837
802,802,0,2047,3525
803,803,0,2047,3973
804,804,0,2047,4095
805,805,0,2047,3910
806,806,0,2047,3408
807,807,0,2046,2685
808,808,0,2046,1858
809,809,0,2047,1060
810,810,0,2046,420
811,811,0,2046,42
812,812,0,2047,0
813,813,0,2046,260
814,814,0,2046,823
815,815,0,2046,1582
816,816,0,2046,2414
817,817,0,2047,3185
818,818,0,2046,3772
819,819,0,2046,4079
820,820,0,2045,4055
821,821,0,2046,3707
822,822,0,2046,3088
823,823,0,2046,2300
824,824,0,2046,1470
825,825,0,2046,731
826,826,0,2046,204
827,827,0,2047,0
828,828,0,2047,76
829,829,0,2047,494
830,830,0,2046,1163
831,831,0,2047,1974
832,832,0,2047,2794
833,833,0,2047,3493
834,834,0,2047,3956
835,835,0,2046,4095
836,836,0,2047,3929
837,837,0,2046,3443
838,838,0,2046,2730
839,839,0,2046,1905
840,840,0,2046,1102
841,841,0,2047,450
842,842,0,2047,55
843,843,0,2047,0
844,844,0,2046,237
845,845,0,2047,786
846,846,0,2047,1536
847,847,0,2046,2367
848,848,0,2047,3146
849,849,0,2047,3746
850,850,0,2046,4071
851,851,0,2046,4066
852,852,0,2046,3734
853,853,0,2046,3128
854,854,0,2046,2346
855,855,0,2047,1515
856,856,0,2046,768
857,857,0,2046,227
858,858,0,2046,0
859,859,0,2046,61
860,860,0,2047,464
861,861,0,2047,1121
862,862,0,2047,1927
863,863,0,2047,2750
864,864,0,2046,3458
865,865,0,2046,3937
866,866,0,2046,4095
867,867,0,2047,3948
868,868,0,2046,3476
869,869,0,2047,2773
870,870,0,2046,1951
871,871,0,2046,1144
872,872,0,2047,481
873,873,0,2047,70
874,874,0,2046,0
875,875,0,2046,214
876,876,0,2046,749
877,877,0,2046,1491
878,878,0,2046,2321
879,879,0,2047,3106
880,880,0,2046,3719
881,881,0,2047,4060
882,882,0,2047,4075
883,883,0,2046,3761
884,884,0,2046,3168
885,885,0,2046,2392
886,886,0,2046,1560
887,887,0,2046,806
888,888,0,2047,250
889,889,0,2046,0
890,890,0,2046,48
891,891,0,2047,434
892,892,0,2047,1080
893,893,0,2046,1880
894,894,0,2047,2706
895,895,0,2046,3424
896,896,0,2046,3919
897,897,0,2047,4095
898,898,0,2047,3966
899,899,0,2046,3510
900,900,0,2046,2818
901,901,0,2046,1999
902,902,0,2047,1186
903,903,0,2047,512
904,904,0,2046,84
905,905,0,2047,0
906,906,0,2047,193
907,907,0,2047,712
908,908,0,2046,1446
909,909,0,2046,2275
910,910,0,2046,3066
911,911,0,2047,3692
912,912,0,2046,4050
913,913,0,2046,4083
914,914,0,2047,3787
915,915,0,2046,3207
916,916,0,2046,2439
917,917,0,2047,1607
918,918,0,2046,844
919,919,0,2046,273
920,920,0,2046,0
921,921,0,2047,35
922,922,0,2047,404
923,923,0,2047,1038
924,924,0,2046,1833
925,925,0,2047,2661
926,926,0,2047,3388
927,927,0,2046,3898
928,928,0,2046,4095
929,929,0,2047,3983
930,930,0,2046,3543
931,931,0,2046,2861
932,932,0,2047,2046
933,933,0,2046,1229
934,934,0,2046,544
935,935,0,2047,100
936,936,0,2047,0
937,937,0,2046,171
938,938,0,2046,676
939,939,0,2047,1401
940,940,0,2046,2228
941,941,0,2046,3025
942,942,0,2047,3662
943,943,0,2046,4038
944,944,0,2047,4089
945,945,0,2046,3811
946,946,0,2046,3245
947,947,0,2046,2484
948,948,0,2047,1653
949,949,0,2046,882
950,950,0,2047,299
951,951,0,2046,0
952,952,0,2046,24
953,953,0,2046,376
954,954,0,2046,997
955,955,0,2046,1786
956,956,0,2046,2616
957,957,0,2046,3352
958,958,0,2047,3877
959,959,0,2047,4095
960,960,0,2046,3998
961,961,0,2046,3575
962,962,0,2047,2904
963,963,0,2046,2093
964,964,0,2047,1273
965,965,0,2046,577
966,966,0,2046,117
967,967,0,2047,0
968,968,0,2046,152
969,969,0,2046,641
970,970,0,2046,1357
971,971,0,2047,2181
972,972,0,2047,2983
973,973,0,2047,3632
974,974,0,2046,4026
975,975,0,2046,4095
976,976,0,2046,3835
977,977,0,2046,3283
978,978,0,2046,2531
979,979,0,2046,1699
980,980,0,2046,922
981,981,0,2047,325
982,982,0,2046,5
983,983,0,2046,13
984,984,0,2046,349
985,985,0,2047,957
986,986,0,2046,1740
987,987,0,2047,2571
988,988,0,2047,3316
989,989,0,2046,3855
990,990,0,2047,4095
991,991,0,2046,4013
992,992,0,2046,3607
993,993,0,2047,2946
994,994,0,2046,2139
995,995,0,2046,1317
996,996,0,2046,611
997,997,0,2046,136
998,998,0,2046,0
999,999,0,2047,133
1000,1000,0,2047,606
1001,1001,0,2046,1311
1002,1002,0,2046,2134
1003,1003,0,2047,2941
1004,1004,0,2046,3602
1005,1005,0,2046,4011
1006,1006,0,2046,4095
1007,1007,0,2047,3858
1008,1008,0,2046,3321
1009,1009,0,2047,2577
1010,1010,0,2047,1745
1011,1011,0,2046,961
1012,1012,0,2046,353
1013,1013,0,2047,15
1014,1014,0,2047,4
1015,1015,0,2047,321
1016,1016,0,2047,917
1017,1017,0,2046,1693
1018,1018,0,2047,2526
1019,1019,0,2047,3278
1020,1020,0,2046,3831
1021,1021,0,2047,4095
1022,1022,0,2047,4027
1023,1023,0,2047,3637
1024,1024,0,2046,2988
1025,1025,0,2047,2187
1026,1026,0,2046,1362
1027,1027,0,2046,645
1028,1028,0,2046,154
1029,1029,0,2046,0
