Sample in Buffer,Sample in Window,TRIGGER,adc1_data_a_d0[11:0],adc1_data_b_d0[11:0]
0,0,0,2046,1799
1,1,0,2046,857
2,2,0,2046,198
3,3,0,2046,0
4,4,0,2046,260
5,5,0,2046,967
6,6,0,2047,1930
7,7,0,2047,2920
8,8,0,2046,3697
9,9,0,2046,4076
10,10,0,2046,3965
11,11,0,2047,3391
12,12,0,2046,2491
13,13,0,2046,1484
14,14,0,2046,609
15,15,0,2046,77
16,16,0,2047,18
17,17,0,2046,444
18,18,0,2046,1254
19,19,0,2047,2252
20,20,0,2047,3199
21,21,0,2046,3866
22,22,0,2046,4095
23,23,0,2046,3829
24,24,0,2047,3132
25,25,0,2047,2173
26,26,0,2047,1182
27,27,0,2046,395
28,28,0,2046,4
29,29,0,2046,103
30,30,0,2046,666
31,31,0,2046,1560
32,32,0,2046,2568
33,33,0,2046,3450
34,34,0,2046,3991
35,35,0,2047,4064
36,36,0,2046,3650
37,37,0,2046,2847
38,38,0,2046,1851
39,39,0,2046,900
40,40,0,2046,222
41,41,0,2046,0
42,42,0,2047,235
43,43,0,2046,922
44,44,0,2046,1877
45,45,0,2047,2872
46,46,0,2046,3665
47,47,0,2046,4068
48,48,0,2046,3983
49,49,0,2046,3430
50,50,0,2046,2543
51,51,0,2046,1534
52,52,0,2046,647
53,53,0,2046,94
54,54,0,2046,8
55,55,0,2046,411
56,56,0,2046,1205
57,57,0,2046,2199
58,58,0,2046,3155
59,59,0,2046,3842
60,60,0,2046,4095
61,61,0,2047,3855
62,62,0,2046,3177
63,63,0,2046,2226
64,64,0,2046,1229
65,65,0,2046,428
66,66,0,2047,13
67,67,0,2046,85
68,68,0,2046,627
69,69,0,2046,1509
70,70,0,2047,2517
71,71,0,2046,3411
72,72,0,2046,3974
73,73,0,2046,4072
74,74,0,2046,3682
75,75,0,2046,2896
76,76,0,2046,1903
77,77,0,2046,943
78,78,0,2046,247
79,79,0,2047,0
80,80,0,2046,210
81,81,0,2047,877
82,82,0,2046,1825
83,83,0,2046,2823
84,84,0,2046,3633
85,85,0,2046,4059
86,86,0,2046,4000
87,87,0,2046,3470
88,88,0,2047,2594
89,89,0,2046,1586
90,90,0,2047,686
91,91,0,2046,112
92,92,0,2046,1
93,93,0,2046,379
94,94,0,2046,1157
95,95,0,2046,2146
96,96,0,2047,3109
97,97,0,2047,3816
98,98,0,2046,4094
99,99,0,2046,3878
100,100,0,2046,3221
101,101,0,2047,2278
102,102,0,2046,1278
103,103,0,2046,460
104,104,0,2046,23
105,105,0,2047,70
106,106,0,2046,589
107,107,0,2046,1457
108,108,0,2046,2465
109,109,0,2047,3370
110,110,0,2046,3956
111,111,0,2046,4079
112,112,0,2047,3712
113,113,0,2046,2944
114,114,0,2046,1956
115,115,0,2046,990
116,116,0,2046,274
117,117,0,2046,0
118,118,0,2047,186
119,119,0,2047,834
120,120,0,2046,1772
121,121,0,2047,2774
122,122,0,2046,3598
123,123,0,2047,4048
124,124,0,2047,4015
125,125,0,2046,3506
126,126,0,2046,2645
127,127,0,2046,1637
128,128,0,2046,726
129,129,0,2046,131
130,130,0,2047,0
131,131,0,2046,348
132,132,0,2047,1109
133,133,0,2047,2093
134,134,0,2046,3064
135,135,0,2046,3788
136,136,0,2047,4092
137,137,0,2047,3901
138,138,0,2046,3263
139,139,0,2047,2331
140,140,0,2046,1328
141,141,0,2046,495
142,142,0,2046,34
143,143,0,2046,55
144,144,0,2046,553
145,145,0,2046,1407
146,146,0,2046,2414
147,147,0,2046,3330
148,148,0,2047,3936
149,149,0,2046,4086
150,150,0,2047,3743
151,151,0,2047,2992
152,152,0,2046,2010
153,153,0,2047,1036
154,154,0,2047,302
155,155,0,2046,0
156,156,0,2046,164
157,157,0,2046,792
158,158,0,2047,1720
159,159,0,2047,2724
160,160,0,2046,3564
161,161,0,2046,4036
162,162,0,2047,4030
163,163,0,2047,3543
164,164,0,2046,2695
165,165,0,2047,1689
166,166,0,2045,768
167,167,0,2046,151
168,168,0,2046,0
169,169,0,2046,319
170,170,0,2046,1062
171,171,0,2046,2041
172,172,0,2047,3019
173,173,0,2046,3760
174,174,0,2046,4089
175,175,0,2046,3924
176,176,0,2046,3305
177,177,0,2045,2382
178,178,0,2046,1377
179,179,0,2046,531
180,180,0,2046,47
181,181,0,2046,42
182,182,0,2046,515
183,183,0,2046,1356
184,184,0,2046,2362
185,185,0,2046,3288
186,186,0,2047,3914
187,187,0,2046,4091
188,188,0,2046,3772
189,189,0,2046,3037
190,190,0,2046,2062
191,191,0,2047,1082
192,192,0,2046,331
193,193,0,2047,0
194,194,0,2047,142
195,195,0,2046,750
196,196,0,2046,1668
197,197,0,2046,2674
198,198,0,2046,3528
199,199,0,2046,4023
200,200,0,2046,4042
201,201,0,2047,3579
202,202,0,2047,2745
203,203,0,2046,1742
204,204,0,2046,810
205,205,0,2046,173
206,206,0,2047,0
207,207,0,2046,290
208,208,0,2046,1015
209,209,0,2046,1988
210,210,0,2046,2971
211,211,0,2046,3730
212,212,0,2046,4083
213,213,0,2046,3945
214,214,0,2047,3347
215,215,0,2046,2435
216,216,0,2046,1428
217,217,0,2046,568
218,218,0,2046,60
219,219,0,2046,29
220,220,0,2046,481
221,221,0,2046,1307
222,222,0,2046,2309
223,223,0,2047,3246
224,224,0,2046,3893
225,225,0,2046,4093
226,226,0,2046,3800
227,227,0,2047,3082
228,228,0,2047,2115
229,229,0,2046,1129
230,230,0,2046,361
231,231,0,2046,0
232,232,0,2046,123
233,233,0,2046,710
234,234,0,2046,1616
235,235,0,2046,2624
236,236,0,2047,3490
237,237,0,2046,4009
238,238,0,2046,4054
239,239,0,2046,3613
240,240,0,2046,2795
241,241,0,2046,1794
242,242,0,2046,852
243,243,0,2046,196
244,244,0,2046,0
245,245,0,2047,263
246,246,0,2046,970
247,247,0,2047,1936
248,248,0,2046,2924
249,249,0,2047,3700
250,250,0,2046,4077
251,251,0,2046,3963
252,252,0,2046,3387
253,253,0,2046,2487
254,254,0,2046,1479
255,255,0,2046,605
256,256,0,2046,76
257,257,0,2046,19
258,258,0,2046,447
259,259,0,2046,1258
260,260,0,2046,2257
261,261,0,2046,3203
262,262,0,2046,3869
263,263,0,2047,4095
264,264,0,2046,3827
265,265,0,2046,3128
266,266,0,2046,2167
267,267,0,2046,1177
268,268,0,2046,392
269,269,0,2046,4
270,270,0,2046,104
271,271,0,2046,669
272,272,0,2046,1564
273,273,0,2046,2573
274,274,0,2046,3453
275,275,0,2046,3993
276,276,0,2046,4063
277,277,0,2046,3646
278,278,0,2045,2843
279,279,0,2047,1847
280,280,0,2046,896
281,281,0,2046,220
282,282,0,2046,0
283,283,0,2047,237
284,284,0,2047,926
285,285,0,2046,1882
286,286,0,2047,2876
287,287,0,2047,3668
288,288,0,2046,4069
289,289,0,2047,3982
290,290,0,2046,3426
291,291,0,2046,2537
292,292,0,2047,1530
293,293,0,2047,643
294,294,0,2047,92
295,295,0,2046,9
296,296,0,2046,414
297,297,0,2046,1209
298,298,0,2046,2204
299,299,0,2046,3159
300,300,0,2046,3845
301,301,0,2046,4095
302,302,0,2047,3852
303,303,0,2046,3173
304,304,0,2046,2221
305,305,0,2046,1225
306,306,0,2046,425
307,307,0,2047,13
308,308,0,2047,86
309,309,0,2046,630
310,310,0,2046,1513
311,311,0,2046,2521
312,312,0,2047,3414
313,313,0,2046,3976
314,314,0,2046,4071
315,315,0,2046,3679
316,316,0,2046,2892
317,317,0,2046,1899
318,318,0,2046,940
319,319,0,2046,245
320,320,0,2047,0
321,321,0,2046,212
322,322,0,2046,881
323,323,0,2046,1830
324,324,0,2046,2827
325,325,0,2047,3636
326,326,0,2046,4060
327,327,0,2046,3998
328,328,0,2046,3465
329,329,0,2047,2589
330,330,0,2047,1582
331,331,0,2046,682
332,332,0,2047,110
333,333,0,2047,1
334,334,0,2047,382
335,335,0,2046,1160
336,336,0,2047,2151
337,337,0,2046,3114
338,338,0,2046,3818
339,339,0,2047,4095
340,340,0,2047,3876
341,341,0,2046,3216
342,342,0,2046,2274
343,343,0,2046,1274
344,344,0,2046,458
345,345,0,2047,22
346,346,0,2047,71
347,347,0,2046,593
348,348,0,2047,1462
349,349,0,2047,2470
350,350,0,2047,3374
351,351,0,2047,3957
352,352,0,2047,4079
353,353,0,2046,3710
354,354,0,2046,2939
355,355,0,2046,1952
356,356,0,2047,985
357,357,0,2046,272
358,358,0,2046,0
359,359,0,2046,188
360,360,0,2046,838
361,361,0,2046,1777
362,362,0,2047,2778
363,363,0,2047,3602
364,364,0,2047,4049
365,365,0,2047,4014
366,366,0,2047,3502
367,367,0,2046,2640
368,368,0,2046,1632
369,369,0,2046,722
370,370,0,2046,129
371,371,0,2046,0
372,372,0,2046,351
373,373,0,2047,1114
374,374,0,2046,2098
375,375,0,2047,3069
376,376,0,2047,3790
377,377,0,2046,4093
378,378,0,2047,3900
379,379,0,2046,3259
380,380,0,2046,2326
381,381,0,2047,1323
382,382,0,2046,493
383,383,0,2046,33
384,384,0,2046,56
385,385,0,2046,556
386,386,0,2046,1412
387,387,0,2046,2418
388,388,0,2046,3333
389,389,0,2046,3937
390,390,0,2046,4085
391,391,0,2046,3740
392,392,0,2046,2987
393,393,0,2046,2005
394,394,0,2047,1031
395,395,0,2046,300
396,396,0,2047,0
397,397,0,2046,165
398,398,0,2046,796
399,399,0,2047,1724
400,400,0,2046,2728
401,401,0,2047,3567
402,402,0,2046,4037
403,403,0,2046,4028
404,404,0,2047,3539
405,405,0,2046,2690
406,406,0,2046,1685
407,407,0,2046,764
408,408,0,2046,149
409,409,0,2046,0
410,410,0,2046,322
411,411,0,2046,1066
412,412,0,2046,2046
413,413,0,2046,3022
414,414,0,2047,3764
415,415,0,2047,4089
416,416,0,2047,3922
417,417,0,2046,3302
418,418,0,2047,2378
419,419,0,2046,1373
420,420,0,2047,528
421,421,0,2046,46
422,422,0,2046,42
423,423,0,2046,519
424,424,0,2046,1360
425,425,0,2046,2366
426,426,0,2046,3292
427,427,0,2046,3917
428,428,0,2046,4090
429,429,0,2047,3770
430,430,0,2046,3033
431,431,0,2046,2058
432,432,0,2046,1078
433,433,0,2046,328
434,434,0,2046,0
435,435,0,2046,144
436,436,0,2046,754
437,437,0,2047,1672
438,438,0,2046,2679
439,439,0,2046,3531
440,440,0,2046,4024
441,441,0,2046,4040
442,442,0,2046,3575
443,443,0,2046,2741
444,444,0,2047,1737
445,445,0,2046,806
446,446,0,2046,172
447,447,0,2046,0
448,448,0,2046,294
449,449,0,2047,1020
450,450,0,2046,1992
451,451,0,2046,2976
452,452,0,2047,3733
453,453,0,2046,4084
454,454,0,2047,3942
455,455,0,2046,3343
456,456,0,2046,2430
457,457,0,2047,1424
458,458,0,2046,564
459,459,0,2046,59
460,460,0,2046,30
461,461,0,2046,484
462,462,0,2046,1311
463,463,0,2046,2313
464,464,0,2047,3250
465,465,0,2046,3895
466,466,0,2046,4093
467,467,0,2046,3798
468,468,0,2046,3079
469,469,0,2046,2110
470,470,0,2046,1125
471,471,0,2046,359
472,472,0,2046,0
473,473,0,2046,124
474,474,0,2046,714
475,475,0,2047,1620
476,476,0,2046,2628
477,477,0,2046,3494
478,478,0,2046,4009
479,479,0,2047,4052
480,480,0,2046,3610
481,481,0,2046,2790
482,482,0,2047,1789
483,483,0,2046,848
484,484,0,2046,194
485,485,0,2047,0
486,486,0,2046,266
487,487,0,2046,974
488,488,0,2046,1940
489,489,0,2046,2928
490,490,0,2046,3702
491,491,0,2046,4077
492,492,0,2046,3961
493,493,0,2046,3383
494,494,0,2046,2482
495,495,0,2046,1474
496,496,0,2046,602
497,497,0,2046,74
498,498,0,2046,19
499,499,0,2046,450
500,500,0,2047,1263
501,501,0,2046,2261
502,502,0,2046,3207
503,503,0,2047,3871
504,504,0,2047,4095
505,505,0,2046,3824
506,506,0,2046,3124
507,507,0,2046,2164
508,508,0,2046,1172
509,509,0,2046,389
510,510,0,2047,3
511,511,0,2046,106
512,512,0,2046,673
513,513,0,2046,1569
514,514,0,2046,2577
515,515,0,2046,3456
516,516,0,2046,3994
517,517,0,2046,4062
518,518,0,2046,3644
519,519,0,2046,2838
520,520,0,2046,1841
521,521,0,2046,892
522,522,0,2046,218
523,523,0,2047,0
524,524,0,2046,240
525,525,0,2047,929
526,526,0,2046,1887
527,527,0,2046,2880
528,528,0,2046,3672
529,529,0,2046,4070
530,530,0,2047,3980
531,531,0,2046,3423
532,532,0,2046,2533
533,533,0,2046,1524
534,534,0,2046,641
535,535,0,2045,91
536,536,0,2046,10
537,537,0,2046,416
538,538,0,2046,1213
539,539,0,2046,2208
540,540,0,2046,3162
541,541,0,2047,3846
542,542,0,2046,4095
543,543,0,2046,3849
544,544,0,2046,3169
545,545,0,2047,2216
546,546,0,2047,1221
547,547,0,2046,422
548,548,0,2046,11
549,549,0,2046,88
550,550,0,2047,634
551,551,0,2046,1518
552,552,0,2046,2526
553,553,0,2047,3418
554,554,0,2046,3977
555,555,0,2046,4071
556,556,0,2046,3676
557,557,0,2046,2888
558,558,0,2046,1895
559,559,0,2047,936
560,560,0,2046,244
561,561,0,2046,0
562,562,0,2046,214
563,563,0,2046,885
564,564,0,2046,1834
565,565,0,2047,2831
566,566,0,2046,3639
567,567,0,2046,4060
568,568,0,2046,3996
569,569,0,2046,3461
570,570,0,2046,2584
571,571,0,2047,1576
572,572,0,2047,679
573,573,0,2046,108
574,574,0,2046,2
575,575,0,2047,385
576,576,0,2046,1165
577,577,0,2047,2156
578,578,0,2047,3117
579,579,0,2047,3820
580,580,0,2046,4095
581,581,0,2046,3875
582,582,0,2046,3213
583,583,0,2046,2269
584,584,0,2046,1269
585,585,0,2046,455
586,586,0,2046,21
587,587,0,2046,72
588,588,0,2047,596
589,589,0,2047,1466
590,590,0,2046,2474
591,591,0,2046,3378
592,592,0,2047,3959
593,593,0,2046,4078
594,594,0,2046,3707
595,595,0,2046,2935
596,596,0,2046,1947
597,597,0,2046,982
598,598,0,2046,269
599,599,0,2046,0
600,600,0,2047,190
601,601,0,2046,842
602,602,0,2046,1781
603,603,0,2046,2783
604,604,0,2047,3605
605,605,0,2046,4050
606,606,0,2046,4012
607,607,0,2046,3499
608,608,0,2046,2636
609,609,0,2046,1628
610,610,0,2046,719
611,611,0,2046,127
612,612,0,2046,0
613,613,0,2047,353
614,614,0,2046,1117
615,615,0,2046,2103
616,616,0,2047,3072
617,617,0,2046,3793
618,618,0,2046,4092
619,619,0,2046,3898
620,620,0,2047,3256
621,621,0,2046,2322
622,622,0,2046,1318
623,623,0,2046,490
624,624,0,2046,32
625,625,0,2047,58
626,626,0,2046,558
627,627,0,2046,1415
628,628,0,2046,2423
629,629,0,2046,3337
630,630,0,2046,3939
631,631,0,2047,4085
632,632,0,2046,3738
633,633,0,2046,2982
634,634,0,2047,2000
635,635,0,2046,1027
636,636,0,2046,297
637,637,0,2046,0
638,638,0,2046,167
639,639,0,2047,799
640,640,0,2047,1729
641,641,0,2047,2733
642,642,0,2047,3569
643,643,0,2047,4038
644,644,0,2046,4027
645,645,0,2046,3536
646,646,0,2046,2685
647,647,0,2046,1680
648,648,0,2047,760
649,649,0,2046,148
650,650,0,2046,0
651,651,0,2047,323
652,652,0,2047,1071
653,653,0,2046,2050
654,654,0,2046,3026
655,655,0,2046,3765
656,656,0,2047,4089
657,657,0,2046,3919
658,658,0,2047,3298
659,659,0,2046,2374
660,660,0,2046,1368
661,661,0,2047,525
662,662,0,2046,44
663,663,0,2046,43
664,664,0,2046,522
665,665,0,2046,1366
666,666,0,2046,2371
667,667,0,2047,3295
668,668,0,2046,3919
669,669,0,2047,4089
670,670,0,2047,3767
671,671,0,2046,3029
672,672,0,2046,2053
673,673,0,2046,1073
674,674,0,2046,326
675,675,0,2046,0
676,676,0,2047,147
677,677,0,2047,758
678,678,0,2046,1677
679,679,0,2047,2683
680,680,0,2046,3534
681,681,0,2047,4026
682,682,0,2047,4039
683,683,0,2046,3572
684,684,0,2046,2737
685,685,0,2047,1732
686,686,0,2046,803
687,687,0,2047,170
688,688,0,2046,0
689,689,0,2046,296
690,690,0,2046,1024
691,691,0,2046,1997
692,692,0,2047,2979
693,693,0,2047,3735
694,694,0,2046,4083
695,695,0,2046,3940
696,696,0,2046,3340
697,697,0,2047,2425
698,698,0,2046,1418
699,699,0,2046,561
700,700,0,2046,58
701,701,0,2046,31
702,702,0,2046,487
703,703,0,2046,1315
704,704,0,2046,2318
705,705,0,2047,3253
706,706,0,2046,3896
707,707,0,2047,4093
708,708,0,2047,3795
709,709,0,2047,3075
710,710,0,2046,2106
711,711,0,2046,1121
712,712,0,2046,356
713,713,0,2046,0
714,714,0,2046,126
715,715,0,2047,716
716,716,0,2046,1625
717,717,0,2047,2633
718,718,0,2047,3497
719,719,0,2046,4012
720,720,0,2046,4051
721,721,0,2046,3608
722,722,0,2047,2785
723,723,0,2047,1785
724,724,0,2046,844
725,725,0,2046,192
726,726,0,2045,0
727,727,0,2046,268
728,728,0,2046,978
729,729,0,2047,1944
730,730,0,2047,2932
731,731,0,2046,3705
732,732,0,2046,4078
733,733,0,2046,3961
734,734,0,2047,3380
735,735,0,2046,2478
736,736,0,2047,1470
737,737,0,2046,598
738,738,0,2046,73
739,739,0,2046,20
740,740,0,2046,453
741,741,0,2046,1267
742,742,0,2046,2265
743,743,0,2047,3210
744,744,0,2046,3873
745,745,0,2046,4095
746,746,0,2046,3822
747,747,0,2047,3121
748,748,0,2046,2158
749,749,0,2046,1169
750,750,0,2046,388
751,751,0,2046,2
752,752,0,2046,108
753,753,0,2046,677
754,754,0,2046,1573
755,755,0,2047,2581
756,756,0,2047,3459
757,757,0,2046,3997
758,758,0,2047,4061
759,759,0,2047,3640
760,760,0,2046,2835
761,761,0,2046,1837
762,762,0,2047,889
763,763,0,2046,215
764,764,0,2047,0
765,765,0,2046,242
766,766,0,2046,934
767,767,0,2046,1891
768,768,0,2047,2884
769,769,0,2046,3674
770,770,0,2047,4071
771,771,0,2046,3978
772,772,0,2046,3420
773,773,0,2046,2529
774,774,0,2046,1521
775,775,0,2047,637
776,776,0,2046,90
777,777,0,2046,11
778,778,0,2047,419
779,779,0,2046,1217
780,780,0,2046,2213
781,781,0,2047,3166
782,782,0,2046,3848
783,783,0,2047,4095
784,784,0,2046,3848
785,785,0,2046,3165
786,786,0,2046,2211
787,787,0,2047,1217
788,788,0,2046,418
789,789,0,2046,9
790,790,0,2046,89
791,791,0,2046,637
792,792,0,2046,1522
793,793,0,2047,2530
794,794,0,2046,3421
795,795,0,2046,3979
796,796,0,2046,4070
797,797,0,2047,3673
798,798,0,2047,2882
799,799,0,2046,1890
800,800,0,2047,933
801,801,0,2046,241
802,802,0,2046,0
803,803,0,2046,216
804,804,0,2046,890
805,805,0,2047,1839
806,806,0,2047,2836
807,807,0,2047,3641
808,808,0,2047,4062
809,809,0,2046,3996
810,810,0,2047,3458
811,811,0,2047,2580
812,812,0,2046,1572
813,813,0,2047,676
814,814,0,2046,108
815,815,0,2046,2
816,816,0,2046,387
817,817,0,2046,1170
818,818,0,2046,2160
819,819,0,2046,3122
820,820,0,2046,3823
821,821,0,2047,4095
822,822,0,2047,3872
823,823,0,2046,3209
824,824,0,2046,2264
825,825,0,2046,1265
826,826,0,2046,452
827,827,0,2046,20
828,828,0,2046,73
829,829,0,2046,599
830,830,0,2046,1471
831,831,0,2047,2479
832,832,0,2047,3381
833,833,0,2046,3960
834,834,0,2046,4078
835,835,0,2046,3705
836,836,0,2047,2931
837,837,0,2046,1943
838,838,0,2046,978
839,839,0,2047,267
840,840,0,2047,0
841,841,0,2046,192
842,842,0,2046,846
843,843,0,2047,1786
844,844,0,2047,2787
845,845,0,2046,3607
846,846,0,2046,4051
847,847,0,2047,4011
848,848,0,2046,3496
849,849,0,2046,2631
850,850,0,2046,1624
851,851,0,2046,716
852,852,0,2047,126
853,853,0,2047,0
854,854,0,2047,356
855,855,0,2047,1122
856,856,0,2046,2108
857,857,0,2046,3076
858,858,0,2047,3796
859,859,0,2046,4093
860,860,0,2046,3895
861,861,0,2046,3251
862,862,0,2046,2317
863,863,0,2047,1314
864,864,0,2046,486
865,865,0,2046,31
866,866,0,2046,58
867,867,0,2046,561
868,868,0,2047,1420
869,869,0,2047,2428
870,870,0,2046,3340
871,871,0,2046,3942
872,872,0,2047,4084
873,873,0,2046,3735
874,874,0,2047,2978
875,875,0,2046,1996
876,876,0,2046,1023
877,877,0,2046,295
878,878,0,2046,0
879,879,0,2046,170
880,880,0,2046,803
881,881,0,2046,1733
882,882,0,2046,2738
883,883,0,2046,3573
884,884,0,2047,4040
885,885,0,2046,4025
886,886,0,2046,3533
887,887,0,2046,2682
888,888,0,2046,1676
889,889,0,2046,757
890,890,0,2046,146
891,891,0,2047,0
892,892,0,2046,326
893,893,0,2046,1075
894,894,0,2046,2054
895,895,0,2047,3030
896,896,0,2047,3767
897,897,0,2046,4090
898,898,0,2046,3918
899,899,0,2047,3294
900,900,0,2046,2369
901,901,0,2045,1364
902,902,0,2046,521
903,903,0,2047,43
904,904,0,2046,45
905,905,0,2047,525
906,906,0,2047,1370
907,907,0,2047,2375
908,908,0,2046,3300
909,909,0,2046,3921
910,910,0,2047,4089
911,911,0,2046,3764
912,912,0,2046,3025
913,913,0,2047,2048
914,914,0,2046,1069
915,915,0,2046,323
916,916,0,2046,0
917,917,0,2046,147
918,918,0,2045,761
919,919,0,2046,1682
920,920,0,2046,2688
921,921,0,2047,3537
922,922,0,2047,4027
923,923,0,2046,4038
924,924,0,2046,3569
925,925,0,2046,2731
926,926,0,2046,1728
927,927,0,2047,799
928,928,0,2046,166
929,929,0,2047,0
930,930,0,2046,298
931,931,0,2046,1028
932,932,0,2046,2001
933,933,0,2047,2984
934,934,0,2046,3738
935,935,0,2047,4085
936,936,0,2046,3939
937,937,0,2046,3335
938,938,0,2046,2422
939,939,0,2046,1414
940,940,0,2047,558
941,941,0,2046,56
942,942,0,2047,32
943,943,0,2046,490
944,944,0,2046,1320
945,945,0,2046,2323
946,946,0,2046,3256
947,947,0,2046,3899
948,948,0,2046,4092
949,949,0,2047,3793
950,950,0,2046,3071
951,951,0,2046,2102
952,952,0,2046,1116
953,953,0,2046,353
954,954,0,2046,0
955,955,0,2046,128
956,956,0,2047,720
957,957,0,2046,1629
958,958,0,2046,2637
959,959,0,2046,3501
960,960,0,2046,4012
961,961,0,2046,4050
962,962,0,2046,3604
963,963,0,2047,2780
964,964,0,2046,1780
965,965,0,2046,842
966,966,0,2047,190
967,967,0,2046,0
968,968,0,2046,270
969,969,0,2047,983
970,970,0,2047,1949
971,971,0,2047,2936
972,972,0,2046,3708
973,973,0,2046,4078
974,974,0,2047,3959
975,975,0,2046,3376
976,976,0,2047,2472
977,977,0,2046,1465
978,978,0,2046,594
979,979,0,2046,71
980,980,0,2046,21
981,981,0,2046,456
982,982,0,2046,1271
983,983,0,2046,2271
984,984,0,2046,3214
985,985,0,2046,3875
986,986,0,2046,4095
987,987,0,2047,3819
988,988,0,2047,3116
989,989,0,2047,2155
990,990,0,2046,1164
991,991,0,2046,384
992,992,0,2046,2
993,993,0,2047,109
994,994,0,2047,680
995,995,0,2046,1578
996,996,0,2046,2586
997,997,0,2046,3463
998,998,0,2046,3996
999,999,0,2046,4060
1000,1000,0,2046,3638
1001,1001,0,2046,2830
1002,1002,0,2047,1832
1003,1003,0,2046,884
1004,1004,0,2047,213
1005,1005,0,2047,0
1006,1006,0,2046,244
1007,1007,0,2046,938
1008,1008,0,2046,1896
1009,1009,0,2046,2889
1010,1010,0,2047,3676
1011,1011,0,2046,4071
1012,1012,0,2046,3977
1013,1013,0,2046,3416
1014,1014,0,2046,2524
1015,1015,0,2046,1516
1016,1016,0,2046,633
1017,1017,0,2046,88
1018,1018,0,2046,11
1019,1019,0,2046,422
1020,1020,0,2047,1222
1021,1021,0,2046,2217
1022,1022,0,2047,3171
1023,1023,0,2047,3850
1024,1024,0,2046,4095
1025,1025,0,2047,3845
1026,1026,0,2046,3161
1027,1027,0,2046,2207
1028,1028,0,2046,1212
