Sample in Buffer,Sample in Window,TRIGGER,adc1_data_a_d0[11:0],adc1_data_b_d0[11:0]
0,0,0,2046,1902
1,1,0,2047,1533
2,2,0,2046,1181
3,3,0,2047,857
4,4,0,2046,570
5,5,0,2046,330
6,6,0,2046,145
7,7,0,2047,22
8,8,0,2047,0
9,9,0,2046,0
10,10,0,2046,46
11,11,0,2047,184
12,12,0,2046,383
13,13,0,2046,634
14,14,0,2047,932
15,15,0,2046,1265
16,16,0,2046,1622
17,17,0,2046,1994
18,18,0,2046,2367
19,19,0,2046,2729
20,20,0,2046,3069
21,21,0,2046,3376
22,22,0,2046,3639
23,23,0,2046,3851
24,24,0,2047,4005
25,25,0,2047,4095
26,26,0,2046,4095
27,27,0,2047,4075
28,28,0,2046,3967
29,29,0,2047,3796
30,30,0,2046,3568
31,31,0,2047,3292
32,32,0,2047,2975
33,33,0,2047,2628
34,34,0,2047,2262
35,35,0,2046,1890
36,36,0,2047,1520
37,37,0,2047,1170
38,38,0,2047,846
39,39,0,2046,562
40,40,0,2046,323
41,41,0,2046,141
42,42,0,2047,19
43,43,0,2046,0
44,44,0,2047,0
45,45,0,2046,51
46,46,0,2047,191
47,47,0,2047,391
48,48,0,2046,645
49,49,0,2047,943
50,50,0,2047,1277
51,51,0,2047,1635
52,52,0,2046,2006
53,53,0,2046,2380
54,54,0,2046,2741
55,55,0,2046,3080
56,56,0,2046,3386
57,57,0,2046,3648
58,58,0,2046,3858
59,59,0,2046,4009
60,60,0,2046,4095
61,61,0,2047,4095
62,62,0,2047,4073
63,63,0,2046,3962
64,64,0,2046,3789
65,65,0,2046,3559
66,66,0,2046,3281
67,67,0,2046,2963
68,68,0,2046,2616
69,69,0,2046,2249
70,70,0,2046,1877
71,71,0,2047,1508
72,72,0,2046,1158
73,73,0,2047,836
74,74,0,2046,552
75,75,0,2047,316
76,76,0,2047,135
77,77,0,2046,16
78,78,0,2047,0
79,79,0,2046,0
80,80,0,2046,54
81,81,0,2047,196
82,82,0,2046,399
83,83,0,2047,655
84,84,0,2046,954
85,85,0,2046,1290
86,86,0,2046,1649
87,87,0,2047,2020
88,88,0,2046,2393
89,89,0,2047,2754
90,90,0,2046,3092
91,91,0,2046,3396
92,92,0,2046,3655
93,93,0,2046,3864
94,94,0,2047,4013
95,95,0,2046,4095
96,96,0,2047,4095
97,97,0,2047,4070
98,98,0,2047,3957
99,99,0,2046,3782
100,100,0,2047,3550
101,101,0,2047,3271
102,102,0,2046,2951
103,103,0,2047,2603
104,104,0,2046,2236
105,105,0,2046,1863
106,106,0,2047,1496
107,107,0,2046,1146
108,108,0,2046,825
109,109,0,2047,543
110,110,0,2047,308
111,111,0,2047,130
112,112,0,2046,13
113,113,0,2047,0
114,114,0,2046,0
115,115,0,2047,57
116,116,0,2047,202
117,117,0,2047,406
118,118,0,2047,664
119,119,0,2046,965
120,120,0,2046,1301
121,121,0,2047,1662
122,122,0,2046,2033
123,123,0,2046,2405
124,124,0,2046,2765
125,125,0,2047,3102
126,126,0,2047,3405
127,127,0,2047,3664
128,128,0,2046,3870
129,129,0,2046,4017
130,130,0,2047,4095
131,131,0,2047,4095
132,132,0,2046,4067
133,133,0,2047,3951
134,134,0,2046,3774
135,135,0,2046,3542
136,136,0,2047,3261
137,137,0,2047,2939
138,138,0,2047,2590
139,139,0,2046,2223
140,140,0,2046,1850
141,141,0,2046,1483
142,142,0,2046,1134
143,143,0,2047,815
144,144,0,2047,534
145,145,0,2047,302
146,146,0,2047,125
147,147,0,2047,10
148,148,0,2047,0
149,149,0,2047,0
150,150,0,2047,61
151,151,0,2046,209
152,152,0,2047,415
153,153,0,2046,674
154,154,0,2047,977
155,155,0,2046,1313
156,156,0,2047,1674
157,157,0,2046,2046
158,158,0,2047,2418
159,159,0,2047,2777
160,160,0,2046,3113
161,161,0,2047,3414
162,162,0,2047,3672
163,163,0,2047,3876
164,164,0,2047,4022
165,165,0,2046,4095
166,166,0,2047,4095
167,167,0,2046,4064
168,168,0,2046,3947
169,169,0,2046,3767
170,170,0,2047,3532
171,171,0,2046,3250
172,172,0,2046,2928
173,173,0,2046,2577
174,174,0,2046,2210
175,175,0,2047,1838
176,176,0,2047,1471
177,177,0,2046,1123
178,178,0,2046,804
179,179,0,2047,525
180,180,0,2046,294
181,181,0,2047,120
182,182,0,2047,7
183,183,0,2046,0
184,184,0,2046,0
185,185,0,2047,66
186,186,0,2047,215
187,187,0,2046,423
188,188,0,2046,684
189,189,0,2046,987
190,190,0,2046,1325
191,191,0,2047,1686
192,192,0,2047,2059
193,193,0,2046,2431
194,194,0,2047,2789
195,195,0,2047,3124
196,196,0,2047,3425
197,197,0,2046,3680
198,198,0,2046,3882
199,199,0,2047,4026
200,200,0,2047,4095
201,201,0,2047,4095
202,202,0,2047,4061
203,203,0,2047,3941
204,204,0,2046,3759
205,205,0,2046,3523
206,206,0,2046,3239
207,207,0,2047,2916
208,208,0,2047,2566
209,209,0,2047,2197
210,210,0,2046,1824
211,211,0,2046,1458
212,212,0,2046,1111
213,213,0,2046,793
214,214,0,2046,516
215,215,0,2046,287
216,216,0,2046,114
217,217,0,2046,4
218,218,0,2046,0
219,219,0,2046,0
220,220,0,2046,70
221,221,0,2046,221
222,222,0,2047,431
223,223,0,2046,694
224,224,0,2046,998
225,225,0,2046,1338
226,226,0,2046,1699
227,227,0,2046,2072
228,228,0,2046,2444
229,229,0,2046,2803
230,230,0,2046,3136
231,231,0,2047,3435
232,232,0,2046,3688
233,233,0,2046,3888
234,234,0,2046,4029
235,235,0,2046,4095
236,236,0,2046,4095
237,237,0,2047,4058
238,238,0,2046,3936
239,239,0,2046,3752
240,240,0,2046,3514
241,241,0,2047,3229
242,242,0,2046,2905
243,243,0,2046,2553
244,244,0,2046,2185
245,245,0,2046,1812
246,246,0,2047,1446
247,247,0,2046,1100
248,248,0,2046,783
249,249,0,2046,507
250,250,0,2046,281
251,251,0,2047,110
252,252,0,2046,2
253,253,0,2046,0
254,254,0,2046,0
255,255,0,2046,74
256,256,0,2046,228
257,257,0,2046,440
258,258,0,2046,704
259,259,0,2046,1010
260,260,0,2047,1350
261,261,0,2046,1712
262,262,0,2047,2085
263,263,0,2047,2456
264,264,0,2046,2815
265,265,0,2046,3147
266,266,0,2046,3444
267,267,0,2047,3696
268,268,0,2047,3893
269,269,0,2046,4033
270,270,0,2046,4095
271,271,0,2047,4095
272,272,0,2046,4055
273,273,0,2046,3930
274,274,0,2046,3745
275,275,0,2046,3505
276,276,0,2046,3218
277,277,0,2046,2893
278,278,0,2046,2540
279,279,0,2046,2171
280,280,0,2046,1799
281,281,0,2046,1433
282,282,0,2047,1089
283,283,0,2047,773
284,284,0,2047,498
285,285,0,2046,274
286,286,0,2046,106
287,287,0,2046,0
288,288,0,2046,0
289,289,0,2046,0
290,290,0,2046,78
291,291,0,2046,234
292,292,0,2046,449
293,293,0,2047,714
294,294,0,2047,1022
295,295,0,2047,1363
296,296,0,2046,1725
297,297,0,2047,2098
298,298,0,2046,2469
299,299,0,2047,2827
300,300,0,2046,3158
301,301,0,2046,3454
302,302,0,2047,3704
303,303,0,2046,3899
304,304,0,2046,4036
305,305,0,2046,4095
306,306,0,2046,4095
307,307,0,2046,4052
308,308,0,2046,3925
309,309,0,2047,3737
310,310,0,2047,3496
311,311,0,2046,3207
312,312,0,2047,2881
313,313,0,2046,2527
314,314,0,2046,2158
315,315,0,2046,1786
316,316,0,2046,1421
317,317,0,2046,1076
318,318,0,2046,762
319,319,0,2047,489
320,320,0,2046,267
321,321,0,2047,100
322,322,0,2046,0
323,323,0,2047,0
324,324,0,2046,0
325,325,0,2046,83
326,326,0,2047,240
327,327,0,2047,456
328,328,0,2046,724
329,329,0,2047,1034
330,330,0,2047,1375
331,331,0,2046,1738
332,332,0,2046,2111
333,333,0,2046,2481
334,334,0,2046,2838
335,335,0,2046,3169
336,336,0,2047,3463
337,337,0,2046,3712
338,338,0,2046,3906
339,339,0,2047,4040
340,340,0,2046,4095
341,341,0,2046,4095
342,342,0,2046,4048
343,343,0,2047,3919
344,344,0,2046,3730
345,345,0,2046,3487
346,346,0,2046,3196
347,347,0,2046,2868
348,348,0,2047,2514
349,349,0,2046,2145
350,350,0,2046,1773
351,351,0,2046,1408
352,352,0,2047,1064
353,353,0,2047,751
354,354,0,2046,481
355,355,0,2046,260
356,356,0,2046,96
357,357,0,2046,0
358,358,0,2047,0
359,359,0,2046,0
360,360,0,2047,87
361,361,0,2046,248
362,362,0,2046,465
363,363,0,2046,734
364,364,0,2046,1044
365,365,0,2046,1386
366,366,0,2046,1751
367,367,0,2046,2125
368,368,0,2047,2495
369,369,0,2047,2850
370,370,0,2046,3180
371,371,0,2046,3472
372,372,0,2047,3720
373,373,0,2046,3911
374,374,0,2047,4044
375,375,0,2046,4095
376,376,0,2047,4095
377,377,0,2046,4044
378,378,0,2047,3914
379,379,0,2046,3723
380,380,0,2046,3477
381,381,0,2046,3185
382,382,0,2047,2857
383,383,0,2046,2502
384,384,0,2047,2133
385,385,0,2046,1760
386,386,0,2046,1397
387,387,0,2046,1053
388,388,0,2046,741
389,389,0,2047,472
390,390,0,2046,252
391,391,0,2047,91
392,392,0,2046,0
393,393,0,2046,0
394,394,0,2046,0
395,395,0,2046,92
396,396,0,2046,254
397,397,0,2047,474
398,398,0,2046,743
399,399,0,2046,1056
400,400,0,2046,1400
401,401,0,2047,1764
402,402,0,2047,2137
403,403,0,2046,2508
404,404,0,2047,2862
405,405,0,2046,3190
406,406,0,2046,3482
407,407,0,2046,3727
408,408,0,2046,3918
409,409,0,2046,4046
410,410,0,2047,4095
411,411,0,2046,4095
412,412,0,2047,4041
413,413,0,2046,3908
414,414,0,2046,3715
415,415,0,2046,3467
416,416,0,2046,3174
417,417,0,2046,2845
418,418,0,2046,2489
419,419,0,2047,2119
420,420,0,2046,1747
421,421,0,2047,1383
422,422,0,2046,1042
423,423,0,2046,732
424,424,0,2046,463
425,425,0,2046,247
426,426,0,2046,86
427,427,0,2046,0
428,428,0,2046,0
429,429,0,2046,0
430,430,0,2046,96
431,431,0,2046,260
432,432,0,2046,482
433,433,0,2046,754
434,434,0,2046,1067
435,435,0,2046,1412
436,436,0,2046,1777
437,437,0,2046,2150
438,438,0,2047,2519
439,439,0,2047,2874
440,440,0,2046,3202
441,441,0,2047,3491
442,442,0,2047,3734
443,443,0,2046,3922
444,444,0,2046,4050
445,445,0,2047,4095
446,446,0,2046,4095
447,447,0,2046,4038
448,448,0,2046,3902
449,449,0,2047,3707
450,450,0,2046,3458
451,451,0,2046,3163
452,452,0,2047,2832
453,453,0,2046,2476
454,454,0,2047,2106
455,455,0,2047,1734
456,456,0,2046,1371
457,457,0,2046,1030
458,458,0,2046,721
459,459,0,2047,455
460,460,0,2046,240
461,461,0,2047,82
462,462,0,2046,0
463,463,0,2046,0
464,464,0,2046,0
465,465,0,2046,101
466,466,0,2047,268
467,467,0,2047,491
468,468,0,2046,765
469,469,0,2047,1079
470,470,0,2047,1424
471,471,0,2046,1790
472,472,0,2047,2164
473,473,0,2046,2533
474,474,0,2047,2886
475,475,0,2047,3212
476,476,0,2046,3501
477,477,0,2046,3742
478,478,0,2046,3928
479,479,0,2046,4054
480,480,0,2046,4095
481,481,0,2046,4095
482,482,0,2046,4034
483,483,0,2046,3897
484,484,0,2046,3699
485,485,0,2046,3448
486,486,0,2047,3152
487,487,0,2047,2820
488,488,0,2046,2464
489,489,0,2046,2093
490,490,0,2047,1720
491,491,0,2046,1359
492,492,0,2047,1018
493,493,0,2046,711
494,494,0,2046,447
495,495,0,2046,234
496,496,0,2046,77
497,497,0,2046,0
498,498,0,2046,0
499,499,0,2047,0
500,500,0,2046,105
501,501,0,2046,274
502,502,0,2046,499
503,503,0,2047,775
504,504,0,2046,1091
505,505,0,2047,1437
506,506,0,2047,1803
507,507,0,2046,2176
508,508,0,2046,2545
509,509,0,2046,2898
510,510,0,2047,3223
511,511,0,2047,3510
512,512,0,2046,3749
513,513,0,2046,3934
514,514,0,2046,4057
515,515,0,2046,4095
516,516,0,2047,4095
517,517,0,2046,4031
518,518,0,2047,3891
519,519,0,2046,3690
520,520,0,2046,3438
521,521,0,2047,3141
522,522,0,2047,2809
523,523,0,2046,2452
524,524,0,2047,2081
525,525,0,2046,1708
526,526,0,2046,1346
527,527,0,2046,1007
528,528,0,2046,702
529,529,0,2046,438
530,530,0,2046,227
531,531,0,2046,73
532,532,0,2046,0
533,533,0,2046,0
534,534,0,2046,2
535,535,0,2046,110
536,536,0,2047,281
537,537,0,2047,508
538,538,0,2047,785
539,539,0,2046,1102
540,540,0,2046,1449
541,541,0,2047,1816
542,542,0,2046,2189
543,543,0,2047,2558
544,544,0,2047,2910
545,545,0,2046,3234
546,546,0,2047,3519
547,547,0,2047,3757
548,548,0,2046,3939
549,549,0,2047,4060
550,550,0,2046,4095
551,551,0,2046,4095
552,552,0,2047,4025
553,553,0,2047,3884
554,554,0,2047,3684
555,555,0,2046,3429
556,556,0,2046,3130
557,557,0,2046,2797
558,558,0,2046,2439
559,559,0,2047,2067
560,560,0,2046,1696
561,561,0,2047,1335
562,562,0,2047,996
563,563,0,2047,691
564,564,0,2046,430
565,565,0,2047,221
566,566,0,2047,69
567,567,0,2046,0
568,568,0,2046,0
569,569,0,2046,5
570,570,0,2046,115
571,571,0,2046,288
572,572,0,2047,518
573,573,0,2046,795
574,574,0,2047,1114
575,575,0,2046,1462
576,576,0,2046,1829
577,577,0,2046,2202
578,578,0,2046,2571
579,579,0,2047,2922
580,580,0,2046,3244
581,581,0,2046,3528
582,582,0,2047,3764
583,583,0,2047,3944
584,584,0,2046,4063
585,585,0,2046,4095
586,586,0,2046,4095
587,587,0,2046,4023
588,588,0,2047,3879
589,589,0,2046,3675
590,590,0,2047,3419
591,591,0,2046,3119
592,592,0,2046,2784
593,593,0,2046,2425
594,594,0,2046,2054
595,595,0,2046,1682
596,596,0,2047,1323
597,597,0,2047,985
598,598,0,2046,682
599,599,0,2046,422
600,600,0,2046,214
601,601,0,2047,65
602,602,0,2047,0
603,603,0,2047,0
604,604,0,2047,8
605,605,0,2046,120
606,606,0,2046,295
607,607,0,2046,526
608,608,0,2047,805
609,609,0,2047,1126
610,610,0,2046,1474
611,611,0,2046,1841
612,612,0,2046,2215
613,613,0,2046,2584
614,614,0,2046,2934
615,615,0,2046,3255
616,616,0,2046,3537
617,617,0,2046,3771
618,618,0,2046,3950
619,619,0,2046,4066
620,620,0,2046,4095
621,621,0,2046,4095
622,622,0,2047,4019
623,623,0,2046,3873
624,624,0,2046,3667
625,625,0,2046,3409
626,626,0,2047,3108
627,627,0,2046,2772
628,628,0,2047,2413
629,629,0,2046,2041
630,630,0,2045,1670
631,631,0,2047,1310
632,632,0,2046,973
633,633,0,2047,672
634,634,0,2047,414
635,635,0,2046,208
636,636,0,2046,61
637,637,0,2047,0
638,638,0,2047,0
639,639,0,2046,10
640,640,0,2046,126
641,641,0,2046,303
642,642,0,2047,535
643,643,0,2046,816
644,644,0,2046,1138
645,645,0,2046,1487
646,646,0,2047,1855
647,647,0,2046,2229
648,648,0,2046,2596
649,649,0,2046,2946
650,650,0,2046,3266
651,651,0,2046,3546
652,652,0,2046,3779
653,653,0,2046,3955
654,654,0,2046,4069
655,655,0,2046,4095
656,656,0,2047,4095
657,657,0,2047,4014
658,658,0,2046,3867
659,659,0,2047,3659
660,660,0,2046,3400
661,661,0,2046,3097
662,662,0,2046,2760
663,663,0,2047,2399
664,664,0,2046,2028
665,665,0,2046,1657
666,666,0,2046,1298
667,667,0,2046,963
668,668,0,2047,662
669,669,0,2046,406
670,670,0,2046,201
671,671,0,2046,57
672,672,0,2047,0
673,673,0,2047,0
674,674,0,2046,13
675,675,0,2046,130
676,676,0,2046,310
677,677,0,2046,544
678,678,0,2046,827
679,679,0,2046,1149
680,680,0,2047,1500
681,681,0,2046,1868
682,682,0,2046,2242
683,683,0,2046,2608
684,684,0,2047,2957
685,685,0,2046,3276
686,686,0,2046,3556
687,687,0,2046,3786
688,688,0,2046,3960
689,689,0,2047,4072
690,690,0,2047,4095
691,691,0,2045,4095
692,692,0,2046,4011
693,693,0,2047,3859
694,694,0,2047,3651
695,695,0,2046,3390
696,696,0,2046,3086
697,697,0,2046,2748
698,698,0,2047,2387
699,699,0,2047,2016
700,700,0,2046,1645
701,701,0,2047,1285
702,702,0,2046,951
703,703,0,2047,652
704,704,0,2047,398
705,705,0,2046,196
706,706,0,2047,53
707,707,0,2046,0
708,708,0,2046,0
709,709,0,2046,17
710,710,0,2046,136
711,711,0,2046,317
712,712,0,2047,553
713,713,0,2046,837
714,714,0,2047,1160
715,715,0,2046,1512
716,716,0,2046,1880
717,717,0,2046,2254
718,718,0,2046,2621
719,719,0,2046,2968
720,720,0,2047,3287
721,721,0,2047,3564
722,722,0,2046,3793
723,723,0,2046,3965
724,724,0,2046,4074
725,725,0,2046,4095
726,726,0,2046,4095
727,727,0,2046,4007
728,728,0,2047,3854
729,729,0,2046,3643
730,730,0,2046,3379
731,731,0,2046,3074
732,732,0,2046,2735
733,733,0,2046,2374
734,734,0,2046,2002
735,735,0,2046,1631
736,736,0,2047,1273
737,737,0,2047,940
738,738,0,2046,643
739,739,0,2047,390
740,740,0,2046,190
741,741,0,2046,49
742,742,0,2047,0
743,743,0,2047,0
744,744,0,2046,19
745,745,0,2046,141
746,746,0,2046,324
747,747,0,2046,562
748,748,0,2046,848
749,749,0,2046,1173
750,750,0,2046,1525
751,751,0,2046,1893
752,752,0,2046,2267
753,753,0,2047,2634
754,754,0,2046,2981
755,755,0,2046,3297
756,756,0,2047,3572
757,757,0,2047,3800
758,758,0,2046,3969
759,759,0,2047,4078
760,760,0,2046,4095
761,761,0,2047,4094
762,762,0,2046,4002
763,763,0,2046,3847
764,764,0,2046,3634
765,765,0,2046,3370
766,766,0,2047,3063
767,767,0,2046,2723
768,768,0,2046,2362
769,769,0,2047,1989
770,770,0,2046,1618
771,771,0,2046,1261
772,772,0,2046,929
773,773,0,2046,633
774,774,0,2047,382
775,775,0,2046,184
776,776,0,2046,45
777,777,0,2046,0
778,778,0,2046,0
779,779,0,2046,23
780,780,0,2046,146
781,781,0,2046,332
782,782,0,2046,572
783,783,0,2046,859
784,784,0,2046,1184
785,785,0,2047,1537
786,786,0,2046,1907
787,787,0,2047,2281
788,788,0,2047,2647
789,789,0,2046,2992
790,790,0,2046,3307
791,791,0,2046,3581
792,792,0,2046,3806
793,793,0,2047,3975
794,794,0,2047,4079
795,795,0,2046,4095
796,796,0,2046,4091
797,797,0,2046,3997
798,798,0,2047,3840
799,799,0,2046,3626
800,800,0,2047,3360
801,801,0,2046,3052
802,802,0,2047,2711
803,803,0,2047,2348
804,804,0,2047,1976
805,805,0,2046,1606
806,806,0,2046,1250
807,807,0,2047,919
808,808,0,2046,624
809,809,0,2046,374
810,810,0,2046,178
811,811,0,2046,41
812,812,0,2046,0
813,813,0,2046,0
814,814,0,2047,26
815,815,0,2046,151
816,816,0,2047,338
817,817,0,2046,580
818,818,0,2047,870
819,819,0,2046,1197
820,820,0,2046,1550
821,821,0,2046,1920
822,822,0,2047,2293
823,823,0,2046,2658
824,824,0,2046,3003
825,825,0,2046,3318
826,826,0,2046,3591
827,827,0,2047,3814
828,828,0,2047,3980
829,829,0,2046,4082
830,830,0,2047,4095
831,831,0,2047,4090
832,832,0,2046,3993
833,833,0,2046,3835
834,834,0,2046,3618
835,835,0,2046,3350
836,836,0,2047,3040
837,837,0,2047,2698
838,838,0,2046,2335
839,839,0,2047,1963
840,840,0,2046,1593
841,841,0,2046,1237
842,842,0,2046,908
843,843,0,2046,614
844,844,0,2046,366
845,845,0,2046,172
846,846,0,2046,38
847,847,0,2047,0
848,848,0,2047,0
849,849,0,2047,29
850,850,0,2046,157
851,851,0,2046,347
852,852,0,2046,590
853,853,0,2046,880
854,854,0,2046,1208
855,855,0,2046,1563
856,856,0,2047,1933
857,857,0,2047,2306
858,858,0,2046,2670
859,859,0,2046,3015
860,860,0,2047,3328
861,861,0,2046,3599
862,862,0,2046,3820
863,863,0,2046,3984
864,864,0,2047,4085
865,865,0,2047,4095
866,866,0,2047,4087
867,867,0,2046,3989
868,868,0,2047,3828
869,869,0,2046,3610
870,870,0,2046,3340
871,871,0,2047,3029
872,872,0,2046,2686
873,873,0,2047,2322
874,874,0,2047,1950
875,875,0,2046,1581
876,876,0,2046,1226
877,877,0,2046,897
878,878,0,2046,605
879,879,0,2046,358
880,880,0,2046,167
881,881,0,2046,35
882,882,0,2047,0
883,883,0,2046,0
884,884,0,2047,33
885,885,0,2046,163
886,886,0,2046,355
887,887,0,2046,600
888,888,0,2047,891
889,889,0,2046,1221
890,890,0,2046,1575
891,891,0,2046,1946
892,892,0,2047,2319
893,893,0,2046,2683
894,894,0,2046,3027
895,895,0,2046,3338
896,896,0,2047,3608
897,897,0,2046,3827
898,898,0,2046,3989
899,899,0,2047,4087
900,900,0,2047,4095
901,901,0,2046,4084
902,902,0,2047,3984
903,903,0,2045,3820
904,904,0,2046,3600
905,905,0,2047,3330
906,906,0,2047,3017
907,907,0,2047,2674
908,908,0,2046,2310
909,909,0,2046,1938
910,910,0,2046,1568
911,911,0,2047,1214
912,912,0,2046,885
913,913,0,2047,595
914,914,0,2047,350
915,915,0,2046,160
916,916,0,2046,32
917,917,0,2046,0
918,918,0,2047,0
919,919,0,2047,36
920,920,0,2046,168
921,921,0,2047,361
922,922,0,2046,609
923,923,0,2046,902
924,924,0,2047,1232
925,925,0,2046,1588
926,926,0,2046,1958
927,927,0,2047,2332
928,928,0,2047,2696
929,929,0,2046,3039
930,930,0,2046,3349
931,931,0,2046,3617
932,932,0,2046,3833
933,933,0,2047,3994
934,934,0,2046,4089
935,935,0,2046,4095
936,936,0,2047,4082
937,937,0,2047,3980
938,938,0,2047,3814
939,939,0,2046,3592
940,940,0,2047,3319
941,941,0,2046,3007
942,942,0,2047,2662
943,943,0,2046,2297
944,944,0,2046,1924
945,945,0,2047,1555
946,946,0,2047,1201
947,947,0,2047,875
948,948,0,2047,586
949,949,0,2047,343
950,950,0,2046,155
951,951,0,2047,28
952,952,0,2047,0
953,953,0,2046,0
954,954,0,2047,39
955,955,0,2047,175
956,956,0,2047,370
957,957,0,2047,618
958,958,0,2047,913
959,959,0,2046,1245
960,960,0,2047,1600
961,961,0,2046,1971
962,962,0,2046,2345
963,963,0,2046,2708
964,964,0,2046,3050
965,965,0,2046,3358
966,966,0,2046,3625
967,967,0,2046,3840
968,968,0,2047,3997
969,969,0,2047,4092
970,970,0,2046,4095
971,971,0,2046,4079
972,972,0,2046,3975
973,973,0,2047,3807
974,974,0,2046,3583
975,975,0,2046,3309
976,976,0,2047,2994
977,977,0,2046,2648
978,978,0,2046,2284
979,979,0,2047,1911
980,980,0,2046,1542
981,981,0,2047,1190
982,982,0,2046,863
983,983,0,2047,576
984,984,0,2046,335
985,985,0,2046,150
986,986,0,2046,24
987,987,0,2046,0
988,988,0,2046,0
989,989,0,2047,43
990,990,0,2046,180
991,991,0,2046,377
992,992,0,2047,628
993,993,0,2046,924
994,994,0,2046,1256
995,995,0,2046,1613
996,996,0,2047,1985
997,997,0,2046,2358
998,998,0,2046,2720
999,999,0,2046,3060
1000,1000,0,2046,3368
1001,1001,0,2047,3633
1002,1002,0,2046,3847
1003,1003,0,2047,4002
1004,1004,0,2046,4094
1005,1005,0,2047,4095
1006,1006,0,2047,4077
1007,1007,0,2046,3970
1008,1008,0,2046,3800
1009,1009,0,2046,3574
1010,1010,0,2046,3299
1011,1011,0,2046,2983
1012,1012,0,2047,2636
1013,1013,0,2046,2271
1014,1014,0,2046,1898
1015,1015,0,2046,1530
1016,1016,0,2046,1178
1017,1017,0,2047,853
1018,1018,0,2046,567
1019,1019,0,2046,328
1020,1020,0,2045,144
1021,1021,0,2047,21
1022,1022,0,2047,0
1023,1023,0,2046,0
1024,1024,0,2047,47
1025,1025,0,2047,186
1026,1026,0,2046,386
1027,1027,0,2047,638
1028,1028,0,2046,935
1029,1029,0,2046,1269
1030,1030,0,2046,1626
