Sample in Buffer,Sample in Window,TRIGGER,adc1_data_a_d0[11:0],adc1_data_b_d0[11:0]
0,0,0,2047,2927
1,1,0,2046,3744
2,2,0,2046,4085
3,3,0,2047,3856
4,4,0,2047,3119
5,5,0,2046,2080
6,6,0,2046,1031
7,7,0,2046,263
8,8,0,2046,0
9,9,0,2047,287
10,10,0,2047,1072
11,11,0,2046,2126
12,12,0,2046,3157
13,13,0,2047,3876
14,14,0,2046,4082
15,15,0,2046,3719
16,16,0,2047,2886
17,17,0,2047,1817
18,18,0,2047,810
19,19,0,2046,146
20,20,0,2046,9
21,21,0,2046,437
22,22,0,2046,1311
23,23,0,2047,2389
24,24,0,2046,3369
25,25,0,2047,3977
26,26,0,2046,4046
27,27,0,2046,3555
28,28,0,2046,2640
29,29,0,2046,1557
30,30,0,2047,610
31,31,0,2047,61
32,32,0,2047,63
33,33,0,2047,615
34,34,0,2046,1564
35,35,0,2047,2645
36,36,0,2046,3557
37,37,0,2047,4047
38,38,0,2047,3976
39,39,0,2047,3365
40,40,0,2047,2383
41,41,0,2047,1305
42,42,0,2046,434
43,43,0,2047,8
44,44,0,2046,149
45,45,0,2047,816
46,46,0,2046,1823
47,47,0,2047,2891
48,48,0,2046,3722
49,49,0,2046,4083
50,50,0,2047,3874
51,51,0,2046,3153
52,52,0,2046,2120
53,53,0,2047,1066
54,54,0,2046,283
55,55,0,2046,0
56,56,0,2047,265
57,57,0,2046,1036
58,58,0,2046,2086
59,59,0,2047,3123
60,60,0,2047,3857
61,61,0,2047,4085
62,62,0,2046,3742
63,63,0,2047,2923
64,64,0,2047,1857
65,65,0,2046,843
66,66,0,2046,161
67,67,0,2047,5
68,68,0,2046,412
69,69,0,2046,1274
70,70,0,2047,2348
71,71,0,2047,3337
72,72,0,2047,3964
73,73,0,2047,4053
74,74,0,2046,3581
75,75,0,2047,2678
76,76,0,2047,1597
77,77,0,2046,639
78,78,0,2047,72
79,79,0,2046,52
80,80,0,2047,585
81,81,0,2047,1524
82,82,0,2046,2606
83,83,0,2047,3530
84,84,0,2046,4039
85,85,0,2047,3989
86,86,0,2046,3395
87,87,0,2046,2422
88,88,0,2046,1343
89,89,0,2047,459
90,90,0,2046,14
91,91,0,2046,134
92,92,0,2047,783
93,93,0,2046,1783
94,94,0,2046,2854
95,95,0,2047,3698
96,96,0,2046,4079
97,97,0,2047,3892
98,98,0,2047,3186
99,99,0,2046,2160
100,100,0,2046,1102
101,101,0,2047,304
102,102,0,2047,0
103,103,0,2047,246
104,104,0,2046,1001
105,105,0,2047,2046
106,106,0,2047,3088
107,107,0,2047,3838
108,108,0,2046,4087
109,109,0,2046,3764
110,110,0,2047,2959
111,111,0,2047,1898
112,112,0,2046,876
113,113,0,2046,179
114,114,0,2047,0
115,115,0,2047,388
116,116,0,2046,1236
117,117,0,2046,2309
118,118,0,2047,3306
119,119,0,2046,3950
120,120,0,2047,4061
121,121,0,2046,3607
122,122,0,2046,2716
123,123,0,2047,1636
124,124,0,2046,668
125,125,0,2046,84
126,126,0,2047,43
127,127,0,2047,557
128,128,0,2046,1485
129,129,0,2047,2567
130,130,0,2047,3502
131,131,0,2047,4029
132,132,0,2047,4001
133,133,0,2047,3425
134,134,0,2046,2462
135,135,0,2046,1382
136,136,0,2047,484
137,137,0,2046,21
138,138,0,2046,118
139,139,0,2046,752
140,140,0,2046,1743
141,141,0,2046,2817
142,142,0,2047,3674
143,143,0,2047,4075
144,144,0,2047,3909
145,145,0,2047,3219
146,146,0,2047,2201
147,147,0,2046,1138
148,148,0,2046,326
149,149,0,2047,0
150,150,0,2046,226
151,151,0,2046,967
152,152,0,2046,2005
153,153,0,2046,3054
154,154,0,2046,3819
155,155,0,2046,4088
156,156,0,2046,3786
157,157,0,2047,2995
158,158,0,2047,1937
159,159,0,2046,910
160,160,0,2046,196
161,161,0,2047,0
162,162,0,2047,364
163,163,0,2047,1200
164,164,0,2046,2268
165,165,0,2046,3273
166,166,0,2046,3935
167,167,0,2047,4067
168,168,0,2047,3633
169,169,0,2047,2754
170,170,0,2046,1676
171,171,0,2046,699
172,172,0,2047,96
173,173,0,2047,34
174,174,0,2046,531
175,175,0,2047,1447
176,176,0,2047,2528
177,177,0,2046,3474
178,178,0,2047,4019
179,179,0,2046,4012
180,180,0,2046,3454
181,181,0,2047,2501
182,182,0,2046,1421
183,183,0,2046,512
184,184,0,2046,29
185,185,0,2047,106
186,186,0,2046,721
187,187,0,2046,1703
188,188,0,2047,2779
189,189,0,2047,3649
190,190,0,2046,4070
191,191,0,2046,3925
192,192,0,2047,3252
193,193,0,2046,2241
194,194,0,2047,1174
195,195,0,2046,350
196,196,0,2047,0
197,197,0,2047,208
198,198,0,2046,933
199,199,0,2046,1966
200,200,0,2047,3019
201,201,0,2047,3799
202,202,0,2047,4089
203,203,0,2047,3806
204,204,0,2046,3031
205,205,0,2047,1978
206,206,0,2047,943
207,207,0,2047,214
208,208,0,2046,0
209,209,0,2046,342
210,210,0,2047,1163
211,211,0,2047,2228
212,212,0,2046,3241
213,213,0,2046,3918
214,214,0,2047,4073
215,215,0,2046,3659
216,216,0,2046,2792
217,217,0,2046,1715
218,218,0,2046,730
219,219,0,2047,110
220,220,0,2046,26
221,221,0,2046,504
222,222,0,2046,1408
223,223,0,2046,2489
224,224,0,2047,3444
225,225,0,2047,4008
226,226,0,2046,4024
227,227,0,2046,3484
228,228,0,2047,2541
229,229,0,2047,1459
230,230,0,2047,539
231,231,0,2047,37
232,232,0,2046,92
233,233,0,2047,690
234,234,0,2046,1663
235,235,0,2046,2741
236,236,0,2047,3624
237,237,0,2047,4065
238,238,0,2046,3940
239,239,0,2046,3284
240,240,0,2047,2282
241,241,0,2047,1211
242,242,0,2047,372
243,243,0,2046,0
244,244,0,2046,191
245,245,0,2046,899
246,246,0,2046,1925
247,247,0,2047,2983
248,248,0,2046,3778
249,249,0,2046,4088
250,250,0,2047,3826
251,251,0,2047,3066
252,252,0,2046,2018
253,253,0,2047,977
254,254,0,2047,233
255,255,0,2047,0
256,256,0,2047,320
257,257,0,2046,1126
258,258,0,2047,2188
259,259,0,2046,3209
260,260,0,2047,3902
261,261,0,2047,4077
262,262,0,2046,3683
263,263,0,2046,2829
264,264,0,2047,1756
265,265,0,2047,761
266,266,0,2046,123
267,267,0,2047,19
268,268,0,2046,477
269,269,0,2047,1370
270,270,0,2047,2449
271,271,0,2047,3415
272,272,0,2046,3996
273,273,0,2047,4032
274,274,0,2047,3512
275,275,0,2046,2580
276,276,0,2046,1498
277,277,0,2046,566
278,278,0,2046,45
279,279,0,2046,80
280,280,0,2046,660
281,281,0,2047,1624
282,282,0,2046,2703
283,283,0,2047,3598
284,284,0,2046,4058
285,285,0,2046,3956
286,286,0,2046,3316
287,287,0,2047,2321
288,288,0,2046,1249
289,289,0,2047,395
290,290,0,2046,1
291,291,0,2046,173
292,292,0,2046,866
293,293,0,2047,1884
294,294,0,2047,2946
295,295,0,2046,3756
296,296,0,2046,4087
297,297,0,2046,3846
298,298,0,2047,3101
299,299,0,2046,2059
300,300,0,2047,1012
301,301,0,2047,252
302,302,0,2046,0
303,303,0,2047,298
304,304,0,2046,1091
305,305,0,2046,2147
306,306,0,2046,3175
307,307,0,2046,3886
308,308,0,2046,4081
309,309,0,2046,3707
310,310,0,2047,2866
311,311,0,2046,1796
312,312,0,2047,792
313,313,0,2047,138
314,314,0,2046,12
315,315,0,2047,450
316,316,0,2046,1331
317,317,0,2046,2409
318,318,0,2046,3384
319,319,0,2046,3984
320,320,0,2046,4041
321,321,0,2047,3540
322,322,0,2046,2620
323,323,0,2046,1536
324,324,0,2046,595
325,325,0,2047,55
326,326,0,2046,69
327,327,0,2046,630
328,328,0,2047,1584
329,329,0,2046,2664
330,330,0,2047,3572
331,331,0,2046,4051
332,332,0,2047,3969
333,333,0,2046,3348
334,334,0,2047,2361
335,335,0,2047,1286
336,336,0,2047,420
337,337,0,2046,6
338,338,0,2047,157
339,339,0,2046,833
340,340,0,2047,1844
341,341,0,2047,2910
342,342,0,2047,3733
343,343,0,2047,4085
344,344,0,2046,3864
345,345,0,2046,3135
346,346,0,2047,2099
347,347,0,2046,1047
348,348,0,2047,272
349,349,0,2047,0
350,350,0,2046,277
351,351,0,2047,1055
352,352,0,2046,2107
353,353,0,2046,3141
354,354,0,2046,3867
355,355,0,2046,4084
356,356,0,2046,3730
357,357,0,2046,2904
358,358,0,2047,1836
359,359,0,2047,826
360,360,0,2046,154
361,361,0,2047,7
362,362,0,2047,425
363,363,0,2046,1295
364,364,0,2046,2370
365,365,0,2046,3353
366,366,0,2046,3971
367,367,0,2047,4050
368,368,0,2046,3567
369,369,0,2046,2658
370,370,0,2047,1576
371,371,0,2046,624
372,372,0,2046,66
373,373,0,2047,57
374,374,0,2046,601
375,375,0,2047,1544
376,376,0,2046,2626
377,377,0,2046,3544
378,378,0,2047,4044
379,379,0,2047,3982
380,380,0,2046,3378
381,381,0,2047,2401
382,382,0,2046,1324
383,383,0,2047,445
384,384,0,2046,11
385,385,0,2046,141
386,386,0,2047,800
387,387,0,2047,1804
388,388,0,2046,2873
389,389,0,2046,3711
390,390,0,2046,4081
391,391,0,2047,3883
392,392,0,2046,3168
393,393,0,2047,2139
394,394,0,2046,1083
395,395,0,2046,292
396,396,0,2046,0
397,397,0,2047,256
398,398,0,2046,1020
399,399,0,2046,2067
400,400,0,2047,3106
401,401,0,2047,3848
402,402,0,2046,4086
403,403,0,2047,3753
404,404,0,2046,2940
405,405,0,2047,1876
406,406,0,2046,858
407,407,0,2047,170
408,408,0,2047,2
409,409,0,2047,401
410,410,0,2046,1256
411,411,0,2047,2329
412,412,0,2046,3323
413,413,0,2047,3958
414,414,0,2046,4057
415,415,0,2047,3594
416,416,0,2046,2696
417,417,0,2047,1615
418,418,0,2046,653
419,419,0,2046,78
420,420,0,2046,48
421,421,0,2046,572
422,422,0,2047,1505
423,423,0,2047,2587
424,424,0,2046,3517
425,425,0,2047,4034
426,426,0,2046,3995
427,427,0,2046,3409
428,428,0,2046,2441
429,429,0,2046,1361
430,430,0,2046,471
431,431,0,2046,17
432,432,0,2047,126
433,433,0,2046,768
434,434,0,2047,1764
435,435,0,2046,2836
436,436,0,2046,3686
437,437,0,2046,4077
438,438,0,2046,3900
439,439,0,2047,3202
440,440,0,2047,2180
441,441,0,2047,1120
442,442,0,2046,315
443,443,0,2047,0
444,444,0,2046,237
445,445,0,2046,986
446,446,0,2047,2027
447,447,0,2046,3072
448,448,0,2046,3829
449,449,0,2047,4088
450,450,0,2047,3774
451,451,0,2047,2977
452,452,0,2046,1917
453,453,0,2047,892
454,454,0,2046,187
455,455,0,2047,0
456,456,0,2046,377
457,457,0,2046,1219
458,458,0,2046,2289
459,459,0,2046,3291
460,460,0,2047,3943
461,461,0,2046,4064
462,462,0,2046,3619
463,463,0,2046,2734
464,464,0,2046,1655
465,465,0,2047,684
466,466,0,2046,90
467,467,0,2047,39
468,468,0,2046,545
469,469,0,2046,1467
470,470,0,2046,2549
471,471,0,2046,3488
472,472,0,2047,4024
473,473,0,2046,4007
474,474,0,2046,3440
475,475,0,2046,2481
476,476,0,2046,1400
477,477,0,2046,497
478,478,0,2046,25
479,479,0,2046,112
480,480,0,2046,737
481,481,0,2047,1724
482,482,0,2046,2799
483,483,0,2047,3662
484,484,0,2046,4073
485,485,0,2047,3916
486,486,0,2046,3235
487,487,0,2047,2220
488,488,0,2047,1155
489,489,0,2046,337
490,490,0,2047,0
491,491,0,2047,218
492,492,0,2046,951
493,493,0,2047,1986
494,494,0,2046,3037
495,495,0,2046,3810
496,496,0,2047,4088
497,497,0,2046,3795
498,498,0,2046,3012
499,499,0,2046,1957
500,500,0,2046,925
501,501,0,2046,204
502,502,0,2045,0
503,503,0,2046,353
504,504,0,2046,1182
505,505,0,2046,2249
506,506,0,2047,3258
507,507,0,2046,3928
508,508,0,2047,4070
509,509,0,2046,3645
510,510,0,2047,2772
511,511,0,2046,1694
512,512,0,2047,714
513,513,0,2046,102
514,514,0,2046,30
515,515,0,2046,517
516,516,0,2047,1428
517,517,0,2047,2509
518,518,0,2046,3460
519,519,0,2047,4013
520,520,0,2047,4018
521,521,0,2046,3469
522,522,0,2046,2520
523,523,0,2047,1438
524,524,0,2046,524
525,525,0,2046,32
526,526,0,2046,99
527,527,0,2047,706
528,528,0,2046,1684
529,529,0,2046,2762
530,530,0,2046,3638
531,531,0,2047,4068
532,532,0,2047,3932
533,533,0,2047,3268
534,534,0,2046,2261
535,535,0,2047,1192
536,536,0,2046,360
537,537,0,2046,0
538,538,0,2046,200
539,539,0,2047,917
540,540,0,2046,1946
541,541,0,2047,3002
542,542,0,2046,3789
543,543,0,2046,4089
544,544,0,2047,3815
545,545,0,2046,3047
546,546,0,2047,1997
547,547,0,2046,960
548,548,0,2046,223
549,549,0,2046,0
550,550,0,2047,331
551,551,0,2047,1145
552,552,0,2046,2209
553,553,0,2046,3226
554,554,0,2047,3911
555,555,0,2047,4075
556,556,0,2046,3669
557,557,0,2046,2809
558,558,0,2046,1734
559,559,0,2046,745
560,560,0,2047,116
561,561,0,2046,23
562,562,0,2047,490
563,563,0,2047,1389
564,564,0,2046,2470
565,565,0,2046,3430
566,566,0,2047,4002
567,567,0,2046,4027
568,568,0,2046,3497
569,569,0,2046,2560
570,570,0,2046,1477
571,571,0,2046,552
572,572,0,2045,41
573,573,0,2047,86
574,574,0,2047,675
575,575,0,2047,1644
576,576,0,2047,2724
577,577,0,2047,3612
578,578,0,2046,4062
579,579,0,2046,3948
580,580,0,2047,3300
581,581,0,2046,2301
582,582,0,2046,1230
583,583,0,2047,383
584,584,0,2047,0
585,585,0,2047,183
586,586,0,2046,883
587,587,0,2046,1905
588,588,0,2046,2965
589,589,0,2047,3767
590,590,0,2046,4087
591,591,0,2047,3835
592,592,0,2047,3083
593,593,0,2046,2038
594,594,0,2047,995
595,595,0,2047,242
596,596,0,2047,0
597,597,0,2046,309
598,598,0,2046,1108
599,599,0,2046,2168
600,600,0,2047,3193
601,601,0,2046,3894
602,602,0,2047,4079
603,603,0,2047,3695
604,604,0,2046,2847
605,605,0,2046,1775
606,606,0,2046,776
607,607,0,2046,131
608,608,0,2047,16
609,609,0,2046,465
610,610,0,2046,1351
611,611,0,2047,2430
612,612,0,2047,3400
613,613,0,2047,3990
614,614,0,2046,4037
615,615,0,2046,3526
616,616,0,2046,2599
617,617,0,2046,1517
618,618,0,2046,579
619,619,0,2046,50
620,620,0,2046,75
621,621,0,2047,646
622,622,0,2046,1605
623,623,0,2047,2684
624,624,0,2046,3586
625,625,0,2046,4054
626,626,0,2046,3962
627,627,0,2047,3332
628,628,0,2046,2340
629,629,0,2046,1266
630,630,0,2047,407
631,631,0,2046,3
632,632,0,2046,165
633,633,0,2046,850
634,634,0,2046,1864
635,635,0,2046,2929
636,636,0,2046,3744
637,637,0,2046,4085
638,638,0,2047,3855
639,639,0,2047,3117
640,640,0,2046,2078
641,641,0,2046,1029
642,642,0,2046,262
643,643,0,2047,0
644,644,0,2047,287
645,645,0,2047,1073
646,646,0,2047,2128
647,647,0,2046,3159
648,648,0,2046,3876
649,649,0,2047,4082
650,650,0,2046,3718
651,651,0,2047,2885
652,652,0,2046,1815
653,653,0,2047,809
654,654,0,2047,146
655,655,0,2046,10
656,656,0,2046,438
657,657,0,2046,1313
658,658,0,2046,2391
659,659,0,2047,3369
660,660,0,2047,3978
661,661,0,2046,4046
662,662,0,2046,3553
663,663,0,2046,2638
664,664,0,2046,1555
665,665,0,2046,608
666,666,0,2047,61
667,667,0,2047,63
668,668,0,2046,616
669,669,0,2047,1565
670,670,0,2046,2646
671,671,0,2047,3558
672,672,0,2047,4047
673,673,0,2047,3975
674,674,0,2046,3363
675,675,0,2046,2381
676,676,0,2046,1304
677,677,0,2046,432
678,678,0,2047,9
679,679,0,2046,150
680,680,0,2046,817
681,681,0,2046,1825
682,682,0,2046,2892
683,683,0,2047,3723
684,684,0,2046,4083
685,685,0,2046,3873
686,686,0,2046,3151
687,687,0,2046,2118
688,688,0,2047,1065
689,689,0,2046,282
690,690,0,2046,0
691,691,0,2046,267
692,692,0,2047,1038
693,693,0,2047,2088
694,694,0,2047,3124
695,695,0,2046,3859
696,696,0,2046,4085
697,697,0,2046,3740
698,698,0,2046,2921
699,699,0,2046,1855
700,700,0,2047,841
701,701,0,2046,161
702,702,0,2046,4
703,703,0,2047,413
704,704,0,2046,1275
705,705,0,2046,2350
706,706,0,2047,3339
707,707,0,2046,3965
708,708,0,2046,4053
709,709,0,2047,3580
710,710,0,2046,2676
711,711,0,2047,1594
712,712,0,2046,638
713,713,0,2047,72
714,714,0,2047,53
715,715,0,2046,587
716,716,0,2046,1525
717,717,0,2047,2608
718,718,0,2047,3531
719,719,0,2046,4038
720,720,0,2046,3989
721,721,0,2046,3393
722,722,0,2047,2421
723,723,0,2046,1343
724,724,0,2047,457
725,725,0,2047,13
726,726,0,2046,134
727,727,0,2046,786
728,728,0,2046,1785
729,729,0,2046,2856
730,730,0,2046,3699
731,731,0,2046,4080
732,732,0,2046,3890
733,733,0,2047,3185
734,734,0,2046,2159
735,735,0,2046,1100
736,736,0,2047,304
737,737,0,2046,0
738,738,0,2047,247
739,739,0,2046,1003
740,740,0,2047,2047
741,741,0,2047,3090
742,742,0,2046,3839
743,743,0,2046,4087
744,744,0,2047,3763
745,745,0,2046,2957
746,746,0,2047,1895
747,747,0,2047,874
748,748,0,2047,178
749,749,0,2046,0
750,750,0,2046,390
751,751,0,2047,1238
752,752,0,2047,2311
753,753,0,2047,3307
754,754,0,2047,3950
755,755,0,2046,4060
756,756,0,2046,3606
757,757,0,2046,2714
758,758,0,2046,1634
759,759,0,2046,667
760,760,0,2046,83
761,761,0,2046,43
762,762,0,2047,559
763,763,0,2047,1487
764,764,0,2046,2569
765,765,0,2046,3503
766,766,0,2046,4029
767,767,0,2046,4000
768,768,0,2046,3423
769,769,0,2046,2460
770,770,0,2046,1380
771,771,0,2047,483
772,772,0,2046,21
773,773,0,2046,120
774,774,0,2046,754
775,775,0,2047,1745
776,776,0,2046,2819
777,777,0,2046,3675
778,778,0,2046,4075
779,779,0,2046,3908
780,780,0,2046,3218
781,781,0,2046,2200
782,782,0,2046,1137
783,783,0,2046,325
784,784,0,2046,0
785,785,0,2046,227
786,786,0,2046,969
787,787,0,2046,2007
788,788,0,2047,3055
789,789,0,2047,3820
790,790,0,2046,4088
791,791,0,2046,3785
792,792,0,2046,2993
793,793,0,2047,1937
794,794,0,2046,908
795,795,0,2046,195
796,796,0,2046,0
797,797,0,2046,366
798,798,0,2046,1201
799,799,0,2047,2270
800,800,0,2047,3275
801,801,0,2047,3936
802,802,0,2046,4066
803,803,0,2046,3632
804,804,0,2046,2753
805,805,0,2046,1674
806,806,0,2046,698
807,807,0,2046,95
808,808,0,2046,34
809,809,0,2046,531
810,810,0,2047,1448
811,811,0,2047,2530
812,812,0,2046,3475
813,813,0,2047,4019
814,814,0,2047,4012
815,815,0,2047,3453
816,816,0,2046,2499
817,817,0,2047,1419
818,818,0,2047,510
819,819,0,2047,28
820,820,0,2047,106
821,821,0,2047,722
822,822,0,2047,1705
823,823,0,2046,2781
824,824,0,2047,3650
825,825,0,2047,4070
826,826,0,2046,3924
827,827,0,2046,3251
828,828,0,2047,2240
829,829,0,2047,1173
830,830,0,2046,348
831,831,0,2046,0
832,832,0,2046,209
833,833,0,2047,934
834,834,0,2047,1967
835,835,0,2047,3020
836,836,0,2047,3800
837,837,0,2046,4089
838,838,0,2047,3805
839,839,0,2047,3028
840,840,0,2046,1977
841,841,0,2047,942
842,842,0,2046,213
843,843,0,2047,0
844,844,0,2047,342
845,845,0,2047,1165
846,846,0,2046,2230
847,847,0,2047,3242
848,848,0,2046,3920
849,849,0,2046,4073
850,850,0,2047,3656
851,851,0,2046,2790
852,852,0,2046,1714
853,853,0,2047,729
854,854,0,2046,109
855,855,0,2047,26
856,856,0,2046,504
857,857,0,2047,1409
858,858,0,2046,2490
859,859,0,2047,3446
860,860,0,2046,4008
861,861,0,2047,4022
862,862,0,2047,3483
863,863,0,2046,2540
864,864,0,2046,1457
865,865,0,2046,538
866,866,0,2047,36
867,867,0,2046,93
868,868,0,2047,691
869,869,0,2047,1665
870,870,0,2047,2744
871,871,0,2046,3625
872,872,0,2046,4065
873,873,0,2047,3940
874,874,0,2047,3283
875,875,0,2046,2280
876,876,0,2046,1209
877,877,0,2046,371
878,878,0,2047,0
879,879,0,2047,192
880,880,0,2046,900
881,881,0,2047,1927
882,882,0,2047,2985
883,883,0,2046,3778
884,884,0,2047,4088
885,885,0,2047,3826
886,886,0,2046,3064
887,887,0,2046,2017
888,888,0,2046,976
889,889,0,2047,232
890,890,0,2047,0
891,891,0,2046,320
892,892,0,2046,1128
893,893,0,2047,2190
894,894,0,2047,3210
895,895,0,2047,3904
896,896,0,2046,4076
897,897,0,2046,3681
898,898,0,2047,2828
899,899,0,2047,1754
900,900,0,2046,760
901,901,0,2047,122
902,902,0,2047,19
903,903,0,2046,478
904,904,0,2046,1371
905,905,0,2046,2451
906,906,0,2046,3416
907,907,0,2047,3997
908,908,0,2047,4033
909,909,0,2047,3510
910,910,0,2046,2579
911,911,0,2046,1496
912,912,0,2047,566
913,913,0,2046,45
914,914,0,2047,81
915,915,0,2046,661
916,916,0,2046,1625
917,917,0,2047,2705
918,918,0,2046,3599
919,919,0,2046,4059
920,920,0,2046,3954
921,921,0,2047,3315
922,922,0,2046,2319
923,923,0,2047,1246
924,924,0,2047,394
925,925,0,2046,1
926,926,0,2047,174
927,927,0,2046,867
928,928,0,2047,1887
929,929,0,2047,2947
930,930,0,2047,3757
931,931,0,2046,4087
932,932,0,2046,3844
933,933,0,2047,3099
934,934,0,2046,2057
935,935,0,2047,1010
936,936,0,2046,251
937,937,0,2047,0
938,938,0,2046,299
939,939,0,2046,1092
940,940,0,2047,2150
941,941,0,2046,3176
942,942,0,2047,3886
943,943,0,2047,4081
944,944,0,2046,3705
945,945,0,2046,2865
946,946,0,2046,1794
947,947,0,2046,791
948,948,0,2047,137
949,949,0,2046,13
950,950,0,2047,453
951,951,0,2047,1334
952,952,0,2046,2411
953,953,0,2046,3386
954,954,0,2046,3985
955,955,0,2047,4041
956,956,0,2046,3538
957,957,0,2047,2616
958,958,0,2047,1534
959,959,0,2047,593
960,960,0,2046,55
961,961,0,2046,69
962,962,0,2046,632
963,963,0,2047,1587
964,964,0,2046,2667
965,965,0,2046,3573
966,966,0,2046,4051
967,967,0,2046,3968
968,968,0,2046,3346
969,969,0,2047,2360
970,970,0,2046,1284
971,971,0,2046,419
972,972,0,2047,5
973,973,0,2046,158
974,974,0,2046,835
975,975,0,2046,1846
976,976,0,2046,2912
977,977,0,2047,3734
978,978,0,2046,4084
979,979,0,2046,3864
980,980,0,2047,3133
981,981,0,2047,2097
982,982,0,2047,1046
983,983,0,2047,271
984,984,0,2047,0
985,985,0,2046,278
986,986,0,2047,1058
987,987,0,2046,2109
988,988,0,2046,3143
989,989,0,2046,3869
990,990,0,2047,4083
991,991,0,2047,3729
992,992,0,2047,2902
993,993,0,2046,1834
994,994,0,2046,824
995,995,0,2047,153
996,996,0,2046,8
997,997,0,2046,427
998,998,0,2047,1295
999,999,0,2047,2372
1000,1000,0,2046,3356
1001,1001,0,2047,3972
1002,1002,0,2046,4049
1003,1003,0,2046,3566
1004,1004,0,2046,2655
1005,1005,0,2046,1573
1006,1006,0,2046,622
1007,1007,0,2047,66
1008,1008,0,2046,58
1009,1009,0,2047,602
1010,1010,0,2047,1547
1011,1011,0,2046,2629
1012,1012,0,2046,3546
1013,1013,0,2047,4043
1014,1014,0,2047,3982
1015,1015,0,2047,3377
1016,1016,0,2047,2399
1017,1017,0,2047,1321
1018,1018,0,2046,444
1019,1019,0,2047,11
1020,1020,0,2046,142
1021,1021,0,2046,802
1022,1022,0,2046,1806
1023,1023,0,2046,2875
1024,1024,0,2047,3712
1025,1025,0,2046,4081
1026,1026,0,2046,3882
1027,1027,0,2047,3166
