Sample in Buffer,Sample in Window,TRIGGER,adc1_data_a_d0[11:0],adc1_data_b_d0[11:0]
0,0,0,2046,3337
1,1,0,2047,2654
2,2,0,2047,1887
3,3,0,2046,1140
4,4,0,2046,518
5,5,0,2046,107
6,6,0,2046,0
7,7,0,2046,108
8,8,0,2046,521
9,9,0,2047,1145
10,10,0,2046,1891
11,11,0,2047,2659
12,12,0,2046,3341
13,13,0,2046,3842
14,14,0,2047,4092
15,15,0,2047,4058
16,16,0,2047,3743
17,17,0,2047,3192
18,18,0,2046,2480
19,19,0,2047,1707
20,20,0,2046,981
21,21,0,2047,401
22,22,0,2047,48
23,23,0,2046,0
24,24,0,2047,182
25,25,0,2047,650
26,26,0,2046,1311
27,27,0,2046,2072
28,28,0,2046,2829
29,29,0,2047,3477
30,30,0,2046,3924
31,31,0,2046,4095
32,32,0,2047,4009
33,33,0,2047,3633
34,34,0,2047,3036
35,35,0,2046,2302
36,36,0,2047,1531
37,37,0,2047,829
38,38,0,2046,296
39,39,0,2046,5
40,40,0,2046,0
41,41,0,2047,270
42,42,0,2046,789
43,43,0,2046,1483
44,44,0,2047,2252
45,45,0,2046,2993
46,46,0,2046,3601
47,47,0,2046,3993
48,48,0,2046,4095
49,49,0,2046,3945
50,50,0,2047,3512
51,51,0,2047,2874
52,52,0,2046,2121
53,53,0,2046,1357
54,54,0,2047,687
55,55,0,2047,205
56,56,0,2047,0
57,57,0,2046,35
58,58,0,2046,370
59,59,0,2046,939
60,60,0,2046,1659
61,61,0,2047,2431
62,62,0,2046,3150
63,63,0,2046,3715
64,64,0,2047,4046
65,65,0,2046,4095
66,66,0,2047,3865
67,67,0,2047,3379
68,68,0,2046,2706
69,69,0,2047,1941
70,70,0,2047,1189
71,71,0,2046,556
72,72,0,2046,128
73,73,0,2046,0
74,74,0,2047,90
75,75,0,2047,485
76,76,0,2046,1096
77,77,0,2046,1838
78,78,0,2046,2607
79,79,0,2047,3298
80,80,0,2046,3815
81,81,0,2047,4084
82,82,0,2047,4070
83,83,0,2047,3773
84,84,0,2046,3235
85,85,0,2046,2532
86,86,0,2046,1761
87,87,0,2047,1028
88,88,0,2047,435
89,89,0,2046,64
90,90,0,2047,0
91,91,0,2047,159
92,92,0,2046,611
93,93,0,2046,1260
94,94,0,2047,2018
95,95,0,2047,2779
96,96,0,2047,3437
97,97,0,2047,3901
98,98,0,2047,4095
99,99,0,2046,4025
100,100,0,2046,3667
101,101,0,2047,3083
102,102,0,2047,2355
103,103,0,2047,1582
104,104,0,2047,874
105,105,0,2046,326
106,106,0,2047,16
107,107,0,2046,0
108,108,0,2047,242
109,109,0,2046,748
110,110,0,2047,1431
111,111,0,2047,2200
112,112,0,2046,2945
113,113,0,2046,3566
114,114,0,2046,3974
115,115,0,2047,4095
116,116,0,2046,3965
117,117,0,2047,3549
118,118,0,2046,2924
119,119,0,2046,2175
120,120,0,2047,1407
121,121,0,2047,729
122,122,0,2046,230
123,123,0,2046,0
124,124,0,2046,22
125,125,0,2046,339
126,126,0,2046,893
127,127,0,2046,1606
128,128,0,2047,2378
129,129,0,2046,3104
130,130,0,2047,3682
131,131,0,2046,4032
132,132,0,2046,4095
133,133,0,2046,3891
134,134,0,2046,3419
135,135,0,2046,2756
136,136,0,2047,1995
137,137,0,2046,1238
138,138,0,2046,593
139,139,0,2046,148
140,140,0,2047,0
141,141,0,2046,72
142,142,0,2046,450
143,143,0,2047,1048
144,144,0,2046,1784
145,145,0,2046,2556
146,146,0,2047,3255
147,147,0,2046,3786
148,148,0,2047,4075
149,149,0,2046,4080
150,150,0,2046,3802
151,151,0,2046,3279
152,152,0,2046,2585
153,153,0,2047,1814
154,154,0,2046,1075
155,155,0,2047,470
156,156,0,2046,82
157,157,0,2047,0
158,158,0,2046,137
159,159,0,2046,573
160,160,0,2046,1211
161,161,0,2046,1964
162,162,0,2046,2729
163,163,0,2046,3398
164,164,0,2047,3877
165,165,0,2047,4095
166,166,0,2046,4040
167,167,0,2046,3700
168,168,0,2046,3129
169,169,0,2047,2407
170,170,0,2047,1635
171,171,0,2046,918
172,172,0,2046,357
173,173,0,2046,30
174,174,0,2046,0
175,175,0,2046,216
176,176,0,2047,706
177,177,0,2047,1380
178,178,0,2046,2145
179,179,0,2047,2896
180,180,0,2046,3528
181,181,0,2047,3953
182,182,0,2046,4095
183,183,0,2046,3985
184,184,0,2047,3585
185,185,0,2046,2971
186,186,0,2046,2229
187,187,0,2047,1460
188,188,0,2047,771
189,189,0,2046,258
190,190,0,2047,0
191,191,0,2046,10
192,192,0,2047,309
193,193,0,2047,848
194,194,0,2046,1554
195,195,0,2046,2325
196,196,0,2047,3057
197,197,0,2046,3648
198,198,0,2047,4016
199,199,0,2046,4095
200,200,0,2047,3914
201,201,0,2046,3458
202,202,0,2047,2807
203,203,0,2046,2048
204,204,0,2046,1288
205,205,0,2046,633
206,206,0,2047,172
207,207,0,2047,0
208,208,0,2047,55
209,209,0,2047,415
210,210,0,2047,1001
211,211,0,2046,1731
212,212,0,2047,2503
213,213,0,2046,3211
214,214,0,2046,3756
215,215,0,2047,4064
216,216,0,2047,4089
217,217,0,2047,3830
218,218,0,2046,3321
219,219,0,2046,2636
220,220,0,2046,1867
221,221,0,2046,1123
222,222,0,2047,505
223,223,0,2046,100
224,224,0,2047,0
225,225,0,2047,116
226,226,0,2047,534
227,227,0,2047,1162
228,228,0,2047,1911
229,229,0,2047,2678
230,230,0,2046,3356
231,231,0,2046,3852
232,232,0,2047,4095
233,233,0,2046,4053
234,234,0,2047,3732
235,235,0,2046,3175
236,236,0,2047,2461
237,237,0,2047,1688
238,238,0,2047,964
239,239,0,2047,389
240,240,0,2047,43
241,241,0,2046,0
242,242,0,2046,191
243,243,0,2046,665
244,244,0,2047,1329
245,245,0,2047,2091
246,246,0,2047,2846
247,247,0,2046,3491
248,248,0,2046,3932
249,249,0,2046,4095
250,250,0,2047,4002
251,251,0,2047,3620
252,252,0,2046,3019
253,253,0,2047,2282
254,254,0,2046,1511
255,255,0,2047,813
256,256,0,2047,285
257,257,0,2046,2
258,258,0,2046,0
259,259,0,2047,280
260,260,0,2047,805
261,261,0,2046,1501
262,262,0,2047,2273
263,263,0,2047,3010
264,264,0,2046,3614
265,265,0,2046,3999
266,266,0,2046,4095
267,267,0,2047,3937
268,268,0,2047,3497
269,269,0,2046,2856
270,270,0,2047,2102
271,271,0,2046,1338
272,272,0,2046,673
273,273,0,2046,197
274,274,0,2047,0
275,275,0,2046,40
276,276,0,2046,382
277,277,0,2047,955
278,278,0,2046,1677
279,279,0,2047,2450
280,280,0,2046,3166
281,281,0,2047,3725
282,282,0,2046,4050
283,283,0,2047,4095
284,284,0,2046,3855
285,285,0,2047,3363
286,286,0,2047,2687
287,287,0,2047,1922
288,288,0,2046,1171
289,289,0,2046,542
290,290,0,2047,120
291,291,0,2046,0
292,292,0,2047,96
293,293,0,2046,498
294,294,0,2046,1113
295,295,0,2047,1856
296,296,0,2046,2626
297,297,0,2047,3314
298,298,0,2046,3823
299,299,0,2047,4087
300,300,0,2046,4066
301,301,0,2046,3762
302,302,0,2046,3219
303,303,0,2047,2513
304,304,0,2046,1741
305,305,0,2047,1011
306,306,0,2046,423
307,307,0,2046,59
308,308,0,2047,0
309,309,0,2046,167
310,310,0,2046,625
311,311,0,2047,1279
312,312,0,2047,2038
313,313,0,2046,2797
314,314,0,2047,3451
315,315,0,2046,3910
316,316,0,2046,4095
317,317,0,2046,4019
318,318,0,2046,3655
319,319,0,2046,3067
320,320,0,2047,2336
321,321,0,2046,1563
322,322,0,2046,857
323,323,0,2046,315
324,324,0,2047,12
325,325,0,2047,0
326,326,0,2046,252
327,327,0,2047,762
328,328,0,2046,1449
329,329,0,2046,2218
330,330,0,2046,2962
331,331,0,2046,3578
332,332,0,2047,3980
333,333,0,2046,4095
334,334,0,2047,3957
335,335,0,2047,3535
336,336,0,2046,2906
337,337,0,2046,2156
338,338,0,2047,1390
339,339,0,2046,714
340,340,0,2047,221
341,341,0,2047,0
342,342,0,2046,26
343,343,0,2046,351
344,344,0,2046,910
345,345,0,2046,1625
346,346,0,2046,2397
347,347,0,2046,3120
348,348,0,2046,3694
349,349,0,2047,4037
350,350,0,2046,4095
351,351,0,2047,3882
352,352,0,2046,3404
353,353,0,2046,2738
354,354,0,2046,1975
355,355,0,2047,1221
356,356,0,2046,579
357,357,0,2046,141
358,358,0,2046,0
359,359,0,2046,78
360,360,0,2046,462
361,361,0,2046,1066
362,362,0,2047,1804
363,363,0,2046,2574
364,364,0,2046,3271
365,365,0,2046,3797
366,366,0,2046,4078
367,367,0,2047,4077
368,368,0,2047,3792
369,369,0,2046,3263
370,370,0,2046,2566
371,371,0,2047,1795
372,372,0,2047,1057
373,373,0,2046,457
374,374,0,2046,75
375,375,0,2046,0
376,376,0,2046,144
377,377,0,2047,586
378,378,0,2047,1229
379,379,0,2047,1984
380,380,0,2046,2747
381,381,0,2047,3412
382,382,0,2047,3886
383,383,0,2046,4095
384,384,0,2046,4034
385,385,0,2046,3689
386,386,0,2046,3113
387,387,0,2046,2388
388,388,0,2046,1616
389,389,0,2046,902
390,390,0,2046,346
391,391,0,2046,24
392,392,0,2047,0
393,393,0,2046,225
394,394,0,2046,721
395,395,0,2046,1399
396,396,0,2047,2165
397,397,0,2046,2914
398,398,0,2046,3541
399,399,0,2046,3961
400,400,0,2047,4095
401,401,0,2046,3978
402,402,0,2046,3572
403,403,0,2046,2954
404,404,0,2046,2210
405,405,0,2046,1441
406,406,0,2046,756
407,407,0,2046,248
408,408,0,2047,0
409,409,0,2046,14
410,410,0,2045,320
411,411,0,2047,865
412,412,0,2046,1572
413,413,0,2047,2345
414,414,0,2046,3075
415,415,0,2047,3660
416,416,0,2046,4021
417,417,0,2046,4095
418,418,0,2047,3906
419,419,0,2047,3444
420,420,0,2046,2788
421,421,0,2046,2029
422,422,0,2046,1270
423,423,0,2046,618
424,424,0,2046,163
425,425,0,2046,0
426,426,0,2046,61
427,427,0,2046,428
428,428,0,2046,1019
429,429,0,2046,1750
430,430,0,2047,2523
431,431,0,2046,3228
432,432,0,2046,3767
433,433,0,2046,4068
434,434,0,2046,4086
435,435,0,2046,3820
436,436,0,2047,3307
437,437,0,2046,2618
438,438,0,2046,1848
439,439,0,2046,1105
440,440,0,2046,492
441,441,0,2047,93
442,442,0,2046,0
443,443,0,2046,123
444,444,0,2047,548
445,445,0,2046,1180
446,446,0,2046,1930
447,447,0,2047,2696
448,448,0,2047,3371
449,449,0,2047,3860
450,450,0,2046,4095
451,451,0,2047,4048
452,452,0,2046,3721
453,453,0,2046,3158
454,454,0,2046,2442
455,455,0,2046,1669
456,456,0,2047,948
457,457,0,2046,378
458,458,0,2046,38
459,459,0,2046,0
460,460,0,2046,200
461,461,0,2046,679
462,462,0,2046,1347
463,463,0,2046,2111
464,464,0,2046,2865
465,465,0,2046,3504
466,466,0,2047,3940
467,467,0,2047,4095
468,468,0,2046,3996
469,469,0,2046,3609
470,470,0,2046,3002
471,471,0,2046,2263
472,472,0,2047,1493
473,473,0,2047,798
474,474,0,2046,275
475,475,0,2047,0
476,476,0,2047,2
477,477,0,2046,290
478,478,0,2047,821
479,479,0,2046,1520
480,480,0,2046,2292
481,481,0,2047,3028
482,482,0,2046,3627
483,483,0,2046,4005
484,484,0,2046,4095
485,485,0,2047,3928
486,486,0,2047,3484
487,487,0,2046,2838
488,488,0,2047,2082
489,489,0,2046,1320
490,490,0,2046,658
491,491,0,2047,187
492,492,0,2046,0
493,493,0,2047,45
494,494,0,2046,394
495,495,0,2047,971
496,496,0,2046,1697
497,497,0,2046,2470
498,498,0,2047,3183
499,499,0,2047,3737
500,500,0,2046,4055
501,501,0,2047,4094
502,502,0,2046,3847
503,503,0,2046,3348
504,504,0,2046,2669
505,505,0,2046,1902
506,506,0,2047,1153
507,507,0,2047,528
508,508,0,2047,112
509,509,0,2047,0
510,510,0,2047,103
511,511,0,2047,511
512,512,0,2046,1131
513,513,0,2047,1876
514,514,0,2047,2644
515,515,0,2047,3330
516,516,0,2046,3834
517,517,0,2046,4091
518,518,0,2047,4062
519,519,0,2047,3751
520,520,0,2047,3203
521,521,0,2047,2494
522,522,0,2047,1722
523,523,0,2047,993
524,524,0,2047,411
525,525,0,2046,52
526,526,0,2047,0
527,527,0,2047,176
528,528,0,2047,639
529,529,0,2047,1297
530,530,0,2046,2057
531,531,0,2046,2816
532,532,0,2046,3466
533,533,0,2046,3918
534,534,0,2046,4095
535,535,0,2046,4014
536,536,0,2047,3643
537,537,0,2046,3049
538,538,0,2046,2316
539,539,0,2047,1545
540,540,0,2046,842
541,541,0,2046,304
542,542,0,2046,8
543,543,0,2047,0
544,544,0,2046,262
545,545,0,2047,778
546,546,0,2047,1468
547,547,0,2047,2237
548,548,0,2046,2980
549,549,0,2046,3591
550,550,0,2047,3987
551,551,0,2046,4095
552,552,0,2047,3951
553,553,0,2047,3522
554,554,0,2047,2888
555,555,0,2047,2137
556,556,0,2046,1371
557,557,0,2046,698
558,558,0,2046,212
559,559,0,2046,0
560,560,0,2047,30
561,561,0,2047,362
562,562,0,2046,926
563,563,0,2047,1644
564,564,0,2047,2416
565,565,0,2046,3138
566,566,0,2047,3706
567,567,0,2046,4042
568,568,0,2047,4095
569,569,0,2046,3872
570,570,0,2046,3390
571,571,0,2046,2720
572,572,0,2046,1955
573,573,0,2046,1202
574,574,0,2047,566
575,575,0,2047,133
576,576,0,2047,0
577,577,0,2047,84
578,578,0,2047,475
579,579,0,2047,1082
580,580,0,2047,1823
581,581,0,2047,2593
582,582,0,2046,3286
583,583,0,2047,3807
584,584,0,2046,4082
585,585,0,2046,4073
586,586,0,2046,3782
587,587,0,2046,3248
588,588,0,2046,2547
589,589,0,2047,1776
590,590,0,2047,1040
591,591,0,2047,444
592,592,0,2047,69
593,593,0,2046,0
594,594,0,2047,152
595,595,0,2046,600
596,596,0,2046,1246
597,597,0,2046,2003
598,598,0,2046,2765
599,599,0,2047,3426
600,600,0,2047,3894
601,601,0,2046,4095
602,602,0,2047,4029
603,603,0,2046,3676
604,604,0,2047,3096
605,605,0,2046,2370
606,606,0,2046,1598
607,607,0,2047,885
608,608,0,2046,334
609,609,0,2046,19
610,610,0,2047,0
611,611,0,2046,234
612,612,0,2046,735
613,613,0,2046,1416
614,614,0,2046,2184
615,615,0,2047,2932
616,616,0,2046,3555
617,617,0,2046,3968
618,618,0,2046,4095
619,619,0,2046,3971
620,620,0,2046,3559
621,621,0,2046,2936
622,622,0,2046,2190
623,623,0,2046,1422
624,624,0,2046,740
625,625,0,2046,237
626,626,0,2046,0
627,627,0,2046,18
628,628,0,2046,330
629,629,0,2046,881
630,630,0,2047,1591
631,631,0,2046,2365
632,632,0,2046,3091
633,633,0,2046,3672
634,634,0,2046,4028
635,635,0,2046,4095
636,636,0,2046,3897
637,637,0,2047,3430
638,638,0,2046,2770
639,639,0,2047,2009
640,640,0,2046,1252
641,641,0,2047,604
642,642,0,2047,155
643,643,0,2046,0
644,644,0,2046,68
645,645,0,2046,440
646,646,0,2046,1035
647,647,0,2046,1769
648,648,0,2046,2541
649,649,0,2046,3244
650,650,0,2047,3778
651,651,0,2047,4072
652,652,0,2046,4083
653,653,0,2047,3810
654,654,0,2047,3292
655,655,0,2046,2599
656,656,0,2046,1829
657,657,0,2047,1088
658,658,0,2046,479
659,659,0,2047,86
660,660,0,2046,0
661,661,0,2046,130
662,662,0,2047,561
663,663,0,2047,1196
664,664,0,2047,1950
665,665,0,2046,2714
666,666,0,2046,3386
667,667,0,2047,3870
668,668,0,2047,4095
669,669,0,2047,4044
670,670,0,2047,3709
671,671,0,2046,3143
672,672,0,2046,2423
673,673,0,2047,1650
674,674,0,2047,933
675,675,0,2046,365
676,676,0,2047,32
677,677,0,2047,0
678,678,0,2046,208
679,679,0,2047,694
680,680,0,2046,1366
681,681,0,2046,2131
682,682,0,2046,2882
683,683,0,2047,3517
684,684,0,2047,3948
685,685,0,2046,4095
686,686,0,2047,3990
687,687,0,2047,3596
688,688,0,2046,2986
689,689,0,2046,2243
690,690,0,2046,1474
691,691,0,2046,782
692,692,0,2046,266
693,693,0,2046,0
694,694,0,2046,6
695,695,0,2046,301
696,696,0,2046,837
697,697,0,2046,1539
698,698,0,2046,2310
699,699,0,2046,3045
700,700,0,2046,3639
701,701,0,2047,4011
702,702,0,2047,4095
703,703,0,2047,3921
704,704,0,2046,3470
705,705,0,2046,2821
706,706,0,2047,2063
707,707,0,2045,1302
708,708,0,2046,643
709,709,0,2047,178
710,710,0,2046,0
711,711,0,2047,51
712,712,0,2046,406
713,713,0,2047,988
714,714,0,2046,1716
715,715,0,2046,2488
716,716,0,2047,3198
717,717,0,2046,3748
718,718,0,2047,4060
719,719,0,2046,4092
720,720,0,2046,3838
721,721,0,2046,3334
722,722,0,2047,2650
723,723,0,2047,1883
724,724,0,2046,1136
725,725,0,2046,515
726,726,0,2046,105
727,727,0,2047,0
728,728,0,2047,110
729,729,0,2046,524
730,730,0,2046,1148
731,731,0,2046,1895
732,732,0,2046,2663
733,733,0,2046,3344
734,734,0,2046,3843
735,735,0,2046,4093
736,736,0,2046,4057
737,737,0,2046,3740
738,738,0,2046,3187
739,739,0,2046,2476
740,740,0,2047,1703
741,741,0,2047,977
742,742,0,2046,398
743,743,0,2047,46
744,744,0,2047,0
745,745,0,2046,184
746,746,0,2046,654
747,747,0,2046,1315
748,748,0,2046,2076
749,749,0,2047,2832
750,750,0,2046,3479
751,751,0,2047,3926
752,752,0,2046,4095
753,753,0,2046,4007
754,754,0,2046,3631
755,755,0,2046,3033
756,756,0,2047,2296
757,757,0,2046,1526
758,758,0,2046,826
759,759,0,2046,294
760,760,0,2047,4
761,761,0,2046,0
762,762,0,2046,272
763,763,0,2047,792
764,764,0,2047,1487
765,765,0,2046,2257
766,766,0,2046,2997
767,767,0,2046,3604
768,768,0,2047,3994
769,769,0,2047,4095
770,770,0,2047,3942
771,771,0,2046,3509
772,772,0,2046,2870
773,773,0,2047,2117
774,774,0,2046,1354
775,775,0,2046,683
776,776,0,2046,203
777,777,0,2047,0
778,778,0,2046,36
779,779,0,2047,373
780,780,0,2046,943
781,781,0,2047,1663
782,782,0,2046,2436
783,783,0,2047,3154
784,784,0,2047,3716
785,785,0,2047,4047
786,786,0,2046,4095
787,787,0,2047,3863
788,788,0,2046,3375
789,789,0,2047,2702
790,790,0,2046,1936
791,791,0,2046,1185
792,792,0,2047,552
793,793,0,2047,126
794,794,0,2047,0
795,795,0,2046,91
796,796,0,2047,487
797,797,0,2047,1099
798,798,0,2046,1842
799,799,0,2046,2611
800,800,0,2046,3302
801,801,0,2047,3817
802,802,0,2047,4085
803,803,0,2046,4069
804,804,0,2047,3771
805,805,0,2047,3232
806,806,0,2046,2527
807,807,0,2047,1756
808,808,0,2046,1024
809,809,0,2046,431
810,810,0,2046,63
811,811,0,2046,0
812,812,0,2047,160
813,813,0,2046,613
814,814,0,2047,1264
815,815,0,2047,2023
816,816,0,2046,2783
817,817,0,2047,3440
818,818,0,2047,3903
819,819,0,2046,4095
820,820,0,2046,4024
821,821,0,2046,3664
822,822,0,2047,3079
823,823,0,2046,2350
824,824,0,2046,1578
825,825,0,2047,870
826,826,0,2046,324
827,827,0,2046,16
828,828,0,2047,0
829,829,0,2047,244
830,830,0,2046,750
831,831,0,2046,1435
832,832,0,2046,2204
833,833,0,2047,2949
834,834,0,2047,3568
835,835,0,2046,3975
836,836,0,2047,4095
837,837,0,2046,3963
838,838,0,2046,3546
839,839,0,2046,2919
840,840,0,2047,2171
841,841,0,2046,1404
842,842,0,2047,725
843,843,0,2046,228
844,844,0,2046,0
845,845,0,2046,22
846,846,0,2046,342
847,847,0,2046,896
848,848,0,2046,1610
849,849,0,2046,2383
850,850,0,2047,3107
851,851,0,2047,3684
852,852,0,2047,4033
853,853,0,2046,4095
854,854,0,2046,3889
855,855,0,2046,3416
856,856,0,2047,2752
857,857,0,2046,1990
858,858,0,2047,1234
859,859,0,2047,590
860,860,0,2047,147
861,861,0,2047,0
862,862,0,2047,73
863,863,0,2046,452
864,864,0,2047,1052
865,865,0,2046,1788
866,866,0,2047,2560
867,867,0,2046,3259
868,868,0,2046,3788
869,869,0,2047,4076
870,870,0,2047,4080
871,871,0,2047,3799
872,872,0,2046,3275
873,873,0,2047,2580
874,874,0,2046,1810
875,875,0,2046,1070
876,876,0,2046,466
877,877,0,2047,80
878,878,0,2047,0
879,879,0,2047,138
880,880,0,2046,575
881,881,0,2047,1214
882,882,0,2046,1969
883,883,0,2046,2733
884,884,0,2046,3401
885,885,0,2046,3879
886,886,0,2046,4095
887,887,0,2046,4038
888,888,0,2046,3697
889,889,0,2047,3126
890,890,0,2046,2404
891,891,0,2047,1631
892,892,0,2046,914
893,893,0,2047,354
894,894,0,2047,28
895,895,0,2046,0
896,896,0,2047,218
897,897,0,2046,709
898,898,0,2046,1384
899,899,0,2046,2150
900,900,0,2046,2900
901,901,0,2047,3531
902,902,0,2046,3955
903,903,0,2046,4095
904,904,0,2047,3983
905,905,0,2047,3583
906,906,0,2046,2968
907,907,0,2047,2225
908,908,0,2047,1456
909,909,0,2046,768
910,910,0,2046,254
911,911,0,2045,0
912,912,0,2046,10
913,913,0,2047,311
914,914,0,2046,852
915,915,0,2047,1557
916,916,0,2047,2329
917,917,0,2047,3062
918,918,0,2046,3650
919,919,0,2046,4017
920,920,0,2047,4095
921,921,0,2047,3912
922,922,0,2046,3456
923,923,0,2046,2803
924,924,0,2046,2043
925,925,0,2047,1284
926,926,0,2047,630
927,927,0,2047,170
928,928,0,2047,0
929,929,0,2046,56
930,930,0,2047,418
931,931,0,2047,1005
932,932,0,2047,1735
933,933,0,2046,2507
934,934,0,2046,3214
935,935,0,2047,3758
936,936,0,2046,4064
937,937,0,2047,4088
938,938,0,2046,3828
939,939,0,2047,3318
940,940,0,2046,2632
941,941,0,2046,1863
942,942,0,2046,1119
943,943,0,2046,501
944,944,0,2047,98
945,945,0,2046,0
946,946,0,2047,118
947,947,0,2047,537
948,948,0,2046,1165
949,949,0,2046,1915
950,950,0,2046,2681
951,951,0,2047,3359
952,952,0,2046,3853
953,953,0,2047,4095
954,954,0,2047,4052
955,955,0,2046,3729
956,956,0,2047,3171
957,957,0,2047,2456
958,958,0,2046,1684
959,959,0,2046,960
960,960,0,2047,386
961,961,0,2047,42
962,962,0,2046,0
963,963,0,2046,192
964,964,0,2046,668
965,965,0,2046,1333
966,966,0,2046,2096
967,967,0,2047,2850
968,968,0,2046,3493
969,969,0,2046,3934
970,970,0,2046,4095
971,971,0,2046,4001
972,972,0,2047,3618
973,973,0,2046,3015
974,974,0,2046,2278
975,975,0,2047,1507
976,976,0,2046,810
977,977,0,2046,283
978,978,0,2046,0
979,979,0,2047,0
980,980,0,2047,282
981,981,0,2047,809
982,982,0,2046,1505
983,983,0,2046,2276
984,984,0,2046,3015
985,985,0,2046,3617
986,986,0,2047,4000
987,987,0,2046,4095
988,988,0,2046,3934
989,989,0,2047,3495
990,990,0,2047,2853
991,991,0,2047,2097
992,992,0,2046,1334
993,993,0,2046,669
994,994,0,2046,194
995,995,0,2047,0
996,996,0,2046,41
997,997,0,2046,385
998,998,0,2047,959
999,999,0,2047,1682
1000,1000,0,2046,2455
1001,1001,0,2047,3170
1002,1002,0,2047,3728
1003,1003,0,2047,4052
1004,1004,0,2047,4095
1005,1005,0,2047,3854
1006,1006,0,2047,3360
1007,1007,0,2047,2683
1008,1008,0,2046,1917
1009,1009,0,2046,1168
1010,1010,0,2046,539
1011,1011,0,2046,118
1012,1012,0,2047,0
1013,1013,0,2046,97
1014,1014,0,2046,501
1015,1015,0,2046,1117
1016,1016,0,2047,1861
1017,1017,0,2046,2630
1018,1018,0,2047,3317
1019,1019,0,2046,3827
1020,1020,0,2046,4088
1021,1021,0,2046,4065
1022,1022,0,2047,3759
1023,1023,0,2046,3216
1024,1024,0,2047,2509
1025,1025,0,2047,1738
1026,1026,0,2046,1007
1027,1027,0,2046,419
1028,1028,0,2047,57
1029,1029,0,2046,0
