Sample in Buffer,Sample in Window,TRIGGER,adc1_data_a_d0[11:0],adc1_data_b_d0[11:0]
0,0,0,2047,3966
1,1,0,2047,3772
2,2,0,2047,3512
3,3,0,2046,3195
4,4,0,2046,2833
5,5,0,2047,2440
6,6,0,2047,2032
7,7,0,2046,1626
8,8,0,2047,1234
9,9,0,2046,874
10,10,0,2047,558
11,11,0,2047,299
12,12,0,2046,108
13,13,0,2047,0
14,14,0,2046,0
15,15,0,2046,0
16,16,0,2047,114
17,17,0,2046,309
18,18,0,2046,570
19,19,0,2047,887
20,20,0,2047,1249
21,21,0,2047,1642
22,22,0,2047,2051
23,23,0,2046,2457
24,24,0,2047,2848
25,25,0,2046,3208
26,26,0,2047,3524
27,27,0,2046,3781
28,28,0,2046,3973
29,29,0,2046,4088
30,30,0,2046,4095
31,31,0,2046,4083
32,32,0,2047,3962
33,33,0,2046,3765
34,34,0,2046,3502
35,35,0,2047,3184
36,36,0,2046,2822
37,37,0,2047,2428
38,38,0,2047,2020
39,39,0,2046,1613
40,40,0,2046,1223
41,41,0,2046,864
42,42,0,2046,549
43,43,0,2047,292
44,44,0,2047,103
45,45,0,2046,0
46,46,0,2047,0
47,47,0,2046,0
48,48,0,2047,119
49,49,0,2046,316
50,50,0,2046,579
51,51,0,2046,898
52,52,0,2047,1261
53,53,0,2046,1653
54,54,0,2046,2062
55,55,0,2047,2469
56,56,0,2046,2860
57,57,0,2046,3219
58,58,0,2046,3532
59,59,0,2046,3788
60,60,0,2047,3976
61,61,0,2047,4091
62,62,0,2046,4095
63,63,0,2047,4081
64,64,0,2046,3956
65,65,0,2046,3758
66,66,0,2046,3494
67,67,0,2046,3173
68,68,0,2046,2810
69,69,0,2046,2416
70,70,0,2047,2008
71,71,0,2046,1601
72,72,0,2046,1212
73,73,0,2045,853
74,74,0,2046,541
75,75,0,2047,286
76,76,0,2046,99
77,77,0,2046,0
78,78,0,2046,0
79,79,0,2047,0
80,80,0,2047,124
81,81,0,2046,323
82,82,0,2047,588
83,83,0,2046,908
84,84,0,2046,1272
85,85,0,2046,1666
86,86,0,2047,2075
87,87,0,2046,2481
88,88,0,2046,2872
89,89,0,2046,3228
90,90,0,2046,3541
91,91,0,2047,3795
92,92,0,2046,3982
93,93,0,2046,4094
94,94,0,2047,4095
95,95,0,2047,4078
96,96,0,2047,3951
97,97,0,2046,3750
98,98,0,2046,3485
99,99,0,2046,3163
100,100,0,2046,2798
101,101,0,2046,2403
102,102,0,2046,1995
103,103,0,2047,1588
104,104,0,2046,1199
105,105,0,2046,843
106,106,0,2046,532
107,107,0,2046,279
108,108,0,2046,94
109,109,0,2046,0
110,110,0,2046,0
111,111,0,2046,2
112,112,0,2047,129
113,113,0,2046,330
114,114,0,2046,597
115,115,0,2046,919
116,116,0,2046,1285
117,117,0,2046,1679
118,118,0,2047,2087
119,119,0,2046,2493
120,120,0,2047,2882
121,121,0,2046,3239
122,122,0,2046,3550
123,123,0,2047,3802
124,124,0,2047,3986
125,125,0,2046,4095
126,126,0,2047,4095
127,127,0,2046,4075
128,128,0,2046,3946
129,129,0,2046,3743
130,130,0,2046,3475
131,131,0,2046,3153
132,132,0,2047,2786
133,133,0,2047,2391
134,134,0,2047,1983
135,135,0,2045,1577
136,136,0,2047,1188
137,137,0,2047,833
138,138,0,2046,524
139,139,0,2047,273
140,140,0,2047,90
141,141,0,2046,0
142,142,0,2046,0
143,143,0,2047,5
144,144,0,2046,134
145,145,0,2046,337
146,146,0,2046,606
147,147,0,2046,930
148,148,0,2047,1296
149,149,0,2047,1691
150,150,0,2046,2100
151,151,0,2046,2506
152,152,0,2046,2894
153,153,0,2046,3249
154,154,0,2047,3557
155,155,0,2047,3808
156,156,0,2046,3991
157,157,0,2046,4095
158,158,0,2047,4095
159,159,0,2047,4072
160,160,0,2047,3941
161,161,0,2047,3736
162,162,0,2047,3466
163,163,0,2047,3141
164,164,0,2046,2774
165,165,0,2046,2379
166,166,0,2046,1970
167,167,0,2046,1565
168,168,0,2046,1177
169,169,0,2047,823
170,170,0,2046,515
171,171,0,2046,266
172,172,0,2046,86
173,173,0,2047,0
174,174,0,2047,0
175,175,0,2046,8
176,176,0,2047,140
177,177,0,2047,345
178,178,0,2047,615
179,179,0,2047,941
180,180,0,2046,1308
181,181,0,2047,1703
182,182,0,2046,2112
183,183,0,2047,2518
184,184,0,2046,2905
185,185,0,2046,3259
186,186,0,2046,3567
187,187,0,2046,3815
188,188,0,2046,3996
189,189,0,2046,4095
190,190,0,2046,4095
191,191,0,2047,4070
192,192,0,2046,3935
193,193,0,2047,3729
194,194,0,2047,3458
195,195,0,2047,3131
196,196,0,2047,2762
197,197,0,2046,2366
198,198,0,2046,1957
199,199,0,2046,1552
200,200,0,2046,1165
201,201,0,2046,812
202,202,0,2046,506
203,203,0,2046,259
204,204,0,2046,81
205,205,0,2047,0
206,206,0,2047,0
207,207,0,2046,10
208,208,0,2046,145
209,209,0,2047,352
210,210,0,2046,624
211,211,0,2046,951
212,212,0,2046,1319
213,213,0,2047,1716
214,214,0,2047,2125
215,215,0,2046,2530
216,216,0,2046,2917
217,217,0,2046,3270
218,218,0,2046,3575
219,219,0,2046,3822
220,220,0,2047,4000
221,221,0,2046,4095
222,222,0,2046,4095
223,223,0,2046,4066
224,224,0,2046,3931
225,225,0,2046,3722
226,226,0,2047,3448
227,227,0,2046,3120
228,228,0,2046,2751
229,229,0,2046,2354
230,230,0,2046,1945
231,231,0,2046,1540
232,232,0,2046,1154
233,233,0,2047,802
234,234,0,2046,497
235,235,0,2046,253
236,236,0,2046,77
237,237,0,2046,0
238,238,0,2047,0
239,239,0,2046,14
240,240,0,2046,150
241,241,0,2047,359
242,242,0,2047,633
243,243,0,2047,961
244,244,0,2047,1331
245,245,0,2047,1728
246,246,0,2046,2137
247,247,0,2046,2542
248,248,0,2046,2928
249,249,0,2046,3279
250,250,0,2046,3585
251,251,0,2046,3828
252,252,0,2046,4004
253,253,0,2046,4095
254,254,0,2046,4095
255,255,0,2047,4064
256,256,0,2046,3925
257,257,0,2046,3714
258,258,0,2046,3439
259,259,0,2046,3109
260,260,0,2047,2739
261,261,0,2047,2342
262,262,0,2046,1932
263,263,0,2046,1528
264,264,0,2046,1143
265,265,0,2046,792
266,266,0,2046,489
267,267,0,2046,246
268,268,0,2047,73
269,269,0,2046,0
270,270,0,2046,0
271,271,0,2046,16
272,272,0,2046,156
273,273,0,2047,367
274,274,0,2047,643
275,275,0,2046,972
276,276,0,2047,1343
277,277,0,2046,1741
278,278,0,2047,2150
279,279,0,2047,2555
280,280,0,2046,2939
281,281,0,2046,3289
282,282,0,2046,3592
283,283,0,2047,3835
284,284,0,2046,4009
285,285,0,2046,4095
286,286,0,2046,4095
287,287,0,2046,4060
288,288,0,2045,3920
289,289,0,2047,3707
290,290,0,2047,3429
291,291,0,2047,3099
292,292,0,2046,2726
293,293,0,2047,2329
294,294,0,2046,1920
295,295,0,2046,1515
296,296,0,2046,1131
297,297,0,2046,782
298,298,0,2047,481
299,299,0,2047,240
300,300,0,2047,69
301,301,0,2047,0
302,302,0,2046,0
303,303,0,2047,20
304,304,0,2047,160
305,305,0,2046,375
306,306,0,2047,652
307,307,0,2047,983
308,308,0,2047,1354
309,309,0,2046,1753
310,310,0,2046,2163
311,311,0,2047,2567
312,312,0,2046,2951
313,313,0,2047,3300
314,314,0,2046,3601
315,315,0,2047,3841
316,316,0,2047,4013
317,317,0,2046,4095
318,318,0,2046,4095
319,319,0,2047,4058
320,320,0,2047,3914
321,321,0,2046,3699
322,322,0,2046,3420
323,323,0,2046,3088
324,324,0,2046,2715
325,325,0,2046,2317
326,326,0,2047,1907
327,327,0,2046,1503
328,328,0,2047,1120
329,329,0,2046,772
330,330,0,2046,473
331,331,0,2046,234
332,332,0,2046,64
333,333,0,2047,0
334,334,0,2046,0
335,335,0,2046,22
336,336,0,2047,166
337,337,0,2047,382
338,338,0,2046,661
339,339,0,2047,994
340,340,0,2046,1366
341,341,0,2046,1766
342,342,0,2046,2174
343,343,0,2047,2578
344,344,0,2046,2962
345,345,0,2046,3310
346,346,0,2047,3609
347,347,0,2046,3847
348,348,0,2047,4016
349,349,0,2047,4095
350,350,0,2046,4095
351,351,0,2046,4054
352,352,0,2047,3908
353,353,0,2046,3691
354,354,0,2046,3410
355,355,0,2046,3077
356,356,0,2046,2703
357,357,0,2047,2305
358,358,0,2046,1895
359,359,0,2047,1491
360,360,0,2047,1109
361,361,0,2047,762
362,362,0,2047,464
363,363,0,2046,228
364,364,0,2046,60
365,365,0,2047,0
366,366,0,2046,0
367,367,0,2046,25
368,368,0,2046,172
369,369,0,2047,390
370,370,0,2047,671
371,371,0,2046,1005
372,372,0,2046,1379
373,373,0,2046,1778
374,374,0,2046,2187
375,375,0,2046,2591
376,376,0,2046,2973
377,377,0,2046,3320
378,378,0,2047,3617
379,379,0,2046,3853
380,380,0,2046,4020
381,381,0,2046,4095
382,382,0,2046,4095
383,383,0,2046,4051
384,384,0,2047,3903
385,385,0,2047,3684
386,386,0,2046,3401
387,387,0,2046,3066
388,388,0,2046,2692
389,389,0,2046,2292
390,390,0,2047,1882
391,391,0,2047,1479
392,392,0,2046,1098
393,393,0,2047,752
394,394,0,2046,457
395,395,0,2046,222
396,396,0,2046,56
397,397,0,2046,0
398,398,0,2046,0
399,399,0,2047,29
400,400,0,2046,177
401,401,0,2047,397
402,402,0,2047,680
403,403,0,2047,1015
404,404,0,2047,1391
405,405,0,2047,1790
406,406,0,2046,2200
407,407,0,2047,2603
408,408,0,2047,2985
409,409,0,2046,3330
410,410,0,2047,3625
411,411,0,2046,3860
412,412,0,2047,4024
413,413,0,2047,4095
414,414,0,2047,4095
415,415,0,2046,4047
416,416,0,2046,3898
417,417,0,2047,3676
418,418,0,2046,3391
419,419,0,2047,3055
420,420,0,2046,2680
421,421,0,2047,2279
422,422,0,2047,1870
423,423,0,2046,1467
424,424,0,2047,1086
425,425,0,2047,742
426,426,0,2046,449
427,427,0,2046,215
428,428,0,2046,52
429,429,0,2047,0
430,430,0,2047,0
431,431,0,2046,33
432,432,0,2047,183
433,433,0,2047,406
434,434,0,2047,690
435,435,0,2047,1027
436,436,0,2047,1403
437,437,0,2046,1803
438,438,0,2047,2212
439,439,0,2046,2616
440,440,0,2046,2996
441,441,0,2047,3340
442,442,0,2046,3634
443,443,0,2047,3866
444,444,0,2046,4028
445,445,0,2047,4095
446,446,0,2047,4095
447,447,0,2046,4044
448,448,0,2046,3892
449,449,0,2047,3668
450,450,0,2047,3381
451,451,0,2046,3044
452,452,0,2046,2668
453,453,0,2046,2267
454,454,0,2046,1858
455,455,0,2047,1455
456,456,0,2047,1075
457,457,0,2047,732
458,458,0,2047,440
459,459,0,2045,209
460,460,0,2047,48
461,461,0,2047,0
462,462,0,2046,0
463,463,0,2047,36
464,464,0,2046,189
465,465,0,2047,413
466,466,0,2047,699
467,467,0,2047,1038
468,468,0,2047,1414
469,469,0,2047,1815
470,470,0,2046,2225
471,471,0,2046,2627
472,472,0,2046,3006
473,473,0,2047,3350
474,474,0,2047,3642
475,475,0,2046,3872
476,476,0,2047,4032
477,477,0,2046,4095
478,478,0,2047,4095
479,479,0,2047,4040
480,480,0,2047,3886
481,481,0,2047,3661
482,482,0,2046,3372
483,483,0,2046,3033
484,484,0,2047,2656
485,485,0,2047,2255
486,486,0,2046,1845
487,487,0,2046,1443
488,488,0,2046,1064
489,489,0,2046,722
490,490,0,2047,432
491,491,0,2047,203
492,492,0,2047,45
493,493,0,2046,0
494,494,0,2047,0
495,495,0,2047,40
496,496,0,2046,195
497,497,0,2046,421
498,498,0,2047,709
499,499,0,2047,1049
500,500,0,2047,1427
501,501,0,2047,1828
502,502,0,2047,2237
503,503,0,2046,2640
504,504,0,2047,3018
505,505,0,2047,3359
506,506,0,2047,3649
507,507,0,2046,3877
508,508,0,2047,4035
509,509,0,2047,4095
510,510,0,2047,4095
511,511,0,2046,4037
512,512,0,2046,3879
513,513,0,2046,3652
514,514,0,2047,3362
515,515,0,2047,3022
516,516,0,2047,2644
517,517,0,2046,2242
518,518,0,2046,1833
519,519,0,2046,1431
520,520,0,2046,1053
521,521,0,2047,713
522,522,0,2046,424
523,523,0,2046,198
524,524,0,2047,41
525,525,0,2046,0
526,526,0,2047,0
527,527,0,2047,43
528,528,0,2046,200
529,529,0,2046,429
530,530,0,2047,719
531,531,0,2046,1060
532,532,0,2046,1439
533,533,0,2046,1840
534,534,0,2047,2250
535,535,0,2047,2652
536,536,0,2046,3029
537,537,0,2046,3369
538,538,0,2047,3657
539,539,0,2046,3884
540,540,0,2047,4039
541,541,0,2046,4095
542,542,0,2046,4095
543,543,0,2046,4033
544,544,0,2046,3874
545,545,0,2046,3645
546,546,0,2047,3353
547,547,0,2047,3011
548,548,0,2047,2631
549,549,0,2047,2229
550,550,0,2047,1820
551,551,0,2046,1419
552,552,0,2047,1042
553,553,0,2046,703
554,554,0,2046,416
555,555,0,2047,192
556,556,0,2046,38
557,557,0,2046,0
558,558,0,2047,0
559,559,0,2047,47
560,560,0,2047,207
561,561,0,2047,437
562,562,0,2046,729
563,563,0,2047,1070
564,564,0,2046,1451
565,565,0,2046,1853
566,566,0,2047,2262
567,567,0,2046,2663
568,568,0,2047,3040
569,569,0,2046,3379
570,570,0,2047,3665
571,571,0,2046,3889
572,572,0,2046,4042
573,573,0,2047,4095
574,574,0,2046,4095
575,575,0,2047,4029
576,576,0,2047,3868
577,577,0,2046,3637
578,578,0,2047,3343
579,579,0,2046,3000
580,580,0,2047,2619
581,581,0,2047,2217
582,582,0,2046,1808
583,583,0,2047,1408
584,584,0,2047,1031
585,585,0,2047,693
586,586,0,2046,408
587,587,0,2046,186
588,588,0,2046,34
589,589,0,2046,0
590,590,0,2047,0
591,591,0,2047,50
592,592,0,2046,212
593,593,0,2046,445
594,594,0,2046,739
595,595,0,2046,1082
596,596,0,2046,1462
597,597,0,2047,1866
598,598,0,2046,2275
599,599,0,2047,2675
600,600,0,2047,3051
601,601,0,2047,3388
602,602,0,2046,3673
603,603,0,2047,3895
604,604,0,2047,4046
605,605,0,2046,4095
606,606,0,2047,4095
607,607,0,2046,4025
608,608,0,2046,3862
609,609,0,2047,3629
610,610,0,2046,3333
611,611,0,2047,2989
612,612,0,2046,2607
613,613,0,2046,2205
614,614,0,2047,1795
615,615,0,2047,1396
616,616,0,2046,1020
617,617,0,2046,685
618,618,0,2047,400
619,619,0,2047,181
620,620,0,2047,30
621,621,0,2047,0
622,622,0,2046,0
623,623,0,2046,55
624,624,0,2047,219
625,625,0,2046,453
626,626,0,2046,748
627,627,0,2046,1093
628,628,0,2046,1474
629,629,0,2047,1878
630,630,0,2046,2287
631,631,0,2047,2687
632,632,0,2047,3061
633,633,0,2046,3398
634,634,0,2047,3681
635,635,0,2046,3901
636,636,0,2046,4049
637,637,0,2047,4095
638,638,0,2046,4095
639,639,0,2046,4022
640,640,0,2047,3856
641,641,0,2047,3620
642,642,0,2046,3324
643,643,0,2047,2978
644,644,0,2047,2595
645,645,0,2047,2192
646,646,0,2046,1782
647,647,0,2046,1384
648,648,0,2046,1009
649,649,0,2046,674
650,650,0,2047,392
651,651,0,2047,174
652,652,0,2046,27
653,653,0,2046,0
654,654,0,2047,0
655,655,0,2046,58
656,656,0,2047,225
657,657,0,2046,461
658,658,0,2046,758
659,659,0,2047,1104
660,660,0,2047,1487
661,661,0,2047,1890
662,662,0,2047,2299
663,663,0,2047,2699
664,664,0,2046,3073
665,665,0,2046,3407
666,666,0,2047,3689
667,667,0,2045,3907
668,668,0,2048,4053
669,669,0,2046,4095
670,670,0,2047,4095
671,671,0,2046,4018
672,672,0,2046,3849
673,673,0,2047,3612
674,674,0,2047,3313
675,675,0,2047,2966
676,676,0,2047,2583
677,677,0,2046,2180
678,678,0,2046,1770
679,679,0,2046,1371
680,680,0,2046,998
681,681,0,2046,665
682,682,0,2047,385
683,683,0,2046,168
684,684,0,2047,23
685,685,0,2047,0
686,686,0,2046,0
687,687,0,2046,63
688,688,0,2046,231
689,689,0,2047,469
690,690,0,2046,768
691,691,0,2047,1115
692,692,0,2047,1499
693,693,0,2046,1903
694,694,0,2046,2312
695,695,0,2047,2710
696,696,0,2046,3084
697,697,0,2046,3416
698,698,0,2047,3696
699,699,0,2047,3912
700,700,0,2046,4056
701,701,0,2046,4095
702,702,0,2047,4095
703,703,0,2047,4014
704,704,0,2047,3843
705,705,0,2046,3604
706,706,0,2047,3303
707,707,0,2046,2955
708,708,0,2046,2571
709,709,0,2047,2167
710,710,0,2047,1758
711,711,0,2046,1360
712,712,0,2046,987
713,713,0,2047,657
714,714,0,2047,377
715,715,0,2047,164
716,716,0,2047,21
717,717,0,2046,0
718,718,0,2046,0
719,719,0,2046,67
720,720,0,2047,238
721,721,0,2046,478
722,722,0,2047,778
723,723,0,2047,1127
724,724,0,2047,1511
725,725,0,2047,1915
726,726,0,2046,2324
727,727,0,2046,2723
728,728,0,2046,3094
729,729,0,2046,3426
730,730,0,2047,3704
731,731,0,2047,3917
732,732,0,2046,4060
733,733,0,2047,4095
734,734,0,2047,4095
735,735,0,2047,4009
736,736,0,2047,3837
737,737,0,2046,3596
738,738,0,2047,3294
739,739,0,2047,2944
740,740,0,2046,2559
741,741,0,2047,2154
742,742,0,2046,1745
743,743,0,2046,1348
744,744,0,2046,977
745,745,0,2047,646
746,746,0,2046,370
747,747,0,2046,158
748,748,0,2047,18
749,749,0,2046,0
750,750,0,2047,0
751,751,0,2047,71
752,752,0,2046,244
753,753,0,2047,486
754,754,0,2047,788
755,755,0,2047,1138
756,756,0,2047,1523
757,757,0,2046,1927
758,758,0,2047,2337
759,759,0,2046,2735
760,760,0,2046,3106
761,761,0,2046,3435
762,762,0,2046,3712
763,763,0,2047,3922
764,764,0,2047,4062
765,765,0,2047,4095
766,766,0,2046,4095
767,767,0,2046,4005
768,768,0,2046,3830
769,769,0,2046,3587
770,770,0,2046,3284
771,771,0,2047,2933
772,772,0,2046,2547
773,773,0,2047,2142
774,774,0,2047,1733
775,775,0,2047,1336
776,776,0,2046,966
777,777,0,2046,637
778,778,0,2046,362
779,779,0,2047,153
780,780,0,2047,14
781,781,0,2047,0
782,782,0,2047,0
783,783,0,2046,75
784,784,0,2047,250
785,785,0,2047,494
786,786,0,2046,799
787,787,0,2046,1149
788,788,0,2047,1535
789,789,0,2047,1940
790,790,0,2046,2349
791,791,0,2047,2746
792,792,0,2046,3116
793,793,0,2047,3445
794,794,0,2047,3718
795,795,0,2046,3928
796,796,0,2046,4065
797,797,0,2047,4095
798,798,0,2047,4095
799,799,0,2046,4001
800,800,0,2047,3825
801,801,0,2047,3578
802,802,0,2046,3274
803,803,0,2047,2921
804,804,0,2047,2535
805,805,0,2047,2129
806,806,0,2047,1720
807,807,0,2047,1325
808,808,0,2047,955
809,809,0,2046,628
810,810,0,2047,356
811,811,0,2047,147
812,812,0,2046,12
813,813,0,2047,0
814,814,0,2046,0
815,815,0,2047,79
816,816,0,2047,256
817,817,0,2046,502
818,818,0,2047,808
819,819,0,2047,1161
820,820,0,2046,1548
821,821,0,2047,1953
822,822,0,2046,2362
823,823,0,2046,2758
824,824,0,2046,3126
825,825,0,2046,3454
826,826,0,2046,3726
827,827,0,2046,3934
828,828,0,2046,4068
829,829,0,2047,4095
830,830,0,2046,4095
831,831,0,2046,3997
832,832,0,2047,3818
833,833,0,2047,3570
834,834,0,2046,3263
835,835,0,2047,2910
836,836,0,2046,2522
837,837,0,2046,2117
838,838,0,2047,1708
839,839,0,2047,1313
840,840,0,2046,945
841,841,0,2047,619
842,842,0,2047,348
843,843,0,2046,142
844,844,0,2046,9
845,845,0,2047,0
846,846,0,2046,0
847,847,0,2046,83
848,848,0,2047,263
849,849,0,2047,512
850,850,0,2046,819
851,851,0,2046,1173
852,852,0,2046,1560
853,853,0,2046,1966
854,854,0,2046,2374
855,855,0,2046,2769
856,856,0,2046,3138
857,857,0,2046,3463
858,858,0,2046,3733
859,859,0,2046,3939
860,860,0,2046,4072
861,861,0,2046,4095
862,862,0,2046,4095
863,863,0,2047,3993
864,864,0,2047,3811
865,865,0,2047,3562
866,866,0,2046,3254
867,867,0,2046,2898
868,868,0,2047,2510
869,869,0,2046,2104
870,870,0,2046,1695
871,871,0,2047,1301
872,872,0,2046,934
873,873,0,2046,609
874,874,0,2046,340
875,875,0,2046,137
876,876,0,2047,5
877,877,0,2047,0
878,878,0,2046,0
879,879,0,2046,88
880,880,0,2046,270
881,881,0,2046,520
882,882,0,2047,828
883,883,0,2047,1183
884,884,0,2046,1572
885,885,0,2046,1978
886,886,0,2047,2386
887,887,0,2046,2781
888,888,0,2046,3148
889,889,0,2046,3472
890,890,0,2046,3741
891,891,0,2046,3945
892,892,0,2047,4073
893,893,0,2046,4095
894,894,0,2047,4095
895,895,0,2047,3988
896,896,0,2046,3803
897,897,0,2047,3552
898,898,0,2047,3242
899,899,0,2047,2887
900,900,0,2047,2498
901,901,0,2047,2092
902,902,0,2046,1684
903,903,0,2046,1289
904,904,0,2047,923
905,905,0,2047,601
906,906,0,2046,333
907,907,0,2046,131
908,908,0,2046,3
909,909,0,2047,0
910,910,0,2047,0
911,911,0,2046,92
912,912,0,2046,276
913,913,0,2047,529
914,914,0,2047,839
915,915,0,2046,1195
916,916,0,2047,1584
917,917,0,2047,1990
918,918,0,2047,2399
919,919,0,2046,2794
920,920,0,2047,3159
921,921,0,2046,3481
922,922,0,2046,3748
923,923,0,2046,3949
924,924,0,2046,4076
925,925,0,2046,4095
926,926,0,2046,4094
927,927,0,2046,3983
928,928,0,2046,3797
929,929,0,2047,3544
930,930,0,2046,3233
931,931,0,2046,2876
932,932,0,2046,2485
933,933,0,2046,2079
934,934,0,2046,1671
935,935,0,2046,1278
936,936,0,2046,913
937,937,0,2046,591
938,938,0,2047,325
939,939,0,2046,126
940,940,0,2046,0
941,941,0,2046,0
942,942,0,2046,0
943,943,0,2047,97
944,944,0,2046,283
945,945,0,2046,537
946,946,0,2046,848
947,947,0,2047,1206
948,948,0,2046,1596
949,949,0,2046,2003
950,950,0,2047,2411
951,951,0,2046,2805
952,952,0,2046,3169
953,953,0,2046,3490
954,954,0,2046,3756
955,955,0,2047,3955
956,956,0,2047,4079
957,957,0,2046,4095
958,958,0,2047,4092
959,959,0,2046,3979
960,960,0,2047,3790
961,961,0,2047,3535
962,962,0,2046,3222
963,963,0,2047,2864
964,964,0,2047,2474
965,965,0,2046,2067
966,966,0,2047,1658
967,967,0,2046,1265
968,968,0,2046,902
969,969,0,2046,582
970,970,0,2046,318
971,971,0,2046,122
972,972,0,2047,0
973,973,0,2046,0
974,974,0,2046,0
975,975,0,2046,102
976,976,0,2047,291
977,977,0,2046,547
978,978,0,2047,859
979,979,0,2046,1218
980,980,0,2047,1609
981,981,0,2046,2015
982,982,0,2047,2424
983,983,0,2047,2816
984,984,0,2046,3179
985,985,0,2046,3499
986,986,0,2046,3763
987,987,0,2046,3959
988,988,0,2047,4082
989,989,0,2047,4095
990,990,0,2046,4089
991,991,0,2046,3974
992,992,0,2046,3783
993,993,0,2046,3526
994,994,0,2046,3212
995,995,0,2046,2852
996,996,0,2046,2462
997,997,0,2046,2054
998,998,0,2047,1647
999,999,0,2046,1254
1000,1000,0,2046,892
1001,1001,0,2046,573
1002,1002,0,2046,312
1003,1003,0,2046,116
1004,1004,0,2046,0
1005,1005,0,2046,0
1006,1006,0,2047,0
1007,1007,0,2047,106
1008,1008,0,2047,297
1009,1009,0,2047,555
1010,1010,0,2046,870
1011,1011,0,2046,1230
1012,1012,0,2046,1621
1013,1013,0,2046,2028
1014,1014,0,2047,2435
1015,1015,0,2046,2828
1016,1016,0,2046,3191
1017,1017,0,2046,3508
1018,1018,0,2047,3770
1019,1019,0,2047,3964
1020,1020,0,2046,4085
1021,1021,0,2046,4095
1022,1022,0,2046,4088
1023,1023,0,2047,3970
1024,1024,0,2047,3777
1025,1025,0,2046,3518
1026,1026,0,2047,3202
1027,1027,0,2046,2841
1028,1028,0,2047,2448
1029,1029,0,2046,2042
