Sample in Buffer,Sample in Window,TRIGGER,adc1_data_a_d0[11:0],adc1_data_b_d0[11:0]
0,0,0,2047,3001
1,1,0,2046,2574
2,2,0,2047,2121
3,3,0,2046,1664
4,4,0,2046,1225
5,5,0,2047,825
6,6,0,2047,483
7,7,0,2046,217
8,8,0,2047,37
9,9,0,2047,0
10,10,0,2047,0
11,11,0,2046,88
12,12,0,2046,298
13,13,0,2046,592
14,14,0,2046,954
15,15,0,2046,1369
16,16,0,2046,1816
17,17,0,2046,2275
18,18,0,2047,2721
19,19,0,2045,3136
20,20,0,2046,3497
21,21,0,2047,3789
22,22,0,2046,3995
23,23,0,2047,4095
24,24,0,2047,4095
25,25,0,2046,4036
26,26,0,2047,3853
27,27,0,2046,3583
28,28,0,2046,3239
29,29,0,2047,2837
30,30,0,2047,2397
31,31,0,2046,1939
32,32,0,2046,1486
33,33,0,2046,1060
34,34,0,2046,682
35,35,0,2047,368
36,36,0,2046,135
37,37,0,2047,0
38,38,0,2047,0
39,39,0,2046,5
40,40,0,2046,160
41,41,0,2046,404
42,42,0,2046,728
43,43,0,2047,1113
44,44,0,2047,1544
45,45,0,2046,1998
46,46,0,2046,2454
47,47,0,2046,2890
48,48,0,2046,3285
49,49,0,2046,3621
50,50,0,2047,3881
51,51,0,2047,4052
52,52,0,2046,4095
53,53,0,2046,4095
54,54,0,2046,3975
55,55,0,2046,3755
56,56,0,2047,3455
57,57,0,2047,3085
58,58,0,2046,2666
59,59,0,2046,2216
60,60,0,2046,1758
61,61,0,2046,1314
62,62,0,2047,904
63,63,0,2047,549
64,64,0,2046,265
65,65,0,2046,68
66,66,0,2046,0
67,67,0,2047,0
68,68,0,2047,56
69,69,0,2047,246
70,70,0,2047,524
71,71,0,2047,873
72,72,0,2047,1280
73,73,0,2047,1722
74,74,0,2047,2179
75,75,0,2047,2630
76,76,0,2046,3053
77,77,0,2047,3426
78,78,0,2046,3734
79,79,0,2046,3959
80,80,0,2046,4093
81,81,0,2047,4095
82,82,0,2047,4062
83,83,0,2046,3898
84,84,0,2046,3646
85,85,0,2046,3316
86,86,0,2046,2924
87,87,0,2047,2490
88,88,0,2046,2035
89,89,0,2046,1579
90,90,0,2046,1146
91,91,0,2047,755
92,92,0,2046,428
93,93,0,2046,176
94,94,0,2046,14
95,95,0,2046,0
96,96,0,2047,0
97,97,0,2047,120
98,98,0,2047,347
99,99,0,2047,655
100,100,0,2047,1029
101,101,0,2047,1451
102,102,0,2046,1902
103,103,0,2047,2360
104,104,0,2046,2801
105,105,0,2047,3207
106,106,0,2046,3557
107,107,0,2046,3834
108,108,0,2046,4024
109,109,0,2046,4095
110,110,0,2046,4095
111,111,0,2046,4008
112,112,0,2046,3808
113,113,0,2046,3524
114,114,0,2046,3167
115,115,0,2046,2757
116,116,0,2046,2311
117,117,0,2046,1853
118,118,0,2046,1404
119,119,0,2046,985
120,120,0,2046,617
121,121,0,2047,318
122,122,0,2046,101
123,123,0,2047,0
124,124,0,2046,0
125,125,0,2046,27
126,126,0,2047,199
127,127,0,2046,460
128,128,0,2047,796
129,129,0,2046,1191
130,130,0,2047,1628
131,131,0,2046,2084
132,132,0,2046,2538
133,133,0,2047,2968
134,134,0,2046,3353
135,135,0,2047,3676
136,136,0,2047,3920
137,137,0,2046,4074
138,138,0,2047,4095
139,139,0,2046,4083
140,140,0,2047,3940
141,141,0,2046,3706
142,142,0,2046,3390
143,143,0,2046,3010
144,144,0,2046,2584
145,145,0,2046,2130
146,146,0,2047,1674
147,147,0,2047,1234
148,148,0,2047,833
149,149,0,2047,490
150,150,0,2046,221
151,151,0,2046,40
152,152,0,2047,0
153,153,0,2046,0
154,154,0,2046,85
155,155,0,2047,292
156,156,0,2047,584
157,157,0,2046,945
158,158,0,2047,1360
159,159,0,2046,1807
160,160,0,2047,2265
161,161,0,2046,2712
162,162,0,2047,3127
163,163,0,2047,3490
164,164,0,2046,3783
165,165,0,2047,3991
166,166,0,2047,4095
167,167,0,2047,4095
168,168,0,2046,4039
169,169,0,2047,3858
170,170,0,2046,3589
171,171,0,2047,3247
172,172,0,2046,2846
173,173,0,2046,2406
174,174,0,2046,1948
175,175,0,2047,1496
176,176,0,2047,1069
177,177,0,2046,690
178,178,0,2047,374
179,179,0,2046,139
180,180,0,2046,0
181,181,0,2046,0
182,182,0,2047,3
183,183,0,2047,156
184,184,0,2046,398
185,185,0,2047,720
186,186,0,2046,1105
187,187,0,2047,1534
188,188,0,2047,1988
189,189,0,2046,2445
190,190,0,2046,2882
191,191,0,2047,3278
192,192,0,2047,3615
193,193,0,2047,3877
194,194,0,2047,4049
195,195,0,2046,4095
196,196,0,2047,4095
197,197,0,2046,3979
198,198,0,2046,3761
199,199,0,2047,3462
200,200,0,2047,3094
201,201,0,2046,2674
202,202,0,2046,2225
203,203,0,2047,1768
204,204,0,2046,1323
205,205,0,2046,912
206,206,0,2046,555
207,207,0,2046,270
208,208,0,2046,70
209,209,0,2046,0
210,210,0,2047,0
211,211,0,2047,53
212,212,0,2047,241
213,213,0,2046,516
214,214,0,2046,866
215,215,0,2046,1269
216,216,0,2047,1712
217,217,0,2047,2170
218,218,0,2046,2621
219,219,0,2046,3044
220,220,0,2047,3419
221,221,0,2046,3728
222,222,0,2047,3955
223,223,0,2047,4092
224,224,0,2046,4095
225,225,0,2046,4064
226,226,0,2047,3903
227,227,0,2046,3652
228,228,0,2047,3323
229,229,0,2046,2933
230,230,0,2047,2500
231,231,0,2046,2044
232,232,0,2047,1588
233,233,0,2047,1156
234,234,0,2046,764
235,235,0,2046,433
236,236,0,2046,180
237,237,0,2046,17
238,238,0,2047,0
239,239,0,2046,0
240,240,0,2047,116
241,241,0,2047,341
242,242,0,2046,647
243,243,0,2047,1020
244,244,0,2046,1442
245,245,0,2047,1892
246,246,0,2046,2350
247,247,0,2046,2793
248,248,0,2047,3200
249,249,0,2046,3551
250,250,0,2046,3829
251,251,0,2046,4021
252,252,0,2046,4095
253,253,0,2046,4095
254,254,0,2047,4012
255,255,0,2047,3814
256,256,0,2046,3530
257,257,0,2047,3176
258,258,0,2047,2766
259,259,0,2046,2322
260,260,0,2047,1863
261,261,0,2047,1413
262,262,0,2046,994
263,263,0,2046,625
264,264,0,2046,324
265,265,0,2046,105
266,266,0,2047,0
267,267,0,2046,0
268,268,0,2047,25
269,269,0,2046,195
270,270,0,2047,453
271,271,0,2046,788
272,272,0,2046,1182
273,273,0,2046,1619
274,274,0,2046,2074
275,275,0,2047,2528
276,276,0,2047,2959
277,277,0,2047,3347
278,278,0,2047,3671
279,279,0,2047,3915
280,280,0,2047,4071
281,281,0,2047,4095
282,282,0,2046,4086
283,283,0,2047,3945
284,284,0,2047,3711
285,285,0,2046,3398
286,286,0,2047,3019
287,287,0,2046,2592
288,288,0,2046,2140
289,289,0,2046,1683
290,290,0,2046,1243
291,291,0,2046,840
292,292,0,2046,497
293,293,0,2046,226
294,294,0,2047,44
295,295,0,2047,0
296,296,0,2047,0
297,297,0,2047,81
298,298,0,2046,287
299,299,0,2047,577
300,300,0,2046,938
301,301,0,2046,1351
302,302,0,2046,1797
303,303,0,2046,2255
304,304,0,2046,2703
305,305,0,2047,3119
306,306,0,2046,3483
307,307,0,2047,3778
308,308,0,2047,3989
309,309,0,2047,4095
310,310,0,2046,4095
311,311,0,2046,4041
312,312,0,2046,3863
313,313,0,2047,3596
314,314,0,2046,3254
315,315,0,2047,2855
316,316,0,2046,2416
317,317,0,2046,1959
318,318,0,2047,1506
319,319,0,2046,1078
320,320,0,2046,697
321,321,0,2046,380
322,322,0,2046,143
323,323,0,2046,0
324,324,0,2046,0
325,325,0,2046,1
326,326,0,2047,152
327,327,0,2046,393
328,328,0,2046,712
329,329,0,2046,1097
330,330,0,2046,1525
331,331,0,2047,1978
332,332,0,2046,2435
333,333,0,2046,2872
334,334,0,2046,3270
335,335,0,2046,3609
336,336,0,2046,3872
337,337,0,2046,4047
338,338,0,2046,4095
339,339,0,2046,4095
340,340,0,2046,3981
341,341,0,2046,3767
342,342,0,2046,3469
343,343,0,2046,3102
344,344,0,2046,2684
345,345,0,2047,2236
346,346,0,2046,1778
347,347,0,2046,1331
348,348,0,2046,920
349,349,0,2046,563
350,350,0,2046,276
351,351,0,2046,73
352,352,0,2047,0
353,353,0,2046,0
354,354,0,2046,49
355,355,0,2047,237
356,356,0,2047,511
357,357,0,2046,857
358,358,0,2046,1262
359,359,0,2046,1702
360,360,0,2047,2160
361,361,0,2047,2612
362,362,0,2046,3036
363,363,0,2046,3412
364,364,0,2046,3723
365,365,0,2047,3951
366,366,0,2046,4090
367,367,0,2047,4095
368,368,0,2047,4067
369,369,0,2046,3908
370,370,0,2047,3659
371,371,0,2047,3331
372,372,0,2046,2942
373,373,0,2046,2509
374,374,0,2046,2055
375,375,0,2047,1598
376,376,0,2046,1164
377,377,0,2046,772
378,378,0,2046,440
379,379,0,2047,184
380,380,0,2047,19
381,381,0,2047,0
382,382,0,2047,0
383,383,0,2046,113
384,384,0,2046,335
385,385,0,2047,639
386,386,0,2047,1011
387,387,0,2047,1432
388,388,0,2047,1882
389,389,0,2047,2341
390,390,0,2046,2783
391,391,0,2046,3192
392,392,0,2047,3544
393,393,0,2047,3824
394,394,0,2046,4018
395,395,0,2047,4095
396,396,0,2047,4095
397,397,0,2047,4015
398,398,0,2047,3819
399,399,0,2046,3537
400,400,0,2047,3183
401,401,0,2046,2775
402,402,0,2046,2331
403,403,0,2046,1873
404,404,0,2046,1423
405,405,0,2046,1002
406,406,0,2047,631
407,407,0,2046,329
408,408,0,2047,109
409,409,0,2046,0
410,410,0,2046,0
411,411,0,2046,22
412,412,0,2046,190
413,413,0,2047,447
414,414,0,2046,781
415,415,0,2046,1173
416,416,0,2046,1609
417,417,0,2046,2064
418,418,0,2047,2519
419,419,0,2046,2951
420,420,0,2047,3338
421,421,0,2047,3664
422,422,0,2046,3912
423,423,0,2047,4070
424,424,0,2046,4095
425,425,0,2046,4088
426,426,0,2046,3948
427,427,0,2047,3717
428,428,0,2046,3405
429,429,0,2047,3027
430,430,0,2047,2602
431,431,0,2047,2149
432,432,0,2047,1692
433,433,0,2047,1252
434,434,0,2046,848
435,435,0,2046,502
436,436,0,2046,231
437,437,0,2047,46
438,438,0,2046,0
439,439,0,2046,0
440,440,0,2046,77
441,441,0,2047,282
442,442,0,2047,570
443,443,0,2046,929
444,444,0,2046,1342
445,445,0,2047,1787
446,446,0,2047,2246
447,447,0,2046,2694
448,448,0,2046,3111
449,449,0,2047,3476
450,450,0,2047,3772
451,451,0,2046,3985
452,452,0,2046,4095
453,453,0,2046,4095
454,454,0,2047,4044
455,455,0,2047,3868
456,456,0,2046,3602
457,457,0,2047,3262
458,458,0,2046,2864
459,459,0,2046,2425
460,460,0,2046,1969
461,461,0,2046,1515
462,462,0,2046,1086
463,463,0,2046,704
464,464,0,2046,385
465,465,0,2046,147
466,466,0,2047,0
467,467,0,2046,0
468,468,0,2046,0
469,469,0,2046,148
470,470,0,2046,387
471,471,0,2047,705
472,472,0,2046,1087
473,473,0,2046,1515
474,474,0,2046,1969
475,475,0,2047,2425
476,476,0,2047,2863
477,477,0,2047,3262
478,478,0,2047,3602
479,479,0,2046,3867
480,480,0,2046,4044
481,481,0,2046,4095
482,482,0,2047,4095
483,483,0,2046,3985
484,484,0,2047,3772
485,485,0,2047,3476
486,486,0,2046,3111
487,487,0,2046,2694
488,488,0,2046,2245
489,489,0,2047,1787
490,490,0,2046,1341
491,491,0,2046,928
492,492,0,2046,569
493,493,0,2047,281
494,494,0,2046,77
495,495,0,2046,0
496,496,0,2047,0
497,497,0,2046,47
498,498,0,2046,232
499,499,0,2047,504
500,500,0,2046,849
501,501,0,2046,1252
502,502,0,2047,1693
503,503,0,2046,2150
504,504,0,2046,2603
505,505,0,2046,3027
506,506,0,2046,3404
507,507,0,2046,3717
508,508,0,2046,3947
509,509,0,2046,4088
510,510,0,2047,4095
511,511,0,2046,4069
512,512,0,2047,3912
513,513,0,2046,3664
514,514,0,2046,3339
515,515,0,2046,2950
516,516,0,2046,2519
517,517,0,2046,2064
518,518,0,2047,1608
519,519,0,2046,1172
520,520,0,2047,779
521,521,0,2046,446
522,522,0,2046,190
523,523,0,2047,22
524,524,0,2047,0
525,525,0,2047,0
526,526,0,2047,110
527,527,0,2047,330
528,528,0,2047,632
529,529,0,2047,1004
530,530,0,2047,1424
531,531,0,2046,1873
532,532,0,2047,2331
533,533,0,2046,2775
534,534,0,2047,3183
535,535,0,2047,3536
536,536,0,2046,3819
537,537,0,2046,4014
538,538,0,2047,4095
539,539,0,2046,4095
540,540,0,2047,4018
541,541,0,2046,3824
542,542,0,2046,3543
543,543,0,2046,3192
544,544,0,2046,2784
545,545,0,2046,2341
546,546,0,2047,1882
547,547,0,2046,1431
548,548,0,2046,1011
549,549,0,2046,639
550,550,0,2047,334
551,551,0,2047,112
552,552,0,2046,0
553,553,0,2047,0
554,554,0,2047,20
555,555,0,2047,185
556,556,0,2047,441
557,557,0,2046,772
558,558,0,2047,1164
559,559,0,2046,1598
560,560,0,2046,2055
561,561,0,2046,2510
562,562,0,2047,2941
563,563,0,2047,3330
564,564,0,2046,3658
565,565,0,2047,3907
566,566,0,2046,4067
567,567,0,2046,4095
568,568,0,2047,4091
569,569,0,2046,3952
570,570,0,2047,3723
571,571,0,2046,3412
572,572,0,2046,3036
573,573,0,2047,2611
574,574,0,2047,2159
575,575,0,2046,1702
576,576,0,2046,1260
577,577,0,2047,857
578,578,0,2046,509
579,579,0,2046,236
580,580,0,2046,49
581,581,0,2046,0
582,582,0,2047,0
583,583,0,2046,75
584,584,0,2046,277
585,585,0,2046,564
586,586,0,2046,921
587,587,0,2046,1333
588,588,0,2047,1777
589,589,0,2046,2236
590,590,0,2046,2685
591,591,0,2046,3102
592,592,0,2047,3468
593,593,0,2046,3767
594,594,0,2047,3981
595,595,0,2046,4095
596,596,0,2046,4095
597,597,0,2047,4047
598,598,0,2047,3873
599,599,0,2046,3609
600,600,0,2047,3269
601,601,0,2046,2872
602,602,0,2046,2435
603,603,0,2046,1978
604,604,0,2046,1524
605,605,0,2046,1095
606,606,0,2047,712
607,607,0,2046,392
608,608,0,2046,152
609,609,0,2047,1
610,610,0,2047,0
611,611,0,2047,0
612,612,0,2047,144
613,613,0,2046,381
614,614,0,2046,698
615,615,0,2046,1079
616,616,0,2046,1505
617,617,0,2047,1959
618,618,0,2046,2415
619,619,0,2046,2854
620,620,0,2047,3254
621,621,0,2046,3596
622,622,0,2046,3862
623,623,0,2047,4042
624,624,0,2047,4095
625,625,0,2047,4095
626,626,0,2046,3989
627,627,0,2047,3777
628,628,0,2046,3483
629,629,0,2047,3119
630,630,0,2047,2702
631,631,0,2047,2255
632,632,0,2047,1797
633,633,0,2046,1350
634,634,0,2047,936
635,635,0,2046,576
636,636,0,2047,286
637,637,0,2046,80
638,638,0,2047,0
639,639,0,2046,0
640,640,0,2047,44
641,641,0,2047,227
642,642,0,2046,497
643,643,0,2046,842
644,644,0,2046,1243
645,645,0,2046,1684
646,646,0,2047,2141
647,647,0,2046,2593
648,648,0,2046,3019
649,649,0,2046,3398
650,650,0,2046,3710
651,651,0,2046,3944
652,652,0,2046,4086
653,653,0,2046,4095
654,654,0,2046,4071
655,655,0,2047,3916
656,656,0,2047,3670
657,657,0,2046,3346
658,658,0,2046,2959
659,659,0,2046,2528
660,660,0,2046,2073
661,661,0,2046,1617
662,662,0,2046,1182
663,663,0,2046,787
664,664,0,2047,452
665,665,0,2047,194
666,666,0,2046,25
667,667,0,2047,0
668,668,0,2046,0
669,669,0,2047,105
670,670,0,2046,325
671,671,0,2047,626
672,672,0,2047,995
673,673,0,2046,1414
674,674,0,2047,1864
675,675,0,2046,2322
676,676,0,2047,2766
677,677,0,2046,3175
678,678,0,2046,3530
679,679,0,2046,3814
680,680,0,2047,4012
681,681,0,2047,4095
682,682,0,2046,4095
683,683,0,2046,4021
684,684,0,2046,3829
685,685,0,2046,3551
686,686,0,2046,3200
687,687,0,2047,2793
688,688,0,2047,2350
689,689,0,2047,1892
690,690,0,2046,1441
691,691,0,2046,1019
692,692,0,2046,646
693,693,0,2047,340
694,694,0,2047,116
695,695,0,2046,0
696,696,0,2046,0
697,697,0,2046,17
698,698,0,2046,182
699,699,0,2047,435
700,700,0,2046,766
701,701,0,2046,1156
702,702,0,2047,1589
703,703,0,2046,2045
704,704,0,2046,2500
705,705,0,2047,2933
706,706,0,2046,3322
707,707,0,2046,3652
708,708,0,2046,3903
709,709,0,2045,4064
710,710,0,2047,4095
711,711,0,2046,4092
712,712,0,2047,3956
713,713,0,2046,3728
714,714,0,2046,3419
715,715,0,2046,3045
716,716,0,2046,2621
717,717,0,2047,2169
718,718,0,2046,1711
719,719,0,2046,1270
720,720,0,2046,864
721,721,0,2046,516
722,722,0,2046,241
723,723,0,2046,52
724,724,0,2046,0
725,725,0,2047,0
726,726,0,2047,71
727,727,0,2047,272
728,728,0,2047,557
729,729,0,2046,914
730,730,0,2047,1324
731,731,0,2046,1768
732,732,0,2047,2227
733,733,0,2046,2675
734,734,0,2046,3093
735,735,0,2047,3461
736,736,0,2046,3761
737,737,0,2046,3978
738,738,0,2047,4095
739,739,0,2046,4095
740,740,0,2046,4049
741,741,0,2046,3877
742,742,0,2046,3615
743,743,0,2046,3277
744,744,0,2046,2881
745,745,0,2046,2444
746,746,0,2046,1988
747,747,0,2047,1533
748,748,0,2046,1103
749,749,0,2046,719
750,750,0,2047,398
751,751,0,2046,156
752,752,0,2047,3
753,753,0,2046,0
754,754,0,2046,0
755,755,0,2046,140
756,756,0,2047,375
757,757,0,2046,691
758,758,0,2047,1071
759,759,0,2046,1497
760,760,0,2047,1949
761,761,0,2047,2406
762,762,0,2046,2846
763,763,0,2046,3247
764,764,0,2046,3589
765,765,0,2046,3858
766,766,0,2046,4039
767,767,0,2046,4095
768,768,0,2046,4095
769,769,0,2046,3992
770,770,0,2047,3783
771,771,0,2046,3490
772,772,0,2046,3127
773,773,0,2046,2712
774,774,0,2047,2264
775,775,0,2047,1805
776,776,0,2047,1359
777,777,0,2046,945
778,778,0,2046,583
779,779,0,2046,292
780,780,0,2047,83
781,781,0,2047,0
782,782,0,2047,0
783,783,0,2047,41
784,784,0,2046,223
785,785,0,2047,491
786,786,0,2046,833
787,787,0,2046,1234
788,788,0,2047,1674
789,789,0,2047,2131
790,790,0,2046,2584
791,791,0,2047,3011
792,792,0,2047,3389
793,793,0,2046,3704
794,794,0,2047,3940
795,795,0,2047,4084
796,796,0,2047,4095
797,797,0,2046,4074
798,798,0,2046,3920
799,799,0,2047,3676
800,800,0,2046,3353
801,801,0,2047,2967
802,802,0,2046,2537
803,803,0,2047,2083
804,804,0,2046,1626
805,805,0,2046,1190
806,806,0,2047,795
807,807,0,2046,459
808,808,0,2046,198
809,809,0,2046,27
810,810,0,2047,0
811,811,0,2046,0
812,812,0,2046,101
813,813,0,2046,319
814,814,0,2046,618
815,815,0,2046,985
816,816,0,2047,1405
817,817,0,2047,1854
818,818,0,2046,2311
819,819,0,2046,2757
820,820,0,2047,3167
821,821,0,2046,3523
822,822,0,2047,3808
823,823,0,2046,4008
824,824,0,2046,4095
825,825,0,2046,4095
826,826,0,2047,4024
827,827,0,2046,3834
828,828,0,2046,3558
829,829,0,2046,3207
830,830,0,2047,2802
831,831,0,2047,2359
832,832,0,2046,1902
833,833,0,2047,1450
834,834,0,2047,1028
835,835,0,2047,654
836,836,0,2047,345
837,837,0,2046,119
838,838,0,2047,0
839,839,0,2046,0
840,840,0,2047,14
841,841,0,2046,176
842,842,0,2046,428
843,843,0,2046,757
844,844,0,2046,1147
845,845,0,2047,1580
846,846,0,2047,2035
847,847,0,2047,2491
848,848,0,2046,2925
849,849,0,2046,3315
850,850,0,2046,3646
851,851,0,2047,3898
852,852,0,2046,4062
853,853,0,2046,4095
854,854,0,2047,4093
855,855,0,2047,3960
856,856,0,2046,3734
857,857,0,2047,3427
858,858,0,2046,3053
859,859,0,2046,2629
860,860,0,2047,2178
861,861,0,2047,1721
862,862,0,2046,1278
863,863,0,2046,872
864,864,0,2047,523
865,865,0,2047,246
866,866,0,2047,55
867,867,0,2047,0
868,868,0,2046,0
869,869,0,2047,67
870,870,0,2047,266
871,871,0,2047,550
872,872,0,2046,905
873,873,0,2046,1314
874,874,0,2046,1759
875,875,0,2047,2217
876,876,0,2046,2666
877,877,0,2047,3085
878,878,0,2046,3455
879,879,0,2046,3755
880,880,0,2046,3974
881,881,0,2046,4095
882,882,0,2047,4095
883,883,0,2046,4052
884,884,0,2046,3882
885,885,0,2046,3621
886,886,0,2047,3286
887,887,0,2046,2890
888,888,0,2046,2454
889,889,0,2047,1997
890,890,0,2046,1542
891,891,0,2047,1112
892,892,0,2046,726
893,893,0,2047,404
894,894,0,2046,160
895,895,0,2046,5
896,896,0,2046,0
897,897,0,2046,0
898,898,0,2047,136
899,899,0,2047,369
900,900,0,2047,683
901,901,0,2047,1062
902,902,0,2046,1488
903,903,0,2046,1940
904,904,0,2046,2396
905,905,0,2047,2836
906,906,0,2046,3238
907,907,0,2047,3583
908,908,0,2046,3853
909,909,0,2046,4036
910,910,0,2047,4095
911,911,0,2046,4095
912,912,0,2046,3996
913,913,0,2046,3788
914,914,0,2046,3497
915,915,0,2047,3136
916,916,0,2046,2721
917,917,0,2046,2274
918,918,0,2047,1815
919,919,0,2047,1368
920,920,0,2046,953
921,921,0,2047,590
922,922,0,2046,296
923,923,0,2047,87
924,924,0,2046,0
925,925,0,2047,0
926,926,0,2047,38
927,927,0,2048,217
928,928,0,2047,484
929,929,0,2046,825
930,930,0,2047,1226
931,931,0,2047,1665
932,932,0,2046,2121
933,933,0,2047,2574
934,934,0,2046,3001
935,935,0,2047,3382
936,936,0,2047,3699
937,937,0,2047,3936
938,938,0,2046,4082
939,939,0,2047,4095
940,940,0,2047,4076
941,941,0,2046,3925
942,942,0,2046,3682
943,943,0,2047,3361
944,944,0,2046,2977
945,945,0,2046,2547
946,946,0,2046,2093
947,947,0,2047,1636
948,948,0,2046,1199
949,949,0,2046,802
950,950,0,2046,465
951,951,0,2047,204
952,952,0,2046,29
953,953,0,2046,0
954,954,0,2046,0
955,955,0,2046,98
956,956,0,2046,313
957,957,0,2046,611
958,958,0,2046,978
959,959,0,2046,1395
960,960,0,2047,1844
961,961,0,2046,2302
962,962,0,2046,2748
963,963,0,2047,3159
964,964,0,2047,3517
965,965,0,2047,3803
966,966,0,2047,4005
967,967,0,2046,4095
968,968,0,2046,4095
969,969,0,2046,4027
970,970,0,2047,3839
971,971,0,2046,3564
972,972,0,2046,3215
973,973,0,2046,2811
974,974,0,2046,2368
975,975,0,2046,1911
976,976,0,2047,1459
977,977,0,2047,1036
978,978,0,2047,661
979,979,0,2046,351
980,980,0,2047,123
981,981,0,2047,0
982,982,0,2047,0
983,983,0,2046,12
984,984,0,2046,172
985,985,0,2047,423
986,986,0,2046,750
987,987,0,2047,1139
988,988,0,2046,1571
989,989,0,2046,2026
990,990,0,2046,2481
991,991,0,2046,2916
992,992,0,2046,3308
993,993,0,2046,3640
994,994,0,2046,3894
995,995,0,2047,4059
996,996,0,2046,4095
997,997,0,2046,4095
998,998,0,2046,3963
999,999,0,2047,3740
1000,1000,0,2046,3434
1001,1001,0,2046,3061
1002,1002,0,2046,2639
1003,1003,0,2046,2188
1004,1004,0,2046,1731
1005,1005,0,2047,1287
1006,1006,0,2046,880
1007,1007,0,2047,530
1008,1008,0,2046,251
1009,1009,0,2046,58
1010,1010,0,2046,0
1011,1011,0,2047,0
1012,1012,0,2047,65
1013,1013,0,2047,261
1014,1014,0,2046,543
1015,1015,0,2046,897
1016,1016,0,2047,1305
1017,1017,0,2047,1749
1018,1018,0,2046,2208
1019,1019,0,2046,2657
1020,1020,0,2047,3077
1021,1021,0,2046,3448
1022,1022,0,2047,3750
1023,1023,0,2047,3971
1024,1024,0,2046,4095
1025,1025,0,2047,4095
1026,1026,0,2046,4055
1027,1027,0,2047,3885
1028,1028,0,2046,3627
1029,1029,0,2046,3294
1030,1030,0,2047,2899
