Sample in Buffer,Sample in Window,TRIGGER,adc1_data_a_d0[11:0],adc1_data_b_d0[11:0]
0,0,0,2046,1346
1,1,0,2047,538
2,2,0,2047,59
3,3,0,2046,15
4,4,0,2046,416
5,5,0,2047,1173
6,6,0,2046,2121
7,7,0,2047,3051
8,8,0,2046,3758
9,9,0,2047,4086
10,10,0,2047,3965
11,11,0,2047,3421
12,12,0,2046,2572
13,13,0,2047,1606
14,14,0,2047,734
15,15,0,2047,151
16,16,0,2046,0
17,17,0,2046,264
18,18,0,2046,937
19,19,0,2046,1852
20,20,0,2047,2808
21,21,0,2047,3594
22,22,0,2046,4039
23,23,0,2046,4045
24,24,0,2046,3609
25,25,0,2047,2827
26,26,0,2046,1872
27,27,0,2046,954
28,28,0,2047,275
29,29,0,2046,0
30,30,0,2047,142
31,31,0,2046,719
32,32,0,2046,1585
33,33,0,2047,2551
34,34,0,2047,3405
35,35,0,2046,3958
36,36,0,2046,4089
37,37,0,2047,3770
38,38,0,2047,3070
39,39,0,2046,2143
40,40,0,2046,1193
41,41,0,2046,430
42,42,0,2047,20
43,43,0,2046,53
44,44,0,2047,523
45,45,0,2046,1326
46,46,0,2047,2286
47,47,0,2046,3192
48,48,0,2047,3843
49,49,0,2046,4095
50,50,0,2047,3901
51,51,0,2046,3294
52,52,0,2046,2411
53,53,0,2047,1446
54,54,0,2046,612
55,55,0,2046,91
56,56,0,2046,0
57,57,0,2046,354
58,58,0,2047,1080
59,59,0,2046,2017
60,60,0,2046,2958
61,61,0,2047,3698
62,62,0,2046,4072
63,63,0,2046,4000
64,64,0,2047,3496
65,65,0,2046,2672
66,66,0,2045,1708
67,67,0,2047,818
68,68,0,2047,195
69,69,0,2046,0
70,70,0,2046,213
71,71,0,2046,850
72,72,0,2046,1747
73,73,0,2046,2709
74,74,0,2046,3523
75,75,0,2046,4012
76,76,0,2047,4066
77,77,0,2046,3674
78,78,0,2046,2923
79,79,0,2047,1977
80,80,0,2047,1045
81,81,0,2046,331
82,82,0,2046,0
83,83,0,2046,104
84,84,0,2046,640
85,85,0,2046,1484
86,86,0,2046,2449
87,87,0,2046,3324
88,88,0,2047,3917
89,89,0,2047,4095
90,90,0,2046,3824
91,91,0,2047,3158
92,92,0,2047,2247
93,93,0,2046,1289
94,94,0,2046,496
95,95,0,2046,42
96,96,0,2046,28
97,97,0,2046,454
98,98,0,2047,1229
99,99,0,2046,2182
100,100,0,2046,3103
101,101,0,2046,3790
102,102,0,2046,4093
103,103,0,2047,3943
104,104,0,2046,3375
105,105,0,2047,2514
106,106,0,2046,1546
107,107,0,2046,689
108,108,0,2046,126
109,109,0,2047,0
110,110,0,2046,295
111,111,0,2047,989
112,112,0,2047,1913
113,113,0,2046,2863
114,114,0,2047,3633
115,115,0,2046,4053
116,116,0,2046,4030
117,117,0,2047,3569
118,118,0,2046,2770
119,119,0,2046,1812
120,120,0,2047,903
121,121,0,2046,244
122,122,0,2046,0
123,123,0,2046,167
124,124,0,2046,766
125,125,0,2047,1645
126,126,0,2046,2610
127,127,0,2046,3449
128,128,0,2046,3979
129,129,0,2047,4082
130,130,0,2047,3735
131,131,0,2047,3016
132,132,0,2046,2081
133,133,0,2046,1138
134,134,0,2046,392
135,135,0,2047,8
136,136,0,2046,70
137,137,0,2046,566
138,138,0,2046,1384
139,139,0,2046,2347
140,140,0,2047,3242
141,141,0,2047,3873
142,142,0,2047,4095
143,143,0,2047,3874
144,144,0,2046,3244
145,145,0,2047,2350
146,146,0,2047,1388
147,147,0,2046,568
148,148,0,2046,71
149,149,0,2046,7
150,150,0,2046,389
151,151,0,2047,1135
152,152,0,2046,2078
153,153,0,2047,3012
154,154,0,2046,3734
155,155,0,2046,4081
156,156,0,2047,3981
157,157,0,2046,3453
158,158,0,2046,2613
159,159,0,2046,1649
160,160,0,2046,769
161,161,0,2046,168
162,162,0,2047,0
163,163,0,2045,243
164,164,0,2047,900
165,165,0,2046,1808
166,166,0,2046,2768
167,167,0,2047,3565
168,168,0,2046,4029
169,169,0,2046,4054
170,170,0,2047,3636
171,171,0,2046,2866
172,172,0,2047,1917
173,173,0,2046,992
174,174,0,2047,298
175,175,0,2046,0
176,176,0,2046,126
177,177,0,2046,686
178,178,0,2046,1543
179,179,0,2047,2510
180,180,0,2046,3372
181,181,0,2046,3942
182,182,0,2046,4092
183,183,0,2046,3792
184,184,0,2046,3107
185,185,0,2046,2186
186,186,0,2046,1233
187,187,0,2047,456
188,188,0,2047,28
189,189,0,2046,42
190,190,0,2046,494
191,191,0,2047,1286
192,192,0,2047,2244
193,193,0,2046,3155
194,194,0,2047,3822
195,195,0,2047,4095
196,196,0,2046,3918
197,197,0,2046,3327
198,198,0,2047,2453
199,199,0,2047,1487
200,200,0,2047,643
201,201,0,2046,105
202,202,0,2047,0
203,203,0,2046,329
204,204,0,2046,1042
205,205,0,2047,1974
206,206,0,2047,2919
207,207,0,2046,3672
208,208,0,2046,4065
209,209,0,2046,4012
210,210,0,2046,3527
211,211,0,2047,2713
212,212,0,2047,1751
213,213,0,2046,853
214,214,0,2046,214
215,215,0,2046,0
216,216,0,2047,193
217,217,0,2047,815
218,218,0,2046,1705
219,219,0,2047,2669
220,220,0,2047,3493
221,221,0,2047,3998
222,222,0,2047,4073
223,223,0,2046,3699
224,224,0,2046,2961
225,225,0,2047,2020
226,226,0,2046,1082
227,227,0,2047,355
228,228,0,2046,0
229,229,0,2046,89
230,230,0,2047,609
231,231,0,2046,1443
232,232,0,2046,2407
233,233,0,2047,3289
234,234,0,2046,3898
235,235,0,2047,4095
236,236,0,2047,3845
237,237,0,2047,3193
238,238,0,2046,2290
239,239,0,2047,1329
240,240,0,2047,525
241,241,0,2046,53
242,242,0,2046,19
243,243,0,2046,427
244,244,0,2046,1190
245,245,0,2047,2139
246,246,0,2046,3066
247,247,0,2046,3767
248,248,0,2046,4088
249,249,0,2046,3959
250,250,0,2046,3407
251,251,0,2046,2555
252,252,0,2046,1588
253,253,0,2046,721
254,254,0,2047,143
255,255,0,2045,0
256,256,0,2046,273
257,257,0,2047,952
258,258,0,2046,1869
259,259,0,2046,2824
260,260,0,2046,3606
261,261,0,2046,4043
262,262,0,2047,4040
263,263,0,2046,3596
264,264,0,2046,2810
265,265,0,2046,1855
266,266,0,2046,939
267,267,0,2046,265
268,268,0,2047,0
269,269,0,2046,149
270,270,0,2047,732
271,271,0,2046,1603
272,272,0,2046,2568
273,273,0,2047,3418
274,274,0,2046,3964
275,275,0,2046,4087
276,276,0,2046,3760
277,277,0,2046,3054
278,278,0,2046,2124
279,279,0,2047,1176
280,280,0,2046,418
281,281,0,2046,16
282,282,0,2046,57
283,283,0,2046,535
284,284,0,2046,1343
285,285,0,2046,2303
286,286,0,2047,3206
287,287,0,2046,3851
288,288,0,2046,4095
289,289,0,2047,3892
290,290,0,2047,3279
291,291,0,2046,2393
292,292,0,2046,1428
293,293,0,2046,599
294,294,0,2046,85
295,295,0,2046,0
296,296,0,2046,364
297,297,0,2046,1096
298,298,0,2046,2034
299,299,0,2047,2975
300,300,0,2047,3708
301,301,0,2047,4076
302,302,0,2046,3995
303,303,0,2046,3484
304,304,0,2047,2655
305,305,0,2046,1690
306,306,0,2046,803
307,307,0,2046,187
308,308,0,2046,0
309,309,0,2046,222
310,310,0,2046,864
311,311,0,2046,1766
312,312,0,2047,2727
313,313,0,2046,3536
314,314,0,2046,4017
315,315,0,2046,4063
316,316,0,2047,3663
317,317,0,2046,2907
318,318,0,2047,1959
319,319,0,2046,1030
320,320,0,2046,321
321,321,0,2046,0
322,322,0,2046,111
323,323,0,2047,654
324,324,0,2046,1501
325,325,0,2046,2467
326,326,0,2047,3339
327,327,0,2047,3924
328,328,0,2047,4095
329,329,0,2046,3815
330,330,0,2046,3144
331,331,0,2046,2229
332,332,0,2046,1273
333,333,0,2046,485
334,334,0,2046,38
335,335,0,2046,32
336,336,0,2047,466
337,337,0,2047,1247
338,338,0,2046,2200
339,339,0,2047,3119
340,340,0,2046,3800
341,341,0,2047,4094
342,342,0,2046,3936
343,343,0,2046,3361
344,344,0,2047,2495
345,345,0,2047,1529
346,346,0,2046,675
347,347,0,2047,120
348,348,0,2046,0
349,349,0,2046,306
350,350,0,2046,1004
351,351,0,2046,1931
352,352,0,2046,2880
353,353,0,2046,3645
354,354,0,2047,4056
355,355,0,2047,4025
356,356,0,2047,3556
357,357,0,2046,2753
358,358,0,2046,1794
359,359,0,2047,888
360,360,0,2046,236
361,361,0,2046,0
362,362,0,2047,175
363,363,0,2046,780
364,364,0,2047,1663
365,365,0,2045,2628
366,366,0,2047,3463
367,367,0,2046,3985
368,368,0,2047,4079
369,369,0,2046,3725
370,370,0,2046,3000
371,371,0,2046,2064
372,372,0,2046,1122
373,373,0,2046,382
374,374,0,2046,6
375,375,0,2046,75
376,376,0,2047,578
377,377,0,2046,1401
378,378,0,2047,2365
379,379,0,2046,3256
380,380,0,2046,3881
381,381,0,2047,4095
382,382,0,2045,3866
383,383,0,2046,3230
384,384,0,2045,2333
385,385,0,2047,1370
386,386,0,2047,555
387,387,0,2046,65
388,388,0,2046,10
389,389,0,2047,401
390,390,0,2047,1151
391,391,0,2047,2096
392,392,0,2046,3028
393,393,0,2047,3743
394,394,0,2046,4083
395,395,0,2047,3974
396,396,0,2046,3440
397,397,0,2046,2596
398,398,0,2046,1630
399,399,0,2046,754
400,400,0,2046,161
401,401,0,2047,0
402,402,0,2046,252
403,403,0,2046,914
404,404,0,2047,1827
405,405,0,2047,2784
406,406,0,2047,3578
407,407,0,2046,4033
408,408,0,2046,4050
409,409,0,2046,3625
410,410,0,2047,2850
411,411,0,2046,1897
412,412,0,2046,976
413,413,0,2046,288
414,414,0,2046,0
415,415,0,2047,133
416,416,0,2045,700
417,417,0,2046,1561
418,418,0,2046,2528
419,419,0,2046,3386
420,420,0,2047,3948
421,421,0,2046,4091
422,422,0,2046,3783
423,423,0,2047,3091
424,424,0,2047,2167
425,425,0,2046,1216
426,426,0,2046,445
427,427,0,2046,24
428,428,0,2046,46
429,429,0,2046,507
430,430,0,2046,1303
431,431,0,2047,2262
432,432,0,2046,3170
433,433,0,2047,3831
434,434,0,2046,4095
435,435,0,2047,3911
436,436,0,2046,3313
437,437,0,2046,2435
438,438,0,2046,1469
439,439,0,2046,629
440,440,0,2047,98
441,441,0,2047,0
442,442,0,2047,339
443,443,0,2047,1058
444,444,0,2046,1992
445,445,0,2046,2936
446,446,0,2047,3682
447,447,0,2046,4068
448,448,0,2046,4008
449,449,0,2047,3514
450,450,0,2046,2696
451,451,0,2047,1733
452,452,0,2046,838
453,453,0,2046,206
454,454,0,2047,0
455,455,0,2047,201
456,456,0,2046,829
457,457,0,2046,1723
458,458,0,2046,2687
459,459,0,2047,3506
460,460,0,2046,4004
461,461,0,2046,4071
462,462,0,2046,3689
463,463,0,2046,2945
464,464,0,2047,2002
465,465,0,2046,1067
466,466,0,2046,345
467,467,0,2047,0
468,468,0,2046,95
469,469,0,2046,622
470,470,0,2046,1461
471,471,0,2046,2425
472,472,0,2047,3306
473,473,0,2047,3907
474,474,0,2046,4095
475,475,0,2046,3836
476,476,0,2047,3178
477,477,0,2046,2271
478,478,0,2047,1312
479,479,0,2046,513
480,480,0,2046,49
481,481,0,2046,22
482,482,0,2046,439
483,483,0,2046,1207
484,484,0,2047,2158
485,485,0,2047,3082
486,486,0,2046,3777
487,487,0,2047,4091
488,488,0,2046,3952
489,489,0,2046,3393
490,490,0,2046,2536
491,491,0,2046,1570
492,492,0,2047,707
493,493,0,2046,137
494,494,0,2046,0
495,495,0,2046,283
496,496,0,2046,967
497,497,0,2047,1887
498,498,0,2047,2841
499,499,0,2046,3617
500,500,0,2046,4047
501,501,0,2046,4036
502,502,0,2046,3584
503,503,0,2047,2793
504,504,0,2046,1836
505,505,0,2046,924
506,506,0,2046,256
507,507,0,2047,0
508,508,0,2047,157
509,509,0,2046,746
510,510,0,2046,1621
511,511,0,2046,2586
512,512,0,2047,3432
513,513,0,2046,3970
514,514,0,2047,4085
515,515,0,2046,3749
516,516,0,2046,3037
517,517,0,2046,2107
518,518,0,2046,1159
519,519,0,2046,406
520,520,0,2047,12
521,521,0,2046,63
522,522,0,2047,548
523,523,0,2046,1360
524,524,0,2046,2322
525,525,0,2046,3221
526,526,0,2047,3860
527,527,0,2047,4095
528,528,0,2046,3884
529,529,0,2046,3264
530,530,0,2047,2374
531,531,0,2047,1411
532,532,0,2046,585
533,533,0,2046,78
534,534,0,2046,3
535,535,0,2047,375
536,536,0,2046,1112
537,537,0,2046,2053
538,538,0,2047,2990
539,539,0,2047,3719
540,540,0,2047,4077
541,541,0,2046,3989
542,542,0,2046,3470
543,543,0,2047,2637
544,544,0,2046,1672
545,545,0,2046,788
546,546,0,2046,179
547,547,0,2046,0
548,548,0,2047,230
549,549,0,2047,880
550,550,0,2046,1784
551,551,0,2046,2744
552,552,0,2046,3549
553,553,0,2047,4022
554,554,0,2046,4059
555,555,0,2046,3652
556,556,0,2047,2890
557,557,0,2047,1940
558,558,0,2045,1013
559,559,0,2046,311
560,560,0,2046,0
561,561,0,2047,116
562,562,0,2046,667
563,563,0,2047,1519
564,564,0,2046,2485
565,565,0,2047,3353
566,566,0,2047,3932
567,567,0,2047,4095
568,568,0,2046,3805
569,569,0,2046,3128
570,570,0,2047,2210
571,571,0,2047,1255
572,572,0,2046,472
573,573,0,2047,33
574,574,0,2047,36
575,575,0,2047,478
576,576,0,2046,1264
577,577,0,2047,2219
578,578,0,2046,3135
579,579,0,2047,3810
580,580,0,2046,4095
581,581,0,2046,3928
582,582,0,2046,3346
583,583,0,2046,2477
584,584,0,2047,1511
585,585,0,2047,661
586,586,0,2046,113
587,587,0,2046,0
588,588,0,2047,315
589,589,0,2046,1020
590,590,0,2047,1948
591,591,0,2047,2897
592,592,0,2047,3657
593,593,0,2046,4060
594,594,0,2046,4020
595,595,0,2047,3543
596,596,0,2046,2736
597,597,0,2046,1775
598,598,0,2047,872
599,599,0,2046,226
600,600,0,2046,0
601,601,0,2046,182
602,602,0,2047,795
603,603,0,2047,1681
604,604,0,2046,2646
605,605,0,2046,3476
606,606,0,2047,3991
607,607,0,2046,4076
608,608,0,2046,3714
609,609,0,2047,2983
610,610,0,2046,2045
611,611,0,2046,1104
612,612,0,2047,370
613,613,0,2047,1
614,614,0,2046,82
615,615,0,2047,591
616,616,0,2047,1419
617,617,0,2047,2383
618,618,0,2046,3271
619,619,0,2047,3889
620,620,0,2046,4095
621,621,0,2046,3857
622,622,0,2046,3214
623,623,0,2047,2314
624,624,0,2047,1353
625,625,0,2046,542
626,626,0,2046,60
627,627,0,2047,14
628,628,0,2046,412
629,629,0,2046,1168
630,630,0,2047,2115
631,631,0,2046,3045
632,632,0,2047,3755
633,633,0,2046,4086
634,634,0,2047,3968
635,635,0,2047,3425
636,636,0,2046,2578
637,637,0,2046,1612
638,638,0,2047,740
639,639,0,2047,154
640,640,0,2046,0
641,641,0,2047,260
642,642,0,2047,932
643,643,0,2047,1845
644,644,0,2047,2801
645,645,0,2046,3591
646,646,0,2046,4037
647,647,0,2047,4046
648,648,0,2047,3612
649,649,0,2047,2833
650,650,0,2047,1878
651,651,0,2047,960
652,652,0,2047,278
653,653,0,2046,0
654,654,0,2047,139
655,655,0,2047,714
656,656,0,2046,1579
657,657,0,2047,2545
658,658,0,2047,3400
659,659,0,2046,3955
660,660,0,2047,4090
661,661,0,2047,3773
662,662,0,2047,3075
663,663,0,2047,2149
664,664,0,2046,1199
665,665,0,2046,433
666,666,0,2046,20
667,667,0,2046,51
668,668,0,2047,519
669,669,0,2046,1321
670,670,0,2047,2280
671,671,0,2046,3185
672,672,0,2046,3840
673,673,0,2046,4095
674,674,0,2046,3903
675,675,0,2046,3299
676,676,0,2046,2416
677,677,0,2046,1451
678,678,0,2047,615
679,679,0,2046,92
680,680,0,2046,0
681,681,0,2047,350
682,682,0,2046,1075
683,683,0,2047,2010
684,684,0,2046,2953
685,685,0,2046,3694
686,686,0,2046,4071
687,687,0,2047,4001
688,688,0,2046,3501
689,689,0,2046,2678
690,690,0,2046,1714
691,691,0,2046,822
692,692,0,2046,198
693,693,0,2047,0
694,694,0,2046,210
695,695,0,2047,845
696,696,0,2047,1742
697,697,0,2046,2704
698,698,0,2046,3520
699,699,0,2046,4010
700,700,0,2046,4067
701,701,0,2047,3678
702,702,0,2047,2928
703,703,0,2046,1983
704,704,0,2047,1050
705,705,0,2047,334
706,706,0,2046,0
707,707,0,2047,102
708,708,0,2046,636
709,709,0,2046,1479
710,710,0,2047,2444
711,711,0,2046,3320
712,712,0,2046,3915
713,713,0,2046,4095
714,714,0,2046,3827
715,715,0,2047,3163
716,716,0,2046,2252
717,717,0,2047,1295
718,718,0,2047,500
719,719,0,2046,45
720,720,0,2046,26
721,721,0,2047,450
722,722,0,2047,1224
723,723,0,2047,2176
724,724,0,2047,3098
725,725,0,2047,3788
726,726,0,2047,4092
727,727,0,2047,3945
728,728,0,2046,3379
729,729,0,2047,2518
730,730,0,2046,1553
731,731,0,2047,693
732,732,0,2046,129
733,733,0,2046,0
734,734,0,2046,292
735,735,0,2047,983
736,736,0,2047,1906
737,737,0,2046,2859
738,738,0,2047,3629
739,739,0,2047,4052
740,740,0,2046,4031
741,741,0,2046,3573
742,742,0,2047,2776
743,743,0,2047,1818
744,744,0,2046,909
745,745,0,2046,247
746,746,0,2047,0
747,747,0,2046,165
748,748,0,2047,761
749,749,0,2047,1639
750,750,0,2047,2604
751,751,0,2046,3446
752,752,0,2046,3977
753,753,0,2047,4082
754,754,0,2047,3739
755,755,0,2047,3020
756,756,0,2046,2087
757,757,0,2046,1144
758,758,0,2046,395
759,759,0,2047,9
760,760,0,2047,68
761,761,0,2046,560
762,762,0,2046,1378
763,763,0,2046,2340
764,764,0,2046,3236
765,765,0,2047,3869
766,766,0,2047,4095
767,767,0,2046,3876
768,768,0,2046,3249
769,769,0,2047,2356
770,770,0,2046,1393
771,771,0,2046,572
772,772,0,2046,73
773,773,0,2047,6
774,774,0,2047,387
775,775,0,2046,1129
776,776,0,2046,2072
777,777,0,2047,3007
778,778,0,2047,3730
779,779,0,2047,4081
780,780,0,2047,3982
781,781,0,2046,3456
782,782,0,2047,2619
783,783,0,2046,1655
784,784,0,2046,774
785,785,0,2046,171
786,786,0,2047,0
787,787,0,2046,239
788,788,0,2046,895
789,789,0,2046,1803
790,790,0,2047,2761
791,791,0,2047,3562
792,792,0,2047,4026
793,793,0,2046,4056
794,794,0,2047,3640
795,795,0,2047,2872
796,796,0,2047,1922
797,797,0,2047,997
798,798,0,2046,300
799,799,0,2046,0
800,800,0,2046,123
801,801,0,2046,681
802,802,0,2046,1537
803,803,0,2046,2503
804,804,0,2047,3367
805,805,0,2046,3939
806,806,0,2046,4094
807,807,0,2047,3795
808,808,0,2046,3111
809,809,0,2046,2191
810,810,0,2046,1238
811,811,0,2046,461
812,812,0,2046,30
813,813,0,2047,40
814,814,0,2047,490
815,815,0,2047,1280
816,816,0,2046,2237
817,817,0,2046,3151
818,818,0,2047,3819
819,819,0,2047,4095
820,820,0,2046,3921
821,821,0,2046,3332
822,822,0,2047,2459
823,823,0,2047,1493
824,824,0,2047,648
825,825,0,2046,107
826,826,0,2046,0
827,827,0,2046,325
828,828,0,2047,1036
829,829,0,2047,1967
830,830,0,2047,2914
831,831,0,2047,3669
832,832,0,2046,4065
833,833,0,2047,4014
834,834,0,2047,3531
835,835,0,2046,2719
836,836,0,2047,1757
837,837,0,2046,858
838,838,0,2047,217
839,839,0,2046,0
840,840,0,2046,191
841,841,0,2047,810
842,842,0,2046,1699
843,843,0,2047,2663
844,844,0,2047,3489
845,845,0,2047,3997
846,846,0,2046,4074
847,847,0,2046,3704
848,848,0,2046,2966
849,849,0,2046,2026
850,850,0,2046,1088
851,851,0,2046,359
852,852,0,2046,0
853,853,0,2047,88
854,854,0,2046,604
855,855,0,2047,1437
856,856,0,2047,2401
857,857,0,2046,3286
858,858,0,2047,3896
859,859,0,2047,4095
860,860,0,2046,3847
861,861,0,2046,3199
862,862,0,2046,2295
863,863,0,2046,1335
864,864,0,2046,530
865,865,0,2046,56
866,866,0,2047,17
867,867,0,2047,424
868,868,0,2046,1184
869,869,0,2046,2133
870,870,0,2046,3061
871,871,0,2047,3764
872,872,0,2046,4088
873,873,0,2046,3961
874,874,0,2047,3412
875,875,0,2046,2560
876,876,0,2046,1594
877,877,0,2047,725
878,878,0,2046,146
879,879,0,2046,0
880,880,0,2046,270
881,881,0,2046,947
882,882,0,2046,1863
883,883,0,2046,2818
884,884,0,2046,3602
885,885,0,2047,4042
886,886,0,2046,4042
887,887,0,2046,3601
888,888,0,2047,2816
889,889,0,2047,1861
890,890,0,2047,944
891,891,0,2046,269
892,892,0,2046,0
893,893,0,2047,147
894,894,0,2047,729
895,895,0,2047,1597
896,896,0,2046,2562
897,897,0,2047,3413
898,898,0,2047,3962
899,899,0,2047,4088
900,900,0,2046,3763
901,901,0,2046,3059
902,902,0,2047,2130
903,903,0,2046,1182
904,904,0,2047,422
905,905,0,2045,17
906,906,0,2046,56
907,907,0,2046,532
908,908,0,2046,1338
909,909,0,2047,2298
910,910,0,2046,3202
911,911,0,2046,3849
912,912,0,2047,4095
913,913,0,2047,3895
914,914,0,2046,3284
915,915,0,2046,2399
916,916,0,2047,1434
917,917,0,2046,602
918,918,0,2046,86
919,919,0,2046,0
920,920,0,2046,361
921,921,0,2046,1091
922,922,0,2047,2029
923,923,0,2046,2969
924,924,0,2046,3705
925,925,0,2046,4074
926,926,0,2046,3997
927,927,0,2046,3487
928,928,0,2046,2660
929,929,0,2047,1696
930,930,0,2047,807
931,931,0,2047,188
932,932,0,2046,0
933,933,0,2047,219
934,934,0,2046,860
935,935,0,2047,1760
936,936,0,2047,2721
937,937,0,2046,3533
938,938,0,2046,4015
939,939,0,2047,4064
940,940,0,2046,3666
941,941,0,2046,2911
942,942,0,2046,1965
943,943,0,2046,1035
944,944,0,2046,325
945,945,0,2046,0
946,946,0,2046,108
947,947,0,2046,649
948,948,0,2046,1495
949,949,0,2046,2461
950,950,0,2046,3335
951,951,0,2046,3922
952,952,0,2046,4095
953,953,0,2046,3818
954,954,0,2046,3148
955,955,0,2046,2234
956,956,0,2047,1278
957,957,0,2047,489
958,958,0,2047,39
959,959,0,2046,30
960,960,0,2047,462
961,961,0,2046,1241
962,962,0,2047,2194
963,963,0,2046,3113
964,964,0,2046,3797
965,965,0,2046,4094
966,966,0,2047,3938
967,967,0,2046,3365
968,968,0,2047,2501
969,969,0,2047,1534
970,970,0,2047,680
971,971,0,2046,123
972,972,0,2046,0
973,973,0,2046,302
974,974,0,2047,999
975,975,0,2046,1925
976,976,0,2046,2876
977,977,0,2047,3642
978,978,0,2046,4056
979,979,0,2047,4026
980,980,0,2046,3560
981,981,0,2047,2759
982,982,0,2046,1800
983,983,0,2047,893
984,984,0,2046,238
985,985,0,2046,0
986,986,0,2047,171
987,987,0,2046,775
988,988,0,2047,1657
989,989,0,2046,2622
990,990,0,2046,3458
991,991,0,2046,3984
992,992,0,2046,4080
993,993,0,2046,3728
994,994,0,2046,3005
995,995,0,2047,2069
996,996,0,2046,1126
997,997,0,2047,385
998,998,0,2045,6
999,999,0,2046,74
1000,1000,0,2047,573
1001,1001,0,2047,1396
1002,1002,0,2047,2359
1003,1003,0,2046,3251
1004,1004,0,2047,3878
1005,1005,0,2046,4095
1006,1006,0,2047,3868
1007,1007,0,2046,3234
1008,1008,0,2046,2338
1009,1009,0,2046,1376
1010,1010,0,2046,559
1011,1011,0,2046,68
1012,1012,0,2047,9
1013,1013,0,2046,397
1014,1014,0,2046,1146
1015,1015,0,2046,2089
1016,1016,0,2046,3023
1017,1017,0,2047,3741
1018,1018,0,2046,4083
1019,1019,0,2046,3976
1020,1020,0,2046,3443
1021,1021,0,2046,2602
1022,1022,0,2046,1636
1023,1023,0,2046,759
1024,1024,0,2046,163
1025,1025,0,2046,0
1026,1026,0,2046,248
1027,1027,0,2046,910
1028,1028,0,2046,1821
