Sample in Buffer,Sample in Window,TRIGGER,adc1_data_a_d0[11:0],adc1_data_b_d0[11:0]
0,0,0,2047,4075
1,1,0,2046,4030
2,2,0,2046,3608
3,3,0,2046,2892
4,4,0,2046,2014
5,5,0,2046,1141
6,6,0,2046,437
7,7,0,2046,35
8,8,0,2046,10
9,9,0,2047,369
10,10,0,2046,1043
11,11,0,2046,1904
12,12,0,2046,2790
13,13,0,2046,3535
14,14,0,2046,3997
15,15,0,2046,4090
16,16,0,2046,3796
17,17,0,2046,3170
18,18,0,2047,2331
19,19,0,2046,1436
20,20,0,2046,655
21,21,0,2046,135
22,22,0,2046,0
23,23,0,2046,203
24,24,0,2047,777
25,25,0,2046,1589
26,26,0,2047,2486
27,27,0,2046,3299
28,28,0,2046,3873
29,29,0,2046,4095
30,30,0,2046,3942
31,31,0,2046,3421
32,32,0,2047,2640
33,33,0,2046,1746
34,34,0,2046,907
35,35,0,2046,280
36,36,0,2047,0
37,37,0,2046,79
38,38,0,2046,541
39,39,0,2046,1286
40,40,0,2047,2172
41,41,0,2046,3033
42,42,0,2046,3708
43,43,0,2047,4066
44,44,0,2047,4042
45,45,0,2046,3640
46,46,0,2047,2936
47,47,0,2046,2063
48,48,0,2047,1184
49,49,0,2047,468
50,50,0,2046,47
51,51,0,2047,1
52,52,0,2046,341
53,53,0,2047,1000
54,54,0,2047,1855
55,55,0,2046,2744
56,56,0,2046,3501
57,57,0,2047,3981
58,58,0,2046,4095
59,59,0,2046,3822
60,60,0,2047,3211
61,61,0,2046,2379
62,62,0,2046,1483
63,63,0,2047,692
64,64,0,2046,154
65,65,0,2046,0
66,66,0,2046,180
67,67,0,2047,738
68,68,0,2046,1542
69,69,0,2046,2439
70,70,0,2047,3260
71,71,0,2046,3851
72,72,0,2046,4095
73,73,0,2046,3961
74,74,0,2046,3458
75,75,0,2047,2687
76,76,0,2046,1794
77,77,0,2046,948
78,78,0,2046,307
79,79,0,2046,0
80,80,0,2047,64
81,81,0,2046,508
82,82,0,2046,1240
83,83,0,2046,2123
84,84,0,2046,2990
85,85,0,2047,3678
86,86,0,2046,4056
87,87,0,2046,4054
88,88,0,2046,3671
89,89,0,2047,2980
90,90,0,2046,2112
91,91,0,2046,1229
92,92,0,2046,499
93,93,0,2047,60
94,94,0,2046,0
95,95,0,2046,313
96,96,0,2046,958
97,97,0,2046,1806
98,98,0,2047,2698
99,99,0,2047,3465
100,100,0,2046,3964
101,101,0,2046,4095
102,102,0,2046,3846
103,103,0,2046,3251
104,104,0,2046,2427
105,105,0,2047,1531
106,106,0,2046,729
107,107,0,2046,175
108,108,0,2046,0
109,109,0,2046,159
110,110,0,2046,701
111,111,0,2046,1494
112,112,0,2046,2390
113,113,0,2046,3220
114,114,0,2046,3827
115,115,0,2046,4095
116,116,0,2046,3977
117,117,0,2047,3492
118,118,0,2046,2734
119,119,0,2047,1843
120,120,0,2046,989
121,121,0,2047,334
122,122,0,2047,0
123,123,0,2046,50
124,124,0,2047,476
125,125,0,2046,1196
126,126,0,2046,2075
127,127,0,2046,2946
128,128,0,2047,3648
129,129,0,2047,4045
130,130,0,2046,4064
131,131,0,2047,3701
132,132,0,2046,3023
133,133,0,2047,2160
134,134,0,2047,1274
135,135,0,2046,533
136,136,0,2047,75
137,137,0,2046,0
138,138,0,2046,287
139,139,0,2046,917
140,140,0,2047,1757
141,141,0,2047,2652
142,142,0,2047,3430
143,143,0,2047,3945
144,144,0,2046,4095
145,145,0,2047,3869
146,146,0,2046,3290
147,147,0,2047,2475
148,148,0,2047,1577
149,149,0,2047,768
150,150,0,2046,197
151,151,0,2046,0
152,152,0,2047,140
153,153,0,2047,664
154,154,0,2046,1447
155,155,0,2046,2342
156,156,0,2047,3180
157,157,0,2046,3801
158,158,0,2046,4092
159,159,0,2047,3994
160,160,0,2046,3527
161,161,0,2047,2779
162,162,0,2046,1892
163,163,0,2047,1032
164,164,0,2047,362
165,165,0,2047,9
166,166,0,2047,38
167,167,0,2047,444
168,168,0,2046,1151
169,169,0,2047,2025
170,170,0,2046,2902
171,171,0,2046,3617
172,172,0,2047,4033
173,173,0,2047,4073
174,174,0,2047,3729
175,175,0,2047,3066
176,176,0,2046,2209
177,177,0,2047,1321
178,178,0,2047,567
179,179,0,2046,91
180,180,0,2046,0
181,181,0,2047,261
182,182,0,2046,876
183,183,0,2047,1709
184,184,0,2046,2605
185,185,0,2046,3392
186,186,0,2047,3926
187,187,0,2046,4095
188,188,0,2046,3891
189,189,0,2046,3328
190,190,0,2046,2523
191,191,0,2046,1625
192,192,0,2047,807
193,193,0,2046,219
194,194,0,2047,0
195,195,0,2046,120
196,196,0,2046,627
197,197,0,2047,1400
198,198,0,2046,2294
199,199,0,2047,3138
200,200,0,2046,3776
201,201,0,2046,4086
202,202,0,2046,4009
203,203,0,2046,3561
204,204,0,2046,2825
205,205,0,2047,1941
206,206,0,2046,1075
207,207,0,2045,391
208,208,0,2047,19
209,209,0,2046,26
210,210,0,2046,413
211,211,0,2046,1107
212,212,0,2046,1977
213,213,0,2047,2858
214,214,0,2046,3583
215,215,0,2046,4020
216,216,0,2046,4081
217,217,0,2046,3757
218,218,0,2046,3108
219,219,0,2047,2259
220,220,0,2047,1366
221,221,0,2047,602
222,222,0,2046,108
223,223,0,2046,0
224,224,0,2046,237
225,225,0,2047,836
226,226,0,2047,1661
227,227,0,2046,2558
228,228,0,2046,3356
229,229,0,2046,3906
230,230,0,2046,4095
231,231,0,2046,3912
232,232,0,2046,3366
233,233,0,2046,2570
234,234,0,2047,1673
235,235,0,2047,846
236,236,0,2046,243
237,237,0,2046,0
238,238,0,2046,103
239,239,0,2047,592
240,240,0,2047,1354
241,241,0,2047,2246
242,242,0,2047,3097
243,243,0,2047,3748
244,244,0,2047,4079
245,245,0,2046,4024
246,246,0,2047,3593
247,247,0,2046,2870
248,248,0,2047,1990
249,249,0,2046,1119
250,250,0,2046,421
251,251,0,2047,29
252,252,0,2046,15
253,253,0,2046,383
254,254,0,2046,1064
255,255,0,2046,1928
256,256,0,2046,2813
257,257,0,2046,3551
258,258,0,2047,4005
259,259,0,2047,4088
260,260,0,2046,3783
261,261,0,2046,3150
262,262,0,2047,2307
263,263,0,2047,1412
264,264,0,2046,638
265,265,0,2046,126
266,266,0,2046,0
267,267,0,2046,213
268,268,0,2046,796
269,269,0,2046,1614
270,270,0,2046,2511
271,271,0,2046,3318
272,272,0,2047,3885
273,273,0,2046,4095
274,274,0,2047,3933
275,275,0,2046,3404
276,276,0,2046,2617
277,277,0,2046,1722
278,278,0,2047,886
279,279,0,2046,268
280,280,0,2046,0
281,281,0,2046,86
282,282,0,2046,558
283,283,0,2046,1309
284,284,0,2046,2197
285,285,0,2046,3055
286,286,0,2047,3722
287,287,0,2046,4071
288,288,0,2046,4036
289,289,0,2046,3624
290,290,0,2046,2915
291,291,0,2046,2038
292,292,0,2046,1162
293,293,0,2046,453
294,294,0,2046,41
295,295,0,2046,6
296,296,0,2047,354
297,297,0,2047,1021
298,298,0,2046,1879
299,299,0,2047,2767
300,300,0,2047,3518
301,301,0,2046,3990
302,302,0,2046,4093
303,303,0,2047,3809
304,304,0,2046,3191
305,305,0,2047,2355
306,306,0,2047,1460
307,307,0,2046,674
308,308,0,2046,145
309,309,0,2046,0
310,310,0,2047,191
311,311,0,2046,758
312,312,0,2047,1565
313,313,0,2046,2463
314,314,0,2047,3280
315,315,0,2047,3863
316,316,0,2047,4095
317,317,0,2046,3952
318,318,0,2046,3439
319,319,0,2046,2664
320,320,0,2047,1771
321,321,0,2046,927
322,322,0,2047,294
323,323,0,2046,0
324,324,0,2046,71
325,325,0,2047,524
326,326,0,2046,1263
327,327,0,2046,2148
328,328,0,2046,3011
329,329,0,2047,3693
330,330,0,2046,4061
331,331,0,2047,4048
332,332,0,2046,3656
333,333,0,2047,2958
334,334,0,2047,2088
335,335,0,2047,1208
336,336,0,2046,484
337,337,0,2046,54
338,338,0,2046,0
339,339,0,2046,327
340,340,0,2046,978
341,341,0,2047,1831
342,342,0,2046,2721
343,343,0,2047,3483
344,344,0,2047,3973
345,345,0,2046,4095
346,346,0,2047,3834
347,347,0,2046,3231
348,348,0,2046,2404
349,349,0,2047,1507
350,350,0,2046,710
351,351,0,2045,165
352,352,0,2046,0
353,353,0,2046,170
354,354,0,2045,719
355,355,0,2047,1518
356,356,0,2046,2414
357,357,0,2046,3241
358,358,0,2047,3839
359,359,0,2046,4095
360,360,0,2047,3970
361,361,0,2047,3476
362,362,0,2046,2711
363,363,0,2046,1819
364,364,0,2046,969
365,365,0,2046,321
366,366,0,2046,0
367,367,0,2046,58
368,368,0,2046,491
369,369,0,2047,1218
370,370,0,2047,2098
371,371,0,2047,2967
372,372,0,2046,3663
373,373,0,2047,4051
374,374,0,2047,4059
375,375,0,2046,3686
376,376,0,2046,3002
377,377,0,2046,2137
378,378,0,2046,1252
379,379,0,2046,517
380,380,0,2046,68
381,381,0,2046,0
382,382,0,2046,301
383,383,0,2046,937
384,384,0,2047,1782
385,385,0,2046,2675
386,386,0,2047,3447
387,387,0,2047,3955
388,388,0,2047,4095
389,389,0,2046,3858
390,390,0,2046,3271
391,391,0,2046,2451
392,392,0,2047,1554
393,393,0,2047,748
394,394,0,2046,186
395,395,0,2047,0
396,396,0,2046,149
397,397,0,2047,682
398,398,0,2046,1471
399,399,0,2046,2366
400,400,0,2047,3201
401,401,0,2046,3814
402,402,0,2047,4095
403,403,0,2046,3987
404,404,0,2047,3510
405,405,0,2046,2757
406,406,0,2046,1868
407,407,0,2047,1010
408,408,0,2046,349
409,409,0,2046,4
410,410,0,2046,43
411,411,0,2046,460
412,412,0,2046,1173
413,413,0,2047,2051
414,414,0,2046,2924
415,415,0,2046,3632
416,416,0,2046,4039
417,417,0,2046,4069
418,418,0,2046,3716
419,419,0,2046,3045
420,420,0,2047,2185
421,421,0,2046,1298
422,422,0,2046,550
423,423,0,2046,83
424,424,0,2047,0
425,425,0,2046,274
426,426,0,2047,896
427,427,0,2046,1734
428,428,0,2047,2628
429,429,0,2046,3411
430,430,0,2046,3937
431,431,0,2046,4095
432,432,0,2047,3881
433,433,0,2047,3310
434,434,0,2046,2499
435,435,0,2046,1602
436,436,0,2046,787
437,437,0,2046,208
438,438,0,2047,0
439,439,0,2047,130
440,440,0,2046,647
441,441,0,2046,1424
442,442,0,2046,2318
443,443,0,2046,3159
444,444,0,2046,3788
445,445,0,2046,4089
446,446,0,2047,4002
447,447,0,2046,3544
448,448,0,2047,2803
449,449,0,2047,1916
450,450,0,2046,1053
451,451,0,2046,376
452,452,0,2046,13
453,453,0,2047,32
454,454,0,2046,428
455,455,0,2047,1130
456,456,0,2047,2002
457,457,0,2046,2880
458,458,0,2046,3600
459,459,0,2047,4026
460,460,0,2047,4077
461,461,0,2046,3743
462,462,0,2047,3088
463,463,0,2046,2233
464,464,0,2046,1344
465,465,0,2046,585
466,466,0,2046,100
467,467,0,2046,0
468,468,0,2047,249
469,469,0,2046,855
470,470,0,2047,1685
471,471,0,2047,2581
472,472,0,2046,3375
473,473,0,2046,3917
474,474,0,2046,4095
475,475,0,2046,3902
476,476,0,2046,3348
477,477,0,2046,2546
478,478,0,2047,1650
479,479,0,2046,827
480,480,0,2047,231
481,481,0,2047,0
482,482,0,2046,112
483,483,0,2046,611
484,484,0,2046,1378
485,485,0,2046,2269
486,486,0,2047,3118
487,487,0,2046,3763
488,488,0,2046,4083
489,489,0,2047,4016
490,490,0,2046,3578
491,491,0,2047,2847
492,492,0,2046,1965
493,493,0,2047,1097
494,494,0,2046,406
495,495,0,2046,24
496,496,0,2046,20
497,497,0,2047,398
498,498,0,2047,1085
499,499,0,2047,1953
500,500,0,2047,2835
501,501,0,2046,3568
502,502,0,2047,4013
503,503,0,2047,4085
504,504,0,2047,3771
505,505,0,2047,3129
506,506,0,2046,2283
507,507,0,2047,1390
508,508,0,2046,620
509,509,0,2047,117
510,510,0,2046,0
511,511,0,2047,225
512,512,0,2046,815
513,513,0,2046,1637
514,514,0,2046,2534
515,515,0,2046,3337
516,516,0,2046,3896
517,517,0,2047,4095
518,518,0,2047,3923
519,519,0,2047,3386
520,520,0,2046,2594
521,521,0,2047,1698
522,522,0,2046,867
523,523,0,2046,256
524,524,0,2047,0
525,525,0,2046,95
526,526,0,2046,575
527,527,0,2046,1332
528,528,0,2046,2221
529,529,0,2046,3076
530,530,0,2046,3735
531,531,0,2047,4075
532,532,0,2046,4029
533,533,0,2047,3609
534,534,0,2046,2893
535,535,0,2046,2014
536,536,0,2046,1141
537,537,0,2046,436
538,538,0,2046,35
539,539,0,2047,10
540,540,0,2046,368
541,541,0,2046,1043
542,542,0,2046,1903
543,543,0,2046,2790
544,544,0,2046,3535
545,545,0,2047,3998
546,546,0,2047,4091
547,547,0,2047,3796
548,548,0,2047,3171
549,549,0,2047,2331
550,550,0,2046,1437
551,551,0,2046,656
552,552,0,2046,135
553,553,0,2045,0
554,554,0,2047,202
555,555,0,2046,776
556,556,0,2046,1589
557,557,0,2046,2486
558,558,0,2047,3299
559,559,0,2046,3873
560,560,0,2047,4095
561,561,0,2047,3942
562,562,0,2047,3422
563,563,0,2046,2641
564,564,0,2046,1747
565,565,0,2046,906
566,566,0,2046,280
567,567,0,2047,0
568,568,0,2046,79
569,569,0,2047,541
570,570,0,2046,1285
571,571,0,2046,2172
572,572,0,2047,3034
573,573,0,2047,3707
574,574,0,2047,4065
575,575,0,2046,4042
576,576,0,2046,3641
577,577,0,2047,2937
578,578,0,2046,2063
579,579,0,2046,1185
580,580,0,2046,469
581,581,0,2046,47
582,582,0,2046,2
583,583,0,2046,340
584,584,0,2046,1000
585,585,0,2046,1854
586,586,0,2047,2743
587,587,0,2046,3500
588,588,0,2046,3981
589,589,0,2047,4095
590,590,0,2047,3822
591,591,0,2046,3211
592,592,0,2046,2379
593,593,0,2046,1483
594,594,0,2046,693
595,595,0,2046,154
596,596,0,2047,0
597,597,0,2046,180
598,598,0,2047,738
599,599,0,2046,1541
600,600,0,2046,2438
601,601,0,2046,3259
602,602,0,2046,3851
603,603,0,2046,4095
604,604,0,2047,3960
605,605,0,2046,3458
606,606,0,2047,2687
607,607,0,2046,1795
608,608,0,2046,948
609,609,0,2047,307
610,610,0,2047,0
611,611,0,2047,64
612,612,0,2046,507
613,613,0,2046,1240
614,614,0,2046,2123
615,615,0,2045,2990
616,616,0,2047,3678
617,617,0,2046,4056
618,618,0,2046,4054
619,619,0,2046,3672
620,620,0,2046,2981
621,621,0,2046,2112
622,622,0,2046,1230
623,623,0,2046,500
624,624,0,2046,61
625,625,0,2046,0
626,626,0,2046,313
627,627,0,2046,957
628,628,0,2046,1806
629,629,0,2046,2698
630,630,0,2047,3465
631,631,0,2046,3964
632,632,0,2046,4095
633,633,0,2046,3846
634,634,0,2047,3251
635,635,0,2046,2428
636,636,0,2047,1531
637,637,0,2046,730
638,638,0,2046,176
639,639,0,2046,0
640,640,0,2047,160
641,641,0,2046,700
642,642,0,2046,1493
643,643,0,2046,2390
644,644,0,2046,3220
645,645,0,2047,3827
646,646,0,2046,4095
647,647,0,2047,3978
648,648,0,2047,3494
649,649,0,2047,2734
650,650,0,2046,1843
651,651,0,2046,990
652,652,0,2046,334
653,653,0,2046,0
654,654,0,2047,50
655,655,0,2046,475
656,656,0,2046,1195
657,657,0,2046,2074
658,658,0,2046,2946
659,659,0,2046,3647
660,660,0,2046,4044
661,661,0,2047,4064
662,662,0,2046,3701
663,663,0,2046,3024
664,664,0,2047,2161
665,665,0,2046,1275
666,666,0,2046,534
667,667,0,2047,75
668,668,0,2046,0
669,669,0,2047,286
670,670,0,2046,916
671,671,0,2046,1757
672,672,0,2047,2652
673,673,0,2046,3430
674,674,0,2046,3946
675,675,0,2046,4095
676,676,0,2046,3869
677,677,0,2047,3291
678,678,0,2047,2476
679,679,0,2046,1579
680,680,0,2045,768
681,681,0,2046,197
682,682,0,2047,0
683,683,0,2046,139
684,684,0,2046,664
685,685,0,2046,1447
686,686,0,2046,2342
687,687,0,2046,3179
688,688,0,2046,3802
689,689,0,2046,4092
690,690,0,2046,3994
691,691,0,2047,3528
692,692,0,2046,2779
693,693,0,2046,1892
694,694,0,2047,1033
695,695,0,2046,362
696,696,0,2047,9
697,697,0,2047,37
698,698,0,2046,443
699,699,0,2046,1150
700,700,0,2046,2025
701,701,0,2047,2903
702,702,0,2046,3617
703,703,0,2046,4032
704,704,0,2047,4073
705,705,0,2047,3729
706,706,0,2047,3066
707,707,0,2047,2210
708,708,0,2046,1321
709,709,0,2046,567
710,710,0,2047,90
711,711,0,2046,0
712,712,0,2047,261
713,713,0,2047,875
714,714,0,2047,1709
715,715,0,2047,2604
716,716,0,2046,3393
717,717,0,2046,3926
718,718,0,2047,4095
719,719,0,2046,3891
720,720,0,2046,3328
721,721,0,2047,2523
722,722,0,2047,1627
723,723,0,2046,807
724,724,0,2046,219
725,725,0,2046,0
726,726,0,2046,121
727,727,0,2047,629
728,728,0,2046,1401
729,729,0,2046,2293
730,730,0,2047,3139
731,731,0,2047,3776
732,732,0,2047,4086
733,733,0,2046,4008
734,734,0,2046,3561
735,735,0,2046,2825
736,736,0,2047,1941
737,737,0,2046,1076
738,738,0,2047,392
739,739,0,2047,19
740,740,0,2047,26
741,741,0,2047,413
742,742,0,2047,1107
743,743,0,2047,1976
744,744,0,2046,2857
745,745,0,2046,3585
746,746,0,2046,4019
747,747,0,2046,4082
748,748,0,2046,3756
749,749,0,2047,3109
750,750,0,2046,2259
751,751,0,2046,1367
752,752,0,2046,602
753,753,0,2047,108
754,754,0,2047,0
755,755,0,2046,236
756,756,0,2047,835
757,757,0,2046,1661
758,758,0,2046,2557
759,759,0,2046,3356
760,760,0,2046,3906
761,761,0,2046,4095
762,762,0,2046,3912
763,763,0,2047,3367
764,764,0,2047,2571
765,765,0,2046,1674
766,766,0,2046,846
767,767,0,2046,243
768,768,0,2046,0
769,769,0,2046,104
770,770,0,2046,592
771,771,0,2046,1354
772,772,0,2046,2244
773,773,0,2046,3096
774,774,0,2047,3749
775,775,0,2047,4079
776,776,0,2047,4024
777,777,0,2046,3594
778,778,0,2046,2870
779,779,0,2046,1990
780,780,0,2046,1119
781,781,0,2047,421
782,782,0,2046,29
783,783,0,2047,15
784,784,0,2046,383
785,785,0,2046,1064
786,786,0,2046,1928
787,787,0,2046,2812
788,788,0,2047,3551
789,789,0,2047,4005
790,790,0,2046,4089
791,791,0,2047,3784
792,792,0,2046,3150
793,793,0,2046,2307
794,794,0,2046,1414
795,795,0,2046,638
796,796,0,2046,126
797,797,0,2047,0
798,798,0,2046,213
799,799,0,2046,796
800,800,0,2046,1613
801,801,0,2047,2509
802,802,0,2046,3318
803,803,0,2046,3884
804,804,0,2046,4095
805,805,0,2046,3933
806,806,0,2046,3404
807,807,0,2047,2618
808,808,0,2046,1722
809,809,0,2046,887
810,810,0,2046,269
811,811,0,2046,0
812,812,0,2047,87
813,813,0,2046,557
814,814,0,2046,1308
815,815,0,2046,2197
816,816,0,2046,3054
817,817,0,2046,3721
818,818,0,2046,4071
819,819,0,2046,4037
820,820,0,2046,3626
821,821,0,2047,2915
822,822,0,2047,2039
823,823,0,2046,1163
824,824,0,2047,452
825,825,0,2046,41
826,826,0,2047,6
827,827,0,2046,354
828,828,0,2047,1021
829,829,0,2047,1879
830,830,0,2047,2767
831,831,0,2047,3518
832,832,0,2046,3989
833,833,0,2046,4094
834,834,0,2047,3810
835,835,0,2047,3190
836,836,0,2046,2355
837,837,0,2046,1459
838,838,0,2046,674
839,839,0,2046,145
840,840,0,2046,0
841,841,0,2047,191
842,842,0,2047,757
843,843,0,2046,1565
844,844,0,2047,2462
845,845,0,2047,3279
846,846,0,2047,3862
847,847,0,2046,4095
848,848,0,2046,3951
849,849,0,2046,3440
850,850,0,2046,2664
851,851,0,2047,1771
852,852,0,2047,928
853,853,0,2046,293
854,854,0,2047,0
855,855,0,2047,71
856,856,0,2047,524
857,857,0,2047,1262
858,858,0,2047,2147
859,859,0,2046,3011
860,860,0,2047,3692
861,861,0,2046,4061
862,862,0,2047,4049
863,863,0,2047,3656
864,864,0,2046,2958
865,865,0,2046,2088
866,866,0,2046,1207
867,867,0,2047,485
868,868,0,2046,54
869,869,0,2046,0
870,870,0,2046,326
871,871,0,2047,978
872,872,0,2046,1830
873,873,0,2046,2721
874,874,0,2046,3483
875,875,0,2047,3973
876,876,0,2046,4095
877,877,0,2046,3834
878,878,0,2047,3231
879,879,0,2046,2404
880,880,0,2046,1507
881,881,0,2046,710
882,882,0,2047,165
883,883,0,2046,0
884,884,0,2047,169
885,885,0,2047,719
886,886,0,2046,1517
887,887,0,2046,2414
888,888,0,2046,3240
889,889,0,2046,3839
890,890,0,2047,4095
891,891,0,2046,3969
892,892,0,2046,3475
893,893,0,2046,2711
894,894,0,2046,1819
895,895,0,2046,969
896,896,0,2046,320
897,897,0,2046,0
898,898,0,2046,57
899,899,0,2047,491
900,900,0,2046,1217
901,901,0,2046,2099
902,902,0,2046,2968
903,903,0,2047,3662
904,904,0,2046,4051
905,905,0,2047,4059
906,906,0,2047,3686
907,907,0,2046,3002
908,908,0,2046,2136
909,909,0,2047,1252
910,910,0,2046,517
911,911,0,2046,67
912,912,0,2047,0
913,913,0,2047,300
914,914,0,2047,936
915,915,0,2047,1782
916,916,0,2046,2674
917,917,0,2047,3447
918,918,0,2046,3954
919,919,0,2046,4095
920,920,0,2047,3858
921,921,0,2046,3271
922,922,0,2047,2451
923,923,0,2047,1555
924,924,0,2046,749
925,925,0,2046,186
926,926,0,2046,0
927,927,0,2047,149
928,928,0,2046,682
929,929,0,2046,1470
930,930,0,2047,2366
931,931,0,2047,3200
932,932,0,2047,3815
933,933,0,2047,4095
934,934,0,2046,3985
935,935,0,2046,3510
936,936,0,2046,2756
937,937,0,2046,1868
938,938,0,2046,1011
939,939,0,2046,348
940,940,0,2046,3
941,941,0,2046,43
942,942,0,2046,458
943,943,0,2047,1172
944,944,0,2046,2050
945,945,0,2047,2925
946,946,0,2046,3631
947,947,0,2047,4039
948,948,0,2046,4068
949,949,0,2046,3715
950,950,0,2046,3046
951,951,0,2047,2186
952,952,0,2047,1297
953,953,0,2046,550
954,954,0,2046,83
955,955,0,2047,0
956,956,0,2047,274
957,957,0,2046,895
958,958,0,2047,1733
959,959,0,2046,2628
960,960,0,2046,3412
961,961,0,2046,3937
962,962,0,2046,4095
963,963,0,2047,3880
964,964,0,2046,3309
965,965,0,2047,2499
966,966,0,2046,1601
967,967,0,2046,787
968,968,0,2046,208
969,969,0,2046,0
970,970,0,2047,131
971,971,0,2046,645
972,972,0,2046,1424
973,973,0,2046,2318
974,974,0,2047,3159
975,975,0,2046,3789
976,976,0,2047,4089
977,977,0,2046,4001
978,978,0,2047,3544
979,979,0,2047,2802
980,980,0,2046,1917
981,981,0,2046,1053
982,982,0,2046,377
983,983,0,2046,13
984,984,0,2046,31
985,985,0,2047,428
986,986,0,2047,1129
987,987,0,2046,2001
988,988,0,2046,2879
989,989,0,2047,3600
990,990,0,2046,4026
991,991,0,2046,4077
992,992,0,2046,3743
993,993,0,2046,3088
994,994,0,2046,2234
995,995,0,2046,1344
996,996,0,2046,584
997,997,0,2046,99
998,998,0,2046,0
999,999,0,2047,249
1000,1000,0,2046,855
1001,1001,0,2047,1684
1002,1002,0,2046,2581
1003,1003,0,2047,3375
1004,1004,0,2046,3916
1005,1005,0,2046,4095
1006,1006,0,2046,3902
1007,1007,0,2046,3348
1008,1008,0,2046,2546
1009,1009,0,2046,1650
1010,1010,0,2047,826
1011,1011,0,2047,231
1012,1012,0,2046,0
1013,1013,0,2047,112
1014,1014,0,2046,610
1015,1015,0,2047,1377
1016,1016,0,2046,2269
1017,1017,0,2047,3118
1018,1018,0,2047,3762
1019,1019,0,2046,4082
1020,1020,0,2046,4017
1021,1021,0,2047,3577
1022,1022,0,2046,2847
1023,1023,0,2046,1965
1024,1024,0,2046,1098
1025,1025,0,2046,406
1026,1026,0,2046,23
1027,1027,0,2046,20
1028,1028,0,2046,397
