Sample in Buffer,Sample in Window,TRIGGER,adc1_data_a_d0[11:0],adc1_data_b_d0[11:0]
0,0,0,2047,1423
1,1,0,2046,1705
2,2,0,2046,1993
3,3,0,2046,2282
4,4,0,2046,2566
5,5,0,2046,2840
6,6,0,2046,3098
7,7,0,2046,3336
8,8,0,2047,3549
9,9,0,2047,3733
10,10,0,2046,3884
11,11,0,2046,3999
12,12,0,2047,4076
13,13,0,2046,4095
14,14,0,2047,4095
15,15,0,2047,4070
16,16,0,2046,3989
17,17,0,2046,3869
18,18,0,2047,3716
19,19,0,2046,3529
20,20,0,2047,3313
21,21,0,2046,3073
22,22,0,2047,2813
23,23,0,2046,2537
24,24,0,2046,2253
25,25,0,2046,1963
26,26,0,2046,1674
27,27,0,2046,1393
28,28,0,2046,1124
29,29,0,2047,872
30,30,0,2046,643
31,31,0,2046,441
32,32,0,2047,271
33,33,0,2047,134
34,34,0,2047,35
35,35,0,2046,0
36,36,0,2046,0
37,37,0,2046,0
38,38,0,2045,34
39,39,0,2047,133
40,40,0,2046,269
41,41,0,2046,440
42,42,0,2046,641
43,43,0,2046,868
44,44,0,2046,1119
45,45,0,2047,1387
46,46,0,2046,1668
47,47,0,2046,1956
48,48,0,2047,2246
49,49,0,2047,2531
50,50,0,2046,2806
51,51,0,2047,3067
52,52,0,2046,3307
53,53,0,2046,3524
54,54,0,2046,3712
55,55,0,2046,3866
56,56,0,2047,3986
57,57,0,2046,4068
58,58,0,2047,4095
59,59,0,2046,4095
60,60,0,2047,4077
61,61,0,2046,4001
62,62,0,2047,3887
63,63,0,2047,3737
64,64,0,2046,3554
65,65,0,2047,3342
66,66,0,2046,3105
67,67,0,2046,2846
68,68,0,2046,2573
69,69,0,2046,2288
70,70,0,2046,1999
71,71,0,2047,1710
72,72,0,2046,1428
73,73,0,2046,1156
74,74,0,2046,903
75,75,0,2046,671
76,76,0,2047,465
77,77,0,2046,290
78,78,0,2047,149
79,79,0,2047,46
80,80,0,2046,0
81,81,0,2046,0
82,82,0,2046,0
83,83,0,2046,25
84,84,0,2046,119
85,85,0,2046,250
86,86,0,2046,416
87,87,0,2046,613
88,88,0,2046,839
89,89,0,2046,1086
90,90,0,2047,1353
91,91,0,2047,1633
92,92,0,2046,1920
93,93,0,2047,2209
94,94,0,2047,2495
95,95,0,2046,2772
96,96,0,2046,3036
97,97,0,2047,3278
98,98,0,2046,3498
99,99,0,2047,3689
100,100,0,2046,3848
101,101,0,2046,3973
102,102,0,2047,4060
103,103,0,2046,4095
104,104,0,2046,4095
105,105,0,2046,4084
106,106,0,2046,4013
107,107,0,2046,3904
108,108,0,2047,3758
109,109,0,2046,3580
110,110,0,2046,3371
111,111,0,2046,3136
112,112,0,2047,2880
113,113,0,2046,2608
114,114,0,2046,2324
115,115,0,2047,2036
116,116,0,2047,1747
117,117,0,2046,1463
118,118,0,2047,1190
119,119,0,2046,934
120,120,0,2047,698
121,121,0,2047,490
122,122,0,2046,311
123,123,0,2046,166
124,124,0,2046,56
125,125,0,2047,0
126,126,0,2047,0
127,127,0,2046,0
128,128,0,2047,15
129,129,0,2046,105
130,130,0,2047,232
131,131,0,2046,393
132,132,0,2046,587
133,133,0,2047,808
134,134,0,2047,1054
135,135,0,2047,1318
136,136,0,2047,1596
137,137,0,2047,1883
138,138,0,2047,2172
139,139,0,2046,2460
140,140,0,2046,2738
141,141,0,2047,3003
142,142,0,2046,3249
143,143,0,2046,3472
144,144,0,2046,3667
145,145,0,2046,3830
146,146,0,2047,3959
147,147,0,2046,4051
148,148,0,2046,4095
149,149,0,2046,4095
150,150,0,2046,4091
151,151,0,2046,4025
152,152,0,2046,3919
153,153,0,2046,3778
154,154,0,2047,3603
155,155,0,2046,3398
156,156,0,2046,3167
157,157,0,2047,2913
158,158,0,2047,2643
159,159,0,2046,2360
160,160,0,2047,2073
161,161,0,2046,1783
162,162,0,2046,1498
163,163,0,2047,1224
164,164,0,2046,965
165,165,0,2046,728
166,166,0,2046,515
167,167,0,2046,331
168,168,0,2046,182
169,169,0,2046,68
170,170,0,2046,0
171,171,0,2046,0
172,172,0,2046,0
173,173,0,2046,7
174,174,0,2047,90
175,175,0,2046,214
176,176,0,2046,371
177,177,0,2046,561
178,178,0,2047,779
179,179,0,2046,1022
180,180,0,2046,1285
181,181,0,2046,1561
182,182,0,2046,1846
183,183,0,2046,2135
184,184,0,2046,2423
185,185,0,2047,2703
186,186,0,2046,2970
187,187,0,2046,3220
188,188,0,2046,3445
189,189,0,2046,3644
190,190,0,2047,3811
191,191,0,2046,3944
192,192,0,2046,4042
193,193,0,2046,4095
194,194,0,2047,4095
195,195,0,2046,4095
196,196,0,2046,4035
197,197,0,2046,3934
198,198,0,2046,3798
199,199,0,2047,3627
200,200,0,2047,3426
201,201,0,2046,3197
202,202,0,2047,2947
203,203,0,2046,2678
204,204,0,2046,2396
205,205,0,2046,2109
206,206,0,2046,1819
207,207,0,2047,1534
208,208,0,2046,1258
209,209,0,2046,997
210,210,0,2047,756
211,211,0,2047,540
212,212,0,2046,353
213,213,0,2046,199
214,214,0,2046,81
215,215,0,2046,0
216,216,0,2046,0
217,217,0,2046,0
218,218,0,2047,0
219,219,0,2046,79
220,220,0,2046,196
221,221,0,2047,350
222,222,0,2047,535
223,223,0,2046,750
224,224,0,2047,989
225,225,0,2046,1250
226,226,0,2046,1524
227,227,0,2046,1811
228,228,0,2047,2099
229,229,0,2046,2387
230,230,0,2046,2668
231,231,0,2047,2937
232,232,0,2046,3188
233,233,0,2046,3418
234,234,0,2046,3620
235,235,0,2046,3792
236,236,0,2046,3930
237,237,0,2046,4031
238,238,0,2047,4094
239,239,0,2047,4095
240,240,0,2046,4095
241,241,0,2047,4044
242,242,0,2046,3949
243,243,0,2046,3817
244,244,0,2046,3650
245,245,0,2046,3453
246,246,0,2046,3228
247,247,0,2046,2980
248,248,0,2047,2713
249,249,0,2046,2433
250,250,0,2046,2146
251,251,0,2047,1856
252,252,0,2046,1569
253,253,0,2047,1292
254,254,0,2047,1029
255,255,0,2047,785
256,256,0,2046,566
257,257,0,2047,375
258,258,0,2047,216
259,259,0,2047,94
260,260,0,2045,8
261,261,0,2046,0
262,262,0,2046,0
263,263,0,2047,0
264,264,0,2047,66
265,265,0,2046,179
266,266,0,2046,328
267,267,0,2046,510
268,268,0,2046,721
269,269,0,2047,958
270,270,0,2046,1215
271,271,0,2046,1489
272,272,0,2046,1773
273,273,0,2047,2062
274,274,0,2046,2351
275,275,0,2046,2633
276,276,0,2046,2903
277,277,0,2046,3158
278,278,0,2047,3390
279,279,0,2046,3596
280,280,0,2046,3772
281,281,0,2046,3914
282,282,0,2047,4020
283,283,0,2047,4089
284,284,0,2047,4095
285,285,0,2047,4095
286,286,0,2046,4053
287,287,0,2046,3963
288,288,0,2047,3835
289,289,0,2046,3673
290,290,0,2046,3479
291,291,0,2047,3257
292,292,0,2046,3012
293,293,0,2046,2747
294,294,0,2047,2469
295,295,0,2046,2183
296,296,0,2046,1892
297,297,0,2046,1605
298,298,0,2047,1326
299,299,0,2046,1061
300,300,0,2047,814
301,301,0,2046,592
302,302,0,2046,398
303,303,0,2046,234
304,304,0,2047,107
305,305,0,2046,17
306,306,0,2046,0
307,307,0,2046,0
308,308,0,2047,0
309,309,0,2047,54
310,310,0,2047,163
311,311,0,2047,308
312,312,0,2046,485
313,313,0,2047,692
314,314,0,2047,927
315,315,0,2046,1182
316,316,0,2046,1454
317,317,0,2046,1737
318,318,0,2046,2026
319,319,0,2046,2315
320,320,0,2046,2598
321,321,0,2046,2870
322,322,0,2046,3127
323,323,0,2047,3362
324,324,0,2047,3572
325,325,0,2047,3752
326,326,0,2047,3899
327,327,0,2046,4009
328,328,0,2047,4082
329,329,0,2046,4095
330,330,0,2047,4095
331,331,0,2047,4062
332,332,0,2047,3977
333,333,0,2046,3854
334,334,0,2046,3695
335,335,0,2047,3506
336,336,0,2047,3287
337,337,0,2046,3044
338,338,0,2047,2782
339,339,0,2046,2505
340,340,0,2046,2219
341,341,0,2046,1929
342,342,0,2047,1642
343,343,0,2046,1362
344,344,0,2047,1094
345,345,0,2047,844
346,346,0,2046,619
347,347,0,2046,420
348,348,0,2047,253
349,349,0,2047,121
350,350,0,2046,26
351,351,0,2046,0
352,352,0,2046,0
353,353,0,2046,0
354,354,0,2046,43
355,355,0,2047,147
356,356,0,2047,287
357,357,0,2047,461
358,358,0,2047,665
359,359,0,2046,896
360,360,0,2046,1149
361,361,0,2047,1419
362,362,0,2046,1700
363,363,0,2046,1990
364,364,0,2047,2278
365,365,0,2046,2563
366,366,0,2046,2837
367,367,0,2046,3096
368,368,0,2046,3333
369,369,0,2046,3546
370,370,0,2047,3730
371,371,0,2046,3882
372,372,0,2047,3997
373,373,0,2046,4075
374,374,0,2046,4095
375,375,0,2047,4095
376,376,0,2047,4070
377,377,0,2046,3989
378,378,0,2047,3871
379,379,0,2046,3718
380,380,0,2046,3531
381,381,0,2046,3316
382,382,0,2046,3077
383,383,0,2046,2816
384,384,0,2047,2541
385,385,0,2046,2256
386,386,0,2046,1965
387,387,0,2045,1678
388,388,0,2047,1397
389,389,0,2047,1127
390,390,0,2047,875
391,391,0,2046,646
392,392,0,2046,444
393,393,0,2046,273
394,394,0,2047,136
395,395,0,2047,36
396,396,0,2046,0
397,397,0,2046,0
398,398,0,2047,0
399,399,0,2047,33
400,400,0,2046,132
401,401,0,2047,268
402,402,0,2046,438
403,403,0,2046,638
404,404,0,2047,865
405,405,0,2046,1116
406,406,0,2046,1384
407,407,0,2047,1665
408,408,0,2047,1953
409,409,0,2047,2242
410,410,0,2047,2526
411,411,0,2046,2803
412,412,0,2046,3063
413,413,0,2047,3304
414,414,0,2046,3521
415,415,0,2046,3709
416,416,0,2046,3865
417,417,0,2046,3984
418,418,0,2047,4066
419,419,0,2047,4095
420,420,0,2046,4095
421,421,0,2046,4078
422,422,0,2046,4003
423,423,0,2046,3888
424,424,0,2047,3738
425,425,0,2046,3557
426,426,0,2046,3345
427,427,0,2047,3108
428,428,0,2047,2850
429,429,0,2047,2576
430,430,0,2047,2292
431,431,0,2047,2002
432,432,0,2047,1713
433,433,0,2046,1431
434,434,0,2047,1160
435,435,0,2047,906
436,436,0,2047,673
437,437,0,2046,468
438,438,0,2046,293
439,439,0,2046,151
440,440,0,2046,47
441,441,0,2046,0
442,442,0,2046,0
443,443,0,2047,0
444,444,0,2046,24
445,445,0,2047,117
446,446,0,2046,248
447,447,0,2046,414
448,448,0,2046,611
449,449,0,2047,835
450,450,0,2047,1083
451,451,0,2046,1349
452,452,0,2045,1628
453,453,0,2046,1916
454,454,0,2047,2206
455,455,0,2046,2492
456,456,0,2047,2769
457,457,0,2047,3032
458,458,0,2047,3275
459,459,0,2046,3496
460,460,0,2047,3687
461,461,0,2046,3847
462,462,0,2046,3972
463,463,0,2047,4058
464,464,0,2046,4095
465,465,0,2047,4095
466,466,0,2046,4084
467,467,0,2046,4013
468,468,0,2046,3905
469,469,0,2046,3759
470,470,0,2046,3581
471,471,0,2046,3374
472,472,0,2046,3139
473,473,0,2047,2883
474,474,0,2047,2611
475,475,0,2046,2327
476,476,0,2047,2038
477,477,0,2047,1749
478,478,0,2046,1466
479,479,0,2047,1194
480,480,0,2046,937
481,481,0,2046,702
482,482,0,2046,493
483,483,0,2046,313
484,484,0,2046,166
485,485,0,2046,57
486,486,0,2046,0
487,487,0,2047,0
488,488,0,2047,0
489,489,0,2046,15
490,490,0,2047,103
491,491,0,2047,230
492,492,0,2046,391
493,493,0,2047,584
494,494,0,2047,806
495,495,0,2045,1051
496,496,0,2046,1315
497,497,0,2046,1593
498,498,0,2046,1879
499,499,0,2047,2169
500,500,0,2047,2455
501,501,0,2046,2735
502,502,0,2046,2999
503,503,0,2046,3246
504,504,0,2046,3470
505,505,0,2046,3665
506,506,0,2046,3828
507,507,0,2046,3958
508,508,0,2047,4050
509,509,0,2046,4095
510,510,0,2046,4095
511,511,0,2046,4091
512,512,0,2046,4025
513,513,0,2046,3921
514,514,0,2047,3780
515,515,0,2046,3605
516,516,0,2046,3401
517,517,0,2046,3170
518,518,0,2046,2917
519,519,0,2046,2646
520,520,0,2046,2364
521,521,0,2046,2076
522,522,0,2046,1787
523,523,0,2046,1501
524,524,0,2046,1227
525,525,0,2046,968
526,526,0,2047,730
527,527,0,2046,517
528,528,0,2047,334
529,529,0,2046,183
530,530,0,2046,69
531,531,0,2046,0
532,532,0,2046,0
533,533,0,2046,0
534,534,0,2046,6
535,535,0,2046,89
536,536,0,2046,211
537,537,0,2046,369
538,538,0,2046,558
539,539,0,2046,775
540,540,0,2046,1019
541,541,0,2046,1281
542,542,0,2046,1557
543,543,0,2046,1843
544,544,0,2046,2132
545,545,0,2046,2419
546,546,0,2045,2700
547,547,0,2046,2967
548,548,0,2047,3216
549,549,0,2046,3443
550,550,0,2046,3641
551,551,0,2046,3810
552,552,0,2046,3944
553,553,0,2047,4040
554,554,0,2046,4095
555,555,0,2047,4095
556,556,0,2046,4095
557,557,0,2046,4036
558,558,0,2047,3936
559,559,0,2047,3800
560,560,0,2046,3629
561,561,0,2046,3428
562,562,0,2046,3200
563,563,0,2047,2950
564,564,0,2046,2682
565,565,0,2046,2401
566,566,0,2046,2113
567,567,0,2046,1823
568,568,0,2046,1537
569,569,0,2047,1261
570,570,0,2046,1000
571,571,0,2047,758
572,572,0,2047,543
573,573,0,2047,355
574,574,0,2046,201
575,575,0,2047,82
576,576,0,2046,1
577,577,0,2047,0
578,578,0,2046,0
579,579,0,2046,0
580,580,0,2047,77
581,581,0,2047,195
582,582,0,2046,347
583,583,0,2046,533
584,584,0,2047,747
585,585,0,2046,987
586,586,0,2046,1247
587,587,0,2047,1522
588,588,0,2047,1807
589,589,0,2046,2096
590,590,0,2046,2384
591,591,0,2047,2665
592,592,0,2046,2933
593,593,0,2047,3185
594,594,0,2046,3415
595,595,0,2046,3618
596,596,0,2046,3790
597,597,0,2046,3929
598,598,0,2047,4031
599,599,0,2046,4094
600,600,0,2046,4095
601,601,0,2047,4095
602,602,0,2046,4045
603,603,0,2047,3950
604,604,0,2046,3818
605,605,0,2046,3652
606,606,0,2046,3455
607,607,0,2047,3231
608,608,0,2046,2982
609,609,0,2047,2716
610,610,0,2046,2437
611,611,0,2047,2149
612,612,0,2046,1859
613,613,0,2046,1573
614,614,0,2047,1296
615,615,0,2047,1032
616,616,0,2046,789
617,617,0,2046,568
618,618,0,2047,377
619,619,0,2046,218
620,620,0,2046,95
621,621,0,2046,9
622,622,0,2047,0
623,623,0,2046,0
624,624,0,2046,0
625,625,0,2047,65
626,626,0,2046,177
627,627,0,2046,326
628,628,0,2047,508
629,629,0,2046,719
630,630,0,2046,955
631,631,0,2045,1212
632,632,0,2046,1486
633,633,0,2046,1770
634,634,0,2046,2059
635,635,0,2046,2347
636,636,0,2046,2630
637,637,0,2046,2900
638,638,0,2046,3155
639,639,0,2047,3387
640,640,0,2047,3594
641,641,0,2046,3770
642,642,0,2047,3913
643,643,0,2046,4020
644,644,0,2046,4088
645,645,0,2046,4095
646,646,0,2046,4095
647,647,0,2046,4054
648,648,0,2046,3965
649,649,0,2047,3837
650,650,0,2046,3675
651,651,0,2046,3482
652,652,0,2047,3261
653,653,0,2046,3015
654,654,0,2046,2750
655,655,0,2046,2473
656,656,0,2046,2186
657,657,0,2047,1896
658,658,0,2046,1608
659,659,0,2047,1329
660,660,0,2046,1064
661,661,0,2046,817
662,662,0,2047,595
663,663,0,2046,399
664,664,0,2046,236
665,665,0,2046,108
666,666,0,2046,17
667,667,0,2046,0
668,668,0,2046,0
669,669,0,2046,0
670,670,0,2047,54
671,671,0,2046,161
672,672,0,2046,305
673,673,0,2046,483
674,674,0,2046,690
675,675,0,2046,924
676,676,0,2046,1180
677,677,0,2047,1452
678,678,0,2046,1734
679,679,0,2046,2023
680,680,0,2047,2311
681,681,0,2047,2595
682,682,0,2046,2867
683,683,0,2046,3124
684,684,0,2046,3359
685,685,0,2046,3569
686,686,0,2046,3750
687,687,0,2046,3897
688,688,0,2046,4008
689,689,0,2046,4082
690,690,0,2046,4095
691,691,0,2047,4095
692,692,0,2046,4063
693,693,0,2046,3977
694,694,0,2046,3854
695,695,0,2046,3698
696,696,0,2046,3508
697,697,0,2046,3290
698,698,0,2046,3047
699,699,0,2046,2785
700,700,0,2047,2509
701,701,0,2047,2222
702,702,0,2047,1932
703,703,0,2046,1645
704,704,0,2046,1364
705,705,0,2047,1097
706,706,0,2046,848
707,707,0,2047,621
708,708,0,2046,424
709,709,0,2047,255
710,710,0,2046,122
711,711,0,2047,27
712,712,0,2046,0
713,713,0,2046,0
714,714,0,2046,0
715,715,0,2047,42
716,716,0,2047,146
717,717,0,2046,285
718,718,0,2047,458
719,719,0,2046,662
720,720,0,2046,893
721,721,0,2047,1146
722,722,0,2046,1416
723,723,0,2046,1698
724,724,0,2046,1986
725,725,0,2047,2275
726,726,0,2046,2560
727,727,0,2047,2834
728,728,0,2046,3093
729,729,0,2047,3331
730,730,0,2047,3544
731,731,0,2046,3728
732,732,0,2046,3880
733,733,0,2046,3996
734,734,0,2047,4075
735,735,0,2047,4095
736,736,0,2047,4095
737,737,0,2046,4071
738,738,0,2046,3991
739,739,0,2046,3873
740,740,0,2046,3719
741,741,0,2046,3533
742,742,0,2047,3319
743,743,0,2046,3079
744,744,0,2046,2819
745,745,0,2047,2544
746,746,0,2047,2259
747,747,0,2046,1970
748,748,0,2047,1681
749,749,0,2046,1399
750,750,0,2046,1130
751,751,0,2047,878
752,752,0,2047,649
753,753,0,2047,446
754,754,0,2046,275
755,755,0,2047,137
756,756,0,2046,37
757,757,0,2046,0
758,758,0,2047,0
759,759,0,2046,0
760,760,0,2047,33
761,761,0,2047,131
762,762,0,2047,266
763,763,0,2047,436
764,764,0,2046,635
765,765,0,2046,863
766,766,0,2046,1114
767,767,0,2046,1381
768,768,0,2046,1661
769,769,0,2047,1949
770,770,0,2046,2238
771,771,0,2047,2525
772,772,0,2046,2799
773,773,0,2046,3061
774,774,0,2047,3302
775,775,0,2047,3518
776,776,0,2047,3707
777,777,0,2046,3863
778,778,0,2047,3983
779,779,0,2046,4067
780,780,0,2046,4095
781,781,0,2047,4095
782,782,0,2046,4078
783,783,0,2047,4003
784,784,0,2046,3890
785,785,0,2046,3741
786,786,0,2047,3559
787,787,0,2046,3348
788,788,0,2047,3111
789,789,0,2047,2853
790,790,0,2046,2580
791,791,0,2046,2295
792,792,0,2047,2006
793,793,0,2046,1717
794,794,0,2047,1434
795,795,0,2047,1163
796,796,0,2047,909
797,797,0,2046,676
798,798,0,2047,470
799,799,0,2047,294
800,800,0,2046,152
801,801,0,2046,48
802,802,0,2046,0
803,803,0,2046,0
804,804,0,2046,0
805,805,0,2046,22
806,806,0,2046,116
807,807,0,2047,246
808,808,0,2046,411
809,809,0,2046,609
810,810,0,2046,833
811,811,0,2047,1080
812,812,0,2047,1347
813,813,0,2046,1626
814,814,0,2047,1913
815,815,0,2047,2202
816,816,0,2047,2489
817,817,0,2046,2766
818,818,0,2047,3029
819,819,0,2046,3273
820,820,0,2046,3493
821,821,0,2046,3684
822,822,0,2047,3845
823,823,0,2047,3971
824,824,0,2047,4058
825,825,0,2046,4095
826,826,0,2046,4095
827,827,0,2047,4085
828,828,0,2047,4015
829,829,0,2047,3906
830,830,0,2047,3761
831,831,0,2046,3583
832,832,0,2047,3376
833,833,0,2046,3142
834,834,0,2047,2886
835,835,0,2046,2614
836,836,0,2047,2332
837,837,0,2046,2043
838,838,0,2047,1753
839,839,0,2047,1469
840,840,0,2047,1197
841,841,0,2047,940
842,842,0,2046,704
843,843,0,2046,494
844,844,0,2046,315
845,845,0,2047,168
846,846,0,2046,59
847,847,0,2046,0
848,848,0,2047,0
849,849,0,2046,0
850,850,0,2046,14
851,851,0,2046,103
852,852,0,2046,228
853,853,0,2047,389
854,854,0,2046,582
855,855,0,2047,803
856,856,0,2047,1047
857,857,0,2046,1312
858,858,0,2047,1589
859,859,0,2047,1876
860,860,0,2046,2165
861,861,0,2046,2452
862,862,0,2046,2732
863,863,0,2046,2996
864,864,0,2047,3243
865,865,0,2046,3467
866,866,0,2047,3662
867,867,0,2046,3826
868,868,0,2046,3957
869,869,0,2046,4049
870,870,0,2046,4095
871,871,0,2047,4095
872,872,0,2047,4091
873,873,0,2047,4026
874,874,0,2046,3922
875,875,0,2046,3782
876,876,0,2046,3608
877,877,0,2046,3403
878,878,0,2046,3173
879,879,0,2047,2920
880,880,0,2046,2649
881,881,0,2047,2368
882,882,0,2046,2079
883,883,0,2046,1789
884,884,0,2046,1505
885,885,0,2047,1230
886,886,0,2047,971
887,887,0,2047,732
888,888,0,2046,519
889,889,0,2047,336
890,890,0,2046,184
891,891,0,2047,71
892,892,0,2047,0
893,893,0,2046,0
894,894,0,2046,0
895,895,0,2046,5
896,896,0,2047,88
897,897,0,2047,209
898,898,0,2047,367
899,899,0,2046,556
900,900,0,2046,773
901,901,0,2047,1015
902,902,0,2046,1277
903,903,0,2046,1553
904,904,0,2046,1839
905,905,0,2047,2129
906,906,0,2046,2416
907,907,0,2046,2696
908,908,0,2047,2963
909,909,0,2046,3214
910,910,0,2046,3441
911,911,0,2047,3639
912,912,0,2047,3808
913,913,0,2046,3942
914,914,0,2047,4039
915,915,0,2047,4095
916,916,0,2046,4095
917,917,0,2046,4095
918,918,0,2046,4037
919,919,0,2047,3937
920,920,0,2047,3801
921,921,0,2046,3632
922,922,0,2047,3431
923,923,0,2046,3203
924,924,0,2046,2953
925,925,0,2046,2684
926,926,0,2047,2404
927,927,0,2047,2115
928,928,0,2047,1825
929,929,0,2046,1541
930,930,0,2047,1264
931,931,0,2046,1003
932,932,0,2047,762
933,933,0,2046,545
934,934,0,2047,357
935,935,0,2046,203
936,936,0,2047,83
937,937,0,2046,1
938,938,0,2046,0
939,939,0,2047,0
940,940,0,2047,0
941,941,0,2047,76
942,942,0,2046,192
943,943,0,2047,345
944,944,0,2046,530
945,945,0,2047,744
946,946,0,2047,984
947,947,0,2047,1244
948,948,0,2046,1518
949,949,0,2047,1803
950,950,0,2047,2093
951,951,0,2046,2380
952,952,0,2047,2662
953,953,0,2046,2931
954,954,0,2046,3182
955,955,0,2047,3413
956,956,0,2046,3616
957,957,0,2046,3788
958,958,0,2047,3927
959,959,0,2046,4029
960,960,0,2046,4094
961,961,0,2047,4095
962,962,0,2046,4095
963,963,0,2047,4046
964,964,0,2046,3952
965,965,0,2046,3821
966,966,0,2046,3655
967,967,0,2046,3458
968,968,0,2046,3233
969,969,0,2046,2986
970,970,0,2047,2719
971,971,0,2046,2440
972,972,0,2046,2152
973,973,0,2046,1863
974,974,0,2046,1576
975,975,0,2047,1299
976,976,0,2046,1035
977,977,0,2047,791
978,978,0,2046,570
979,979,0,2046,378
980,980,0,2047,220
981,981,0,2046,97
982,982,0,2046,9
983,983,0,2046,0
984,984,0,2047,0
985,985,0,2047,0
986,986,0,2046,64
987,987,0,2046,176
988,988,0,2046,324
989,989,0,2046,505
990,990,0,2046,716
991,991,0,2046,952
992,992,0,2047,1209
993,993,0,2046,1483
994,994,0,2046,1767
995,995,0,2047,2055
996,996,0,2046,2345
997,997,0,2046,2627
998,998,0,2046,2897
999,999,0,2046,3152
1000,1000,0,2046,3385
1001,1001,0,2046,3592
1002,1002,0,2047,3768
1003,1003,0,2047,3912
1004,1004,0,2046,4019
1005,1005,0,2046,4087
1006,1006,0,2047,4095
1007,1007,0,2047,4095
1008,1008,0,2047,4055
1009,1009,0,2046,3966
1010,1010,0,2047,3838
1011,1011,0,2046,3677
1012,1012,0,2047,3484
1013,1013,0,2047,3263
1014,1014,0,2046,3018
1015,1015,0,2047,2754
1016,1016,0,2047,2476
1017,1017,0,2046,2189
1018,1018,0,2046,1899
1019,1019,0,2046,1611
1020,1020,0,2046,1333
1021,1021,0,2046,1068
1022,1022,0,2046,821
1023,1023,0,2047,597
1024,1024,0,2047,402
1025,1025,0,2046,238
1026,1026,0,2047,109
1027,1027,0,2047,18
1028,1028,0,2047,0
1029,1029,0,2046,0
