Sample in Buffer,Sample in Window,TRIGGER,adc1_data_a_d0[11:0],adc1_data_b_d0[11:0]
0,0,0,2047,2108
1,1,0,2047,3134
2,2,0,2046,3859
3,3,0,2047,4087
4,4,0,2046,3752
5,5,0,2047,2948
6,6,0,2047,1894
7,7,0,2047,879
8,8,0,2046,184
9,9,0,2047,0
10,10,0,2047,367
11,11,0,2046,1194
12,12,0,2046,2254
13,13,0,2047,3254
14,14,0,2046,3923
15,15,0,2047,4075
16,16,0,2046,3668
17,17,0,2046,2814
18,18,0,2046,1748
19,19,0,2046,762
20,20,0,2046,126
21,21,0,2046,14
22,22,0,2046,455
23,23,0,2046,1330
24,24,0,2047,2398
25,25,0,2047,3370
26,26,0,2046,3975
27,27,0,2047,4051
28,28,0,2046,3574
29,29,0,2046,2676
30,30,0,2046,1604
31,31,0,2047,651
32,32,0,2046,79
33,33,0,2047,42
34,34,0,2047,552
35,35,0,2047,1469
36,36,0,2046,2542
37,37,0,2046,3478
38,38,0,2047,4019
39,39,0,2046,4018
40,40,0,2047,3474
41,41,0,2046,2536
42,42,0,2046,1462
43,43,0,2047,547
44,44,0,2046,41
45,45,0,2047,81
46,46,0,2046,657
47,47,0,2047,1612
48,48,0,2047,2682
49,49,0,2046,3578
50,50,0,2047,4052
51,51,0,2047,3975
52,52,0,2047,3365
53,53,0,2047,2392
54,54,0,2047,1324
55,55,0,2046,450
56,56,0,2046,13
57,57,0,2046,128
58,58,0,2046,769
59,59,0,2047,1756
60,60,0,2046,2820
61,61,0,2047,3670
62,62,0,2047,4074
63,63,0,2046,3921
64,64,0,2047,3250
65,65,0,2047,2248
66,66,0,2046,1188
67,67,0,2047,362
68,68,0,2046,0
69,69,0,2047,187
70,70,0,2047,886
71,71,0,2046,1901
72,72,0,2046,2953
73,73,0,2047,3755
74,74,0,2047,4088
75,75,0,2047,3858
76,76,0,2046,3130
77,77,0,2046,2102
78,78,0,2047,1057
79,79,0,2046,282
80,80,0,2046,0
81,81,0,2046,255
82,82,0,2047,1009
83,83,0,2047,2046
84,84,0,2046,3081
85,85,0,2046,3831
86,86,0,2046,4089
87,87,0,2047,3786
88,88,0,2046,3003
89,89,0,2046,1956
90,90,0,2046,931
91,91,0,2046,212
92,92,0,2047,0
93,93,0,2046,331
94,94,0,2047,1138
95,95,0,2046,2192
96,96,0,2047,3205
97,97,0,2047,3897
98,98,0,2046,4081
99,99,0,2046,3704
100,100,0,2047,2871
101,101,0,2046,1810
102,102,0,2047,811
103,103,0,2046,149
104,104,0,2047,5
105,105,0,2046,417
106,106,0,2046,1273
107,107,0,2046,2338
108,108,0,2047,3322
109,109,0,2046,3955
110,110,0,2046,4062
111,111,0,2047,3615
112,112,0,2047,2735
113,113,0,2047,1665
114,114,0,2046,698
115,115,0,2046,98
116,116,0,2047,29
117,117,0,2047,510
118,118,0,2047,1410
119,119,0,2046,2482
120,120,0,2047,3433
121,121,0,2047,4002
122,122,0,2046,4034
123,123,0,2046,3517
124,124,0,2046,2595
125,125,0,2046,1521
126,126,0,2046,590
127,127,0,2046,55
128,128,0,2046,64
129,129,0,2046,612
130,130,0,2047,1551
131,131,0,2047,2624
132,132,0,2046,3536
133,133,0,2046,4039
134,134,0,2047,3994
135,135,0,2047,3411
136,136,0,2047,2453
137,137,0,2047,1382
138,138,0,2046,490
139,139,0,2047,23
140,140,0,2047,107
141,141,0,2047,721
142,142,0,2047,1694
143,143,0,2047,2763
144,144,0,2046,3633
145,145,0,2047,4066
146,146,0,2046,3945
147,147,0,2046,3299
148,148,0,2046,2310
149,149,0,2047,1245
150,150,0,2047,399
151,151,0,2047,1
152,152,0,2047,162
153,153,0,2047,836
154,154,0,2047,1838
155,155,0,2047,2897
156,156,0,2046,3721
157,157,0,2046,4083
158,158,0,2047,3885
159,159,0,2046,3180
160,160,0,2046,2163
161,161,0,2046,1111
162,162,0,2047,315
163,163,0,2047,0
164,164,0,2046,226
165,165,0,2046,957
166,166,0,2047,1985
167,167,0,2047,3028
168,168,0,2046,3800
169,169,0,2047,4089
170,170,0,2046,3817
171,171,0,2046,3057
172,172,0,2046,2017
173,173,0,2046,984
174,174,0,2047,240
175,175,0,2046,0
176,176,0,2046,298
177,177,0,2047,1083
178,178,0,2046,2131
179,179,0,2046,3153
180,180,0,2046,3870
181,181,0,2046,4085
182,182,0,2046,3740
183,183,0,2046,2926
184,184,0,2047,1871
185,185,0,2047,860
186,186,0,2046,174
187,187,0,2047,0
188,188,0,2046,379
189,189,0,2046,1216
190,190,0,2047,2277
191,191,0,2046,3274
192,192,0,2046,3932
193,193,0,2046,4072
194,194,0,2046,3654
195,195,0,2046,2793
196,196,0,2047,1725
197,197,0,2046,744
198,198,0,2047,118
199,199,0,2047,18
200,200,0,2047,470
201,201,0,2046,1352
202,202,0,2046,2422
203,203,0,2047,3387
204,204,0,2046,3983
205,205,0,2047,4047
206,206,0,2046,3559
207,207,0,2047,2655
208,208,0,2046,1581
209,209,0,2046,634
210,210,0,2046,72
211,211,0,2046,47
212,212,0,2046,568
213,213,0,2046,1491
214,214,0,2047,2564
215,215,0,2047,3493
216,216,0,2046,4025
217,217,0,2047,4011
218,218,0,2047,3457
219,219,0,2046,2513
220,220,0,2046,1440
221,221,0,2046,531
222,222,0,2046,36
223,223,0,2047,87
224,224,0,2047,674
225,225,0,2046,1633
226,226,0,2046,2704
227,227,0,2047,3593
228,228,0,2047,4056
229,229,0,2046,3966
230,230,0,2046,3347
231,231,0,2046,2369
232,232,0,2046,1302
233,233,0,2046,435
234,234,0,2046,9
235,235,0,2047,137
236,236,0,2046,787
237,237,0,2046,1779
238,238,0,2046,2841
239,239,0,2046,3684
240,240,0,2046,4078
241,241,0,2047,3912
242,242,0,2046,3231
243,243,0,2047,2225
244,244,0,2047,1167
245,245,0,2046,349
246,246,0,2047,0
247,247,0,2046,197
248,248,0,2047,906
249,249,0,2046,1924
250,250,0,2046,2974
251,251,0,2046,3768
252,252,0,2046,4089
253,253,0,2046,3847
254,254,0,2046,3110
255,255,0,2046,2079
256,256,0,2046,1037
257,257,0,2046,271
258,258,0,2046,0
259,259,0,2046,266
260,260,0,2046,1031
261,261,0,2047,2070
262,262,0,2046,3102
263,263,0,2046,3842
264,264,0,2046,4089
265,265,0,2046,3774
266,266,0,2046,2982
267,267,0,2046,1933
268,268,0,2046,912
269,269,0,2046,201
270,270,0,2047,0
271,271,0,2047,344
272,272,0,2046,1160
273,273,0,2046,2216
274,274,0,2047,3225
275,275,0,2047,3908
276,276,0,2046,4079
277,277,0,2047,3691
278,278,0,2046,2849
279,279,0,2046,1786
280,280,0,2046,793
281,281,0,2046,141
282,282,0,2046,9
283,283,0,2047,431
284,284,0,2046,1295
285,285,0,2046,2362
286,286,0,2046,3340
287,287,0,2046,3963
288,288,0,2046,4058
289,289,0,2046,3599
290,290,0,2046,2712
291,291,0,2046,1642
292,292,0,2046,681
293,293,0,2046,90
294,294,0,2047,34
295,295,0,2046,526
296,296,0,2046,1432
297,297,0,2046,2505
298,298,0,2046,3450
299,299,0,2046,4008
300,300,0,2046,4028
301,301,0,2047,3500
302,302,0,2046,2574
303,303,0,2047,1499
304,304,0,2046,574
305,305,0,2046,50
306,306,0,2046,69
307,307,0,2046,630
308,308,0,2047,1573
309,309,0,2047,2646
310,310,0,2047,3552
311,311,0,2047,4044
312,312,0,2046,3987
313,313,0,2047,3394
314,314,0,2046,2430
315,315,0,2046,1359
316,316,0,2046,476
317,317,0,2046,19
318,318,0,2046,115
319,319,0,2046,739
320,320,0,2046,1718
321,321,0,2047,2784
322,322,0,2046,3647
323,323,0,2047,4070
324,324,0,2046,3936
325,325,0,2046,3281
326,326,0,2046,2286
327,327,0,2047,1223
328,328,0,2047,384
329,329,0,2046,0
330,330,0,2046,171
331,331,0,2047,855
332,332,0,2047,1862
333,333,0,2047,2918
334,334,0,2047,3734
335,335,0,2046,4085
336,336,0,2046,3875
337,337,0,2046,3162
338,338,0,2047,2140
339,339,0,2046,1091
340,340,0,2047,302
341,341,0,2047,0
342,342,0,2046,236
343,343,0,2047,976
344,344,0,2047,2009
345,345,0,2046,3048
346,346,0,2046,3812
347,347,0,2047,4090
348,348,0,2047,3806
349,349,0,2046,3036
350,350,0,2046,1994
351,351,0,2046,963
352,352,0,2046,229
353,353,0,2046,0
354,354,0,2047,310
355,355,0,2046,1105
356,356,0,2047,2154
357,357,0,2047,3173
358,358,0,2046,3881
359,359,0,2046,4083
360,360,0,2046,3726
361,361,0,2047,2906
362,362,0,2047,1847
363,363,0,2046,842
364,364,0,2046,164
365,365,0,2047,1
366,366,0,2046,394
367,367,0,2045,1238
368,368,0,2046,2301
369,369,0,2047,3292
370,370,0,2046,3942
371,371,0,2047,4068
372,372,0,2046,3639
373,373,0,2046,2770
374,374,0,2047,1703
375,375,0,2046,726
376,376,0,2046,110
377,377,0,2046,22
378,378,0,2046,485
379,379,0,2047,1375
380,380,0,2046,2445
381,381,0,2047,3405
382,382,0,2047,3991
383,383,0,2046,4042
384,384,0,2047,3543
385,385,0,2046,2632
386,386,0,2047,1559
387,387,0,2046,618
388,388,0,2046,66
389,389,0,2046,54
390,390,0,2046,585
391,391,0,2047,1514
392,392,0,2047,2587
393,393,0,2046,3510
394,394,0,2046,4031
395,395,0,2047,4005
396,396,0,2046,3440
397,397,0,2046,2491
398,398,0,2047,1418
399,399,0,2046,516
400,400,0,2046,31
401,401,0,2047,95
402,402,0,2047,692
403,403,0,2046,1657
404,404,0,2046,2727
405,405,0,2046,3609
406,406,0,2047,4060
407,407,0,2046,3959
408,408,0,2046,3329
409,409,0,2046,2347
410,410,0,2046,1280
411,411,0,2046,422
412,412,0,2046,6
413,413,0,2046,146
414,414,0,2046,806
415,415,0,2047,1801
416,416,0,2047,2862
417,417,0,2047,3699
418,418,0,2046,4080
419,419,0,2046,3901
420,420,0,2047,3212
421,421,0,2046,2201
422,422,0,2046,1146
423,423,0,2045,336
424,424,0,2047,0
425,425,0,2046,208
426,426,0,2046,925
427,427,0,2046,1947
428,428,0,2047,2995
429,429,0,2046,3780
430,430,0,2046,4089
431,431,0,2047,3836
432,432,0,2047,3089
433,433,0,2046,2054
434,434,0,2046,1016
435,435,0,2047,259
436,436,0,2046,0
437,437,0,2047,279
438,438,0,2046,1051
439,439,0,2046,2093
440,440,0,2046,3121
441,441,0,2046,3853
442,442,0,2047,4087
443,443,0,2046,3760
444,444,0,2047,2960
445,445,0,2047,1908
446,446,0,2046,893
447,447,0,2047,191
448,448,0,2047,0
449,449,0,2046,358
450,450,0,2046,1181
451,451,0,2046,2240
452,452,0,2046,3243
453,453,0,2046,3917
454,454,0,2047,4076
455,455,0,2046,3677
456,456,0,2046,2827
457,457,0,2047,1762
458,458,0,2046,774
459,459,0,2046,132
460,460,0,2046,11
461,461,0,2047,446
462,462,0,2047,1316
463,463,0,2046,2384
464,464,0,2047,3358
465,465,0,2047,3971
466,466,0,2046,4053
467,467,0,2047,3585
468,468,0,2047,2691
469,469,0,2046,1618
470,470,0,2046,662
471,471,0,2046,83
472,472,0,2046,38
473,473,0,2047,542
474,474,0,2047,1455
475,475,0,2046,2528
476,476,0,2047,3467
477,477,0,2046,4015
478,478,0,2046,4022
479,479,0,2046,3485
480,480,0,2046,2550
481,481,0,2046,1477
482,482,0,2046,557
483,483,0,2047,44
484,484,0,2046,76
485,485,0,2047,646
486,486,0,2047,1597
487,487,0,2047,2668
488,488,0,2046,3569
489,489,0,2046,4049
490,490,0,2046,3979
491,491,0,2046,3376
492,492,0,2047,2408
493,493,0,2046,1337
494,494,0,2047,460
495,495,0,2046,15
496,496,0,2046,124
497,497,0,2047,757
498,498,0,2046,1740
499,499,0,2047,2806
500,500,0,2047,3662
501,501,0,2046,4073
502,502,0,2047,3927
503,503,0,2047,3262
504,504,0,2046,2262
505,505,0,2047,1201
506,506,0,2047,371
507,507,0,2046,0
508,508,0,2046,181
509,509,0,2046,874
510,510,0,2046,1885
511,511,0,2047,2939
512,512,0,2047,3747
513,513,0,2046,4086
514,514,0,2047,3865
515,515,0,2047,3141
516,516,0,2047,2117
517,517,0,2046,1070
518,518,0,2046,290
519,519,0,2046,0
520,520,0,2047,248
521,521,0,2047,996
522,522,0,2047,2032
523,523,0,2047,3069
524,524,0,2047,3824
525,525,0,2046,4089
526,526,0,2047,3793
527,527,0,2046,3015
528,528,0,2046,1970
529,529,0,2047,944
530,530,0,2047,219
531,531,0,2046,0
532,532,0,2047,324
533,533,0,2047,1125
534,534,0,2047,2178
535,535,0,2046,3193
536,536,0,2046,3891
537,537,0,2047,4082
538,538,0,2046,3713
539,539,0,2047,2885
540,540,0,2046,1824
541,541,0,2047,823
542,542,0,2046,155
543,543,0,2046,3
544,544,0,2046,408
545,545,0,2046,1260
546,546,0,2047,2324
547,547,0,2047,3311
548,548,0,2046,3950
549,549,0,2046,4065
550,550,0,2046,3624
551,551,0,2047,2749
552,552,0,2047,1679
553,553,0,2046,708
554,554,0,2047,102
555,555,0,2047,26
556,556,0,2047,501
557,557,0,2047,1396
558,558,0,2046,2468
559,559,0,2046,3423
560,560,0,2047,3997
561,561,0,2046,4037
562,562,0,2046,3528
563,563,0,2046,2608
564,564,0,2047,1536
565,565,0,2046,600
566,566,0,2046,59
567,567,0,2046,59
568,568,0,2047,600
569,569,0,2047,1537
570,570,0,2047,2610
571,571,0,2046,3527
572,572,0,2046,4036
573,573,0,2047,3997
574,574,0,2046,3423
575,575,0,2046,2468
576,576,0,2047,1396
577,577,0,2047,500
578,578,0,2047,26
579,579,0,2046,102
580,580,0,2046,709
581,581,0,2046,1679
582,582,0,2046,2749
583,583,0,2047,3624
584,584,0,2047,4064
585,585,0,2046,3950
586,586,0,2046,3311
587,587,0,2046,2323
588,588,0,2046,1258
589,589,0,2046,407
590,590,0,2046,3
591,591,0,2047,156
592,592,0,2046,823
593,593,0,2046,1824
594,594,0,2047,2884
595,595,0,2046,3712
596,596,0,2047,4082
597,597,0,2046,3892
598,598,0,2047,3193
599,599,0,2046,2178
600,600,0,2046,1125
601,601,0,2046,323
602,602,0,2047,0
603,603,0,2047,218
604,604,0,2047,945
605,605,0,2047,1971
606,606,0,2046,3016
607,607,0,2046,3793
608,608,0,2047,4089
609,609,0,2047,3824
610,610,0,2046,3069
611,611,0,2047,2031
612,612,0,2046,997
613,613,0,2047,247
614,614,0,2046,0
615,615,0,2046,291
616,616,0,2046,1072
617,617,0,2046,2117
618,618,0,2046,3141
619,619,0,2046,3864
620,620,0,2047,4086
621,621,0,2046,3748
622,622,0,2046,2940
623,623,0,2047,1885
624,624,0,2047,872
625,625,0,2047,180
626,626,0,2047,0
627,627,0,2046,372
628,628,0,2046,1202
629,629,0,2046,2263
630,630,0,2047,3262
631,631,0,2046,3926
632,632,0,2046,4073
633,633,0,2046,3663
634,634,0,2047,2806
635,635,0,2046,1740
636,636,0,2047,756
637,637,0,2047,123
638,638,0,2046,15
639,639,0,2046,461
640,640,0,2046,1339
641,641,0,2047,2408
642,642,0,2047,3376
643,643,0,2046,3978
644,644,0,2047,4049
645,645,0,2047,3569
646,646,0,2046,2669
647,647,0,2046,1596
648,648,0,2047,645
649,649,0,2046,77
650,650,0,2046,44
651,651,0,2046,558
652,652,0,2046,1477
653,653,0,2046,2551
654,654,0,2047,3483
655,655,0,2047,4022
656,656,0,2047,4016
657,657,0,2046,3467
658,658,0,2047,2527
659,659,0,2046,1455
660,660,0,2047,542
661,661,0,2047,39
662,662,0,2047,83
663,663,0,2046,663
664,664,0,2046,1619
665,665,0,2047,2691
666,666,0,2046,3584
667,667,0,2046,4054
668,668,0,2046,3971
669,669,0,2046,3358
670,670,0,2046,2384
671,671,0,2046,1316
672,672,0,2046,445
673,673,0,2046,12
674,674,0,2047,132
675,675,0,2046,775
676,676,0,2047,1763
677,677,0,2046,2827
678,678,0,2047,3676
679,679,0,2046,4076
680,680,0,2046,3917
681,681,0,2047,3243
682,682,0,2047,2239
683,683,0,2047,1181
684,684,0,2046,357
685,685,0,2046,0
686,686,0,2047,191
687,687,0,2046,893
688,688,0,2047,1909
689,689,0,2046,2961
690,690,0,2046,3760
691,691,0,2046,4087
692,692,0,2046,3854
693,693,0,2046,3122
694,694,0,2047,2093
695,695,0,2046,1050
696,696,0,2047,279
697,697,0,2047,0
698,698,0,2047,259
699,699,0,2047,1017
700,700,0,2047,2055
701,701,0,2047,3089
702,702,0,2046,3835
703,703,0,2047,4089
704,704,0,2046,3781
705,705,0,2046,2996
706,706,0,2046,1947
707,707,0,2046,924
708,708,0,2047,207
709,709,0,2046,0
710,710,0,2046,336
711,711,0,2047,1147
712,712,0,2046,2201
713,713,0,2046,3212
714,714,0,2047,3901
715,715,0,2046,4080
716,716,0,2046,3699
717,717,0,2047,2862
718,718,0,2047,1801
719,719,0,2047,804
720,720,0,2046,146
721,721,0,2047,6
722,722,0,2046,421
723,723,0,2046,1280
724,724,0,2046,2347
725,725,0,2047,3328
726,726,0,2046,3957
727,727,0,2046,4061
728,728,0,2047,3609
729,729,0,2047,2727
730,730,0,2047,1656
731,731,0,2046,691
732,732,0,2047,95
733,733,0,2046,30
734,734,0,2047,516
735,735,0,2046,1419
736,736,0,2047,2491
737,737,0,2047,3439
738,738,0,2046,4004
739,739,0,2047,4031
740,740,0,2046,3511
741,741,0,2046,2587
742,742,0,2047,1514
743,743,0,2046,584
744,744,0,2046,53
745,745,0,2046,65
746,746,0,2047,618
747,747,0,2047,1558
748,748,0,2047,2631
749,749,0,2046,3543
750,750,0,2046,4041
751,751,0,2047,3991
752,752,0,2046,3405
753,753,0,2047,2445
754,754,0,2047,1374
755,755,0,2046,484
756,756,0,2046,21
757,757,0,2047,110
758,758,0,2046,727
759,759,0,2046,1703
760,760,0,2047,2770
761,761,0,2046,3638
762,762,0,2047,4068
763,763,0,2046,3941
764,764,0,2046,3293
765,765,0,2046,2300
766,766,0,2046,1237
767,767,0,2046,394
768,768,0,2047,0
769,769,0,2046,165
770,770,0,2045,843
771,771,0,2046,1847
772,772,0,2047,2905
773,773,0,2047,3725
774,774,0,2047,4084
775,775,0,2046,3881
776,776,0,2046,3174
777,777,0,2046,2155
778,778,0,2046,1105
779,779,0,2046,310
780,780,0,2047,0
781,781,0,2045,229
782,782,0,2046,964
783,783,0,2046,1994
784,784,0,2046,3035
785,785,0,2046,3804
786,786,0,2046,4090
787,787,0,2046,3813
788,788,0,2047,3049
789,789,0,2047,2008
790,790,0,2046,976
791,791,0,2047,236
792,792,0,2046,0
793,793,0,2047,303
794,794,0,2047,1091
795,795,0,2047,2139
796,796,0,2047,3160
797,797,0,2047,3874
798,798,0,2047,4085
799,799,0,2046,3734
800,800,0,2046,2919
801,801,0,2046,1863
802,802,0,2046,854
803,803,0,2047,171
804,804,0,2046,0
805,805,0,2046,385
806,806,0,2046,1224
807,807,0,2047,2286
808,808,0,2046,3280
809,809,0,2047,3935
810,810,0,2046,4070
811,811,0,2047,3649
812,812,0,2046,2785
813,813,0,2046,1718
814,814,0,2046,737
815,815,0,2046,117
816,816,0,2047,19
817,817,0,2046,475
818,818,0,2046,1359
819,819,0,2046,2430
820,820,0,2046,3393
821,821,0,2046,3986
822,822,0,2046,4045
823,823,0,2046,3554
824,824,0,2046,2646
825,825,0,2046,1573
826,826,0,2047,628
827,827,0,2046,70
828,828,0,2047,49
829,829,0,2046,573
830,830,0,2046,1499
831,831,0,2046,2573
832,832,0,2046,3500
833,833,0,2047,4027
834,834,0,2047,4009
835,835,0,2047,3451
836,836,0,2047,2506
837,837,0,2047,1433
838,838,0,2046,526
839,839,0,2046,34
840,840,0,2046,90
841,841,0,2045,679
842,842,0,2046,1642
843,843,0,2046,2712
844,844,0,2046,3599
845,845,0,2046,4058
846,846,0,2047,3964
847,847,0,2047,3341
848,848,0,2047,2361
849,849,0,2046,1294
850,850,0,2046,431
851,851,0,2045,8
852,852,0,2046,140
853,853,0,2046,793
854,854,0,2046,1786
855,855,0,2046,2849
856,856,0,2047,3690
857,857,0,2047,4079
858,858,0,2046,3908
859,859,0,2046,3225
860,860,0,2047,2217
861,861,0,2047,1160
862,862,0,2046,345
863,863,0,2046,0
864,864,0,2046,201
865,865,0,2046,912
866,866,0,2046,1932
867,867,0,2046,2981
868,868,0,2046,3772
869,869,0,2047,4089
870,870,0,2046,3843
871,871,0,2046,3103
872,872,0,2047,2071
873,873,0,2047,1030
874,874,0,2047,266
875,875,0,2046,0
876,876,0,2047,271
877,877,0,2046,1037
878,878,0,2046,2078
879,879,0,2046,3107
880,880,0,2046,3845
881,881,0,2046,4088
882,882,0,2046,3769
883,883,0,2046,2975
884,884,0,2046,1925
885,885,0,2046,905
886,886,0,2046,198
887,887,0,2047,0
888,888,0,2046,348
889,889,0,2047,1167
890,890,0,2047,2224
891,891,0,2046,3231
892,892,0,2046,3910
893,893,0,2047,4077
894,894,0,2047,3686
895,895,0,2047,2842
896,896,0,2047,1777
897,897,0,2047,787
898,898,0,2046,138
899,899,0,2047,10
900,900,0,2046,435
901,901,0,2046,1302
902,902,0,2047,2370
903,903,0,2046,3346
904,904,0,2047,3965
905,905,0,2046,4057
906,906,0,2046,3595
907,907,0,2047,2705
908,908,0,2046,1634
909,909,0,2047,674
910,910,0,2046,88
911,911,0,2047,35
912,912,0,2046,531
913,913,0,2047,1440
914,914,0,2046,2512
915,915,0,2046,3455
916,916,0,2047,4011
917,917,0,2046,4025
918,918,0,2046,3495
919,919,0,2047,2565
920,920,0,2046,1492
921,921,0,2046,568
922,922,0,2046,48
923,923,0,2047,71
924,924,0,2046,634
925,925,0,2047,1582
926,926,0,2047,2654
927,927,0,2047,3558
928,928,0,2046,4046
929,929,0,2046,3984
930,930,0,2047,3388
931,931,0,2046,2422
932,932,0,2047,1352
933,933,0,2046,470
934,934,0,2046,18
935,935,0,2046,119
936,936,0,2046,745
937,937,0,2046,1725
938,938,0,2046,2792
939,939,0,2046,3652
940,940,0,2046,4071
941,941,0,2046,3933
942,942,0,2046,3274
943,943,0,2046,2278
944,944,0,2047,1217
945,945,0,2046,380
946,946,0,2046,0
947,947,0,2047,174
948,948,0,2046,861
949,949,0,2046,1870
950,950,0,2046,2925
951,951,0,2046,3738
952,952,0,2047,4086
953,953,0,2047,3871
954,954,0,2047,3155
955,955,0,2046,2132
956,956,0,2046,1084
957,957,0,2046,298
958,958,0,2046,0
959,959,0,2047,240
960,960,0,2046,983
961,961,0,2047,2016
962,962,0,2046,3055
963,963,0,2047,3816
964,964,0,2048,4089
965,965,0,2046,3802
966,966,0,2046,3030
967,967,0,2046,1986
968,968,0,2046,958
969,969,0,2046,226
970,970,0,2046,0
971,971,0,2047,314
972,972,0,2046,1112
973,973,0,2047,2162
974,974,0,2047,3179
975,975,0,2046,3884
976,976,0,2047,4084
977,977,0,2046,3722
978,978,0,2046,2899
979,979,0,2046,1840
980,980,0,2047,836
981,981,0,2047,162
982,982,0,2046,1
983,983,0,2046,398
984,984,0,2047,1244
985,985,0,2047,2308
986,986,0,2047,3297
987,987,0,2046,3944
988,988,0,2046,4066
989,989,0,2046,3634
990,990,0,2046,2764
991,991,0,2047,1695
992,992,0,2046,721
993,993,0,2047,108
994,994,0,2046,23
995,995,0,2046,490
996,996,0,2046,1381
997,997,0,2046,2452
998,998,0,2047,3410
999,999,0,2047,3993
1000,1000,0,2046,4040
1001,1001,0,2046,3538
1002,1002,0,2046,2625
1003,1003,0,2046,1552
1004,1004,0,2046,612
1005,1005,0,2047,63
1006,1006,0,2046,55
1007,1007,0,2046,590
1008,1008,0,2046,1521
1009,1009,0,2046,2594
1010,1010,0,2046,3515
1011,1011,0,2046,4033
1012,1012,0,2046,4003
1013,1013,0,2047,3434
1014,1014,0,2046,2483
1015,1015,0,2046,1411
1016,1016,0,2046,512
1017,1017,0,2045,29
1018,1018,0,2046,97
1019,1019,0,2046,697
1020,1020,0,2046,1663
1021,1021,0,2047,2733
1022,1022,0,2046,3613
1023,1023,0,2046,4061
1024,1024,0,2047,3955
1025,1025,0,2046,3324
1026,1026,0,2046,2339
1027,1027,0,2046,1274
