Sample in Buffer,Sample in Window,TRIGGER,adc1_data_a_d0[11:0],adc1_data_b_d0[11:0]
0,0,0,2046,2421
1,1,0,2046,3270
2,2,0,2046,3871
3,3,0,2046,4095
4,4,0,2047,3916
5,5,0,2047,3348
6,6,0,2047,2518
7,7,0,2047,1591
8,8,0,2047,753
9,9,0,2046,175
10,10,0,2047,0
11,11,0,2047,190
12,12,0,2046,779
13,13,0,2046,1622
14,14,0,2046,2550
15,15,0,2046,3374
16,16,0,2047,3928
17,17,0,2046,4095
18,18,0,2047,3856
19,19,0,2046,3244
20,20,0,2046,2389
21,21,0,2046,1462
22,22,0,2047,652
23,23,0,2046,123
24,24,0,2046,0
25,25,0,2047,253
26,26,0,2047,888
27,27,0,2046,1754
28,28,0,2047,2678
29,29,0,2047,3472
30,30,0,2047,3978
31,31,0,2047,4091
32,32,0,2046,3789
33,33,0,2047,3134
34,34,0,2046,2257
35,35,0,2046,1336
36,36,0,2046,557
37,37,0,2047,76
38,38,0,2047,0
39,39,0,2046,322
40,40,0,2046,999
41,41,0,2047,1885
42,42,0,2047,2803
43,43,0,2047,3565
44,44,0,2046,4019
45,45,0,2047,4073
46,46,0,2046,3715
47,47,0,2047,3018
48,48,0,2047,2124
49,49,0,2047,1212
50,50,0,2046,468
51,51,0,2046,40
52,52,0,2046,16
53,53,0,2047,400
54,54,0,2047,1116
55,55,0,2047,2018
56,56,0,2046,2924
57,57,0,2046,3651
58,58,0,2046,4052
59,59,0,2046,4046
60,60,0,2047,3635
61,61,0,2046,2899
62,62,0,2046,1992
63,63,0,2046,1093
64,64,0,2047,385
65,65,0,2046,11
66,66,0,2046,47
67,67,0,2047,485
68,68,0,2046,1237
69,69,0,2047,2151
70,70,0,2047,3042
71,71,0,2047,3730
72,72,0,2047,4077
73,73,0,2046,4012
74,74,0,2046,3547
75,75,0,2047,2778
76,76,0,2047,1859
77,77,0,2046,977
78,78,0,2046,309
79,79,0,2046,0
80,80,0,2047,86
81,81,0,2047,576
82,82,0,2046,1360
83,83,0,2047,2283
84,84,0,2046,3156
85,85,0,2046,3803
86,86,0,2046,4095
87,87,0,2047,3969
88,88,0,2046,3454
89,89,0,2046,2652
90,90,0,2046,1728
91,91,0,2046,865
92,92,0,2046,240
93,93,0,2046,0
94,94,0,2046,133
95,95,0,2046,672
96,96,0,2046,1488
97,97,0,2047,2414
98,98,0,2047,3265
99,99,0,2047,3868
100,100,0,2047,4095
101,101,0,2046,3918
102,102,0,2046,3354
103,103,0,2046,2524
104,104,0,2047,1597
105,105,0,2046,759
106,106,0,2046,179
107,107,0,2046,0
108,108,0,2046,187
109,109,0,2046,775
110,110,0,2047,1616
111,111,0,2047,2544
112,112,0,2046,3369
113,113,0,2046,3926
114,114,0,2047,4095
115,115,0,2046,3860
116,116,0,2046,3250
117,117,0,2046,2395
118,118,0,2047,1468
119,119,0,2046,657
120,120,0,2046,125
121,121,0,2046,0
122,122,0,2046,250
123,123,0,2046,882
124,124,0,2046,1748
125,125,0,2046,2672
126,126,0,2047,3468
127,127,0,2046,3975
128,128,0,2046,4092
129,129,0,2047,3793
130,130,0,2046,3139
131,131,0,2046,2263
132,132,0,2047,1342
133,133,0,2047,561
134,134,0,2047,79
135,135,0,2046,0
136,136,0,2046,320
137,137,0,2046,995
138,138,0,2047,1879
139,139,0,2046,2796
140,140,0,2047,3560
141,141,0,2047,4017
142,142,0,2046,4074
143,143,0,2047,3719
144,144,0,2046,3024
145,145,0,2047,2131
146,146,0,2046,1219
147,147,0,2046,472
148,148,0,2046,42
149,149,0,2046,14
150,150,0,2046,396
151,151,0,2046,1111
152,152,0,2047,2011
153,153,0,2047,2918
154,154,0,2047,3647
155,155,0,2047,4051
156,156,0,2047,4049
157,157,0,2047,3639
158,158,0,2046,2906
159,159,0,2046,1998
160,160,0,2046,1099
161,161,0,2047,388
162,162,0,2047,13
163,163,0,2047,45
164,164,0,2047,480
165,165,0,2047,1231
166,166,0,2047,2145
167,167,0,2047,3036
168,168,0,2046,3727
169,169,0,2046,4077
170,170,0,2047,4014
171,171,0,2047,3552
172,172,0,2047,2783
173,173,0,2047,1866
174,174,0,2047,982
175,175,0,2046,312
176,176,0,2047,0
177,177,0,2046,83
178,178,0,2046,570
179,179,0,2046,1354
180,180,0,2047,2277
181,181,0,2046,3150
182,182,0,2047,3800
183,183,0,2046,4093
184,184,0,2047,3971
185,185,0,2047,3458
186,186,0,2046,2658
187,187,0,2046,1734
188,188,0,2047,870
189,189,0,2047,243
190,190,0,2046,0
191,191,0,2046,130
192,192,0,2047,668
193,193,0,2046,1481
194,194,0,2047,2408
195,195,0,2047,3260
196,196,0,2046,3865
197,197,0,2046,4095
198,198,0,2047,3922
199,199,0,2046,3359
200,200,0,2046,2531
201,201,0,2046,1603
202,202,0,2046,763
203,203,0,2046,181
204,204,0,2046,0
205,205,0,2046,184
206,206,0,2047,770
207,207,0,2047,1610
208,208,0,2046,2537
209,209,0,2047,3364
210,210,0,2046,3923
211,211,0,2047,4095
212,212,0,2047,3863
213,213,0,2046,3254
214,214,0,2046,2401
215,215,0,2046,1474
216,216,0,2046,662
217,217,0,2047,127
218,218,0,2046,0
219,219,0,2046,246
220,220,0,2046,876
221,221,0,2046,1742
222,222,0,2046,2665
223,223,0,2047,3463
224,224,0,2046,3973
225,225,0,2047,4092
226,226,0,2046,3796
227,227,0,2046,3145
228,228,0,2046,2269
229,229,0,2047,1348
230,230,0,2047,566
231,231,0,2046,81
232,232,0,2047,0
233,233,0,2047,316
234,234,0,2046,988
235,235,0,2046,1872
236,236,0,2047,2790
237,237,0,2047,3556
238,238,0,2046,4015
239,239,0,2046,4076
240,240,0,2047,3724
241,241,0,2047,3030
242,242,0,2046,2138
243,243,0,2046,1225
244,244,0,2046,476
245,245,0,2046,43
246,246,0,2047,14
247,247,0,2046,393
248,248,0,2047,1105
249,249,0,2047,2005
250,250,0,2046,2912
251,251,0,2047,3643
252,252,0,2047,4050
253,253,0,2046,4049
254,254,0,2046,3644
255,255,0,2046,2912
256,256,0,2046,2005
257,257,0,2046,1105
258,258,0,2047,392
259,259,0,2046,13
260,260,0,2046,44
261,261,0,2047,476
262,262,0,2047,1226
263,263,0,2047,2138
264,264,0,2046,3030
265,265,0,2046,3724
266,266,0,2046,4074
267,267,0,2046,4015
268,268,0,2046,3556
269,269,0,2047,2790
270,270,0,2046,1873
271,271,0,2046,987
272,272,0,2047,316
273,273,0,2047,0
274,274,0,2046,81
275,275,0,2046,566
276,276,0,2046,1349
277,277,0,2047,2270
278,278,0,2046,3145
279,279,0,2046,3796
280,280,0,2047,4093
281,281,0,2046,3973
282,282,0,2046,3463
283,283,0,2047,2665
284,284,0,2046,1740
285,285,0,2046,877
286,286,0,2046,247
287,287,0,2047,0
288,288,0,2047,128
289,289,0,2047,662
290,290,0,2046,1475
291,291,0,2046,2401
292,292,0,2047,3254
293,293,0,2046,3863
294,294,0,2045,4095
295,295,0,2046,3924
296,296,0,2047,3365
297,297,0,2046,2538
298,298,0,2046,1610
299,299,0,2046,769
300,300,0,2047,184
301,301,0,2047,0
302,302,0,2047,181
303,303,0,2046,764
304,304,0,2047,1604
305,305,0,2046,2531
306,306,0,2046,3360
307,307,0,2046,3920
308,308,0,2046,4095
309,309,0,2046,3865
310,310,0,2046,3260
311,311,0,2046,2407
312,312,0,2047,1481
313,313,0,2046,667
314,314,0,2046,130
315,315,0,2046,0
316,316,0,2047,244
317,317,0,2046,871
318,318,0,2047,1734
319,319,0,2046,2659
320,320,0,2046,3458
321,321,0,2046,3971
322,322,0,2047,4093
323,323,0,2046,3800
324,324,0,2046,3151
325,325,0,2047,2276
326,326,0,2046,1355
327,327,0,2046,571
328,328,0,2046,83
329,329,0,2047,0
330,330,0,2046,312
331,331,0,2046,982
332,332,0,2046,1866
333,333,0,2046,2784
334,334,0,2046,3552
335,335,0,2047,4014
336,336,0,2046,4077
337,337,0,2046,3727
338,338,0,2046,3036
339,339,0,2047,2143
340,340,0,2046,1231
341,341,0,2046,481
342,342,0,2046,45
343,343,0,2047,12
344,344,0,2046,388
345,345,0,2046,1098
346,346,0,2046,1998
347,347,0,2047,2906
348,348,0,2047,3638
349,349,0,2046,4047
350,350,0,2046,4051
351,351,0,2046,3647
352,352,0,2047,2918
353,353,0,2047,2011
354,354,0,2046,1111
355,355,0,2046,396
356,356,0,2047,15
357,357,0,2047,42
358,358,0,2046,471
359,359,0,2046,1219
360,360,0,2047,2131
361,361,0,2047,3025
362,362,0,2047,3720
363,363,0,2046,4074
364,364,0,2047,4017
365,365,0,2046,3561
366,366,0,2047,2796
367,367,0,2047,1879
368,368,0,2046,993
369,369,0,2046,319
370,370,0,2046,0
371,371,0,2046,79
372,372,0,2047,561
373,373,0,2047,1343
374,374,0,2046,2263
375,375,0,2046,3139
376,376,0,2046,3792
377,377,0,2046,4092
378,378,0,2046,3976
379,379,0,2047,3468
380,380,0,2046,2671
381,381,0,2047,1747
382,382,0,2046,882
383,383,0,2046,251
384,384,0,2046,0
385,385,0,2046,125
386,386,0,2046,657
387,387,0,2046,1468
388,388,0,2046,2395
389,389,0,2047,3249
390,390,0,2047,3859
391,391,0,2047,4095
392,392,0,2046,3926
393,393,0,2046,3369
394,394,0,2046,2544
395,395,0,2046,1616
396,396,0,2046,774
397,397,0,2046,187
398,398,0,2046,0
399,399,0,2047,179
400,400,0,2046,759
401,401,0,2046,1597
402,402,0,2047,2525
403,403,0,2047,3354
404,404,0,2047,3917
405,405,0,2047,4095
406,406,0,2046,3868
407,407,0,2046,3265
408,408,0,2046,2415
409,409,0,2046,1488
410,410,0,2046,672
411,411,0,2047,133
412,412,0,2046,0
413,413,0,2047,240
414,414,0,2047,865
415,415,0,2046,1728
416,416,0,2046,2652
417,417,0,2047,3454
418,418,0,2046,3969
419,419,0,2046,4094
420,420,0,2046,3803
421,421,0,2046,3156
422,422,0,2046,2283
423,423,0,2046,1361
424,424,0,2047,576
425,425,0,2046,86
426,426,0,2046,0
427,427,0,2047,309
428,428,0,2046,976
429,429,0,2046,1859
430,430,0,2046,2777
431,431,0,2046,3547
432,432,0,2047,4012
433,433,0,2047,4078
434,434,0,2046,3730
435,435,0,2047,3043
436,436,0,2046,2151
437,437,0,2046,1237
438,438,0,2046,485
439,439,0,2047,46
440,440,0,2047,10
441,441,0,2046,385
442,442,0,2047,1093
443,443,0,2047,1992
444,444,0,2046,2900
445,445,0,2046,3634
446,446,0,2046,4047
447,447,0,2047,4052
448,448,0,2047,3651
449,449,0,2046,2924
450,450,0,2046,2018
451,451,0,2047,1116
452,452,0,2046,401
453,453,0,2046,16
454,454,0,2046,40
455,455,0,2047,466
456,456,0,2047,1213
457,457,0,2046,2124
458,458,0,2047,3019
459,459,0,2047,3715
460,460,0,2046,4073
461,461,0,2047,4019
462,462,0,2046,3566
463,463,0,2047,2803
464,464,0,2046,1886
465,465,0,2047,1000
466,466,0,2046,323
467,467,0,2046,0
468,468,0,2047,77
469,469,0,2047,556
470,470,0,2046,1335
471,471,0,2046,2256
472,472,0,2047,3134
473,473,0,2046,3790
474,474,0,2047,4092
475,475,0,2047,3978
476,476,0,2046,3472
477,477,0,2047,2677
478,478,0,2047,1754
479,479,0,2046,887
480,480,0,2046,253
481,481,0,2046,0
482,482,0,2047,123
483,483,0,2047,652
484,484,0,2046,1462
485,485,0,2046,2388
486,486,0,2046,3243
487,487,0,2046,3856
488,488,0,2047,4095
489,489,0,2047,3929
490,490,0,2046,3375
491,491,0,2047,2551
492,492,0,2046,1623
493,493,0,2046,779
494,494,0,2047,191
495,495,0,2046,0
496,496,0,2046,176
497,497,0,2046,754
498,498,0,2047,1590
499,499,0,2047,2518
500,500,0,2047,3349
501,501,0,2047,3914
502,502,0,2046,4095
503,503,0,2047,3872
504,504,0,2046,3271
505,505,0,2047,2421
506,506,0,2046,1493
507,507,0,2046,677
508,508,0,2047,135
509,509,0,2046,0
510,510,0,2047,237
511,511,0,2047,860
512,512,0,2047,1721
513,513,0,2046,2646
514,514,0,2047,3448
515,515,0,2047,3966
516,516,0,2047,4094
517,517,0,2047,3807
518,518,0,2046,3162
519,519,0,2046,2289
520,520,0,2046,1367
521,521,0,2047,580
522,522,0,2046,87
523,523,0,2046,0
524,524,0,2047,305
525,525,0,2046,970
526,526,0,2047,1853
527,527,0,2047,2772
528,528,0,2046,3542
529,529,0,2047,4010
530,530,0,2047,4078
531,531,0,2047,3735
532,532,0,2046,3048
533,533,0,2046,2158
534,534,0,2047,1243
535,535,0,2046,489
536,536,0,2047,48
537,537,0,2047,10
538,538,0,2047,381
539,539,0,2047,1087
540,540,0,2047,1985
541,541,0,2047,2894
542,542,0,2047,3630
543,543,0,2046,4045
544,544,0,2046,4054
545,545,0,2046,3656
546,546,0,2046,2931
547,547,0,2046,2025
548,548,0,2046,1122
549,549,0,2047,405
550,550,0,2047,18
551,551,0,2046,38
552,552,0,2047,463
553,553,0,2046,1206
554,554,0,2046,2118
555,555,0,2046,3013
556,556,0,2046,3711
557,557,0,2046,4071
558,558,0,2046,4021
559,559,0,2047,3570
560,560,0,2047,2809
561,561,0,2046,1892
562,562,0,2046,1005
563,563,0,2046,327
564,564,0,2046,0
565,565,0,2046,75
566,566,0,2046,552
567,567,0,2047,1329
568,568,0,2046,2250
569,569,0,2046,3129
570,570,0,2047,3785
571,571,0,2046,4091
572,572,0,2047,3981
573,573,0,2046,3478
574,574,0,2046,2684
575,575,0,2046,1761
576,576,0,2046,892
577,577,0,2046,257
578,578,0,2047,0
579,579,0,2047,120
580,580,0,2046,647
581,581,0,2047,1456
582,582,0,2046,2381
583,583,0,2047,3239
584,584,0,2047,3853
585,585,0,2046,4095
586,586,0,2046,3932
587,587,0,2046,3379
588,588,0,2046,2556
589,589,0,2046,1630
590,590,0,2047,785
591,591,0,2047,193
592,592,0,2047,0
593,593,0,2047,174
594,594,0,2046,748
595,595,0,2047,1584
596,596,0,2046,2511
597,597,0,2047,3344
598,598,0,2046,3912
599,599,0,2047,4095
600,600,0,2047,3874
601,601,0,2046,3276
602,602,0,2047,2428
603,603,0,2046,1500
604,604,0,2047,682
605,605,0,2047,138
606,606,0,2046,0
607,607,0,2047,234
608,608,0,2047,854
609,609,0,2046,1715
610,610,0,2046,2640
611,611,0,2047,3443
612,612,0,2046,3964
613,613,0,2046,4095
614,614,0,2047,3810
615,615,0,2046,3167
616,616,0,2047,2296
617,617,0,2047,1373
618,618,0,2047,585
619,619,0,2046,89
620,620,0,2046,0
621,621,0,2047,301
622,622,0,2047,965
623,623,0,2046,1846
624,624,0,2046,2765
625,625,0,2046,3538
626,626,0,2047,4008
627,627,0,2046,4080
628,628,0,2046,3738
629,629,0,2047,3054
630,630,0,2047,2164
631,631,0,2046,1249
632,632,0,2046,494
633,633,0,2047,51
634,634,0,2047,8
635,635,0,2046,377
636,636,0,2047,1081
637,637,0,2046,1978
638,638,0,2047,2888
639,639,0,2046,3626
640,640,0,2047,4043
641,641,0,2046,4055
642,642,0,2047,3660
643,643,0,2047,2936
644,644,0,2047,2032
645,645,0,2047,1128
646,646,0,2047,409
647,647,0,2047,19
648,648,0,2046,37
649,649,0,2046,459
650,650,0,2047,1201
651,651,0,2047,2111
652,652,0,2047,3006
653,653,0,2047,3708
654,654,0,2046,4070
655,655,0,2047,4023
656,656,0,2047,3574
657,657,0,2047,2815
658,658,0,2047,1899
659,659,0,2046,1011
660,660,0,2047,331
661,661,0,2046,0
662,662,0,2046,74
663,663,0,2046,548
664,664,0,2047,1324
665,665,0,2047,2243
666,666,0,2047,3123
667,667,0,2047,3782
668,668,0,2046,4090
669,669,0,2047,3983
670,670,0,2046,3483
671,671,0,2046,2691
672,672,0,2047,1767
673,673,0,2047,898
674,674,0,2047,261
675,675,0,2046,0
676,676,0,2046,118
677,677,0,2046,643
678,678,0,2046,1450
679,679,0,2046,2375
680,680,0,2047,3233
681,681,0,2047,3849
682,682,0,2047,4095
683,683,0,2047,3934
684,684,0,2046,3384
685,685,0,2046,2563
686,686,0,2046,1636
687,687,0,2046,790
688,688,0,2047,197
689,689,0,2046,0
690,690,0,2046,170
691,691,0,2046,743
692,692,0,2047,1577
693,693,0,2046,2505
694,694,0,2047,3338
695,695,0,2046,3908
696,696,0,2047,4095
697,697,0,2046,3877
698,698,0,2047,3282
699,699,0,2047,2434
700,700,0,2046,1507
701,701,0,2047,687
702,702,0,2047,141
703,703,0,2047,0
704,704,0,2046,230
705,705,0,2046,849
706,706,0,2046,1708
707,707,0,2046,2633
708,708,0,2046,3439
709,709,0,2047,3961
710,710,0,2047,4095
711,711,0,2046,3814
712,712,0,2047,3173
713,713,0,2046,2302
714,714,0,2047,1379
715,715,0,2047,589
716,716,0,2046,92
717,717,0,2047,0
718,718,0,2047,299
719,719,0,2047,959
720,720,0,2046,1839
721,721,0,2046,2759
722,722,0,2046,3534
723,723,0,2046,4006
724,724,0,2046,4081
725,725,0,2047,3742
726,726,0,2047,3060
727,727,0,2046,2171
728,728,0,2046,1256
729,729,0,2046,498
730,730,0,2047,53
731,731,0,2046,7
732,732,0,2046,373
733,733,0,2047,1076
734,734,0,2047,1972
735,735,0,2047,2882
736,736,0,2047,3622
737,737,0,2047,4041
738,738,0,2047,4057
739,739,0,2046,3664
740,740,0,2046,2942
741,741,0,2046,2038
742,742,0,2047,1135
743,743,0,2046,414
744,744,0,2047,20
745,745,0,2046,35
746,746,0,2047,455
747,747,0,2046,1194
748,748,0,2046,2105
749,749,0,2047,3001
750,750,0,2047,3704
751,751,0,2046,4069
752,752,0,2046,4025
753,753,0,2046,3578
754,754,0,2046,2821
755,755,0,2047,1905
756,756,0,2046,1016
757,757,0,2047,335
758,758,0,2047,0
759,759,0,2046,71
760,760,0,2046,543
761,761,0,2046,1317
762,762,0,2046,2237
763,763,0,2046,3117
764,764,0,2047,3778
765,765,0,2046,4089
766,766,0,2046,3984
767,767,0,2047,3487
768,768,0,2047,2696
769,769,0,2046,1773
770,770,0,2046,904
771,771,0,2047,263
772,772,0,2046,0
773,773,0,2046,115
774,774,0,2046,638
775,775,0,2046,1443
776,776,0,2047,2368
777,777,0,2047,3227
778,778,0,2046,3846
779,779,0,2046,4095
780,780,0,2046,3937
781,781,0,2047,3389
782,782,0,2047,2570
783,783,0,2047,1643
784,784,0,2046,795
785,785,0,2046,200
786,786,0,2046,0
787,787,0,2046,167
788,788,0,2047,738
789,789,0,2046,1572
790,790,0,2046,2498
791,791,0,2046,3334
792,792,0,2046,3906
793,793,0,2047,4095
794,794,0,2047,3881
795,795,0,2046,3286
796,796,0,2047,2441
797,797,0,2047,1513
798,798,0,2046,692
799,799,0,2046,143
800,800,0,2046,0
801,801,0,2046,227
802,802,0,2046,843
803,803,0,2046,1701
804,804,0,2046,2627
805,805,0,2046,3433
806,806,0,2047,3959
807,807,0,2046,4095
808,808,0,2046,3817
809,809,0,2047,3179
810,810,0,2046,2310
811,811,0,2047,1385
812,812,0,2046,594
813,813,0,2047,94
814,814,0,2046,0
815,815,0,2047,294
816,816,0,2046,955
817,817,0,2046,1833
818,818,0,2046,2753
819,819,0,2047,3529
820,820,0,2047,4004
821,821,0,2046,4081
822,822,0,2047,3746
823,823,0,2047,3065
824,824,0,2046,2177
825,825,0,2047,1262
826,826,0,2046,503
827,827,0,2047,53
828,828,0,2046,6
829,829,0,2046,369
830,830,0,2046,1070
831,831,0,2046,1965
832,832,0,2046,2876
833,833,0,2047,3617
834,834,0,2047,4040
835,835,0,2046,4059
836,836,0,2046,3668
837,837,0,2046,2948
838,838,0,2046,2044
839,839,0,2046,1140
840,840,0,2047,417
841,841,0,2046,22
842,842,0,2046,34
843,843,0,2046,450
844,844,0,2047,1188
845,845,0,2046,2098
846,846,0,2046,2995
847,847,0,2046,3699
848,848,0,2046,4068
849,849,0,2047,4026
850,850,0,2046,3583
851,851,0,2046,2828
852,852,0,2047,1912
853,853,0,2047,1023
854,854,0,2046,338
855,855,0,2047,0
856,856,0,2047,69
857,857,0,2046,538
858,858,0,2047,1311
859,859,0,2047,2230
860,860,0,2046,3111
861,861,0,2047,3775
862,862,0,2046,4089
863,863,0,2046,3987
864,864,0,2047,3492
865,865,0,2047,2702
866,866,0,2047,1780
867,867,0,2047,909
868,868,0,2046,267
869,869,0,2047,0
870,870,0,2047,113
871,871,0,2047,633
872,872,0,2046,1437
873,873,0,2047,2362
874,874,0,2046,3222
875,875,0,2047,3843
876,876,0,2046,4095
877,877,0,2046,3939
878,878,0,2047,3394
879,879,0,2046,2575
880,880,0,2046,1649
881,881,0,2046,800
882,882,0,2046,203
883,883,0,2047,0
884,884,0,2046,165
885,885,0,2046,734
886,886,0,2047,1565
887,887,0,2047,2492
888,888,0,2046,3328
889,889,0,2046,3904
890,890,0,2046,4095
891,891,0,2046,3884
892,892,0,2046,3291
893,893,0,2047,2446
894,894,0,2046,1520
895,895,0,2046,697
896,896,0,2047,145
897,897,0,2046,0
898,898,0,2047,225
899,899,0,2046,838
900,900,0,2046,1695
901,901,0,2047,2621
902,902,0,2047,3429
903,903,0,2045,3956
904,904,0,2046,4095
905,905,0,2046,3820
906,906,0,2046,3184
907,907,0,2046,2316
908,908,0,2046,1392
909,909,0,2047,599
910,910,0,2046,96
911,911,0,2047,0
912,912,0,2047,291
913,913,0,2046,949
914,914,0,2047,1826
915,915,0,2046,2747
916,916,0,2047,3525
917,917,0,2046,4001
918,918,0,2047,4083
919,919,0,2046,3749
920,920,0,2046,3071
921,921,0,2046,2184
922,922,0,2047,1268
923,923,0,2047,507
924,924,0,2046,56
925,925,0,2047,5
926,926,0,2047,365
927,927,0,2047,1064
928,928,0,2047,1959
929,929,0,2046,2870
930,930,0,2046,3613
931,931,0,2047,4038
932,932,0,2046,4060
933,933,0,2047,3673
934,934,0,2046,2954
935,935,0,2046,2051
936,936,0,2047,1146
937,937,0,2046,421
938,938,0,2048,23
939,939,0,2047,32
940,940,0,2047,447
941,941,0,2047,1183
942,942,0,2046,2091
943,943,0,2047,2990
944,944,0,2046,3696
945,945,0,2047,4067
946,946,0,2047,4030
947,947,0,2046,3587
948,948,0,2047,2833
949,949,0,2047,1919
950,950,0,2047,1028
951,951,0,2046,341
952,952,0,2046,0
953,953,0,2047,67
954,954,0,2046,534
955,955,0,2047,1305
956,956,0,2047,2224
957,957,0,2046,3105
958,958,0,2047,3772
959,959,0,2046,4088
960,960,0,2046,3989
961,961,0,2047,3496
962,962,0,2046,2709
963,963,0,2047,1786
964,964,0,2047,915
965,965,0,2046,270
966,966,0,2046,0
967,967,0,2046,110
968,968,0,2047,628
969,969,0,2047,1430
970,970,0,2047,2356
971,971,0,2046,3217
972,972,0,2047,3840
973,973,0,2046,4095
974,974,0,2046,3941
975,975,0,2047,3399
976,976,0,2046,2582
977,977,0,2047,1655
978,978,0,2047,805
979,979,0,2046,205
980,980,0,2047,0
981,981,0,2046,161
982,982,0,2047,728
983,983,0,2047,1558
984,984,0,2047,2485
985,985,0,2046,3322
986,986,0,2047,3901
987,987,0,2047,4095
988,988,0,2047,3886
989,989,0,2046,3296
990,990,0,2046,2453
991,991,0,2046,1526
992,992,0,2046,701
993,993,0,2047,148
994,994,0,2046,0
995,995,0,2046,220
996,996,0,2046,833
997,997,0,2046,1689
998,998,0,2046,2615
999,999,0,2047,3425
1000,1000,0,2047,3954
1001,1001,0,2047,4095
1002,1002,0,2048,3823
1003,1003,0,2046,3189
1004,1004,0,2047,2323
1005,1005,0,2047,1398
1006,1006,0,2047,604
1007,1007,0,2047,98
1008,1008,0,2046,0
1009,1009,0,2046,287
1010,1010,0,2047,942
1011,1011,0,2047,1820
1012,1012,0,2046,2741
1013,1013,0,2047,3520
1014,1014,0,2046,3999
1015,1015,0,2046,4084
1016,1016,0,2046,3753
1017,1017,0,2047,3076
1018,1018,0,2046,2190
1019,1019,0,2046,1274
1020,1020,0,2047,512
1021,1021,0,2047,58
1022,1022,0,2047,4
1023,1023,0,2046,362
1024,1024,0,2046,1058
1025,1025,0,2047,1952
1026,1026,0,2046,2864
1027,1027,0,2047,3609
1028,1028,0,2047,4037
