Sample in Buffer,Sample in Window,TRIGGER,adc1_data_a_d0[11:0],adc1_data_b_d0[11:0]
0,0,0,2047,2723
1,1,0,2046,1897
2,2,0,2046,1094
3,3,0,2047,444
4,4,0,2047,52
5,5,0,2047,0
6,6,0,2047,244
7,7,0,2046,796
8,8,0,2046,1550
9,9,0,2046,2384
10,10,0,2047,3161
11,11,0,2046,3756
12,12,0,2046,4073
13,13,0,2047,4061
14,14,0,2046,3722
15,15,0,2046,3109
16,16,0,2046,2322
17,17,0,2046,1490
18,18,0,2046,748
19,19,0,2047,214
20,20,0,2047,0
21,21,0,2046,70
22,22,0,2046,484
23,23,0,2046,1149
24,24,0,2046,1959
25,25,0,2047,2780
26,26,0,2046,3482
27,27,0,2046,3951
28,28,0,2047,4095
29,29,0,2047,3933
30,30,0,2046,3448
31,31,0,2047,2736
32,32,0,2047,1911
33,33,0,2046,1107
34,34,0,2047,453
35,35,0,2046,56
36,36,0,2047,0
37,37,0,2046,236
38,38,0,2047,785
39,39,0,2046,1537
40,40,0,2047,2369
41,41,0,2047,3148
42,42,0,2046,3748
43,43,0,2046,4072
44,44,0,2046,4064
45,45,0,2046,3730
46,46,0,2047,3121
47,47,0,2046,2337
48,48,0,2047,1505
49,49,0,2046,760
50,50,0,2046,221
51,51,0,2046,0
52,52,0,2046,66
53,53,0,2047,474
54,54,0,2046,1136
55,55,0,2047,1944
56,56,0,2046,2767
57,57,0,2046,3472
58,58,0,2046,3945
59,59,0,2047,4095
60,60,0,2046,3938
61,61,0,2046,3459
62,62,0,2046,2750
63,63,0,2046,1926
64,64,0,2047,1120
65,65,0,2047,462
66,66,0,2047,60
67,67,0,2046,0
68,68,0,2046,228
69,69,0,2047,773
70,70,0,2047,1523
71,71,0,2046,2355
72,72,0,2046,3136
73,73,0,2047,3740
74,74,0,2047,4068
75,75,0,2046,4068
76,76,0,2046,3739
77,77,0,2046,3134
78,78,0,2047,2352
79,79,0,2047,1519
80,80,0,2046,771
81,81,0,2047,228
82,82,0,2047,0
83,83,0,2047,61
84,84,0,2046,465
85,85,0,2047,1123
86,86,0,2047,1929
87,87,0,2046,2753
88,88,0,2047,3462
89,89,0,2047,3939
90,90,0,2046,4095
91,91,0,2046,3944
92,92,0,2046,3470
93,93,0,2047,2764
94,94,0,2047,1941
95,95,0,2046,1133
96,96,0,2047,472
97,97,0,2047,65
98,98,0,2047,0
99,99,0,2046,222
100,100,0,2047,762
101,101,0,2046,1508
102,102,0,2047,2340
103,103,0,2047,3124
104,104,0,2046,3731
105,105,0,2046,4065
106,106,0,2046,4070
107,107,0,2047,3746
108,108,0,2046,3146
109,109,0,2046,2366
110,110,0,2046,1533
111,111,0,2047,784
112,112,0,2046,235
113,113,0,2047,0
114,114,0,2047,57
115,115,0,2046,455
116,116,0,2046,1110
117,117,0,2046,1914
118,118,0,2046,2739
119,119,0,2046,3451
120,120,0,2047,3934
121,121,0,2046,4095
122,122,0,2047,3951
123,123,0,2046,3481
124,124,0,2046,2778
125,125,0,2046,1956
126,126,0,2046,1147
127,127,0,2046,482
128,128,0,2046,69
129,129,0,2047,0
130,130,0,2046,215
131,131,0,2046,751
132,132,0,2047,1494
133,133,0,2046,2326
134,134,0,2046,3111
135,135,0,2047,3723
136,136,0,2047,4062
137,137,0,2046,4073
138,138,0,2046,3755
139,139,0,2046,3159
140,140,0,2046,2381
141,141,0,2046,1548
142,142,0,2046,795
143,143,0,2046,243
144,144,0,2047,0
145,145,0,2047,53
146,146,0,2046,446
147,147,0,2047,1097
148,148,0,2047,1900
149,149,0,2047,2726
150,150,0,2046,3440
151,151,0,2046,3928
152,152,0,2047,4095
153,153,0,2046,3956
154,154,0,2047,3491
155,155,0,2046,2791
156,156,0,2046,1970
157,157,0,2046,1160
158,158,0,2046,492
159,159,0,2047,74
160,160,0,2047,0
161,161,0,2046,209
162,162,0,2046,739
163,163,0,2046,1480
164,164,0,2046,2311
165,165,0,2046,3098
166,166,0,2046,3714
167,167,0,2047,4059
168,168,0,2046,4076
169,169,0,2046,3763
170,170,0,2047,3171
171,171,0,2047,2395
172,172,0,2046,1562
173,173,0,2046,806
174,174,0,2046,250
175,175,0,2046,0
176,176,0,2046,48
177,177,0,2046,436
178,178,0,2046,1084
179,179,0,2047,1885
180,180,0,2047,2712
181,181,0,2046,3429
182,182,0,2046,3922
183,183,0,2046,4095
184,184,0,2046,3962
185,185,0,2047,3502
186,186,0,2046,2805
187,187,0,2046,1985
188,188,0,2047,1173
189,189,0,2046,501
190,190,0,2046,78
191,191,0,2047,0
192,192,0,2046,201
193,193,0,2047,727
194,194,0,2046,1466
195,195,0,2046,2296
196,196,0,2046,3086
197,197,0,2046,3706
198,198,0,2046,4055
199,199,0,2046,4079
200,200,0,2046,3771
201,201,0,2046,3182
202,202,0,2046,2410
203,203,0,2046,1577
204,204,0,2047,818
205,205,0,2047,257
206,206,0,2046,0
207,207,0,2046,43
208,208,0,2047,427
209,209,0,2046,1071
210,210,0,2046,1871
211,211,0,2046,2699
212,212,0,2047,3418
213,213,0,2046,3916
214,214,0,2046,4095
215,215,0,2047,3967
216,216,0,2046,3512
217,217,0,2047,2819
218,218,0,2046,1999
219,219,0,2047,1186
220,220,0,2046,512
221,221,0,2047,83
222,222,0,2047,0
223,223,0,2047,195
224,224,0,2046,716
225,225,0,2046,1451
226,226,0,2047,2282
227,227,0,2046,3072
228,228,0,2047,3696
229,229,0,2048,4053
230,230,0,2046,4081
231,231,0,2047,3778
232,232,0,2046,3195
233,233,0,2046,2424
234,234,0,2046,1591
235,235,0,2046,830
236,236,0,2046,265
237,237,0,2046,0
238,238,0,2047,41
239,239,0,2046,418
240,240,0,2046,1057
241,241,0,2047,1856
242,242,0,2047,2684
243,243,0,2047,3407
244,244,0,2047,3909
245,245,0,2047,4095
246,246,0,2046,3972
247,247,0,2047,3522
248,248,0,2046,2832
249,249,0,2047,2015
250,250,0,2046,1200
251,251,0,2046,521
252,252,0,2046,88
253,253,0,2046,0
254,254,0,2047,189
255,255,0,2047,705
256,256,0,2047,1438
257,257,0,2046,2268
258,258,0,2046,3060
259,259,0,2047,3688
260,260,0,2047,4048
261,261,0,2046,4084
262,262,0,2047,3786
263,263,0,2047,3207
264,264,0,2046,2438
265,265,0,2046,1605
266,266,0,2046,842
267,267,0,2046,272
268,268,0,2046,0
269,269,0,2046,37
270,270,0,2047,409
271,271,0,2046,1045
272,272,0,2046,1841
273,273,0,2046,2670
274,274,0,2046,3397
275,275,0,2046,3903
276,276,0,2046,4095
277,277,0,2046,3978
278,278,0,2046,3533
279,279,0,2046,2846
280,280,0,2046,2028
281,281,0,2047,1213
282,282,0,2046,531
283,283,0,2046,94
284,284,0,2046,0
285,285,0,2046,181
286,286,0,2046,694
287,287,0,2047,1424
288,288,0,2046,2253
289,289,0,2047,3047
290,290,0,2046,3679
291,291,0,2047,4046
292,292,0,2046,4085
293,293,0,2046,3795
294,294,0,2046,3219
295,295,0,2047,2453
296,296,0,2046,1619
297,297,0,2047,853
298,298,0,2046,280
299,299,0,2047,0
300,300,0,2047,33
301,301,0,2047,399
302,302,0,2046,1032
303,303,0,2047,1827
304,304,0,2046,2656
305,305,0,2046,3385
306,306,0,2046,3897
307,307,0,2047,4095
308,308,0,2046,3983
309,309,0,2046,3543
310,310,0,2047,2859
311,311,0,2047,2043
312,312,0,2046,1226
313,313,0,2046,541
314,314,0,2047,99
315,315,0,2046,0
316,316,0,2046,175
317,317,0,2046,683
318,318,0,2046,1410
319,319,0,2046,2239
320,320,0,2046,3035
321,321,0,2046,3670
322,322,0,2046,4040
323,323,0,2046,4088
324,324,0,2046,3802
325,325,0,2047,3231
326,326,0,2047,2468
327,327,0,2046,1634
328,328,0,2047,866
329,329,0,2046,288
330,330,0,2046,0
331,331,0,2046,30
332,332,0,2047,391
333,333,0,2046,1019
334,334,0,2047,1813
335,335,0,2047,2642
336,336,0,2047,3374
337,337,0,2047,3890
338,338,0,2046,4095
339,339,0,2046,3988
340,340,0,2046,3553
341,341,0,2046,2873
342,342,0,2046,2058
343,343,0,2046,1240
344,344,0,2047,551
345,345,0,2047,103
346,346,0,2046,0
347,347,0,2046,169
348,348,0,2046,672
349,349,0,2046,1396
350,350,0,2047,2224
351,351,0,2046,3022
352,352,0,2047,3661
353,353,0,2047,4037
354,354,0,2046,4090
355,355,0,2046,3810
356,356,0,2046,3243
357,357,0,2046,2481
358,358,0,2046,1648
359,359,0,2046,878
360,360,0,2046,295
361,361,0,2046,0
362,362,0,2046,26
363,363,0,2046,382
364,364,0,2046,1007
365,365,0,2046,1798
366,366,0,2047,2628
367,367,0,2046,3362
368,368,0,2046,3884
369,369,0,2047,4095
370,370,0,2046,3992
371,371,0,2047,3562
372,372,0,2047,2886
373,373,0,2047,2073
374,374,0,2046,1253
375,375,0,2046,561
376,376,0,2046,109
377,377,0,2046,0
378,378,0,2046,162
379,379,0,2047,661
380,380,0,2046,1382
381,381,0,2046,2209
382,382,0,2046,3009
383,383,0,2046,3652
384,384,0,2046,4034
385,385,0,2046,4092
386,386,0,2047,3817
387,387,0,2046,3255
388,388,0,2046,2496
389,389,0,2047,1663
390,390,0,2046,890
391,391,0,2047,304
392,392,0,2046,0
393,393,0,2046,23
394,394,0,2047,373
395,395,0,2046,994
396,396,0,2046,1783
397,397,0,2046,2614
398,398,0,2046,3352
399,399,0,2046,3877
400,400,0,2046,4095
401,401,0,2046,3998
402,402,0,2046,3573
403,403,0,2046,2899
404,404,0,2047,2087
405,405,0,2046,1266
406,406,0,2045,572
407,407,0,2046,114
408,408,0,2047,0
409,409,0,2046,156
410,410,0,2046,650
411,411,0,2046,1368
412,412,0,2046,2194
413,413,0,2046,2996
414,414,0,2047,3642
415,415,0,2046,4029
416,416,0,2046,4093
417,417,0,2046,3824
418,418,0,2046,3267
419,419,0,2046,2510
420,420,0,2046,1677
421,421,0,2047,902
422,422,0,2046,311
423,423,0,2046,0
424,424,0,2046,19
425,425,0,2047,365
426,426,0,2046,981
427,427,0,2047,1768
428,428,0,2047,2599
429,429,0,2046,3340
430,430,0,2046,3871
431,431,0,2047,4095
432,432,0,2046,4002
433,433,0,2046,3582
434,434,0,2046,2913
435,435,0,2046,2101
436,436,0,2046,1280
437,437,0,2046,582
438,438,0,2046,120
439,439,0,2046,0
440,440,0,2046,150
441,441,0,2047,639
442,442,0,2046,1355
443,443,0,2046,2180
444,444,0,2047,2983
445,445,0,2046,3633
446,446,0,2046,4025
447,447,0,2046,4095
448,448,0,2046,3833
449,449,0,2046,3279
450,450,0,2047,2524
451,451,0,2046,1692
452,452,0,2047,915
453,453,0,2046,320
454,454,0,2046,3
455,455,0,2046,16
456,456,0,2046,356
457,457,0,2046,968
458,458,0,2046,1754
459,459,0,2047,2586
460,460,0,2046,3329
461,461,0,2046,3863
462,462,0,2046,4095
463,463,0,2046,4006
464,464,0,2046,3592
465,465,0,2046,2926
466,466,0,2046,2116
467,467,0,2046,1294
468,468,0,2046,593
469,469,0,2046,125
470,470,0,2046,0
471,471,0,2047,145
472,472,0,2046,628
473,473,0,2046,1340
474,474,0,2046,2165
475,475,0,2047,2970
476,476,0,2046,3624
477,477,0,2047,4020
478,478,0,2047,4095
479,479,0,2047,3839
480,480,0,2046,3290
481,481,0,2047,2539
482,482,0,2046,1706
483,483,0,2047,927
484,484,0,2046,328
485,485,0,2046,6
486,486,0,2046,13
487,487,0,2046,347
488,488,0,2046,956
489,489,0,2046,1740
490,490,0,2045,2572
491,491,0,2046,3318
492,492,0,2046,3856
493,493,0,2047,4095
494,494,0,2046,4011
495,495,0,2046,3602
496,496,0,2046,2939
497,497,0,2046,2131
498,498,0,2046,1308
499,499,0,2046,603
500,500,0,2047,131
501,501,0,2047,0
502,502,0,2046,138
503,503,0,2046,617
504,504,0,2046,1326
505,505,0,2046,2151
506,506,0,2046,2956
507,507,0,2047,3615
508,508,0,2046,4016
509,509,0,2046,4095
510,510,0,2046,3847
511,511,0,2046,3302
512,512,0,2046,2553
513,513,0,2046,1720
514,514,0,2047,940
515,515,0,2046,336
516,516,0,2046,8
517,517,0,2046,9
518,518,0,2047,339
519,519,0,2047,943
520,520,0,2046,1726
521,521,0,2047,2557
522,522,0,2046,3306
523,523,0,2047,3850
524,524,0,2046,4095
525,525,0,2045,4015
526,526,0,2046,3612
527,527,0,2047,2952
528,528,0,2046,2145
529,529,0,2046,1321
530,530,0,2046,614
531,531,0,2046,136
532,532,0,2047,0
533,533,0,2046,132
534,534,0,2046,607
535,535,0,2046,1312
536,536,0,2046,2136
537,537,0,2047,2944
538,538,0,2047,3605
539,539,0,2047,4012
540,540,0,2046,4095
541,541,0,2046,3854
542,542,0,2047,3313
543,543,0,2047,2567
544,544,0,2046,1735
545,545,0,2046,951
546,546,0,2047,345
547,547,0,2046,12
548,548,0,2047,7
549,549,0,2046,331
550,550,0,2046,931
551,551,0,2046,1711
552,552,0,2046,2543
553,553,0,2046,3294
554,554,0,2047,3842
555,555,0,2046,4095
556,556,0,2046,4019
557,557,0,2046,3621
558,558,0,2047,2966
559,559,0,2047,2160
560,560,0,2047,1335
561,561,0,2046,625
562,562,0,2046,142
563,563,0,2046,0
564,564,0,2046,127
565,565,0,2046,596
566,566,0,2046,1299
567,567,0,2046,2122
568,568,0,2046,2930
569,569,0,2046,3595
570,570,0,2047,4007
571,571,0,2046,4095
572,572,0,2046,3861
573,573,0,2046,3325
574,574,0,2046,2582
575,575,0,2047,1749
576,576,0,2047,964
577,577,0,2046,353
578,578,0,2046,15
579,579,0,2046,4
580,580,0,2046,322
581,581,0,2046,919
582,582,0,2047,1696
583,583,0,2046,2530
584,584,0,2047,3282
585,585,0,2047,3835
586,586,0,2046,4095
587,587,0,2047,4024
588,588,0,2046,3630
589,589,0,2047,2979
590,590,0,2047,2175
591,591,0,2046,1350
592,592,0,2046,636
593,593,0,2046,149
594,594,0,2047,0
595,595,0,2046,121
596,596,0,2046,586
597,597,0,2046,1285
598,598,0,2047,2107
599,599,0,2046,2918
600,600,0,2046,3585
601,601,0,2046,4003
602,602,0,2047,4095
603,603,0,2046,3868
604,604,0,2046,3337
605,605,0,2046,2596
606,606,0,2046,1764
607,607,0,2046,976
608,608,0,2046,362
609,609,0,2046,18
610,610,0,2046,1
611,611,0,2047,314
612,612,0,2046,906
613,613,0,2046,1682
614,614,0,2047,2515
615,615,0,2047,3271
616,616,0,2047,3828
617,617,0,2046,4094
618,618,0,2047,4029
619,619,0,2047,3639
620,620,0,2047,2991
621,621,0,2046,2190
622,622,0,2046,1363
623,623,0,2046,646
624,624,0,2047,154
625,625,0,2046,0
626,626,0,2046,116
627,627,0,2047,575
628,628,0,2046,1272
629,629,0,2046,2092
630,630,0,2046,2904
631,631,0,2047,3576
632,632,0,2047,3998
633,633,0,2046,4095
634,634,0,2047,3875
635,635,0,2046,3348
636,636,0,2046,2610
637,637,0,2046,1778
638,638,0,2047,990
639,639,0,2046,370
640,640,0,2047,22
641,641,0,2047,0
642,642,0,2046,306
643,643,0,2046,894
644,644,0,2046,1667
645,645,0,2046,2501
646,646,0,2047,3259
647,647,0,2047,3820
648,648,0,2047,4092
649,649,0,2046,4032
650,650,0,2046,3649
651,651,0,2046,3005
652,652,0,2047,2205
653,653,0,2046,1378
654,654,0,2046,657
655,655,0,2047,161
656,656,0,2046,0
657,657,0,2047,110
658,658,0,2047,565
659,659,0,2046,1258
660,660,0,2046,2078
661,661,0,2046,2890
662,662,0,2046,3567
663,663,0,2046,3994
664,664,0,2047,4095
665,665,0,2047,3881
666,666,0,2046,3359
667,667,0,2046,2623
668,668,0,2046,1793
669,669,0,2046,1002
670,670,0,2046,379
671,671,0,2046,25
672,672,0,2046,0
673,673,0,2047,298
674,674,0,2047,882
675,675,0,2046,1653
676,676,0,2046,2486
677,677,0,2046,3247
678,678,0,2046,3812
679,679,0,2047,4091
680,680,0,2046,4037
681,681,0,2047,3658
682,682,0,2047,3017
683,683,0,2047,2219
684,684,0,2046,1390
685,685,0,2047,668
686,686,0,2047,167
687,687,0,2046,0
688,688,0,2047,105
689,689,0,2046,555
690,690,0,2046,1245
691,691,0,2047,2062
692,692,0,2046,2877
693,693,0,2046,3556
694,694,0,2046,3989
695,695,0,2046,4095
696,696,0,2046,3888
697,697,0,2046,3370
698,698,0,2046,2638
699,699,0,2046,1807
700,700,0,2046,1015
701,701,0,2046,388
702,702,0,2047,28
703,703,0,2046,0
704,704,0,2046,291
705,705,0,2046,871
706,706,0,2046,1638
707,707,0,2046,2472
708,708,0,2046,3235
709,709,0,2047,3804
710,710,0,2046,4089
711,711,0,2046,4041
712,712,0,2046,3667
713,713,0,2046,3031
714,714,0,2046,2234
715,715,0,2046,1405
716,716,0,2046,679
717,717,0,2046,173
718,718,0,2046,0
719,719,0,2047,99
720,720,0,2047,545
721,721,0,2046,1231
722,722,0,2046,2049
723,723,0,2046,2864
724,724,0,2046,3546
725,725,0,2046,3985
726,726,0,2045,4095
727,727,0,2047,3895
728,728,0,2047,3382
729,729,0,2046,2651
730,730,0,2046,1822
731,731,0,2047,1027
732,732,0,2046,397
733,733,0,2046,33
734,734,0,2046,0
735,735,0,2046,282
736,736,0,2046,858
737,737,0,2046,1624
738,738,0,2046,2457
739,739,0,2046,3223
740,740,0,2046,3797
741,741,0,2046,4086
742,742,0,2046,4044
743,743,0,2046,3676
744,744,0,2047,3044
745,745,0,2046,2248
746,746,0,2047,1419
747,747,0,2046,690
748,748,0,2047,179
749,749,0,2046,0
750,750,0,2046,95
751,751,0,2046,535
752,752,0,2046,1218
753,753,0,2046,2034
754,754,0,2047,2850
755,755,0,2047,3536
756,756,0,2046,3979
757,757,0,2046,4095
758,758,0,2046,3902
759,759,0,2047,3393
760,760,0,2047,2665
761,761,0,2046,1836
762,762,0,2046,1040
763,763,0,2047,406
764,764,0,2046,35
765,765,0,2046,0
766,766,0,2046,274
767,767,0,2046,846
768,768,0,2047,1610
769,769,0,2046,2443
770,770,0,2046,3211
771,771,0,2046,3789
772,772,0,2047,4084
773,773,0,2047,4048
774,774,0,2046,3685
775,775,0,2046,3056
776,776,0,2046,2263
777,777,0,2046,1433
778,778,0,2047,701
779,779,0,2047,186
780,780,0,2047,0
781,781,0,2047,89
782,782,0,2047,524
783,783,0,2046,1204
784,784,0,2046,2019
785,785,0,2047,2837
786,786,0,2046,3526
787,787,0,2046,3973
788,788,0,2047,4095
789,789,0,2046,3908
790,790,0,2046,3403
791,791,0,2046,2679
792,792,0,2046,1851
793,793,0,2046,1054
794,794,0,2046,415
795,795,0,2047,39
796,796,0,2046,0
797,797,0,2046,267
798,798,0,2046,834
799,799,0,2047,1595
800,800,0,2047,2428
801,801,0,2047,3199
802,802,0,2046,3781
803,803,0,2047,4082
804,804,0,2046,4051
805,805,0,2046,3694
806,806,0,2046,3069
807,807,0,2046,2277
808,808,0,2046,1447
809,809,0,2046,713
810,810,0,2046,193
811,811,0,2046,0
812,812,0,2047,85
813,813,0,2046,515
814,814,0,2046,1191
815,815,0,2047,2005
816,816,0,2047,2823
817,817,0,2046,3515
818,818,0,2046,3968
819,819,0,2047,4095
820,820,0,2046,3915
821,821,0,2046,3415
822,822,0,2046,2694
823,823,0,2046,1865
824,824,0,2046,1066
825,825,0,2046,424
826,826,0,2046,43
827,827,0,2046,0
828,828,0,2047,260
829,829,0,2046,821
830,830,0,2047,1581
831,831,0,2047,2414
832,832,0,2047,3186
833,833,0,2047,3774
834,834,0,2047,4080
835,835,0,2047,4055
836,836,0,2047,3704
837,837,0,2046,3082
838,838,0,2046,2292
839,839,0,2046,1461
840,840,0,2046,724
841,841,0,2046,199
842,842,0,2046,0
843,843,0,2047,80
844,844,0,2047,505
845,845,0,2046,1177
846,846,0,2046,1990
847,847,0,2046,2810
848,848,0,2047,3505
849,849,0,2046,3963
850,850,0,2046,4095
851,851,0,2046,3920
852,852,0,2047,3426
853,853,0,2046,2708
854,854,0,2047,1880
855,855,0,2047,1079
856,856,0,2046,433
857,857,0,2047,47
858,858,0,2046,0
859,859,0,2046,252
860,860,0,2046,810
861,861,0,2047,1567
862,862,0,2047,2401
863,863,0,2046,3175
864,864,0,2046,3766
865,865,0,2046,4077
866,866,0,2046,4057
867,867,0,2046,3712
868,868,0,2046,3094
869,869,0,2046,2307
870,870,0,2046,1476
871,871,0,2046,735
872,872,0,2046,206
873,873,0,2046,0
874,874,0,2046,75
875,875,0,2047,495
876,876,0,2046,1164
877,877,0,2047,1975
878,878,0,2046,2796
879,879,0,2046,3495
880,880,0,2046,3958
881,881,0,2046,4095
882,882,0,2047,3926
883,883,0,2046,3437
884,884,0,2046,2721
885,885,0,2045,1896
886,886,0,2046,1092
887,887,0,2046,442
888,888,0,2046,52
889,889,0,2046,0
890,890,0,2046,245
891,891,0,2046,798
892,892,0,2046,1552
893,893,0,2046,2386
894,894,0,2046,3162
895,895,0,2046,3757
896,896,0,2046,4075
897,897,0,2046,4061
898,898,0,2046,3721
899,899,0,2047,3107
900,900,0,2046,2321
901,901,0,2047,1489
902,902,0,2047,747
903,903,0,2046,213
904,904,0,2047,0
905,905,0,2046,70
906,906,0,2046,485
907,907,0,2046,1151
908,908,0,2047,1960
909,909,0,2047,2783
910,910,0,2046,3484
911,911,0,2047,3952
912,912,0,2046,4095
913,913,0,2046,3932
914,914,0,2047,3448
915,915,0,2046,2735
916,916,0,2046,1910
917,917,0,2046,1104
918,918,0,2046,452
919,919,0,2046,56
920,920,0,2047,0
921,921,0,2046,237
922,922,0,2046,787
923,923,0,2046,1539
924,924,0,2046,2371
925,925,0,2046,3149
926,926,0,2046,3749
927,927,0,2046,4071
928,928,0,2046,4064
929,929,0,2046,3728
930,930,0,2047,3119
931,931,0,2046,2335
932,932,0,2046,1503
933,933,0,2046,758
934,934,0,2046,220
935,935,0,2046,0
936,936,0,2046,66
937,937,0,2047,475
938,938,0,2046,1138
939,939,0,2046,1946
940,940,0,2047,2769
941,941,0,2047,3474
942,942,0,2047,3947
943,943,0,2047,4095
944,944,0,2046,3938
945,945,0,2047,3458
946,946,0,2046,2749
947,947,0,2047,1925
948,948,0,2046,1119
949,949,0,2047,461
950,950,0,2046,60
951,951,0,2046,0
952,952,0,2046,230
953,953,0,2047,775
954,954,0,2046,1524
955,955,0,2046,2357
956,956,0,2047,3137
957,957,0,2046,3741
958,958,0,2047,4069
959,959,0,2046,4067
960,960,0,2046,3737
961,961,0,2047,3133
962,962,0,2046,2350
963,963,0,2047,1518
964,964,0,2046,770
965,965,0,2046,227
966,966,0,2046,0
967,967,0,2047,62
968,968,0,2047,466
969,969,0,2047,1125
970,970,0,2046,1931
971,971,0,2046,2755
972,972,0,2046,3463
973,973,0,2046,3941
974,974,0,2047,4095
975,975,0,2047,3944
976,976,0,2046,3469
977,977,0,2047,2763
978,978,0,2046,1939
979,979,0,2047,1131
980,980,0,2047,471
981,981,0,2046,64
982,982,0,2046,0
983,983,0,2046,223
984,984,0,2046,764
985,985,0,2046,1510
986,986,0,2046,2342
987,987,0,2046,3125
988,988,0,2046,3732
989,989,0,2046,4066
990,990,0,2046,4070
991,991,0,2046,3746
992,992,0,2046,3144
993,993,0,2046,2364
994,994,0,2046,1532
995,995,0,2047,781
996,996,0,2046,234
997,997,0,2046,0
998,998,0,2046,58
999,999,0,2047,456
1000,1000,0,2046,1111
1001,1001,0,2046,1917
1002,1002,0,2046,2741
1003,1003,0,2046,3453
1004,1004,0,2047,3935
1005,1005,0,2046,4095
1006,1006,0,2047,3950
1007,1007,0,2046,3479
1008,1008,0,2046,2776
1009,1009,0,2046,1953
1010,1010,0,2046,1144
1011,1011,0,2046,481
1012,1012,0,2046,69
1013,1013,0,2046,0
1014,1014,0,2047,217
1015,1015,0,2047,753
1016,1016,0,2047,1496
1017,1017,0,2046,2328
1018,1018,0,2046,3113
1019,1019,0,2046,3724
1020,1020,0,2046,4063
1021,1021,0,2047,4073
1022,1022,0,2046,3754
1023,1023,0,2046,3157
1024,1024,0,2046,2379
1025,1025,0,2046,1546
1026,1026,0,2046,793
1027,1027,0,2047,241
1028,1028,0,2046,0
1029,1029,0,2046,52
