Sample in Buffer,Sample in Window,TRIGGER,adc1_data_a_d0[11:0],adc1_data_b_d0[11:0]
0,0,0,2046,3990
1,1,0,2046,4004
2,2,0,2046,3389
3,3,0,2046,2340
4,4,0,2046,1195
5,5,0,2047,320
6,6,0,2046,0
7,7,0,2046,326
8,8,0,2046,1205
9,9,0,2046,2352
10,10,0,2046,3397
11,11,0,2047,4008
12,12,0,2046,3986
13,13,0,2046,3340
14,14,0,2046,2277
15,15,0,2046,1137
16,16,0,2046,287
17,17,0,2046,0
18,18,0,2046,362
19,19,0,2046,1264
20,20,0,2047,2414
21,21,0,2046,3444
22,22,0,2046,4024
23,23,0,2047,3966
24,24,0,2046,3290
25,25,0,2046,2214
26,26,0,2046,1081
27,27,0,2046,254
28,28,0,2046,0
29,29,0,2047,399
30,30,0,2046,1324
31,31,0,2047,2476
32,32,0,2047,3490
33,33,0,2046,4038
34,34,0,2046,3944
35,35,0,2047,3239
36,36,0,2047,2151
37,37,0,2046,1025
38,38,0,2046,225
39,39,0,2047,5
40,40,0,2046,437
41,41,0,2046,1383
42,42,0,2047,2539
43,43,0,2046,3534
44,44,0,2046,4050
45,45,0,2047,3921
46,46,0,2046,3187
47,47,0,2047,2087
48,48,0,2045,971
49,49,0,2046,196
50,50,0,2046,12
51,51,0,2046,477
52,52,0,2046,1443
53,53,0,2047,2601
54,54,0,2046,3577
55,55,0,2046,4060
56,56,0,2046,3896
57,57,0,2046,3135
58,58,0,2046,2023
59,59,0,2046,917
60,60,0,2046,170
61,61,0,2046,20
62,62,0,2046,519
63,63,0,2046,1504
64,64,0,2046,2661
65,65,0,2047,3618
66,66,0,2046,4068
67,67,0,2046,3867
68,68,0,2047,3081
69,69,0,2047,1960
70,70,0,2047,864
71,71,0,2047,144
72,72,0,2046,31
73,73,0,2046,562
74,74,0,2046,1566
75,75,0,2046,2721
76,76,0,2047,3657
77,77,0,2047,4075
78,78,0,2046,3839
79,79,0,2046,3025
80,80,0,2047,1897
81,81,0,2046,812
82,82,0,2047,122
83,83,0,2046,45
84,84,0,2047,607
85,85,0,2047,1628
86,86,0,2046,2780
87,87,0,2046,3696
88,88,0,2046,4079
89,89,0,2046,3807
90,90,0,2046,2969
91,91,0,2047,1834
92,92,0,2046,763
93,93,0,2046,101
94,94,0,2047,60
95,95,0,2046,653
96,96,0,2046,1690
97,97,0,2046,2840
98,98,0,2046,3732
99,99,0,2046,4081
100,100,0,2046,3775
101,101,0,2046,2912
102,102,0,2047,1770
103,103,0,2047,714
104,104,0,2047,82
105,105,0,2046,76
106,106,0,2047,701
107,107,0,2046,1754
108,108,0,2047,2898
109,109,0,2047,3766
110,110,0,2046,4081
111,111,0,2046,3741
112,112,0,2046,2854
113,113,0,2046,1706
114,114,0,2046,666
115,115,0,2046,64
116,116,0,2047,95
117,117,0,2046,749
118,118,0,2047,1816
119,119,0,2046,2955
120,120,0,2047,3800
121,121,0,2047,4080
122,122,0,2046,3704
123,123,0,2046,2795
124,124,0,2047,1645
125,125,0,2046,619
126,126,0,2047,48
127,127,0,2046,116
128,128,0,2046,800
129,129,0,2046,1880
130,130,0,2046,3011
131,131,0,2046,3831
132,132,0,2046,4075
133,133,0,2046,3666
134,134,0,2046,2736
135,135,0,2046,1582
136,136,0,2046,574
137,137,0,2046,34
138,138,0,2046,139
139,139,0,2046,851
140,140,0,2046,1943
141,141,0,2046,3067
142,142,0,2046,3861
143,143,0,2046,4069
144,144,0,2047,3627
145,145,0,2047,2677
146,146,0,2046,1520
147,147,0,2046,531
148,148,0,2046,24
149,149,0,2046,162
150,150,0,2046,903
151,151,0,2046,2007
152,152,0,2046,3122
153,153,0,2046,3888
154,154,0,2047,4062
155,155,0,2047,3588
156,156,0,2047,2615
157,157,0,2046,1459
158,158,0,2047,489
159,159,0,2047,14
160,160,0,2047,188
161,161,0,2047,956
162,162,0,2046,2071
163,163,0,2046,3175
164,164,0,2047,3914
165,165,0,2046,4052
166,166,0,2046,3545
167,167,0,2046,2554
168,168,0,2046,1399
169,169,0,2046,448
170,170,0,2046,7
171,171,0,2046,217
172,172,0,2046,1011
173,173,0,2047,2134
174,174,0,2046,3227
175,175,0,2046,3939
176,176,0,2047,4041
177,177,0,2046,3501
178,178,0,2047,2493
179,179,0,2046,1339
180,180,0,2046,409
181,181,0,2045,1
182,182,0,2046,247
183,183,0,2047,1067
184,184,0,2047,2198
185,185,0,2046,3278
186,186,0,2046,3961
187,187,0,2046,4027
188,188,0,2047,3456
189,189,0,2046,2429
190,190,0,2046,1279
191,191,0,2046,371
192,192,0,2046,0
193,193,0,2046,278
194,194,0,2047,1123
195,195,0,2046,2261
196,196,0,2046,3329
197,197,0,2046,3982
198,198,0,2047,4013
199,199,0,2046,3410
200,200,0,2047,2368
201,201,0,2046,1220
202,202,0,2047,336
203,203,0,2046,0
204,204,0,2046,310
205,205,0,2046,1180
206,206,0,2046,2325
207,207,0,2047,3377
208,208,0,2047,4001
209,209,0,2047,3995
210,210,0,2047,3362
211,211,0,2047,2305
212,212,0,2047,1163
213,213,0,2046,301
214,214,0,2046,0
215,215,0,2047,346
216,216,0,2046,1238
217,217,0,2046,2387
218,218,0,2046,3424
219,219,0,2046,4017
220,220,0,2047,3975
221,221,0,2046,3313
222,222,0,2047,2242
223,223,0,2046,1106
224,224,0,2047,269
225,225,0,2047,0
226,226,0,2046,383
227,227,0,2047,1297
228,228,0,2047,2450
229,229,0,2046,3471
230,230,0,2046,4031
231,231,0,2047,3954
232,232,0,2046,3262
233,233,0,2046,2178
234,234,0,2047,1050
235,235,0,2046,237
236,236,0,2046,2
237,237,0,2046,421
238,238,0,2046,1357
239,239,0,2046,2512
240,240,0,2047,3515
241,241,0,2046,4045
242,242,0,2046,3931
243,243,0,2047,3212
244,244,0,2047,2115
245,245,0,2046,994
246,246,0,2046,208
247,247,0,2046,9
248,248,0,2047,460
249,249,0,2047,1416
250,250,0,2046,2574
251,251,0,2046,3558
252,252,0,2046,4056
253,253,0,2047,3907
254,254,0,2046,3158
255,255,0,2046,2051
256,256,0,2046,939
257,257,0,2046,181
258,258,0,2046,17
259,259,0,2046,500
260,260,0,2047,1477
261,261,0,2047,2635
262,262,0,2047,3600
263,263,0,2046,4065
264,264,0,2047,3879
265,265,0,2046,3104
266,266,0,2047,1988
267,267,0,2047,887
268,268,0,2046,156
269,269,0,2046,27
270,270,0,2046,543
271,271,0,2047,1539
272,272,0,2046,2695
273,273,0,2046,3641
274,274,0,2046,4072
275,275,0,2047,3852
276,276,0,2046,3049
277,277,0,2046,1924
278,278,0,2046,835
279,279,0,2046,132
280,280,0,2047,39
281,281,0,2047,587
282,282,0,2046,1601
283,283,0,2046,2755
284,284,0,2046,3679
285,285,0,2047,4076
286,286,0,2046,3822
287,287,0,2047,2994
288,288,0,2046,1860
289,289,0,2046,784
290,290,0,2046,109
291,291,0,2047,54
292,292,0,2047,633
293,293,0,2047,1664
294,294,0,2047,2814
295,295,0,2047,3716
296,296,0,2047,4080
297,297,0,2047,3790
298,298,0,2046,2937
299,299,0,2046,1797
300,300,0,2047,735
301,301,0,2046,89
302,302,0,2047,69
303,303,0,2046,679
304,304,0,2046,1726
305,305,0,2046,2873
306,306,0,2047,3752
307,307,0,2047,4082
308,308,0,2046,3756
309,309,0,2047,2880
310,310,0,2047,1734
311,311,0,2046,686
312,312,0,2047,71
313,313,0,2046,87
314,314,0,2047,728
315,315,0,2046,1790
316,316,0,2046,2930
317,317,0,2046,3785
318,318,0,2046,4080
319,319,0,2047,3720
320,320,0,2046,2821
321,321,0,2047,1671
322,322,0,2045,640
323,323,0,2046,55
324,324,0,2047,107
325,325,0,2046,777
326,326,0,2046,1853
327,327,0,2047,2987
328,328,0,2046,3818
329,329,0,2046,4077
330,330,0,2046,3684
331,331,0,2047,2762
332,332,0,2046,1609
333,333,0,2047,593
334,334,0,2047,42
335,335,0,2046,129
336,336,0,2046,828
337,337,0,2046,1916
338,338,0,2047,3043
339,339,0,2047,3848
340,340,0,2047,4073
341,341,0,2046,3645
342,342,0,2046,2703
343,343,0,2047,1547
344,344,0,2046,549
345,345,0,2046,28
346,346,0,2046,152
347,347,0,2046,880
348,348,0,2046,1980
349,349,0,2047,3098
350,350,0,2047,3877
351,351,0,2046,4065
352,352,0,2047,3605
353,353,0,2046,2642
354,354,0,2046,1485
355,355,0,2046,506
356,356,0,2046,18
357,357,0,2046,177
358,358,0,2046,933
359,359,0,2046,2044
360,360,0,2046,3152
361,361,0,2046,3904
362,362,0,2046,4057
363,363,0,2046,3563
364,364,0,2046,2581
365,365,0,2047,1425
366,366,0,2046,466
367,367,0,2046,10
368,368,0,2046,204
369,369,0,2047,987
370,370,0,2046,2107
371,371,0,2047,3205
372,372,0,2046,3928
373,373,0,2047,4046
374,374,0,2046,3520
375,375,0,2047,2519
376,376,0,2046,1365
377,377,0,2046,425
378,378,0,2046,3
379,379,0,2047,233
380,380,0,2046,1042
381,381,0,2046,2170
382,382,0,2047,3256
383,383,0,2047,3952
384,384,0,2047,4033
385,385,0,2047,3476
386,386,0,2047,2457
387,387,0,2047,1305
388,388,0,2046,387
389,389,0,2047,0
390,390,0,2047,264
391,391,0,2046,1098
392,392,0,2046,2234
393,393,0,2046,3306
394,394,0,2047,3972
395,395,0,2047,4019
396,396,0,2046,3430
397,397,0,2046,2395
398,398,0,2046,1246
399,399,0,2046,351
400,400,0,2047,0
401,401,0,2046,297
402,402,0,2047,1156
403,403,0,2046,2297
404,404,0,2046,3355
405,405,0,2047,3993
406,406,0,2046,4003
407,407,0,2047,3383
408,408,0,2046,2332
409,409,0,2046,1188
410,410,0,2046,315
411,411,0,2046,0
412,412,0,2046,330
413,413,0,2046,1212
414,414,0,2047,2360
415,415,0,2046,3404
416,416,0,2047,4010
417,417,0,2046,3984
418,418,0,2046,3334
419,419,0,2046,2268
420,420,0,2046,1130
421,421,0,2046,282
422,422,0,2047,0
423,423,0,2046,366
424,424,0,2046,1271
425,425,0,2047,2422
426,426,0,2046,3451
427,427,0,2046,4025
428,428,0,2046,3964
429,429,0,2046,3284
430,430,0,2046,2206
431,431,0,2046,1074
432,432,0,2046,250
433,433,0,2047,0
434,434,0,2047,404
435,435,0,2046,1331
436,436,0,2046,2484
437,437,0,2046,3496
438,438,0,2046,4040
439,439,0,2046,3941
440,440,0,2047,3232
441,441,0,2047,2142
442,442,0,2047,1018
443,443,0,2046,220
444,444,0,2047,6
445,445,0,2047,442
446,446,0,2046,1391
447,447,0,2046,2546
448,448,0,2046,3540
449,449,0,2047,4052
450,450,0,2047,3918
451,451,0,2047,3181
452,452,0,2047,2079
453,453,0,2046,964
454,454,0,2047,193
455,455,0,2047,13
456,456,0,2046,483
457,457,0,2047,1451
458,458,0,2047,2609
459,459,0,2047,3582
460,460,0,2047,4061
461,461,0,2046,3892
462,462,0,2046,3127
463,463,0,2046,2014
464,464,0,2046,910
465,465,0,2047,166
466,466,0,2046,23
467,467,0,2046,524
468,468,0,2046,1512
469,469,0,2046,2669
470,470,0,2046,3623
471,471,0,2047,4069
472,472,0,2046,3864
473,473,0,2046,3073
474,474,0,2047,1951
475,475,0,2047,857
476,476,0,2047,142
477,477,0,2046,34
478,478,0,2047,568
479,479,0,2047,1574
480,480,0,2047,2729
481,481,0,2047,3662
482,482,0,2047,4075
483,483,0,2046,3834
484,484,0,2047,3018
485,485,0,2047,1888
486,486,0,2047,806
487,487,0,2047,118
488,488,0,2046,46
489,489,0,2046,613
490,490,0,2046,1636
491,491,0,2046,2789
492,492,0,2046,3701
493,493,0,2046,4079
494,494,0,2046,3803
495,495,0,2046,2962
496,496,0,2047,1824
497,497,0,2046,756
498,498,0,2047,98
499,499,0,2046,62
500,500,0,2046,659
501,501,0,2046,1699
502,502,0,2046,2847
503,503,0,2046,3737
504,504,0,2046,4081
505,505,0,2047,3770
506,506,0,2047,2904
507,507,0,2046,1762
508,508,0,2047,707
509,509,0,2046,79
510,510,0,2047,79
511,511,0,2047,708
512,512,0,2046,1762
513,513,0,2046,2906
514,514,0,2047,3771
515,515,0,2047,4081
516,516,0,2046,3736
517,517,0,2047,2846
518,518,0,2046,1699
519,519,0,2046,659
520,520,0,2047,62
521,521,0,2046,97
522,522,0,2046,756
523,523,0,2046,1825
524,524,0,2047,2962
525,525,0,2047,3803
526,526,0,2047,4079
527,527,0,2046,3699
528,528,0,2046,2787
529,529,0,2047,1636
530,530,0,2046,613
531,531,0,2046,47
532,532,0,2046,119
533,533,0,2046,806
534,534,0,2046,1889
535,535,0,2047,3019
536,536,0,2047,3834
537,537,0,2046,4075
538,538,0,2046,3661
539,539,0,2046,2728
540,540,0,2046,1574
541,541,0,2046,568
542,542,0,2047,34
543,543,0,2047,141
544,544,0,2047,858
545,545,0,2047,1952
546,546,0,2047,3074
547,547,0,2046,3864
548,548,0,2046,4069
549,549,0,2046,3622
550,550,0,2047,2668
551,551,0,2047,1512
552,552,0,2046,525
553,553,0,2046,22
554,554,0,2046,166
555,555,0,2047,910
556,556,0,2046,2016
557,557,0,2047,3129
558,558,0,2046,3891
559,559,0,2047,4060
560,560,0,2046,3582
561,561,0,2046,2608
562,562,0,2046,1451
563,563,0,2046,483
564,564,0,2046,13
565,565,0,2047,193
566,566,0,2046,964
567,567,0,2046,2079
568,568,0,2046,3181
569,569,0,2046,3918
570,570,0,2047,4050
571,571,0,2045,3539
572,572,0,2046,2546
573,573,0,2046,1390
574,574,0,2047,442
575,575,0,2047,5
576,576,0,2046,220
577,577,0,2046,1018
578,578,0,2046,2142
579,579,0,2046,3234
580,580,0,2046,3942
581,581,0,2045,4039
582,582,0,2046,3495
583,583,0,2047,2485
584,584,0,2046,1331
585,585,0,2046,404
586,586,0,2046,0
587,587,0,2046,250
588,588,0,2046,1074
589,589,0,2046,2206
590,590,0,2046,3285
591,591,0,2047,3963
592,592,0,2046,4025
593,593,0,2046,3450
594,594,0,2046,2422
595,595,0,2046,1270
596,596,0,2046,365
597,597,0,2046,0
598,598,0,2046,283
599,599,0,2046,1130
600,600,0,2047,2270
601,601,0,2047,3335
602,602,0,2046,3984
603,603,0,2046,4009
604,604,0,2046,3404
605,605,0,2046,2359
606,606,0,2046,1212
607,607,0,2046,331
608,608,0,2046,0
609,609,0,2046,315
610,610,0,2046,1188
611,611,0,2046,2333
612,612,0,2046,3384
613,613,0,2046,4003
614,614,0,2046,3993
615,615,0,2046,3356
616,616,0,2046,2296
617,617,0,2047,1155
618,618,0,2046,296
619,619,0,2046,0
620,620,0,2046,350
621,621,0,2046,1246
622,622,0,2047,2396
623,623,0,2046,3430
624,624,0,2046,4019
625,625,0,2046,3973
626,626,0,2047,3306
627,627,0,2046,2233
628,628,0,2047,1098
629,629,0,2046,264
630,630,0,2047,0
631,631,0,2047,387
632,632,0,2046,1305
633,633,0,2047,2458
634,634,0,2046,3476
635,635,0,2047,4034
636,636,0,2046,3951
637,637,0,2046,3256
638,638,0,2047,2170
639,639,0,2046,1042
640,640,0,2047,233
641,641,0,2046,3
642,642,0,2046,425
643,643,0,2046,1365
644,644,0,2046,2520
645,645,0,2047,3521
646,646,0,2047,4047
647,647,0,2047,3929
648,648,0,2046,3204
649,649,0,2046,2106
650,650,0,2046,987
651,651,0,2046,205
652,652,0,2046,9
653,653,0,2046,465
654,654,0,2046,1425
655,655,0,2047,2582
656,656,0,2046,3564
657,657,0,2046,4057
658,658,0,2047,3903
659,659,0,2046,3151
660,660,0,2046,2043
661,661,0,2046,933
662,662,0,2047,178
663,663,0,2046,18
664,664,0,2047,507
665,665,0,2047,1486
666,666,0,2046,2643
667,667,0,2046,3606
668,668,0,2046,4066
669,669,0,2046,3876
670,670,0,2046,3097
671,671,0,2046,1978
672,672,0,2046,880
673,673,0,2047,151
674,674,0,2047,28
675,675,0,2047,550
676,676,0,2046,1547
677,677,0,2046,2703
678,678,0,2046,3645
679,679,0,2046,4073
680,680,0,2046,3847
681,681,0,2047,3041
682,682,0,2046,1915
683,683,0,2047,829
684,684,0,2046,128
685,685,0,2047,41
686,686,0,2046,594
687,687,0,2047,1609
688,688,0,2047,2763
689,689,0,2047,3684
690,690,0,2047,4077
691,691,0,2047,3817
692,692,0,2046,2986
693,693,0,2047,1852
694,694,0,2046,777
695,695,0,2046,107
696,696,0,2046,55
697,697,0,2046,639
698,698,0,2046,1672
699,699,0,2047,2823
700,700,0,2046,3721
701,701,0,2047,4080
702,702,0,2047,3785
703,703,0,2047,2929
704,704,0,2047,1789
705,705,0,2047,728
706,706,0,2046,88
707,707,0,2046,72
708,708,0,2047,686
709,709,0,2046,1734
710,710,0,2047,2881
711,711,0,2047,3756
712,712,0,2047,4081
713,713,0,2046,3751
714,714,0,2046,2872
715,715,0,2046,1726
716,716,0,2046,680
717,717,0,2046,69
718,718,0,2047,90
719,719,0,2046,735
720,720,0,2047,1798
721,721,0,2047,2938
722,722,0,2046,3790
723,723,0,2046,4080
724,724,0,2046,3715
725,725,0,2047,2813
726,726,0,2046,1663
727,727,0,2046,633
728,728,0,2046,53
729,729,0,2047,109
730,730,0,2046,785
731,731,0,2047,1861
732,732,0,2047,2995
733,733,0,2046,3822
734,734,0,2047,4077
735,735,0,2047,3679
736,736,0,2047,2754
737,737,0,2047,1601
738,738,0,2047,587
739,739,0,2047,39
740,740,0,2046,132
741,741,0,2047,835
742,742,0,2046,1925
743,743,0,2047,3051
744,744,0,2047,3852
745,745,0,2046,4071
746,746,0,2047,3640
747,747,0,2046,2694
748,748,0,2046,1539
749,749,0,2047,544
750,750,0,2047,27
751,751,0,2046,155
752,752,0,2047,887
753,753,0,2046,1988
754,754,0,2046,3105
755,755,0,2046,3880
756,756,0,2046,4065
757,757,0,2046,3599
758,758,0,2046,2634
759,759,0,2046,1477
760,760,0,2046,501
761,761,0,2047,17
762,762,0,2046,180
763,763,0,2046,940
764,764,0,2046,2052
765,765,0,2047,3159
766,766,0,2046,3906
767,767,0,2046,4055
768,768,0,2046,3557
769,769,0,2046,2573
770,770,0,2046,1416
771,771,0,2046,460
772,772,0,2047,9
773,773,0,2046,208
774,774,0,2046,995
775,775,0,2047,2115
776,776,0,2046,3211
777,777,0,2047,3931
778,778,0,2047,4044
779,779,0,2047,3514
780,780,0,2047,2511
781,781,0,2046,1356
782,782,0,2047,421
783,783,0,2046,3
784,784,0,2046,237
785,785,0,2046,1049
786,786,0,2047,2180
787,787,0,2047,3263
788,788,0,2047,3956
789,789,0,2046,4032
790,790,0,2047,3470
791,791,0,2046,2449
792,792,0,2047,1297
793,793,0,2047,382
794,794,0,2046,0
795,795,0,2047,268
796,796,0,2046,1106
797,797,0,2047,2242
798,798,0,2046,3314
799,799,0,2046,3976
800,800,0,2046,4017
801,801,0,2046,3424
802,802,0,2047,2386
803,803,0,2046,1237
804,804,0,2047,345
805,805,0,2046,0
806,806,0,2046,301
807,807,0,2046,1163
808,808,0,2046,2305
809,809,0,2046,3363
810,810,0,2047,3995
811,811,0,2046,3999
812,812,0,2046,3377
813,813,0,2047,2324
814,814,0,2047,1180
815,815,0,2047,311
816,816,0,2047,0
817,817,0,2046,335
818,818,0,2046,1221
819,819,0,2047,2368
820,820,0,2046,3410
821,821,0,2046,4012
822,822,0,2047,3982
823,823,0,2046,3327
824,824,0,2046,2261
825,825,0,2046,1122
826,826,0,2046,277
827,827,0,2046,0
828,828,0,2047,371
829,829,0,2047,1280
830,830,0,2046,2431
831,831,0,2047,3457
832,832,0,2047,4027
833,833,0,2046,3961
834,834,0,2046,3277
835,835,0,2046,2197
836,836,0,2047,1067
837,837,0,2046,247
838,838,0,2047,1
839,839,0,2047,409
840,840,0,2047,1339
841,841,0,2047,2494
842,842,0,2046,3501
843,843,0,2047,4042
844,844,0,2046,3938
845,845,0,2047,3226
846,846,0,2047,2133
847,847,0,2047,1011
848,848,0,2046,217
849,849,0,2046,6
850,850,0,2047,447
851,851,0,2046,1399
852,852,0,2047,2555
853,853,0,2047,3545
854,854,0,2047,4053
855,855,0,2047,3914
856,856,0,2046,3174
857,857,0,2046,2069
858,858,0,2046,956
859,859,0,2046,188
860,860,0,2046,15
861,861,0,2046,488
862,862,0,2046,1459
863,863,0,2046,2616
864,864,0,2046,3588
865,865,0,2046,4062
866,866,0,2047,3888
867,867,0,2046,3121
868,868,0,2046,2006
869,869,0,2046,903
870,870,0,2047,163
871,871,0,2046,24
872,872,0,2046,531
873,873,0,2046,1521
874,874,0,2047,2677
875,875,0,2047,3628
876,876,0,2046,4071
877,877,0,2046,3860
878,878,0,2046,3066
879,879,0,2046,1942
880,880,0,2047,850
881,881,0,2046,138
882,882,0,2047,36
883,883,0,2046,575
884,884,0,2047,1583
885,885,0,2047,2737
886,886,0,2046,3668
887,887,0,2047,4075
888,888,0,2047,3830
889,889,0,2046,3011
890,890,0,2047,1880
891,891,0,2047,800
892,892,0,2047,115
893,893,0,2047,50
894,894,0,2046,619
895,895,0,2046,1645
896,896,0,2046,2797
897,897,0,2046,3705
898,898,0,2047,4080
899,899,0,2046,3799
900,900,0,2046,2954
901,901,0,2046,1816
902,902,0,2047,749
903,903,0,2047,96
904,904,0,2047,64
905,905,0,2046,666
906,906,0,2046,1708
907,907,0,2047,2855
908,908,0,2046,3741
909,909,0,2047,4081
910,910,0,2047,3766
911,911,0,2047,2897
912,912,0,2047,1753
913,913,0,2046,701
914,914,0,2046,77
915,915,0,2046,81
916,916,0,2046,713
917,917,0,2047,1771
918,918,0,2047,2914
919,919,0,2046,3775
920,920,0,2046,4081
921,921,0,2047,3731
922,922,0,2046,2839
923,923,0,2046,1690
924,924,0,2047,654
925,925,0,2046,60
926,926,0,2046,101
927,927,0,2046,763
928,928,0,2047,1834
929,929,0,2047,2970
930,930,0,2046,3808
931,931,0,2046,4078
932,932,0,2047,3694
933,933,0,2046,2780
934,934,0,2047,1628
935,935,0,2047,607
936,936,0,2047,45
937,937,0,2047,122
938,938,0,2047,813
939,939,0,2047,1897
940,940,0,2046,3027
941,941,0,2047,3839
942,942,0,2047,4074
943,943,0,2047,3657
944,944,0,2046,2720
945,945,0,2046,1566
946,946,0,2047,563
947,947,0,2046,32
948,948,0,2046,145
949,949,0,2046,865
950,950,0,2047,1961
951,951,0,2046,3082
952,952,0,2046,3868
953,953,0,2047,4068
954,954,0,2047,3617
955,955,0,2047,2660
956,956,0,2047,1504
957,957,0,2046,520
958,958,0,2046,21
959,959,0,2047,169
960,960,0,2046,917
961,961,0,2046,2024
962,962,0,2046,3136
963,963,0,2047,3895
964,964,0,2046,4060
965,965,0,2047,3576
966,966,0,2047,2599
967,967,0,2046,1442
968,968,0,2047,478
969,969,0,2046,12
970,970,0,2047,196
971,971,0,2047,971
972,972,0,2046,2088
973,973,0,2046,3189
974,974,0,2046,3922
975,975,0,2047,4049
976,976,0,2046,3533
977,977,0,2046,2538
978,978,0,2047,1382
979,979,0,2046,437
980,980,0,2046,5
981,981,0,2046,225
982,982,0,2046,1026
983,983,0,2046,2151
984,984,0,2046,3242
985,985,0,2047,3945
986,986,0,2046,4038
987,987,0,2046,3489
988,988,0,2047,2476
989,989,0,2046,1322
990,990,0,2046,398
991,991,0,2046,0
992,992,0,2046,255
993,993,0,2047,1082
994,994,0,2046,2215
995,995,0,2046,3292
996,996,0,2046,3967
997,997,0,2046,4024
998,998,0,2046,3444
999,999,0,2046,2413
1000,1000,0,2047,1263
1001,1001,0,2046,361
1002,1002,0,2046,0
1003,1003,0,2047,286
1004,1004,0,2046,1138
1005,1005,0,2047,2279
1006,1006,0,2046,3341
1007,1007,0,2047,3987
1008,1008,0,2046,4008
1009,1009,0,2047,3397
1010,1010,0,2046,2351
1011,1011,0,2046,1205
1012,1012,0,2046,326
1013,1013,0,2046,0
1014,1014,0,2047,320
1015,1015,0,2046,1196
1016,1016,0,2047,2341
1017,1017,0,2046,3390
1018,1018,0,2047,4005
1019,1019,0,2046,3989
1020,1020,0,2047,3348
1021,1021,0,2047,2287
1022,1022,0,2046,1147
1023,1023,0,2046,292
1024,1024,0,2047,0
1025,1025,0,2046,355
1026,1026,0,2046,1254
1027,1027,0,2047,2404
