Sample in Buffer,Sample in Window,TRIGGER,adc1_data_a_d0[11:0],adc1_data_b_d0[11:0]
0,0,0,2046,1362
1,1,0,2046,2438
2,2,0,2047,3405
3,3,0,2046,3992
4,4,0,2047,4038
5,5,0,2047,3527
6,6,0,2046,2604
7,7,0,2047,1523
8,8,0,2046,586
9,9,0,2046,53
10,10,0,2047,69
11,11,0,2047,632
12,12,0,2047,1585
13,13,0,2047,2663
14,14,0,2046,3570
15,15,0,2046,4051
16,16,0,2046,3973
17,17,0,2047,3357
18,18,0,2046,2376
19,19,0,2046,1302
20,20,0,2046,432
21,21,0,2046,8
22,22,0,2046,147
23,23,0,2047,811
24,24,0,2046,1814
25,25,0,2046,2881
26,26,0,2046,3714
27,27,0,2048,4083
28,28,0,2047,3883
29,29,0,2046,3171
30,30,0,2046,2145
31,31,0,2047,1089
32,32,0,2046,298
33,33,0,2047,0
34,34,0,2046,248
35,35,0,2047,1005
36,36,0,2047,2047
37,37,0,2046,3087
38,38,0,2047,3837
39,39,0,2047,4088
40,40,0,2046,3770
41,41,0,2047,2971
42,42,0,2046,1912
43,43,0,2046,889
44,44,0,2046,187
45,45,0,2047,0
46,46,0,2047,373
47,47,0,2047,1211
48,48,0,2046,2279
49,49,0,2047,3281
50,50,0,2046,3938
51,51,0,2047,4068
52,52,0,2047,3634
53,53,0,2046,2757
54,54,0,2047,1681
55,55,0,2047,705
56,56,0,2046,99
57,57,0,2046,30
58,58,0,2047,519
59,59,0,2047,1428
60,60,0,2047,2508
61,61,0,2046,3457
62,62,0,2047,4013
63,63,0,2046,4021
64,64,0,2047,3477
65,65,0,2047,2535
66,66,0,2046,1454
67,67,0,2046,537
68,68,0,2046,36
69,69,0,2046,90
70,70,0,2047,685
71,71,0,2047,1655
72,72,0,2047,2731
73,73,0,2046,3616
74,74,0,2046,4063
75,75,0,2047,3948
76,76,0,2048,3302
77,77,0,2046,2306
78,78,0,2046,1235
79,79,0,2047,389
80,80,0,2046,0
81,81,0,2047,176
82,82,0,2047,868
83,83,0,2046,1885
84,84,0,2047,2945
85,85,0,2047,3754
86,86,0,2047,4087
87,87,0,2047,3851
88,88,0,2046,3112
89,89,0,2046,2073
90,90,0,2047,1026
91,91,0,2047,261
92,92,0,2047,0
93,93,0,2046,285
94,94,0,2046,1066
95,95,0,2047,2118
96,96,0,2046,3148
97,97,0,2047,3870
98,98,0,2047,4084
99,99,0,2046,3730
100,100,0,2046,2906
101,101,0,2046,1840
102,102,0,2046,831
103,103,0,2047,157
104,104,0,2046,5
105,105,0,2047,416
106,106,0,2047,1277
107,107,0,2047,2350
108,108,0,2046,3336
109,109,0,2047,3962
110,110,0,2046,4056
111,111,0,2047,3588
112,112,0,2047,2690
113,113,0,2047,1611
114,114,0,2047,651
115,115,0,2047,78
116,116,0,2047,47
117,117,0,2046,568
118,118,0,2047,1497
119,119,0,2046,2577
120,120,0,2047,3508
121,121,0,2047,4031
122,122,0,2046,4000
123,123,0,2046,3426
124,124,0,2046,2465
125,125,0,2047,1386
126,126,0,2047,488
127,127,0,2046,22
128,128,0,2046,114
129,129,0,2047,740
130,130,0,2047,1725
131,131,0,2047,2798
132,132,0,2047,3661
133,133,0,2046,4072
134,134,0,2046,3920
135,135,0,2046,3245
136,136,0,2047,2235
137,137,0,2046,1171
138,138,0,2047,348
139,139,0,2047,0
140,140,0,2047,206
141,141,0,2047,927
142,142,0,2046,1957
143,143,0,2046,3009
144,144,0,2046,3792
145,145,0,2047,4089
146,146,0,2047,3816
147,147,0,2046,3049
148,148,0,2047,2002
149,149,0,2047,965
150,150,0,2046,227
151,151,0,2046,0
152,152,0,2047,322
153,153,0,2046,1129
154,154,0,2047,2190
155,155,0,2047,3207
156,156,0,2046,3901
157,157,0,2047,4078
158,158,0,2046,3688
159,159,0,2047,2840
160,160,0,2046,1770
161,161,0,2047,774
162,162,0,2046,129
163,163,0,2047,15
164,164,0,2046,460
165,165,0,2047,1344
166,166,0,2047,2420
167,167,0,2046,3390
168,168,0,2046,3986
169,169,0,2047,4041
170,170,0,2047,3539
171,171,0,2046,2621
172,172,0,2046,1541
173,173,0,2047,600
174,174,0,2047,58
175,175,0,2047,64
176,176,0,2046,618
177,177,0,2047,1567
178,178,0,2046,2646
179,179,0,2046,3557
180,180,0,2047,4046
181,181,0,2047,3978
182,182,0,2046,3373
183,183,0,2047,2395
184,184,0,2046,1319
185,185,0,2046,443
186,186,0,2047,10
187,187,0,2046,140
188,188,0,2046,796
189,189,0,2047,1796
190,190,0,2047,2864
191,191,0,2047,3703
192,192,0,2046,4081
193,193,0,2047,3891
194,194,0,2047,3186
195,195,0,2046,2163
196,196,0,2046,1106
197,197,0,2046,308
198,198,0,2047,0
199,199,0,2046,240
200,200,0,2046,987
201,201,0,2047,2028
202,202,0,2047,3071
203,203,0,2047,3829
204,204,0,2047,4088
205,205,0,2046,3779
206,206,0,2047,2987
207,207,0,2047,1931
208,208,0,2046,905
209,209,0,2047,195
210,210,0,2047,0
211,211,0,2047,363
212,212,0,2046,1195
213,213,0,2046,2261
214,214,0,2046,3266
215,215,0,2047,3931
216,216,0,2046,4070
217,217,0,2047,3646
218,218,0,2047,2774
219,219,0,2046,1699
220,220,0,2047,719
221,221,0,2046,105
222,222,0,2047,27
223,223,0,2047,507
224,224,0,2046,1412
225,225,0,2047,2490
226,226,0,2046,3443
227,227,0,2046,4007
228,228,0,2047,4025
229,229,0,2047,3491
230,230,0,2046,2552
231,231,0,2047,1473
232,232,0,2047,549
233,233,0,2046,40
234,234,0,2047,85
235,235,0,2046,672
236,236,0,2046,1637
237,237,0,2047,2714
238,238,0,2046,3604
239,239,0,2046,4060
240,240,0,2046,3955
241,241,0,2047,3317
242,242,0,2046,2323
243,243,0,2047,1253
244,244,0,2047,399
245,245,0,2047,1
246,246,0,2047,168
247,247,0,2046,853
248,248,0,2047,1867
249,249,0,2046,2928
250,250,0,2047,3743
251,251,0,2046,4086
252,252,0,2047,3860
253,253,0,2047,3126
254,254,0,2046,2092
255,255,0,2047,1043
256,256,0,2046,270
257,257,0,2046,0
258,258,0,2047,276
259,259,0,2046,1050
260,260,0,2047,2099
261,261,0,2047,3132
262,262,0,2046,3862
263,263,0,2047,4086
264,264,0,2046,3741
265,265,0,2046,2923
266,266,0,2046,1860
267,267,0,2047,846
268,268,0,2046,165
269,269,0,2046,2
270,270,0,2048,404
271,271,0,2047,1260
272,272,0,2047,2330
273,273,0,2046,3322
274,274,0,2046,3957
275,275,0,2046,4058
276,276,0,2046,3600
277,277,0,2046,2707
278,278,0,2047,1630
279,279,0,2046,665
280,280,0,2047,82
281,281,0,2047,42
282,282,0,2047,555
283,283,0,2047,1480
284,284,0,2046,2559
285,285,0,2047,3496
286,286,0,2047,4027
287,287,0,2046,4006
288,288,0,2047,3439
289,289,0,2046,2483
290,290,0,2047,1405
291,291,0,2046,502
292,292,0,2046,25
293,293,0,2047,107
294,294,0,2046,726
295,295,0,2047,1707
296,296,0,2047,2781
297,297,0,2046,3650
298,298,0,2047,4071
299,299,0,2046,3928
300,300,0,2047,3259
301,301,0,2047,2253
302,302,0,2047,1187
303,303,0,2047,358
304,304,0,2047,0
305,305,0,2046,197
306,306,0,2046,912
307,307,0,2047,1938
308,308,0,2047,2993
309,309,0,2047,3782
310,310,0,2046,4089
311,311,0,2047,3826
312,312,0,2046,3065
313,313,0,2047,2021
314,314,0,2046,981
315,315,0,2046,236
316,316,0,2046,0
317,317,0,2047,313
318,318,0,2046,1113
319,319,0,2047,2171
320,320,0,2047,3192
321,321,0,2046,3893
322,322,0,2047,4081
323,323,0,2047,3700
324,324,0,2046,2857
325,325,0,2046,1788
326,326,0,2046,788
327,327,0,2046,137
328,328,0,2046,12
329,329,0,2047,448
330,330,0,2047,1326
331,331,0,2047,2402
332,332,0,2047,3377
333,333,0,2046,3981
334,334,0,2046,4045
335,335,0,2046,3553
336,336,0,2047,2639
337,337,0,2046,1559
338,338,0,2047,613
339,339,0,2047,62
340,340,0,2045,60
341,341,0,2046,606
342,342,0,2046,1549
343,343,0,2047,2628
344,344,0,2047,3545
345,345,0,2047,4043
346,346,0,2046,3985
347,347,0,2046,3386
348,348,0,2047,2413
349,349,0,2047,1337
350,350,0,2047,455
351,351,0,2046,13
352,352,0,2046,133
353,353,0,2047,781
354,354,0,2047,1777
355,355,0,2047,2846
356,356,0,2047,3693
357,357,0,2047,4079
358,358,0,2047,3899
359,359,0,2047,3202
360,360,0,2047,2182
361,361,0,2047,1122
362,362,0,2046,318
363,363,0,2047,0
364,364,0,2046,230
365,365,0,2046,972
366,366,0,2047,2010
367,367,0,2047,3055
368,368,0,2047,3819
369,369,0,2047,4089
370,370,0,2047,3789
371,371,0,2047,3003
372,372,0,2047,1950
373,373,0,2047,921
374,374,0,2047,203
375,375,0,2047,0
376,376,0,2047,352
377,377,0,2046,1177
378,378,0,2047,2242
379,379,0,2047,3250
380,380,0,2046,3923
381,381,0,2046,4072
382,382,0,2046,3657
383,383,0,2046,2792
384,384,0,2046,1717
385,385,0,2047,733
386,386,0,2046,111
387,387,0,2046,23
388,388,0,2047,494
389,389,0,2047,1394
390,390,0,2046,2472
391,391,0,2047,3430
392,392,0,2046,4002
393,393,0,2047,4030
394,394,0,2047,3504
395,395,0,2046,2571
396,396,0,2046,1489
397,397,0,2047,563
398,398,0,2047,45
399,399,0,2046,79
400,400,0,2047,658
401,401,0,2046,1618
402,402,0,2047,2696
403,403,0,2047,3592
404,404,0,2047,4056
405,405,0,2047,3961
406,406,0,2046,3331
407,407,0,2046,2342
408,408,0,2046,1270
409,409,0,2047,410
410,410,0,2046,3
411,411,0,2046,161
412,412,0,2047,838
413,413,0,2046,1849
414,414,0,2047,2911
415,415,0,2047,3733
416,416,0,2046,4084
417,417,0,2047,3869
418,418,0,2046,3143
419,419,0,2046,2111
420,420,0,2046,1059
421,421,0,2047,280
422,422,0,2046,0
423,423,0,2046,265
424,424,0,2046,1033
425,425,0,2047,2081
426,426,0,2046,3116
427,427,0,2047,3853
428,428,0,2047,4087
429,429,0,2046,3751
430,430,0,2046,2939
431,431,0,2047,1878
432,432,0,2047,861
433,433,0,2047,172
434,434,0,2046,0
435,435,0,2047,393
436,436,0,2047,1243
437,437,0,2046,2313
438,438,0,2047,3307
439,439,0,2046,3949
440,440,0,2046,4061
441,441,0,2047,3613
442,442,0,2046,2724
443,443,0,2046,1647
444,444,0,2046,679
445,445,0,2046,88
446,446,0,2047,38
447,447,0,2046,542
448,448,0,2047,1461
449,449,0,2047,2541
450,450,0,2047,3482
451,451,0,2047,4022
452,452,0,2047,4011
453,453,0,2046,3453
454,454,0,2046,2501
455,455,0,2046,1422
456,456,0,2046,514
457,457,0,2046,29
458,458,0,2047,101
459,459,0,2046,710
460,460,0,2046,1688
461,461,0,2047,2763
462,462,0,2047,3638
463,463,0,2047,4068
464,464,0,2047,3935
465,465,0,2047,3275
466,466,0,2046,2272
467,467,0,2047,1204
468,468,0,2046,368
469,469,0,2046,0
470,470,0,2046,190
471,471,0,2047,896
472,472,0,2047,1919
473,473,0,2046,2976
474,474,0,2047,3773
475,475,0,2046,4088
476,476,0,2047,3835
477,477,0,2047,3082
478,478,0,2047,2040
479,479,0,2046,997
480,480,0,2046,245
481,481,0,2046,0
482,482,0,2046,302
483,483,0,2047,1096
484,484,0,2047,2152
485,485,0,2046,3176
486,486,0,2046,3885
487,487,0,2047,4082
488,488,0,2047,3711
489,489,0,2047,2875
490,490,0,2047,1807
491,491,0,2046,804
492,492,0,2046,144
493,493,0,2047,9
494,494,0,2046,437
495,495,0,2047,1308
496,496,0,2046,2384
497,497,0,2047,3362
498,498,0,2046,3974
499,499,0,2047,4049
500,500,0,2047,3565
501,501,0,2046,2658
502,502,0,2047,1578
503,503,0,2046,626
504,504,0,2046,68
505,505,0,2047,55
506,506,0,2047,592
507,507,0,2046,1531
508,508,0,2046,2610
509,509,0,2047,3532
510,510,0,2046,4038
511,511,0,2046,3991
512,512,0,2047,3400
513,513,0,2047,2432
514,514,0,2047,1354
515,515,0,2046,467
516,516,0,2046,16
517,517,0,2047,126
518,518,0,2046,766
519,519,0,2046,1758
520,520,0,2047,2829
521,521,0,2046,3681
522,522,0,2046,4077
523,523,0,2047,3907
524,524,0,2047,3217
525,525,0,2046,2200
526,526,0,2046,1140
527,527,0,2047,328
528,528,0,2046,0
529,529,0,2047,222
530,530,0,2046,956
531,531,0,2047,1991
532,532,0,2046,3039
533,533,0,2047,3810
534,534,0,2046,4089
535,535,0,2046,3799
536,536,0,2046,3020
537,537,0,2047,1968
538,538,0,2047,937
539,539,0,2047,212
540,540,0,2047,0
541,541,0,2047,341
542,542,0,2046,1161
543,543,0,2046,2224
544,544,0,2046,3235
545,545,0,2047,3916
546,546,0,2046,4075
547,547,0,2046,3668
548,548,0,2047,2809
549,549,0,2046,1736
550,550,0,2046,748
551,551,0,2046,117
552,552,0,2046,21
553,553,0,2047,482
554,554,0,2046,1376
555,555,0,2046,2453
556,556,0,2047,3416
557,557,0,2046,3997
558,558,0,2046,4033
559,559,0,2046,3517
560,560,0,2046,2588
561,561,0,2046,1509
562,562,0,2046,576
563,563,0,2046,49
564,564,0,2046,74
565,565,0,2046,644
566,566,0,2046,1601
567,567,0,2047,2679
568,568,0,2046,3581
569,569,0,2046,4053
570,570,0,2047,3967
571,571,0,2046,3346
572,572,0,2046,2361
573,573,0,2047,1288
574,574,0,2047,423
575,575,0,2046,6
576,576,0,2047,152
577,577,0,2046,823
578,578,0,2046,1830
579,579,0,2047,2895
580,580,0,2047,3722
581,581,0,2046,4083
582,582,0,2047,3876
583,583,0,2047,3158
584,584,0,2046,2129
585,585,0,2047,1076
586,586,0,2047,290
587,587,0,2046,0
588,588,0,2047,256
589,589,0,2046,1017
590,590,0,2047,2061
591,591,0,2046,3100
592,592,0,2047,3844
593,593,0,2047,4087
594,594,0,2047,3760
595,595,0,2046,2956
596,596,0,2047,1897
597,597,0,2047,877
598,598,0,2046,180
599,599,0,2046,0
600,600,0,2046,382
601,601,0,2047,1225
602,602,0,2046,2294
603,603,0,2046,3292
604,604,0,2047,3943
605,605,0,2046,4065
606,606,0,2047,3625
607,607,0,2046,2743
608,608,0,2047,1666
609,609,0,2046,693
610,610,0,2046,94
611,611,0,2047,34
612,612,0,2047,530
613,613,0,2047,1444
614,614,0,2046,2523
615,615,0,2047,3468
616,616,0,2047,4017
617,617,0,2047,4016
618,618,0,2047,3466
619,619,0,2047,2519
620,620,0,2047,1440
621,621,0,2047,526
622,622,0,2047,33
623,623,0,2047,95
624,624,0,2047,697
625,625,0,2047,1670
626,626,0,2047,2745
627,627,0,2047,3626
628,628,0,2047,4065
629,629,0,2046,3943
630,630,0,2047,3290
631,631,0,2046,2290
632,632,0,2047,1221
633,633,0,2046,379
634,634,0,2047,0
635,635,0,2046,182
636,636,0,2046,881
637,637,0,2047,1901
638,638,0,2046,2959
639,639,0,2047,3762
640,640,0,2046,4087
641,641,0,2047,3844
642,642,0,2046,3098
643,643,0,2047,2058
644,644,0,2047,1014
645,645,0,2047,254
646,646,0,2046,0
647,647,0,2047,292
648,648,0,2046,1079
649,649,0,2046,2134
650,650,0,2046,3161
651,651,0,2047,3877
652,652,0,2046,4083
653,653,0,2047,3722
654,654,0,2047,2892
655,655,0,2047,1826
656,656,0,2046,819
657,657,0,2046,151
658,658,0,2047,7
659,659,0,2046,425
660,660,0,2047,1292
661,661,0,2046,2365
662,662,0,2047,3349
663,663,0,2047,3968
664,664,0,2046,4053
665,665,0,2047,3578
666,666,0,2047,2675
667,667,0,2046,1596
668,668,0,2046,640
669,669,0,2047,72
670,670,0,2046,50
671,671,0,2046,579
672,672,0,2047,1512
673,673,0,2047,2591
674,674,0,2047,3519
675,675,0,2047,4035
676,676,0,2046,3996
677,677,0,2046,3414
678,678,0,2046,2450
679,679,0,2047,1372
680,680,0,2046,479
681,681,0,2047,20
682,682,0,2047,119
683,683,0,2046,751
684,684,0,2047,1740
685,685,0,2047,2812
686,686,0,2046,3670
687,687,0,2047,4075
688,688,0,2046,3914
689,689,0,2047,3233
690,690,0,2046,2220
691,691,0,2047,1156
692,692,0,2046,339
693,693,0,2046,0
694,694,0,2046,213
695,695,0,2047,941
696,696,0,2046,1972
697,697,0,2046,3023
698,698,0,2046,3800
699,699,0,2046,4089
700,700,0,2046,3808
701,701,0,2047,3036
702,702,0,2046,1987
703,703,0,2046,952
704,704,0,2047,220
705,705,0,2046,0
706,706,0,2046,330
707,707,0,2046,1143
708,708,0,2047,2205
709,709,0,2046,3220
710,710,0,2046,3908
711,711,0,2046,4077
712,712,0,2046,3679
713,713,0,2047,2826
714,714,0,2047,1755
715,715,0,2047,762
716,716,0,2046,124
717,717,0,2046,17
718,718,0,2046,470
719,719,0,2047,1358
720,720,0,2047,2435
721,721,0,2047,3402
722,722,0,2046,3991
723,723,0,2047,4038
724,724,0,2047,3529
725,725,0,2046,2606
726,726,0,2047,1526
727,727,0,2047,589
728,728,0,2047,53
729,729,0,2046,69
730,730,0,2047,629
731,731,0,2047,1582
732,732,0,2046,2661
733,733,0,2047,3567
734,734,0,2047,4049
735,735,0,2046,3975
736,736,0,2046,3360
737,737,0,2046,2380
738,738,0,2046,1305
739,739,0,2046,434
740,740,0,2047,8
741,741,0,2046,146
742,742,0,2047,807
743,743,0,2047,1811
744,744,0,2046,2878
745,745,0,2047,3712
746,746,0,2046,4081
747,747,0,2047,3884
748,748,0,2047,3174
749,749,0,2047,2148
750,750,0,2047,1092
751,751,0,2047,299
752,752,0,2046,0
753,753,0,2046,246
754,754,0,2046,1001
755,755,0,2046,2044
756,756,0,2046,3085
757,757,0,2046,3835
758,758,0,2046,4088
759,759,0,2046,3772
760,760,0,2047,2973
761,761,0,2047,1915
762,762,0,2046,893
763,763,0,2046,188
764,764,0,2046,0
765,765,0,2046,371
766,766,0,2046,1208
767,767,0,2046,2276
768,768,0,2047,3277
769,769,0,2046,3936
770,770,0,2046,4068
771,771,0,2046,3636
772,772,0,2046,2760
773,773,0,2046,1684
774,774,0,2046,707
775,775,0,2047,100
776,776,0,2046,30
777,777,0,2047,517
778,778,0,2047,1426
779,779,0,2047,2505
780,780,0,2046,3455
781,781,0,2047,4012
782,782,0,2046,4022
783,783,0,2046,3479
784,784,0,2046,2537
785,785,0,2046,1458
786,786,0,2047,540
787,787,0,2047,36
788,788,0,2046,89
789,789,0,2046,682
790,790,0,2047,1652
791,791,0,2047,2728
792,792,0,2046,3614
793,793,0,2046,4062
794,794,0,2047,3949
795,795,0,2046,3305
796,796,0,2046,2308
797,797,0,2046,1239
798,798,0,2046,390
799,799,0,2046,0
800,800,0,2047,173
801,801,0,2046,866
802,802,0,2046,1882
803,803,0,2046,2942
804,804,0,2046,3752
805,805,0,2046,4087
806,806,0,2046,3853
807,807,0,2046,3114
808,808,0,2046,2077
809,809,0,2046,1030
810,810,0,2046,263
811,811,0,2047,0
812,812,0,2047,283
813,813,0,2047,1064
814,814,0,2047,2114
815,815,0,2047,3144
816,816,0,2047,3869
817,817,0,2046,4084
818,818,0,2046,3732
819,819,0,2047,2909
820,820,0,2047,1844
821,821,0,2047,834
822,822,0,2046,158
823,823,0,2046,4
824,824,0,2046,414
825,825,0,2047,1274
826,826,0,2047,2346
827,827,0,2046,3334
828,828,0,2046,3962
829,829,0,2046,4056
830,830,0,2046,3590
831,831,0,2047,2692
832,832,0,2046,1614
833,833,0,2047,653
834,834,0,2046,78
835,835,0,2047,45
836,836,0,2046,566
837,837,0,2047,1495
838,838,0,2046,2574
839,839,0,2046,3505
840,840,0,2046,4030
841,841,0,2047,4002
842,842,0,2046,3428
843,843,0,2047,2468
844,844,0,2047,1389
845,845,0,2047,492
846,846,0,2046,23
847,847,0,2046,113
848,848,0,2046,737
849,849,0,2046,1722
850,850,0,2047,2795
851,851,0,2046,3659
852,852,0,2046,4072
853,853,0,2047,3922
854,854,0,2046,3247
855,855,0,2046,2237
856,856,0,2046,1173
857,857,0,2047,349
858,858,0,2047,0
859,859,0,2046,205
860,860,0,2046,924
861,861,0,2047,1954
862,862,0,2047,3006
863,863,0,2046,3790
864,864,0,2047,4089
865,865,0,2046,3818
866,866,0,2046,3053
867,867,0,2046,2005
868,868,0,2047,968
869,869,0,2046,228
870,870,0,2046,0
871,871,0,2046,321
872,872,0,2046,1126
873,873,0,2047,2185
874,874,0,2047,3204
875,875,0,2046,3900
876,876,0,2046,4079
877,877,0,2047,3691
878,878,0,2047,2843
879,879,0,2046,1773
880,880,0,2047,777
881,881,0,2046,131
882,882,0,2046,14
883,883,0,2047,458
884,884,0,2047,1340
885,885,0,2046,2417
886,886,0,2047,3388
887,887,0,2046,3985
888,888,0,2046,4042
889,889,0,2046,3542
890,890,0,2047,2624
891,891,0,2046,1545
892,892,0,2046,603
893,893,0,2046,58
894,894,0,2047,63
895,895,0,2046,616
896,896,0,2046,1564
897,897,0,2047,2642
898,898,0,2046,3555
899,899,0,2046,4046
900,900,0,2046,3979
901,901,0,2046,3375
902,902,0,2046,2397
903,903,0,2047,1322
904,904,0,2046,445
905,905,0,2046,10
906,906,0,2046,139
907,907,0,2046,793
908,908,0,2046,1793
909,909,0,2047,2861
910,910,0,2046,3700
911,911,0,2047,4080
912,912,0,2046,3893
913,913,0,2046,3189
914,914,0,2047,2167
915,915,0,2047,1109
916,916,0,2047,309
917,917,0,2046,0
918,918,0,2047,238
919,919,0,2046,985
920,920,0,2047,2025
921,921,0,2047,3068
922,922,0,2046,3826
923,923,0,2046,4089
924,924,0,2046,3781
925,925,0,2046,2990
926,926,0,2047,1934
927,927,0,2046,908
928,928,0,2046,196
929,929,0,2046,0
930,930,0,2046,360
931,931,0,2046,1192
932,932,0,2047,2257
933,933,0,2047,3264
934,934,0,2046,3929
935,935,0,2047,4070
936,936,0,2046,3647
937,937,0,2047,2777
938,938,0,2046,1703
939,939,0,2046,721
940,940,0,2047,107
941,941,0,2047,26
942,942,0,2046,504
943,943,0,2046,1408
944,944,0,2047,2487
945,945,0,2047,3441
946,946,0,2047,4007
947,947,0,2047,4025
948,948,0,2047,3493
949,949,0,2046,2555
950,950,0,2046,1475
951,951,0,2046,552
952,952,0,2046,41
953,953,0,2046,84
954,954,0,2046,669
955,955,0,2047,1633
956,956,0,2046,2710
957,957,0,2046,3602
958,958,0,2046,4059
959,959,0,2047,3956
960,960,0,2047,3319
961,961,0,2047,2327
962,962,0,2046,1256
963,963,0,2046,402
964,964,0,2046,2
965,965,0,2046,166
966,966,0,2047,850
967,967,0,2047,1863
968,968,0,2046,2925
969,969,0,2047,3742
970,970,0,2046,4085
971,971,0,2047,3860
972,972,0,2046,3129
973,973,0,2047,2095
974,974,0,2047,1046
975,975,0,2047,272
976,976,0,2046,0
977,977,0,2046,274
978,978,0,2047,1047
979,979,0,2047,2095
980,980,0,2047,3129
981,981,0,2046,3860
982,982,0,2047,4086
983,983,0,2046,3743
984,984,0,2046,2926
985,985,0,2047,1863
986,986,0,2047,848
987,987,0,2046,166
988,988,0,2046,2
989,989,0,2046,402
990,990,0,2046,1257
991,991,0,2047,2328
992,992,0,2047,3319
993,993,0,2047,3956
994,994,0,2046,4059
995,995,0,2047,3602
996,996,0,2047,2710
997,997,0,2047,1632
998,998,0,2047,667
999,999,0,2046,83
1000,1000,0,2046,41
1001,1001,0,2047,553
1002,1002,0,2046,1476
1003,1003,0,2047,2555
1004,1004,0,2046,3492
1005,1005,0,2047,4026
1006,1006,0,2046,4007
1007,1007,0,2047,3441
1008,1008,0,2046,2486
1009,1009,0,2047,1408
1010,1010,0,2046,504
1011,1011,0,2046,26
1012,1012,0,2046,107
1013,1013,0,2046,722
1014,1014,0,2046,1703
1015,1015,0,2046,2778
1016,1016,0,2046,3647
1017,1017,0,2046,4070
1018,1018,0,2047,3929
1019,1019,0,2046,3263
1020,1020,0,2047,2256
1021,1021,0,2047,1190
1022,1022,0,2047,359
1023,1023,0,2046,0
1024,1024,0,2047,197
1025,1025,0,2047,909
1026,1026,0,2046,1935
1027,1027,0,2046,2990
