Sample in Buffer,Sample in Window,TRIGGER,adc1_data_a_d0[11:0],adc1_data_b_d0[11:0]
0,0,0,2047,1696
1,1,0,2047,1966
2,2,0,2047,2238
3,3,0,2047,2506
4,4,0,2047,2766
5,5,0,2047,3014
6,6,0,2046,3244
7,7,0,2047,3455
8,8,0,2047,3641
9,9,0,2046,3801
10,10,0,2046,3930
11,11,0,2047,4027
12,12,0,2046,4090
13,13,0,2047,4095
14,14,0,2047,4095
15,15,0,2046,4068
16,16,0,2047,3991
17,17,0,2047,3881
18,18,0,2047,3739
19,19,0,2046,3569
20,20,0,2046,3372
21,21,0,2046,3153
22,22,0,2046,2914
23,23,0,2047,2661
24,24,0,2046,2396
25,25,0,2047,2126
26,26,0,2047,1854
27,27,0,2046,1585
28,28,0,2046,1324
29,29,0,2047,1073
30,30,0,2047,841
31,31,0,2047,629
32,32,0,2046,439
33,33,0,2046,279
34,34,0,2047,148
35,35,0,2046,48
36,36,0,2046,0
37,37,0,2046,0
38,38,0,2046,0
39,39,0,2047,4
40,40,0,2046,80
41,41,0,2047,190
42,42,0,2047,331
43,43,0,2047,502
44,44,0,2047,699
45,45,0,2046,919
46,46,0,2046,1158
47,47,0,2047,1411
48,48,0,2047,1675
49,49,0,2046,1944
50,50,0,2046,2216
51,51,0,2047,2485
52,52,0,2047,2746
53,53,0,2047,2995
54,54,0,2047,3228
55,55,0,2046,3440
56,56,0,2046,3628
57,57,0,2047,3790
58,58,0,2047,3920
59,59,0,2046,4020
60,60,0,2046,4087
61,61,0,2046,4095
62,62,0,2046,4095
63,63,0,2046,4073
64,64,0,2047,3998
65,65,0,2047,3890
66,66,0,2046,3751
67,67,0,2047,3583
68,68,0,2047,3389
69,69,0,2046,3170
70,70,0,2046,2933
71,71,0,2046,2681
72,72,0,2047,2417
73,73,0,2046,2147
74,74,0,2047,1875
75,75,0,2046,1605
76,76,0,2047,1343
77,77,0,2046,1092
78,78,0,2047,858
79,79,0,2046,643
80,80,0,2046,454
81,81,0,2046,290
82,82,0,2046,156
83,83,0,2047,55
84,84,0,2046,0
85,85,0,2046,0
86,86,0,2047,0
87,87,0,2046,0
88,88,0,2046,73
89,89,0,2046,180
90,90,0,2046,320
91,91,0,2046,488
92,92,0,2046,683
93,93,0,2046,901
94,94,0,2046,1138
95,95,0,2047,1390
96,96,0,2046,1655
97,97,0,2046,1924
98,98,0,2046,2196
99,99,0,2047,2465
100,100,0,2047,2727
101,101,0,2046,2976
102,102,0,2046,3210
103,103,0,2047,3424
104,104,0,2047,3614
105,105,0,2046,3778
106,106,0,2047,3912
107,107,0,2047,4014
108,108,0,2046,4083
109,109,0,2047,4095
110,110,0,2047,4095
111,111,0,2047,4077
112,112,0,2046,4006
113,113,0,2046,3901
114,114,0,2047,3764
115,115,0,2046,3597
116,116,0,2047,3404
117,117,0,2047,3188
118,118,0,2046,2952
119,119,0,2047,2701
120,120,0,2047,2438
121,121,0,2047,2168
122,122,0,2047,1896
123,123,0,2047,1625
124,124,0,2046,1363
125,125,0,2047,1111
126,126,0,2046,875
127,127,0,2046,659
128,128,0,2047,467
129,129,0,2047,302
130,130,0,2046,165
131,131,0,2046,62
132,132,0,2046,0
133,133,0,2046,0
134,134,0,2046,0
135,135,0,2047,0
136,136,0,2046,66
137,137,0,2046,171
138,138,0,2046,309
139,139,0,2047,474
140,140,0,2047,667
141,141,0,2047,884
142,142,0,2046,1119
143,143,0,2046,1371
144,144,0,2046,1634
145,145,0,2046,1903
146,146,0,2047,2174
147,147,0,2046,2444
148,148,0,2047,2707
149,149,0,2046,2957
150,150,0,2046,3193
151,151,0,2046,3408
152,152,0,2046,3601
153,153,0,2047,3766
154,154,0,2047,3903
155,155,0,2047,4007
156,156,0,2047,4078
157,157,0,2046,4095
158,158,0,2047,4095
159,159,0,2046,4081
160,160,0,2047,4012
161,161,0,2047,3909
162,162,0,2046,3775
163,163,0,2046,3611
164,164,0,2047,3420
165,165,0,2046,3204
166,166,0,2047,2970
167,167,0,2046,2721
168,168,0,2047,2458
169,169,0,2047,2189
170,170,0,2047,1917
171,171,0,2047,1647
172,172,0,2047,1382
173,173,0,2046,1131
174,174,0,2047,893
175,175,0,2047,675
176,176,0,2047,481
177,177,0,2047,313
178,178,0,2046,175
179,179,0,2047,69
180,180,0,2046,0
181,181,0,2046,0
182,182,0,2046,0
183,183,0,2046,0
184,184,0,2047,59
185,185,0,2046,162
186,186,0,2047,296
187,187,0,2047,460
188,188,0,2047,651
189,189,0,2046,867
190,190,0,2047,1101
191,191,0,2046,1351
192,192,0,2046,1613
193,193,0,2046,1883
194,194,0,2047,2154
195,195,0,2047,2423
196,196,0,2046,2687
197,197,0,2047,2939
198,198,0,2047,3175
199,199,0,2046,3392
200,200,0,2046,3587
201,201,0,2046,3755
202,202,0,2046,3894
203,203,0,2047,4000
204,204,0,2047,4074
205,205,0,2046,4095
206,206,0,2047,4095
207,207,0,2046,4085
208,208,0,2047,4018
209,209,0,2047,3918
210,210,0,2047,3787
211,211,0,2046,3625
212,212,0,2047,3436
213,213,0,2047,3223
214,214,0,2047,2990
215,215,0,2047,2740
216,216,0,2047,2479
217,217,0,2046,2210
218,218,0,2046,1938
219,219,0,2046,1667
220,220,0,2047,1403
221,221,0,2047,1150
222,222,0,2047,911
223,223,0,2047,692
224,224,0,2047,495
225,225,0,2046,325
226,226,0,2046,184
227,227,0,2047,76
228,228,0,2046,0
229,229,0,2047,0
230,230,0,2046,0
231,231,0,2046,0
232,232,0,2047,52
233,233,0,2046,153
234,234,0,2047,285
235,235,0,2046,447
236,236,0,2046,636
237,237,0,2047,848
238,238,0,2046,1081
239,239,0,2046,1331
240,240,0,2046,1592
241,241,0,2046,1861
242,242,0,2047,2132
243,243,0,2047,2402
244,244,0,2046,2666
245,245,0,2046,2919
246,246,0,2047,3157
247,247,0,2047,3376
248,248,0,2046,3572
249,249,0,2047,3743
250,250,0,2047,3884
251,251,0,2046,3993
252,252,0,2047,4069
253,253,0,2047,4095
254,254,0,2047,4095
255,255,0,2046,4088
256,256,0,2047,4024
257,257,0,2046,3928
258,258,0,2047,3797
259,259,0,2046,3639
260,260,0,2046,3451
261,261,0,2047,3239
262,262,0,2047,3008
263,263,0,2047,2759
264,264,0,2046,2499
265,265,0,2046,2231
266,266,0,2047,1959
267,267,0,2047,1688
268,268,0,2047,1423
269,269,0,2047,1168
270,270,0,2047,929
271,271,0,2047,708
272,272,0,2047,509
273,273,0,2046,337
274,274,0,2046,194
275,275,0,2046,83
276,276,0,2047,6
277,277,0,2046,0
278,278,0,2046,0
279,279,0,2047,0
280,280,0,2046,46
281,281,0,2047,144
282,282,0,2046,274
283,283,0,2047,433
284,284,0,2047,620
285,285,0,2046,832
286,286,0,2047,1064
287,287,0,2047,1311
288,288,0,2046,1572
289,289,0,2047,1840
290,290,0,2046,2112
291,291,0,2047,2382
292,292,0,2046,2646
293,293,0,2046,2901
294,294,0,2046,3140
295,295,0,2046,3360
296,296,0,2046,3558
297,297,0,2046,3731
298,298,0,2046,3875
299,299,0,2047,3986
300,300,0,2046,4064
301,301,0,2046,4095
302,302,0,2046,4095
303,303,0,2046,4092
304,304,0,2046,4031
305,305,0,2046,3936
306,306,0,2047,3808
307,307,0,2047,3652
308,308,0,2046,3466
309,309,0,2047,3257
310,310,0,2047,3027
311,311,0,2046,2780
312,312,0,2046,2520
313,313,0,2047,2251
314,314,0,2046,1979
315,315,0,2046,1709
316,316,0,2047,1443
317,317,0,2047,1187
318,318,0,2046,946
319,319,0,2046,724
320,320,0,2046,524
321,321,0,2046,349
322,322,0,2046,203
323,323,0,2046,91
324,324,0,2046,9
325,325,0,2046,0
326,326,0,2046,0
327,327,0,2046,0
328,328,0,2046,40
329,329,0,2047,134
330,330,0,2046,262
331,331,0,2046,420
332,332,0,2046,605
333,333,0,2047,814
334,334,0,2047,1045
335,335,0,2046,1292
336,336,0,2047,1552
337,337,0,2047,1819
338,338,0,2047,2091
339,339,0,2047,2362
340,340,0,2047,2627
341,341,0,2047,2882
342,342,0,2046,3122
343,343,0,2047,3345
344,344,0,2047,3544
345,345,0,2046,3718
346,346,0,2046,3865
347,347,0,2047,3978
348,348,0,2047,4061
349,349,0,2047,4095
350,350,0,2047,4095
351,351,0,2046,4095
352,352,0,2046,4037
353,353,0,2046,3944
354,354,0,2047,3820
355,355,0,2047,3664
356,356,0,2047,3481
357,357,0,2046,3274
358,358,0,2047,3045
359,359,0,2046,2800
360,360,0,2046,2540
361,361,0,2047,2272
362,362,0,2046,2001
363,363,0,2047,1730
364,364,0,2047,1463
365,365,0,2047,1206
366,366,0,2046,965
367,367,0,2046,741
368,368,0,2046,538
369,369,0,2046,362
370,370,0,2046,214
371,371,0,2046,98
372,372,0,2046,15
373,373,0,2046,0
374,374,0,2047,0
375,375,0,2046,0
376,376,0,2047,34
377,377,0,2046,127
378,378,0,2046,252
379,379,0,2046,407
380,380,0,2047,590
381,381,0,2047,797
382,382,0,2047,1027
383,383,0,2047,1273
384,384,0,2046,1531
385,385,0,2046,1798
386,386,0,2046,2071
387,387,0,2047,2341
388,388,0,2047,2607
389,389,0,2047,2863
390,390,0,2047,3105
391,391,0,2046,3328
392,392,0,2047,3530
393,393,0,2046,3706
394,394,0,2047,3854
395,395,0,2046,3970
396,396,0,2046,4055
397,397,0,2047,4095
398,398,0,2046,4095
399,399,0,2046,4095
400,400,0,2046,4043
401,401,0,2047,3952
402,402,0,2047,3830
403,403,0,2047,3677
404,404,0,2047,3496
405,405,0,2046,3291
406,406,0,2047,3064
407,407,0,2047,2819
408,408,0,2046,2560
409,409,0,2046,2293
410,410,0,2046,2022
411,411,0,2047,1749
412,412,0,2046,1483
413,413,0,2046,1226
414,414,0,2047,983
415,415,0,2047,757
416,416,0,2047,553
417,417,0,2047,375
418,418,0,2047,225
419,419,0,2047,106
420,420,0,2047,20
421,421,0,2046,0
422,422,0,2046,0
423,423,0,2046,0
424,424,0,2046,29
425,425,0,2046,118
426,426,0,2047,240
427,427,0,2047,393
428,428,0,2046,575
429,429,0,2046,780
430,430,0,2047,1008
431,431,0,2046,1253
432,432,0,2046,1511
433,433,0,2046,1778
434,434,0,2046,2050
435,435,0,2046,2319
436,436,0,2046,2586
437,437,0,2046,2843
438,438,0,2046,3086
439,439,0,2047,3311
440,440,0,2046,3515
441,441,0,2046,3693
442,442,0,2046,3844
443,443,0,2046,3963
444,444,0,2047,4049
445,445,0,2047,4095
446,446,0,2047,4095
447,447,0,2046,4095
448,448,0,2046,4049
449,449,0,2046,3961
450,450,0,2046,3841
451,451,0,2046,3691
452,452,0,2046,3511
453,453,0,2046,3308
454,454,0,2047,3082
455,455,0,2046,2838
456,456,0,2046,2581
457,457,0,2046,2314
458,458,0,2046,2043
459,459,0,2047,1771
460,460,0,2047,1504
461,461,0,2047,1246
462,462,0,2047,1000
463,463,0,2046,773
464,464,0,2046,567
465,465,0,2047,388
466,466,0,2047,236
467,467,0,2046,113
468,468,0,2046,26
469,469,0,2046,0
470,470,0,2046,0
471,471,0,2047,0
472,472,0,2046,23
473,473,0,2047,110
474,474,0,2046,231
475,475,0,2046,381
476,476,0,2047,560
477,477,0,2046,764
478,478,0,2046,990
479,479,0,2046,1234
480,480,0,2047,1491
481,481,0,2046,1757
482,482,0,2046,2028
483,483,0,2047,2299
484,484,0,2046,2566
485,485,0,2047,2823
486,486,0,2047,3068
487,487,0,2047,3295
488,488,0,2047,3500
489,489,0,2047,3681
490,490,0,2046,3833
491,491,0,2047,3955
492,492,0,2047,4045
493,493,0,2046,4095
494,494,0,2046,4095
495,495,0,2046,4095
496,496,0,2046,4053
497,497,0,2047,3969
498,498,0,2047,3852
499,499,0,2046,3703
500,500,0,2046,3526
501,501,0,2046,3324
502,502,0,2046,3100
503,503,0,2047,2857
504,504,0,2046,2601
505,505,0,2047,2335
506,506,0,2047,2064
507,507,0,2046,1792
508,508,0,2047,1524
509,509,0,2047,1265
510,510,0,2046,1018
511,511,0,2047,790
512,512,0,2046,582
513,513,0,2046,400
514,514,0,2046,246
515,515,0,2046,122
516,516,0,2047,31
517,517,0,2046,0
518,518,0,2046,0
519,519,0,2046,0
520,520,0,2046,18
521,521,0,2046,102
522,522,0,2046,219
523,523,0,2046,368
524,524,0,2046,545
525,525,0,2046,748
526,526,0,2047,972
527,527,0,2046,1215
528,528,0,2047,1471
529,529,0,2047,1736
530,530,0,2046,2007
531,531,0,2045,2279
532,532,0,2046,2546
533,533,0,2046,2805
534,534,0,2047,3050
535,535,0,2047,3278
536,536,0,2047,3485
537,537,0,2046,3668
538,538,0,2046,3823
539,539,0,2047,3947
540,540,0,2046,4038
541,541,0,2046,4095
542,542,0,2047,4095
543,543,0,2046,4095
544,544,0,2047,4059
545,545,0,2046,3977
546,546,0,2047,3862
547,547,0,2047,3715
548,548,0,2047,3541
549,549,0,2046,3340
550,550,0,2046,3118
551,551,0,2047,2876
552,552,0,2046,2621
553,553,0,2047,2355
554,554,0,2047,2084
555,555,0,2046,1813
556,556,0,2046,1545
557,557,0,2046,1284
558,558,0,2046,1037
559,559,0,2046,807
560,560,0,2046,597
561,561,0,2047,413
562,562,0,2046,256
563,563,0,2047,131
564,564,0,2046,37
565,565,0,2047,0
566,566,0,2047,0
567,567,0,2046,0
568,568,0,2047,13
569,569,0,2047,95
570,570,0,2047,210
571,571,0,2047,356
572,572,0,2047,530
573,573,0,2047,732
574,574,0,2047,954
575,575,0,2047,1196
576,576,0,2046,1451
577,577,0,2047,1715
578,578,0,2046,1986
579,579,0,2047,2258
580,580,0,2046,2526
581,581,0,2046,2785
582,582,0,2047,3031
583,583,0,2046,3261
584,584,0,2046,3470
585,585,0,2047,3654
586,586,0,2047,3811
587,587,0,2047,3938
588,588,0,2046,4033
589,589,0,2047,4093
590,590,0,2047,4095
591,591,0,2046,4095
592,592,0,2047,4064
593,593,0,2046,3984
594,594,0,2046,3871
595,595,0,2046,3727
596,596,0,2047,3555
597,597,0,2046,3357
598,598,0,2046,3135
599,599,0,2047,2896
600,600,0,2046,2642
601,601,0,2046,2376
602,602,0,2046,2106
603,603,0,2046,1834
604,604,0,2046,1565
605,605,0,2046,1304
606,606,0,2047,1056
607,607,0,2046,824
608,608,0,2046,614
609,609,0,2046,427
610,610,0,2047,268
611,611,0,2046,139
612,612,0,2047,42
613,613,0,2047,0
614,614,0,2046,0
615,615,0,2046,0
616,616,0,2047,8
617,617,0,2046,87
618,618,0,2047,200
619,619,0,2047,344
620,620,0,2046,516
621,621,0,2046,715
622,622,0,2046,936
623,623,0,2046,1176
624,624,0,2046,1430
625,625,0,2046,1695
626,626,0,2046,1966
627,627,0,2047,2237
628,628,0,2046,2505
629,629,0,2046,2765
630,630,0,2047,3013
631,631,0,2046,3245
632,632,0,2047,3455
633,633,0,2047,3641
634,634,0,2047,3801
635,635,0,2046,3929
636,636,0,2046,4026
637,637,0,2046,4090
638,638,0,2047,4095
639,639,0,2047,4095
640,640,0,2047,4068
641,641,0,2047,3991
642,642,0,2046,3881
643,643,0,2047,3740
644,644,0,2046,3569
645,645,0,2046,3373
646,646,0,2046,3154
647,647,0,2047,2914
648,648,0,2046,2661
649,649,0,2047,2396
650,650,0,2046,2126
651,651,0,2047,1854
652,652,0,2046,1585
653,653,0,2047,1324
654,654,0,2047,1075
655,655,0,2047,841
656,656,0,2046,629
657,657,0,2046,440
658,658,0,2046,278
659,659,0,2046,147
660,660,0,2046,49
661,661,0,2046,0
662,662,0,2046,0
663,663,0,2046,0
664,664,0,2046,3
665,665,0,2046,80
666,666,0,2047,190
667,667,0,2047,331
668,668,0,2046,502
669,669,0,2046,698
670,670,0,2046,918
671,671,0,2046,1157
672,672,0,2046,1411
673,673,0,2046,1675
674,674,0,2046,1945
675,675,0,2046,2215
676,676,0,2047,2485
677,677,0,2046,2746
678,678,0,2046,2996
679,679,0,2046,3227
680,680,0,2047,3439
681,681,0,2047,3628
682,682,0,2046,3789
683,683,0,2046,3921
684,684,0,2047,4020
685,685,0,2046,4087
686,686,0,2046,4095
687,687,0,2047,4095
688,688,0,2046,4073
689,689,0,2046,3999
690,690,0,2046,3891
691,691,0,2046,3752
692,692,0,2047,3584
693,693,0,2047,3389
694,694,0,2047,3170
695,695,0,2046,2934
696,696,0,2047,2681
697,697,0,2047,2417
698,698,0,2047,2147
699,699,0,2047,1875
700,700,0,2046,1605
701,701,0,2046,1343
702,702,0,2047,1093
703,703,0,2046,858
704,704,0,2046,644
705,705,0,2046,454
706,706,0,2046,290
707,707,0,2046,156
708,708,0,2047,55
709,709,0,2046,0
710,710,0,2046,0
711,711,0,2046,0
712,712,0,2047,0
713,713,0,2046,72
714,714,0,2046,179
715,715,0,2047,319
716,716,0,2047,487
717,717,0,2045,682
718,718,0,2047,900
719,719,0,2046,1137
720,720,0,2046,1390
721,721,0,2046,1654
722,722,0,2046,1924
723,723,0,2046,2195
724,724,0,2046,2464
725,725,0,2047,2725
726,726,0,2046,2975
727,727,0,2046,3210
728,728,0,2047,3423
729,729,0,2047,3614
730,730,0,2047,3777
731,731,0,2046,3911
732,732,0,2047,4014
733,733,0,2046,4082
734,734,0,2046,4095
735,735,0,2047,4095
736,736,0,2046,4077
737,737,0,2047,4005
738,738,0,2047,3900
739,739,0,2046,3763
740,740,0,2046,3598
741,741,0,2046,3405
742,742,0,2046,3189
743,743,0,2046,2953
744,744,0,2047,2701
745,745,0,2047,2438
746,746,0,2046,2168
747,747,0,2046,1896
748,748,0,2046,1626
749,749,0,2047,1363
750,750,0,2046,1112
751,751,0,2047,876
752,752,0,2047,660
753,753,0,2046,467
754,754,0,2046,302
755,755,0,2046,166
756,756,0,2047,62
757,757,0,2046,0
758,758,0,2047,0
759,759,0,2047,0
760,760,0,2046,0
761,761,0,2046,66
762,762,0,2046,171
763,763,0,2046,307
764,764,0,2046,474
765,765,0,2046,667
766,766,0,2046,883
767,767,0,2047,1118
768,768,0,2046,1370
769,769,0,2046,1632
770,770,0,2047,1902
771,771,0,2046,2174
772,772,0,2047,2443
773,773,0,2046,2706
774,774,0,2046,2957
775,775,0,2047,3192
776,776,0,2047,3407
777,777,0,2047,3600
778,778,0,2047,3766
779,779,0,2047,3903
780,780,0,2047,4007
781,781,0,2047,4079
782,782,0,2047,4095
783,783,0,2046,4095
784,784,0,2047,4082
785,785,0,2047,4012
786,786,0,2046,3910
787,787,0,2047,3775
788,788,0,2046,3611
789,789,0,2046,3420
790,790,0,2046,3206
791,791,0,2046,2971
792,792,0,2046,2722
793,793,0,2047,2459
794,794,0,2046,2190
795,795,0,2047,1918
796,796,0,2046,1647
797,797,0,2046,1384
798,798,0,2046,1131
799,799,0,2047,894
800,800,0,2046,676
801,801,0,2047,482
802,802,0,2046,313
803,803,0,2047,175
804,804,0,2047,69
805,805,0,2046,0
806,806,0,2046,0
807,807,0,2046,0
808,808,0,2047,0
809,809,0,2046,59
810,810,0,2047,161
811,811,0,2046,296
812,812,0,2046,460
813,813,0,2047,651
814,814,0,2046,866
815,815,0,2046,1100
816,816,0,2046,1350
817,817,0,2046,1612
818,818,0,2047,1882
819,819,0,2046,2152
820,820,0,2046,2423
821,821,0,2047,2687
822,822,0,2046,2939
823,823,0,2046,3175
824,824,0,2046,3393
825,825,0,2046,3586
826,826,0,2047,3754
827,827,0,2047,3894
828,828,0,2046,4000
829,829,0,2046,4075
830,830,0,2046,4095
831,831,0,2047,4095
832,832,0,2046,4086
833,833,0,2046,4018
834,834,0,2047,3918
835,835,0,2046,3787
836,836,0,2047,3625
837,837,0,2046,3436
838,838,0,2047,3223
839,839,0,2046,2990
840,840,0,2046,2741
841,841,0,2046,2480
842,842,0,2047,2210
843,843,0,2047,1938
844,844,0,2046,1668
845,845,0,2046,1404
846,846,0,2046,1149
847,847,0,2047,911
848,848,0,2047,692
849,849,0,2046,495
850,850,0,2047,326
851,851,0,2046,184
852,852,0,2047,76
853,853,0,2046,0
854,854,0,2046,0
855,855,0,2047,0
856,856,0,2046,0
857,857,0,2046,53
858,858,0,2046,152
859,859,0,2046,285
860,860,0,2047,446
861,861,0,2046,636
862,862,0,2046,849
863,863,0,2046,1081
864,864,0,2047,1331
865,865,0,2046,1592
866,866,0,2046,1861
867,867,0,2047,2132
868,868,0,2046,2402
869,869,0,2046,2666
870,870,0,2046,2919
871,871,0,2046,3157
872,872,0,2047,3376
873,873,0,2046,3572
874,874,0,2047,3743
875,875,0,2046,3884
876,876,0,2047,3993
877,877,0,2046,4069
878,878,0,2046,4095
879,879,0,2047,4095
880,880,0,2046,4089
881,881,0,2047,4024
882,882,0,2047,3927
883,883,0,2046,3797
884,884,0,2046,3639
885,885,0,2046,3451
886,886,0,2046,3240
887,887,0,2046,3008
888,888,0,2047,2761
889,889,0,2047,2500
890,890,0,2046,2231
891,891,0,2047,1959
892,892,0,2046,1688
893,893,0,2047,1423
894,894,0,2046,1169
895,895,0,2046,930
896,896,0,2046,708
897,897,0,2047,509
898,898,0,2046,338
899,899,0,2047,194
900,900,0,2046,83
901,901,0,2047,5
902,902,0,2047,0
903,903,0,2046,0
904,904,0,2046,0
905,905,0,2047,46
906,906,0,2046,143
907,907,0,2046,273
908,908,0,2046,433
909,909,0,2046,620
910,910,0,2046,831
911,911,0,2047,1063
912,912,0,2046,1311
913,913,0,2046,1572
914,914,0,2047,1840
915,915,0,2047,2112
916,916,0,2046,2382
917,917,0,2047,2646
918,918,0,2046,2900
919,919,0,2047,3140
920,920,0,2046,3360
921,921,0,2046,3558
922,922,0,2046,3731
923,923,0,2047,3874
924,924,0,2047,3986
925,925,0,2047,4064
926,926,0,2046,4095
927,927,0,2046,4095
928,928,0,2046,4092
929,929,0,2047,4031
930,930,0,2047,3936
931,931,0,2046,3809
932,932,0,2046,3652
933,933,0,2046,3467
934,934,0,2046,3257
935,935,0,2047,3027
936,936,0,2047,2780
937,937,0,2046,2521
938,938,0,2046,2253
939,939,0,2046,1981
940,940,0,2047,1710
941,941,0,2046,1444
942,942,0,2047,1188
943,943,0,2047,947
944,944,0,2046,724
945,945,0,2046,523
946,946,0,2046,349
947,947,0,2046,204
948,948,0,2046,91
949,949,0,2046,9
950,950,0,2047,0
951,951,0,2046,0
952,952,0,2046,0
953,953,0,2046,40
954,954,0,2046,135
955,955,0,2046,262
956,956,0,2047,420
957,957,0,2046,604
958,958,0,2047,815
959,959,0,2046,1045
960,960,0,2047,1292
961,961,0,2046,1551
962,962,0,2047,1819
963,963,0,2046,2091
964,964,0,2046,2361
965,965,0,2046,2626
966,966,0,2047,2881
967,967,0,2046,3122
968,968,0,2046,3344
969,969,0,2046,3544
970,970,0,2046,3719
971,971,0,2046,3864
972,972,0,2046,3979
973,973,0,2047,4059
974,974,0,2046,4095
975,975,0,2046,4095
976,976,0,2046,4095
977,977,0,2046,4037
978,978,0,2046,3945
979,979,0,2047,3820
980,980,0,2047,3665
981,981,0,2046,3482
982,982,0,2046,3275
983,983,0,2046,3046
984,984,0,2046,2800
985,985,0,2046,2540
986,986,0,2046,2273
987,987,0,2046,2001
988,988,0,2046,1729
989,989,0,2047,1464
990,990,0,2046,1207
991,991,0,2047,965
992,992,0,2046,740
993,993,0,2046,539
994,994,0,2047,362
995,995,0,2046,214
996,996,0,2046,98
997,997,0,2046,14
998,998,0,2047,0
999,999,0,2046,0
1000,1000,0,2046,0
1001,1001,0,2047,34
1002,1002,0,2046,126
1003,1003,0,2047,252
1004,1004,0,2046,406
1005,1005,0,2047,589
1006,1006,0,2046,797
1007,1007,0,2047,1026
1008,1008,0,2046,1272
1009,1009,0,2046,1531
1010,1010,0,2046,1799
1011,1011,0,2046,2069
1012,1012,0,2047,2340
1013,1013,0,2047,2606
1014,1014,0,2047,2862
1015,1015,0,2046,3104
1016,1016,0,2046,3327
1017,1017,0,2046,3529
1018,1018,0,2047,3706
1019,1019,0,2047,3854
1020,1020,0,2046,3970
1021,1021,0,2047,4054
1022,1022,0,2047,4095
1023,1023,0,2047,4095
1024,1024,0,2047,4095
1025,1025,0,2046,4042
1026,1026,0,2046,3953
1027,1027,0,2047,3831
1028,1028,0,2046,3678
1029,1029,0,2047,3496
