Sample in Buffer,Sample in Window,TRIGGER,adc1_data_a_d0[11:0],adc1_data_b_d0[11:0]
0,0,0,2046,4095
1,1,0,2046,4082
2,2,0,2047,3927
3,3,0,2047,3669
4,4,0,2046,3325
5,5,0,2046,2912
6,6,0,2046,2451
7,7,0,2046,1969
8,8,0,2046,1489
9,9,0,2046,1041
10,10,0,2046,645
11,11,0,2046,324
12,12,0,2046,95
13,13,0,2046,0
14,14,0,2046,0
15,15,0,2047,58
16,16,0,2046,263
17,17,0,2046,564
18,18,0,2047,945
19,19,0,2046,1384
20,20,0,2047,1858
21,21,0,2047,2343
22,22,0,2047,2811
23,23,0,2046,3237
24,24,0,2047,3599
25,25,0,2046,3877
26,26,0,2046,4056
27,27,0,2046,4095
28,28,0,2046,4085
29,29,0,2046,3931
30,30,0,2047,3678
31,31,0,2046,3335
32,32,0,2046,2924
33,33,0,2046,2464
34,34,0,2047,1981
35,35,0,2046,1502
36,36,0,2046,1052
37,37,0,2046,654
38,38,0,2046,331
39,39,0,2046,100
40,40,0,2047,0
41,41,0,2046,0
42,42,0,2047,53
43,43,0,2046,256
44,44,0,2047,555
45,45,0,2046,933
46,46,0,2047,1372
47,47,0,2046,1845
48,48,0,2046,2330
49,49,0,2047,2799
50,50,0,2047,3226
51,51,0,2047,3591
52,52,0,2047,3871
53,53,0,2047,4052
54,54,0,2046,4095
55,55,0,2046,4087
56,56,0,2045,3937
57,57,0,2046,3686
58,58,0,2047,3346
59,59,0,2046,2936
60,60,0,2046,2478
61,61,0,2047,1995
62,62,0,2046,1515
63,63,0,2046,1064
64,64,0,2046,665
65,65,0,2046,339
66,66,0,2047,105
67,67,0,2046,0
68,68,0,2046,0
69,69,0,2046,49
70,70,0,2047,249
71,71,0,2047,546
72,72,0,2046,922
73,73,0,2046,1359
74,74,0,2046,1832
75,75,0,2047,2317
76,76,0,2046,2786
77,77,0,2047,3215
78,78,0,2046,3581
79,79,0,2046,3864
80,80,0,2047,4048
81,81,0,2046,4095
82,82,0,2046,4090
83,83,0,2046,3944
84,84,0,2046,3694
85,85,0,2047,3357
86,86,0,2046,2948
87,87,0,2046,2490
88,88,0,2046,2009
89,89,0,2047,1527
90,90,0,2047,1075
91,91,0,2046,674
92,92,0,2046,347
93,93,0,2046,109
94,94,0,2046,0
95,95,0,2046,0
96,96,0,2046,45
97,97,0,2046,242
98,98,0,2047,537
99,99,0,2047,911
100,100,0,2046,1347
101,101,0,2046,1820
102,102,0,2046,2303
103,103,0,2046,2773
104,104,0,2047,3204
105,105,0,2046,3572
106,106,0,2046,3858
107,107,0,2046,4045
108,108,0,2046,4095
109,109,0,2047,4092
110,110,0,2046,3948
111,111,0,2047,3703
112,112,0,2046,3366
113,113,0,2046,2960
114,114,0,2046,2503
115,115,0,2046,2021
116,116,0,2047,1541
117,117,0,2046,1087
118,118,0,2046,683
119,119,0,2047,354
120,120,0,2046,115
121,121,0,2046,0
122,122,0,2046,0
123,123,0,2046,41
124,124,0,2046,236
125,125,0,2046,527
126,126,0,2046,901
127,127,0,2046,1335
128,128,0,2046,1806
129,129,0,2046,2290
130,130,0,2046,2762
131,131,0,2046,3193
132,132,0,2046,3563
133,133,0,2046,3851
134,134,0,2046,4041
135,135,0,2046,4095
136,136,0,2047,4094
137,137,0,2046,3953
138,138,0,2047,3710
139,139,0,2047,3377
140,140,0,2046,2972
141,141,0,2046,2516
142,142,0,2046,2035
143,143,0,2047,1553
144,144,0,2046,1098
145,145,0,2046,695
146,146,0,2047,363
147,147,0,2046,121
148,148,0,2046,0
149,149,0,2046,0
150,150,0,2046,37
151,151,0,2046,229
152,152,0,2046,519
153,153,0,2047,890
154,154,0,2046,1322
155,155,0,2046,1793
156,156,0,2047,2277
157,157,0,2046,2749
158,158,0,2046,3183
159,159,0,2046,3555
160,160,0,2047,3845
161,161,0,2047,4038
162,162,0,2046,4095
163,163,0,2046,4095
164,164,0,2046,3959
165,165,0,2046,3718
166,166,0,2047,3387
167,167,0,2047,2984
168,168,0,2046,2529
169,169,0,2046,2048
170,170,0,2046,1566
171,171,0,2046,1111
172,172,0,2046,704
173,173,0,2046,369
174,174,0,2047,126
175,175,0,2047,0
176,176,0,2046,0
177,177,0,2046,34
178,178,0,2046,222
179,179,0,2046,510
180,180,0,2046,879
181,181,0,2046,1309
182,182,0,2047,1780
183,183,0,2046,2264
184,184,0,2046,2737
185,185,0,2047,3172
186,186,0,2046,3545
187,187,0,2046,3838
188,188,0,2047,4034
189,189,0,2047,4095
190,190,0,2047,4095
191,191,0,2046,3964
192,192,0,2047,3726
193,193,0,2047,3397
194,194,0,2046,2995
195,195,0,2046,2542
196,196,0,2046,2061
197,197,0,2047,1579
198,198,0,2046,1122
199,199,0,2047,714
200,200,0,2046,378
201,201,0,2047,131
202,202,0,2047,0
203,203,0,2047,0
204,204,0,2047,30
205,205,0,2046,217
206,206,0,2046,501
207,207,0,2046,867
208,208,0,2046,1297
209,209,0,2046,1768
210,210,0,2046,2252
211,211,0,2046,2724
212,212,0,2046,3161
213,213,0,2046,3536
214,214,0,2046,3831
215,215,0,2047,4030
216,216,0,2046,4095
217,217,0,2046,4095
218,218,0,2047,3969
219,219,0,2046,3733
220,220,0,2046,3407
221,221,0,2046,3007
222,222,0,2047,2554
223,223,0,2046,2074
224,224,0,2046,1592
225,225,0,2046,1133
226,226,0,2047,725
227,227,0,2047,386
228,228,0,2046,136
229,229,0,2046,0
230,230,0,2046,0
231,231,0,2046,26
232,232,0,2047,209
233,233,0,2046,492
234,234,0,2046,857
235,235,0,2047,1285
236,236,0,2047,1754
237,237,0,2046,2238
238,238,0,2047,2712
239,239,0,2046,3149
240,240,0,2046,3527
241,241,0,2046,3825
242,242,0,2047,4025
243,243,0,2046,4095
244,244,0,2046,4095
245,245,0,2046,3974
246,246,0,2047,3741
247,247,0,2046,3416
248,248,0,2046,3018
249,249,0,2046,2567
250,250,0,2046,2087
251,251,0,2046,1604
252,252,0,2047,1146
253,253,0,2046,735
254,254,0,2046,394
255,255,0,2047,142
256,256,0,2046,0
257,257,0,2046,0
258,258,0,2046,23
259,259,0,2046,204
260,260,0,2047,483
261,261,0,2046,846
262,262,0,2047,1272
263,263,0,2047,1740
264,264,0,2046,2225
265,265,0,2046,2699
266,266,0,2047,3138
267,267,0,2047,3518
268,268,0,2047,3817
269,269,0,2046,4022
270,270,0,2046,4095
271,271,0,2047,4095
272,272,0,2046,3979
273,273,0,2047,3748
274,274,0,2046,3426
275,275,0,2046,3030
276,276,0,2046,2580
277,277,0,2046,2100
278,278,0,2046,1618
279,279,0,2046,1158
280,280,0,2046,745
281,281,0,2046,402
282,282,0,2047,147
283,283,0,2047,0
284,284,0,2047,0
285,285,0,2046,19
286,286,0,2046,198
287,287,0,2046,474
288,288,0,2046,835
289,289,0,2047,1260
290,290,0,2046,1729
291,291,0,2046,2212
292,292,0,2046,2687
293,293,0,2046,3127
294,294,0,2046,3509
295,295,0,2046,3810
296,296,0,2046,4017
297,297,0,2047,4095
298,298,0,2046,4095
299,299,0,2047,3983
300,300,0,2047,3755
301,301,0,2046,3436
302,302,0,2046,3042
303,303,0,2046,2592
304,304,0,2046,2114
305,305,0,2046,1630
306,306,0,2047,1169
307,307,0,2047,756
308,308,0,2046,411
309,309,0,2046,153
310,310,0,2047,0
311,311,0,2046,0
312,312,0,2046,17
313,313,0,2046,191
314,314,0,2047,466
315,315,0,2046,824
316,316,0,2046,1249
317,317,0,2046,1715
318,318,0,2047,2199
319,319,0,2047,2675
320,320,0,2046,3115
321,321,0,2046,3499
322,322,0,2047,3803
323,323,0,2047,4013
324,324,0,2046,4095
325,325,0,2046,4095
326,326,0,2046,3989
327,327,0,2046,3763
328,328,0,2046,3445
329,329,0,2046,3052
330,330,0,2046,2605
331,331,0,2047,2127
332,332,0,2046,1643
333,333,0,2046,1181
334,334,0,2046,767
335,335,0,2046,419
336,336,0,2046,158
337,337,0,2047,0
338,338,0,2046,0
339,339,0,2047,12
340,340,0,2046,186
341,341,0,2046,457
342,342,0,2046,814
343,343,0,2046,1236
344,344,0,2046,1702
345,345,0,2046,2186
346,346,0,2047,2662
347,347,0,2047,3104
348,348,0,2046,3489
349,349,0,2046,3796
350,350,0,2047,4009
351,351,0,2046,4095
352,352,0,2046,4095
353,353,0,2046,3993
354,354,0,2047,3771
355,355,0,2046,3456
356,356,0,2047,3063
357,357,0,2046,2618
358,358,0,2046,2139
359,359,0,2046,1656
360,360,0,2047,1194
361,361,0,2046,776
362,362,0,2047,427
363,363,0,2046,164
364,364,0,2046,2
365,365,0,2046,0
366,366,0,2046,10
367,367,0,2047,179
368,368,0,2046,448
369,369,0,2046,803
370,370,0,2046,1223
371,371,0,2046,1688
372,372,0,2047,2172
373,373,0,2046,2649
374,374,0,2047,3093
375,375,0,2046,3480
376,376,0,2047,3790
377,377,0,2046,4005
378,378,0,2046,4095
379,379,0,2046,4095
380,380,0,2046,3998
381,381,0,2046,3779
382,382,0,2046,3466
383,383,0,2047,3076
384,384,0,2046,2630
385,385,0,2046,2153
386,386,0,2047,1669
387,387,0,2047,1206
388,388,0,2046,787
389,389,0,2046,436
390,390,0,2046,170
391,391,0,2047,6
392,392,0,2046,0
393,393,0,2046,7
394,394,0,2047,173
395,395,0,2046,440
396,396,0,2046,792
397,397,0,2047,1212
398,398,0,2047,1677
399,399,0,2047,2160
400,400,0,2047,2636
401,401,0,2046,3081
402,402,0,2046,3470
403,403,0,2046,3782
404,404,0,2046,4000
405,405,0,2046,4095
406,406,0,2046,4095
407,407,0,2046,4003
408,408,0,2046,3786
409,409,0,2046,3475
410,410,0,2046,3087
411,411,0,2047,2643
412,412,0,2047,2165
413,413,0,2046,1682
414,414,0,2047,1217
415,415,0,2046,798
416,416,0,2046,444
417,417,0,2046,176
418,418,0,2047,9
419,419,0,2046,0
420,420,0,2047,3
421,421,0,2046,167
422,422,0,2047,431
423,423,0,2046,782
424,424,0,2046,1199
425,425,0,2046,1663
426,426,0,2047,2147
427,427,0,2047,2624
428,428,0,2047,3070
429,429,0,2047,3460
430,430,0,2047,3775
431,431,0,2046,3995
432,432,0,2047,4095
433,433,0,2047,4095
434,434,0,2046,4006
435,435,0,2046,3793
436,436,0,2047,3484
437,437,0,2046,3099
438,438,0,2047,2655
439,439,0,2046,2179
440,440,0,2047,1696
441,441,0,2047,1230
442,442,0,2046,808
443,443,0,2046,451
444,444,0,2046,181
445,445,0,2046,11
446,446,0,2047,0
447,447,0,2046,0
448,448,0,2047,162
449,449,0,2047,423
450,450,0,2047,771
451,451,0,2046,1188
452,452,0,2046,1650
453,453,0,2046,2133
454,454,0,2047,2611
455,455,0,2046,3059
456,456,0,2046,3451
457,457,0,2046,3767
458,458,0,2046,3991
459,459,0,2046,4095
460,460,0,2047,4095
461,461,0,2046,4011
462,462,0,2047,3800
463,463,0,2046,3494
464,464,0,2046,3110
465,465,0,2046,2668
466,466,0,2047,2193
467,467,0,2046,1707
468,468,0,2046,1242
469,469,0,2047,819
470,470,0,2047,461
471,471,0,2046,188
472,472,0,2047,15
473,473,0,2047,0
474,474,0,2046,0
475,475,0,2046,156
476,476,0,2047,415
477,477,0,2047,761
478,478,0,2046,1176
479,479,0,2046,1637
480,480,0,2046,2121
481,481,0,2046,2598
482,482,0,2046,3048
483,483,0,2046,3441
484,484,0,2047,3760
485,485,0,2046,3986
486,486,0,2046,4095
487,487,0,2046,4095
488,488,0,2046,4016
489,489,0,2046,3807
490,490,0,2046,3504
491,491,0,2046,3121
492,492,0,2046,2680
493,493,0,2046,2206
494,494,0,2047,1721
495,495,0,2046,1255
496,496,0,2047,829
497,497,0,2046,469
498,498,0,2046,194
499,499,0,2046,19
500,500,0,2046,0
501,501,0,2046,0
502,502,0,2046,150
503,503,0,2046,407
504,504,0,2046,751
505,505,0,2046,1164
506,506,0,2046,1624
507,507,0,2046,2107
508,508,0,2046,2586
509,509,0,2046,3035
510,510,0,2047,3432
511,511,0,2047,3753
512,512,0,2046,3981
513,513,0,2046,4095
514,514,0,2046,4095
515,515,0,2047,4019
516,516,0,2047,3814
517,517,0,2046,3513
518,518,0,2046,3133
519,519,0,2046,2693
520,520,0,2046,2218
521,521,0,2046,1734
522,522,0,2046,1267
523,523,0,2046,839
524,524,0,2046,479
525,525,0,2046,200
526,526,0,2046,21
527,527,0,2046,0
528,528,0,2047,0
529,529,0,2046,144
530,530,0,2047,399
531,531,0,2047,739
532,532,0,2046,1152
533,533,0,2046,1611
534,534,0,2046,2094
535,535,0,2046,2574
536,536,0,2046,3024
537,537,0,2046,3421
538,538,0,2047,3745
539,539,0,2047,3977
540,540,0,2046,4095
541,541,0,2046,4095
542,542,0,2047,4024
543,543,0,2047,3821
544,544,0,2046,3522
545,545,0,2047,3144
546,546,0,2046,2705
547,547,0,2047,2232
548,548,0,2046,1747
549,549,0,2046,1278
550,550,0,2046,851
551,551,0,2046,487
552,552,0,2046,207
553,553,0,2046,26
554,554,0,2046,0
555,555,0,2046,0
556,556,0,2046,139
557,557,0,2046,391
558,558,0,2046,730
559,559,0,2046,1140
560,560,0,2047,1598
561,561,0,2047,2080
562,562,0,2047,2561
563,563,0,2046,3013
564,564,0,2046,3412
565,565,0,2046,3738
566,566,0,2046,3971
567,567,0,2046,4095
568,568,0,2047,4095
569,569,0,2046,4028
570,570,0,2047,3828
571,571,0,2047,3531
572,572,0,2046,3155
573,573,0,2046,2718
574,574,0,2046,2245
575,575,0,2047,1761
576,576,0,2047,1291
577,577,0,2047,862
578,578,0,2046,496
579,579,0,2046,213
580,580,0,2047,29
581,581,0,2046,0
582,582,0,2047,0
583,583,0,2047,134
584,584,0,2046,382
585,585,0,2046,719
586,586,0,2047,1128
587,587,0,2046,1586
588,588,0,2046,2067
589,589,0,2046,2548
590,590,0,2046,3001
591,591,0,2047,3402
592,592,0,2046,3730
593,593,0,2046,3967
594,594,0,2046,4095
595,595,0,2046,4095
596,596,0,2046,4032
597,597,0,2046,3835
598,598,0,2046,3540
599,599,0,2046,3165
600,600,0,2046,2730
601,601,0,2046,2258
602,602,0,2047,1773
603,603,0,2046,1303
604,604,0,2046,873
605,605,0,2046,505
606,606,0,2046,220
607,607,0,2046,32
608,608,0,2046,0
609,609,0,2046,0
610,610,0,2047,128
611,611,0,2046,374
612,612,0,2046,710
613,613,0,2046,1116
614,614,0,2046,1573
615,615,0,2046,2054
616,616,0,2046,2535
617,617,0,2046,2989
618,618,0,2046,3392
619,619,0,2046,3722
620,620,0,2047,3961
621,621,0,2046,4095
622,622,0,2046,4095
623,623,0,2046,4037
624,624,0,2046,3841
625,625,0,2047,3549
626,626,0,2045,3177
627,627,0,2046,2742
628,628,0,2046,2271
629,629,0,2046,1787
630,630,0,2047,1316
631,631,0,2046,884
632,632,0,2046,514
633,633,0,2047,226
634,634,0,2046,36
635,635,0,2046,0
636,636,0,2046,0
637,637,0,2046,123
638,638,0,2047,367
639,639,0,2046,700
640,640,0,2047,1104
641,641,0,2046,1561
642,642,0,2047,2041
643,643,0,2046,2523
644,644,0,2046,2977
645,645,0,2046,3382
646,646,0,2046,3714
647,647,0,2046,3956
648,648,0,2046,4095
649,649,0,2047,4095
650,650,0,2046,4040
651,651,0,2046,3848
652,652,0,2047,3558
653,653,0,2047,3188
654,654,0,2047,2755
655,655,0,2046,2285
656,656,0,2046,1800
657,657,0,2047,1328
658,658,0,2046,894
659,659,0,2047,523
660,660,0,2047,233
661,661,0,2046,39
662,662,0,2046,0
663,663,0,2046,0
664,664,0,2046,118
665,665,0,2046,358
666,666,0,2047,689
667,667,0,2047,1092
668,668,0,2046,1548
669,669,0,2046,2028
670,670,0,2047,2510
671,671,0,2046,2966
672,672,0,2046,3372
673,673,0,2047,3707
674,674,0,2046,3951
675,675,0,2047,4093
676,676,0,2046,4095
677,677,0,2046,4044
678,678,0,2047,3854
679,679,0,2047,3567
680,680,0,2047,3199
681,681,0,2047,2768
682,682,0,2046,2297
683,683,0,2047,1812
684,684,0,2046,1340
685,685,0,2047,905
686,686,0,2046,532
687,687,0,2047,240
688,688,0,2047,43
689,689,0,2046,0
690,690,0,2047,0
691,691,0,2047,112
692,692,0,2047,350
693,693,0,2047,678
694,694,0,2046,1080
695,695,0,2046,1534
696,696,0,2046,2016
697,697,0,2046,2497
698,698,0,2046,2953
699,699,0,2046,3362
700,700,0,2047,3698
701,701,0,2045,3946
702,702,0,2046,4090
703,703,0,2046,4095
704,704,0,2046,4047
705,705,0,2046,3861
706,706,0,2046,3577
707,707,0,2047,3210
708,708,0,2047,2780
709,709,0,2046,2309
710,710,0,2047,1826
711,711,0,2047,1353
712,712,0,2047,918
713,713,0,2047,541
714,714,0,2046,246
715,715,0,2046,48
716,716,0,2046,0
717,717,0,2047,0
718,718,0,2046,107
719,719,0,2046,342
720,720,0,2047,669
721,721,0,2047,1069
722,722,0,2046,1521
723,723,0,2047,2001
724,724,0,2046,2484
725,725,0,2046,2942
726,726,0,2047,3351
727,727,0,2046,3690
728,728,0,2046,3941
729,729,0,2046,4088
730,730,0,2046,4095
731,731,0,2045,4051
732,732,0,2046,3867
733,733,0,2046,3586
734,734,0,2047,3221
735,735,0,2046,2793
736,736,0,2046,2323
737,737,0,2046,1839
738,738,0,2046,1365
739,739,0,2047,928
740,740,0,2046,551
741,741,0,2046,253
742,742,0,2047,52
743,743,0,2046,0
744,744,0,2046,0
745,745,0,2046,103
746,746,0,2047,335
747,747,0,2046,659
748,748,0,2047,1058
749,749,0,2047,1508
750,750,0,2047,1989
751,751,0,2046,2472
752,752,0,2046,2930
753,753,0,2046,3341
754,754,0,2046,3683
755,755,0,2046,3935
756,756,0,2047,4086
757,757,0,2046,4095
758,758,0,2046,4054
759,759,0,2046,3874
760,760,0,2046,3595
761,761,0,2046,3231
762,762,0,2047,2804
763,763,0,2046,2336
764,764,0,2046,1851
765,765,0,2046,1378
766,766,0,2046,938
767,767,0,2046,560
768,768,0,2046,259
769,769,0,2046,55
770,770,0,2047,0
771,771,0,2046,0
772,772,0,2046,98
773,773,0,2046,327
774,774,0,2047,649
775,775,0,2047,1045
776,776,0,2046,1496
777,777,0,2046,1976
778,778,0,2046,2458
779,779,0,2046,2918
780,780,0,2047,3330
781,781,0,2046,3674
782,782,0,2047,3930
783,783,0,2047,4083
784,784,0,2046,4095
785,785,0,2046,4057
786,786,0,2046,3880
787,787,0,2046,3603
788,788,0,2046,3242
789,789,0,2046,2817
790,790,0,2047,2350
791,791,0,2046,1865
792,792,0,2046,1390
793,793,0,2046,950
794,794,0,2046,569
795,795,0,2046,267
796,796,0,2046,60
797,797,0,2046,0
798,798,0,2046,0
799,799,0,2047,93
800,800,0,2046,320
801,801,0,2046,639
802,802,0,2047,1034
803,803,0,2046,1484
804,804,0,2046,1963
805,805,0,2046,2445
806,806,0,2047,2907
807,807,0,2046,3320
808,808,0,2047,3666
809,809,0,2047,3923
810,810,0,2046,4080
811,811,0,2046,4095
812,812,0,2046,4061
813,813,0,2047,3886
814,814,0,2046,3612
815,815,0,2047,3253
816,816,0,2046,2829
817,817,0,2046,2362
818,818,0,2047,1878
819,819,0,2046,1403
820,820,0,2046,962
821,821,0,2046,578
822,822,0,2047,273
823,823,0,2047,63
824,824,0,2046,0
825,825,0,2046,0
826,826,0,2046,88
827,827,0,2047,312
828,828,0,2047,630
829,829,0,2046,1023
830,830,0,2047,1470
831,831,0,2046,1949
832,832,0,2046,2433
833,833,0,2046,2894
834,834,0,2046,3310
835,835,0,2046,3657
836,836,0,2046,3918
837,837,0,2046,4077
838,838,0,2046,4095
839,839,0,2046,4064
840,840,0,2046,3892
841,841,0,2047,3621
842,842,0,2046,3264
843,843,0,2046,2841
844,844,0,2047,2375
845,845,0,2046,1891
846,846,0,2046,1415
847,847,0,2046,973
848,848,0,2046,588
849,849,0,2046,280
850,850,0,2046,68
851,851,0,2046,0
852,852,0,2047,0
853,853,0,2047,84
854,854,0,2046,306
855,855,0,2047,621
856,856,0,2046,1012
857,857,0,2047,1458
858,858,0,2046,1936
859,859,0,2046,2419
860,860,0,2047,2881
861,861,0,2046,3299
862,862,0,2047,3650
863,863,0,2046,3912
864,864,0,2047,4075
865,865,0,2046,4095
866,866,0,2046,4067
867,867,0,2047,3898
868,868,0,2047,3629
869,869,0,2046,3273
870,870,0,2046,2853
871,871,0,2046,2388
872,872,0,2046,1904
873,873,0,2046,1428
874,874,0,2047,984
875,875,0,2046,598
876,876,0,2046,288
877,877,0,2046,73
878,878,0,2047,0
879,879,0,2047,0
880,880,0,2046,79
881,881,0,2046,298
882,882,0,2046,611
883,883,0,2047,1000
884,884,0,2047,1446
885,885,0,2046,1923
886,886,0,2046,2407
887,887,0,2046,2870
888,888,0,2047,3289
889,889,0,2046,3641
890,890,0,2046,3907
891,891,0,2046,4071
892,892,0,2047,4095
893,893,0,2046,4070
894,894,0,2047,3904
895,895,0,2047,3637
896,896,0,2047,3285
897,897,0,2047,2865
898,898,0,2046,2401
899,899,0,2046,1917
900,900,0,2046,1441
901,901,0,2046,995
902,902,0,2047,607
903,903,0,2046,295
904,904,0,2046,77
905,905,0,2047,0
906,906,0,2046,0
907,907,0,2046,74
908,908,0,2046,291
909,909,0,2046,600
910,910,0,2046,989
911,911,0,2047,1433
912,912,0,2046,1909
913,913,0,2046,2393
914,914,0,2046,2857
915,915,0,2047,3278
916,916,0,2046,3633
917,917,0,2046,3901
918,918,0,2046,4069
919,919,0,2046,4095
920,920,0,2046,4073
921,921,0,2046,3910
922,922,0,2047,3646
923,923,0,2046,3295
924,924,0,2046,2877
925,925,0,2046,2415
926,926,0,2047,1930
927,927,0,2046,1453
928,928,0,2046,1007
929,929,0,2046,616
930,930,0,2046,303
931,931,0,2046,81
932,932,0,2046,0
933,933,0,2046,0
934,934,0,2047,70
935,935,0,2047,283
936,936,0,2047,592
937,937,0,2046,977
938,938,0,2046,1420
939,939,0,2046,1897
940,940,0,2047,2381
941,941,0,2046,2846
942,942,0,2046,3267
943,943,0,2046,3625
944,944,0,2047,3895
945,945,0,2046,4066
946,946,0,2046,4095
947,947,0,2046,4076
948,948,0,2046,3916
949,949,0,2046,3654
950,950,0,2047,3306
951,951,0,2047,2889
952,952,0,2046,2426
953,953,0,2046,1943
954,954,0,2046,1466
955,955,0,2046,1019
956,956,0,2046,627
957,957,0,2046,310
958,958,0,2047,87
959,959,0,2046,0
960,960,0,2047,0
961,961,0,2046,65
962,962,0,2046,276
963,963,0,2046,582
964,964,0,2046,967
965,965,0,2046,1408
966,966,0,2047,1884
967,967,0,2046,2368
968,968,0,2047,2834
969,969,0,2047,3257
970,970,0,2047,3616
971,971,0,2046,3889
972,972,0,2046,4062
973,973,0,2047,4095
974,974,0,2047,4079
975,975,0,2046,3921
976,976,0,2046,3663
977,977,0,2046,3316
978,978,0,2046,2901
979,979,0,2047,2440
980,980,0,2046,1957
981,981,0,2046,1479
982,982,0,2046,1030
983,983,0,2047,636
984,984,0,2046,317
985,985,0,2047,91
986,986,0,2046,0
987,987,0,2047,0
988,988,0,2046,61
989,989,0,2046,269
990,990,0,2046,573
991,991,0,2046,954
992,992,0,2046,1396
993,993,0,2046,1870
994,994,0,2046,2354
995,995,0,2046,2822
996,996,0,2047,3246
997,997,0,2046,3607
998,998,0,2046,3883
999,999,0,2045,4059
1000,1000,0,2047,4095
1001,1001,0,2046,4081
1002,1002,0,2046,3927
1003,1003,0,2046,3671
1004,1004,0,2046,3326
1005,1005,0,2046,2913
1006,1006,0,2047,2452
1007,1007,0,2046,1970
1008,1008,0,2046,1491
1009,1009,0,2046,1042
1010,1010,0,2047,646
1011,1011,0,2046,324
1012,1012,0,2046,95
1013,1013,0,2046,0
1014,1014,0,2046,0
1015,1015,0,2047,57
1016,1016,0,2046,262
1017,1017,0,2046,564
1018,1018,0,2046,944
1019,1019,0,2047,1382
1020,1020,0,2046,1858
1021,1021,0,2046,2341
1022,1022,0,2047,2810
1023,1023,0,2046,3236
1024,1024,0,2046,3598
1025,1025,0,2046,3877
1026,1026,0,2046,4055
1027,1027,0,2046,4095
1028,1028,0,2046,4085
1029,1029,0,2046,3932
1030,1030,0,2046,3679
