Sample in Buffer,Sample in Window,TRIGGER,adc1_data_a_d0[11:0],adc1_data_b_d0[11:0]
0,0,0,2046,3646
1,1,0,2046,2873
2,2,0,2047,1915
3,3,0,2046,984
4,4,0,2046,288
5,5,0,2046,0
6,6,0,2046,139
7,7,0,2046,718
8,8,0,2046,1591
9,9,0,2046,2566
10,10,0,2046,3422
11,11,0,2047,3969
12,12,0,2047,4084
13,13,0,2047,3742
14,14,0,2046,3020
15,15,0,2046,2078
16,16,0,2046,1126
17,17,0,2046,380
18,18,0,2046,4
19,19,0,2046,82
20,20,0,2047,597
21,21,0,2046,1435
22,22,0,2047,2408
23,23,0,2047,3296
24,24,0,2047,3906
25,25,0,2046,4095
26,26,0,2046,3828
27,27,0,2047,3159
28,28,0,2046,2239
29,29,0,2047,1275
30,30,0,2046,481
31,31,0,2047,35
32,32,0,2047,37
33,33,0,2046,487
34,34,0,2046,1282
35,35,0,2047,2248
36,36,0,2046,3165
37,37,0,2047,3832
38,38,0,2047,4095
39,39,0,2046,3903
40,40,0,2046,3291
41,41,0,2046,2400
42,42,0,2046,1427
43,43,0,2046,592
44,44,0,2046,79
45,45,0,2046,5
46,46,0,2046,385
47,47,0,2047,1135
48,48,0,2046,2086
49,49,0,2046,3027
50,50,0,2046,3747
51,51,0,2047,4085
52,52,0,2046,3966
53,53,0,2046,3416
54,54,0,2046,2557
55,55,0,2047,1585
56,56,0,2046,711
57,57,0,2047,136
58,58,0,2046,0
59,59,0,2046,293
60,60,0,2046,991
61,61,0,2046,1923
62,62,0,2046,2881
63,63,0,2046,3651
64,64,0,2046,4060
65,65,0,2047,4017
66,66,0,2046,3532
67,67,0,2046,2713
68,68,0,2046,1743
69,69,0,2047,839
70,70,0,2046,204
71,71,0,2046,0
72,72,0,2046,212
73,73,0,2047,854
74,74,0,2047,1762
75,75,0,2047,2731
76,76,0,2047,3545
77,77,0,2047,4022
78,78,0,2046,4057
79,79,0,2046,3639
80,80,0,2046,2864
81,81,0,2047,1905
82,82,0,2046,975
83,83,0,2046,283
84,84,0,2046,0
85,85,0,2047,143
86,86,0,2047,726
87,87,0,2046,1602
88,88,0,2046,2576
89,89,0,2046,3430
90,90,0,2046,3973
91,91,0,2046,4083
92,92,0,2047,3737
93,93,0,2046,3010
94,94,0,2046,2067
95,95,0,2046,1117
96,96,0,2046,374
97,97,0,2047,2
98,98,0,2046,85
99,99,0,2046,605
100,100,0,2046,1445
101,101,0,2046,2418
102,102,0,2047,3306
103,103,0,2046,3910
104,104,0,2046,4095
105,105,0,2046,3824
106,106,0,2046,3150
107,107,0,2046,2228
108,108,0,2047,1265
109,109,0,2046,474
110,110,0,2046,32
111,111,0,2046,40
112,112,0,2046,492
113,113,0,2046,1292
114,114,0,2046,2257
115,115,0,2047,3174
116,116,0,2047,3837
117,117,0,2046,4095
118,118,0,2047,3898
119,119,0,2047,3283
120,120,0,2046,2390
121,121,0,2046,1417
122,122,0,2047,585
123,123,0,2046,76
124,124,0,2047,6
125,125,0,2047,391
126,126,0,2046,1144
127,127,0,2046,2096
128,128,0,2047,3035
129,129,0,2047,3752
130,130,0,2047,4086
131,131,0,2047,3962
132,132,0,2046,3408
133,133,0,2046,2547
134,134,0,2046,1574
135,135,0,2047,703
136,136,0,2047,131
137,137,0,2046,0
138,138,0,2046,299
139,139,0,2046,1000
140,140,0,2047,1934
141,141,0,2047,2890
142,142,0,2046,3657
143,143,0,2047,4061
144,144,0,2047,4014
145,145,0,2045,3525
146,146,0,2046,2703
147,147,0,2047,1733
148,148,0,2047,831
149,149,0,2047,199
150,150,0,2046,0
151,151,0,2046,216
152,152,0,2046,863
153,153,0,2047,1772
154,154,0,2047,2740
155,155,0,2046,3552
156,156,0,2046,4025
157,157,0,2047,4054
158,158,0,2046,3633
159,159,0,2046,2855
160,160,0,2046,1894
161,161,0,2046,966
162,162,0,2046,278
163,163,0,2047,0
164,164,0,2047,147
165,165,0,2047,734
166,166,0,2046,1613
167,167,0,2046,2586
168,168,0,2046,3438
169,169,0,2046,3976
170,170,0,2047,4081
171,171,0,2046,3730
172,172,0,2047,3001
173,173,0,2046,2057
174,174,0,2046,1108
175,175,0,2046,367
176,176,0,2046,0
177,177,0,2046,88
178,178,0,2046,613
179,179,0,2047,1455
180,180,0,2047,2428
181,181,0,2047,3314
182,182,0,2046,3915
183,183,0,2047,4095
184,184,0,2047,3817
185,185,0,2047,3141
186,186,0,2047,2218
187,187,0,2046,1255
188,188,0,2046,467
189,189,0,2046,29
190,190,0,2046,42
191,191,0,2046,500
192,192,0,2046,1302
193,193,0,2047,2268
194,194,0,2047,3183
195,195,0,2046,3842
196,196,0,2046,4095
197,197,0,2046,3894
198,198,0,2047,3274
199,199,0,2047,2379
200,200,0,2046,1407
201,201,0,2047,577
202,202,0,2046,73
203,203,0,2047,8
204,204,0,2047,397
205,205,0,2046,1153
206,206,0,2047,2107
207,207,0,2046,3044
208,208,0,2047,3758
209,209,0,2046,4088
210,210,0,2047,3959
211,211,0,2046,3401
212,212,0,2046,2538
213,213,0,2045,1564
214,214,0,2046,696
215,215,0,2046,127
216,216,0,2047,0
217,217,0,2046,304
218,218,0,2046,1009
219,219,0,2046,1945
220,220,0,2047,2900
221,221,0,2046,3664
222,222,0,2046,4063
223,223,0,2046,4011
224,224,0,2047,3518
225,225,0,2046,2693
226,226,0,2046,1722
227,227,0,2046,823
228,228,0,2046,194
229,229,0,2046,0
230,230,0,2046,222
231,231,0,2047,872
232,232,0,2046,1782
233,233,0,2046,2750
234,234,0,2046,3559
235,235,0,2046,4028
236,236,0,2046,4052
237,237,0,2046,3626
238,238,0,2046,2845
239,239,0,2047,1884
240,240,0,2047,957
241,241,0,2047,272
242,242,0,2046,0
243,243,0,2046,150
244,244,0,2047,742
245,245,0,2046,1622
246,246,0,2046,2596
247,247,0,2047,3445
248,248,0,2047,3979
249,249,0,2046,4081
250,250,0,2046,3725
251,251,0,2046,2992
252,252,0,2047,2046
253,253,0,2047,1098
254,254,0,2047,361
255,255,0,2047,0
256,256,0,2046,92
257,257,0,2046,620
258,258,0,2047,1465
259,259,0,2046,2439
260,260,0,2046,3322
261,261,0,2046,3919
262,262,0,2047,4095
263,263,0,2047,3812
264,264,0,2046,3133
265,265,0,2046,2208
266,266,0,2047,1245
267,267,0,2046,461
268,268,0,2047,28
269,269,0,2046,44
270,270,0,2046,507
271,271,0,2047,1312
272,272,0,2046,2278
273,273,0,2047,3192
274,274,0,2046,3847
275,275,0,2047,4095
276,276,0,2046,3888
277,277,0,2047,3266
278,278,0,2047,2368
279,279,0,2046,1397
280,280,0,2046,570
281,281,0,2045,70
282,282,0,2046,9
283,283,0,2046,404
284,284,0,2047,1163
285,285,0,2046,2117
286,286,0,2046,3054
287,287,0,2046,3764
288,288,0,2047,4088
289,289,0,2046,3955
290,290,0,2047,3393
291,291,0,2046,2527
292,292,0,2046,1553
293,293,0,2047,688
294,294,0,2046,124
295,295,0,2047,0
296,296,0,2046,310
297,297,0,2046,1018
298,298,0,2046,1956
299,299,0,2046,2910
300,300,0,2046,3669
301,301,0,2047,4066
302,302,0,2046,4008
303,303,0,2046,3510
304,304,0,2046,2684
305,305,0,2047,1712
306,306,0,2047,814
307,307,0,2047,189
308,308,0,2046,0
309,309,0,2046,226
310,310,0,2046,880
311,311,0,2046,1793
312,312,0,2047,2760
313,313,0,2046,3566
314,314,0,2046,4031
315,315,0,2047,4050
316,316,0,2046,3619
317,317,0,2047,2835
318,318,0,2046,1873
319,319,0,2047,948
320,320,0,2047,267
321,321,0,2046,0
322,322,0,2046,155
323,323,0,2046,751
324,324,0,2046,1633
325,325,0,2046,2606
326,326,0,2047,3452
327,327,0,2046,3982
328,328,0,2047,4080
329,329,0,2046,3718
330,330,0,2046,2982
331,331,0,2047,2035
332,332,0,2046,1089
333,333,0,2047,355
334,334,0,2047,0
335,335,0,2047,95
336,336,0,2046,628
337,337,0,2047,1476
338,338,0,2046,2449
339,339,0,2047,3331
340,340,0,2047,3923
341,341,0,2046,4095
342,342,0,2046,3807
343,343,0,2046,3123
344,344,0,2046,2198
345,345,0,2046,1236
346,346,0,2046,454
347,347,0,2046,26
348,348,0,2046,47
349,349,0,2046,514
350,350,0,2047,1321
351,351,0,2047,2289
352,352,0,2046,3200
353,353,0,2046,3852
354,354,0,2046,4095
355,355,0,2047,3885
356,356,0,2046,3258
357,357,0,2046,2358
358,358,0,2047,1387
359,359,0,2047,562
360,360,0,2047,66
361,361,0,2046,11
362,362,0,2046,410
363,363,0,2047,1172
364,364,0,2046,2128
365,365,0,2047,3063
366,366,0,2046,3770
367,367,0,2046,4089
368,368,0,2046,3951
369,369,0,2046,3384
370,370,0,2046,2517
371,371,0,2046,1543
372,372,0,2046,680
373,373,0,2046,119
374,374,0,2046,0
375,375,0,2047,315
376,376,0,2046,1027
377,377,0,2047,1965
378,378,0,2046,2919
379,379,0,2046,3676
380,380,0,2047,4068
381,381,0,2046,4006
382,382,0,2047,3502
383,383,0,2046,2673
384,384,0,2046,1701
385,385,0,2046,806
386,386,0,2046,185
387,387,0,2046,0
388,388,0,2047,232
389,389,0,2046,890
390,390,0,2046,1804
391,391,0,2046,2770
392,392,0,2046,3573
393,393,0,2046,4033
394,394,0,2046,4048
395,395,0,2047,3612
396,396,0,2046,2825
397,397,0,2047,1863
398,398,0,2046,939
399,399,0,2046,262
400,400,0,2046,0
401,401,0,2046,160
402,402,0,2046,758
403,403,0,2046,1644
404,404,0,2047,2616
405,405,0,2046,3460
406,406,0,2046,3986
407,407,0,2046,4077
408,408,0,2046,3712
409,409,0,2046,2973
410,410,0,2047,2025
411,411,0,2046,1079
412,412,0,2046,349
413,413,0,2046,0
414,414,0,2046,99
415,415,0,2046,636
416,416,0,2046,1486
417,417,0,2047,2459
418,418,0,2046,3340
419,419,0,2046,3927
420,420,0,2046,4094
421,421,0,2046,3801
422,422,0,2046,3114
423,423,0,2046,2187
424,424,0,2046,1226
425,425,0,2047,447
426,426,0,2046,23
427,427,0,2046,50
428,428,0,2046,521
429,429,0,2046,1332
430,430,0,2047,2299
431,431,0,2046,3209
432,432,0,2046,3857
433,433,0,2046,4095
434,434,0,2046,3879
435,435,0,2046,3249
436,436,0,2046,2348
437,437,0,2046,1377
438,438,0,2047,554
439,439,0,2046,63
440,440,0,2046,14
441,441,0,2046,417
442,442,0,2046,1181
443,443,0,2046,2138
444,444,0,2046,3072
445,445,0,2047,3776
446,446,0,2046,4090
447,447,0,2046,3946
448,448,0,2046,3376
449,449,0,2046,2507
450,450,0,2047,1533
451,451,0,2047,672
452,452,0,2046,116
453,453,0,2046,0
454,454,0,2047,322
455,455,0,2046,1037
456,456,0,2046,1976
457,457,0,2047,2928
458,458,0,2046,3682
459,459,0,2046,4070
460,460,0,2046,4002
461,461,0,2046,3496
462,462,0,2046,2663
463,463,0,2046,1691
464,464,0,2046,797
465,465,0,2047,180
466,466,0,2046,0
467,467,0,2047,237
468,468,0,2046,898
469,469,0,2046,1814
470,470,0,2046,2780
471,471,0,2046,3580
472,472,0,2046,4035
473,473,0,2046,4045
474,474,0,2047,3605
475,475,0,2047,2816
476,476,0,2046,1852
477,477,0,2047,930
478,478,0,2047,256
479,479,0,2046,0
480,480,0,2046,164
481,481,0,2046,767
482,482,0,2046,1654
483,483,0,2047,2627
484,484,0,2046,3468
485,485,0,2046,3991
486,486,0,2047,4076
487,487,0,2047,3706
488,488,0,2047,2964
489,489,0,2046,2014
490,490,0,2046,1070
491,491,0,2046,343
492,492,0,2046,0
493,493,0,2047,102
494,494,0,2047,643
495,495,0,2046,1496
496,496,0,2047,2471
497,497,0,2047,3347
498,498,0,2046,3931
499,499,0,2047,4093
500,500,0,2047,3796
501,501,0,2047,3105
502,502,0,2046,2175
503,503,0,2047,1217
504,504,0,2046,440
505,505,0,2046,21
506,506,0,2046,52
507,507,0,2047,528
508,508,0,2047,1342
509,509,0,2046,2310
510,510,0,2046,3218
511,511,0,2046,3862
512,512,0,2046,4095
513,513,0,2046,3875
514,514,0,2046,3241
515,515,0,2046,2338
516,516,0,2047,1367
517,517,0,2047,547
518,518,0,2046,60
519,519,0,2046,16
520,520,0,2046,423
521,521,0,2046,1191
522,522,0,2047,2148
523,523,0,2047,3081
524,524,0,2046,3781
525,525,0,2046,4091
526,526,0,2046,3942
527,527,0,2047,3368
528,528,0,2046,2497
529,529,0,2046,1523
530,530,0,2046,664
531,531,0,2047,113
532,532,0,2047,0
533,533,0,2047,327
534,534,0,2046,1046
535,535,0,2046,1987
536,536,0,2046,2939
537,537,0,2046,3689
538,538,0,2046,4071
539,539,0,2046,4000
540,540,0,2047,3488
541,541,0,2046,2653
542,542,0,2047,1681
543,543,0,2046,789
544,544,0,2046,176
545,545,0,2047,0
546,546,0,2047,242
547,547,0,2046,907
548,548,0,2046,1825
549,549,0,2046,2790
550,550,0,2046,3587
551,551,0,2046,4039
552,552,0,2046,4043
553,553,0,2047,3599
554,554,0,2046,2806
555,555,0,2046,1842
556,556,0,2047,922
557,557,0,2046,251
558,558,0,2047,0
559,559,0,2047,169
560,560,0,2046,776
561,561,0,2047,1665
562,562,0,2046,2637
563,563,0,2046,3475
564,564,0,2047,3993
565,565,0,2046,4074
566,566,0,2046,3700
567,567,0,2046,2953
568,568,0,2046,2004
569,569,0,2047,1061
570,570,0,2046,337
571,571,0,2046,0
572,572,0,2046,106
573,573,0,2046,651
574,574,0,2047,1506
575,575,0,2047,2479
576,576,0,2047,3355
577,577,0,2047,3936
578,578,0,2046,4093
579,579,0,2046,3790
580,580,0,2047,3096
581,581,0,2046,2166
582,582,0,2046,1206
583,583,0,2047,434
584,584,0,2046,19
585,585,0,2046,55
586,586,0,2046,536
587,587,0,2046,1352
588,588,0,2046,2320
589,589,0,2047,3226
590,590,0,2047,3867
591,591,0,2047,4095
592,592,0,2046,3871
593,593,0,2046,3232
594,594,0,2046,2327
595,595,0,2046,1357
596,596,0,2046,540
597,597,0,2046,58
598,598,0,2046,18
599,599,0,2047,430
600,600,0,2046,1202
601,601,0,2046,2159
602,602,0,2046,3090
603,603,0,2047,3787
604,604,0,2047,4093
605,605,0,2046,3938
606,606,0,2046,3360
607,607,0,2046,2486
608,608,0,2046,1513
609,609,0,2047,656
610,610,0,2046,109
611,611,0,2046,0
612,612,0,2046,333
613,613,0,2047,1056
614,614,0,2046,1997
615,615,0,2046,2948
616,616,0,2046,3695
617,617,0,2046,4072
618,618,0,2047,3996
619,619,0,2046,3480
620,620,0,2046,2644
621,621,0,2046,1671
622,622,0,2047,781
623,623,0,2047,171
624,624,0,2046,0
625,625,0,2046,248
626,626,0,2046,916
627,627,0,2046,1836
628,628,0,2046,2800
629,629,0,2047,3594
630,630,0,2047,4040
631,631,0,2046,4041
632,632,0,2046,3592
633,633,0,2047,2796
634,634,0,2046,1832
635,635,0,2046,913
636,636,0,2046,245
637,637,0,2047,0
638,638,0,2046,173
639,639,0,2046,784
640,640,0,2047,1675
641,641,0,2046,2647
642,642,0,2046,3483
643,643,0,2046,3997
644,644,0,2047,4072
645,645,0,2046,3694
646,646,0,2046,2944
647,647,0,2046,1993
648,648,0,2047,1052
649,649,0,2046,331
650,650,0,2046,0
651,651,0,2046,109
652,652,0,2046,658
653,653,0,2047,1516
654,654,0,2046,2490
655,655,0,2046,3363
656,656,0,2046,3941
657,657,0,2046,4092
658,658,0,2046,3785
659,659,0,2046,3087
660,660,0,2047,2155
661,661,0,2046,1197
662,662,0,2046,427
663,663,0,2047,17
664,664,0,2046,58
665,665,0,2047,543
666,666,0,2046,1361
667,667,0,2046,2331
668,668,0,2046,3235
669,669,0,2046,3872
670,670,0,2046,4095
671,671,0,2047,3865
672,672,0,2047,3223
673,673,0,2047,2317
674,674,0,2047,1347
675,675,0,2047,533
676,676,0,2046,55
677,677,0,2046,20
678,678,0,2046,436
679,679,0,2047,1211
680,680,0,2047,2170
681,681,0,2047,3100
682,682,0,2046,3793
683,683,0,2046,4093
684,684,0,2046,3934
685,685,0,2046,3352
686,686,0,2046,2476
687,687,0,2046,1502
688,688,0,2047,648
689,689,0,2046,104
690,690,0,2047,0
691,691,0,2047,339
692,692,0,2046,1065
693,693,0,2046,2007
694,694,0,2046,2958
695,695,0,2046,3702
696,696,0,2046,4074
697,697,0,2047,3992
698,698,0,2047,3473
699,699,0,2046,2633
700,700,0,2046,1660
701,701,0,2047,772
702,702,0,2046,167
703,703,0,2046,0
704,704,0,2046,252
705,705,0,2046,925
706,706,0,2046,1846
707,707,0,2047,2810
708,708,0,2047,3600
709,709,0,2046,4043
710,710,0,2046,4037
711,711,0,2047,3584
712,712,0,2047,2786
713,713,0,2046,1820
714,714,0,2046,903
715,715,0,2047,241
716,716,0,2047,0
717,717,0,2046,178
718,718,0,2047,792
719,719,0,2046,1686
720,720,0,2046,2657
721,721,0,2046,3491
722,722,0,2047,4000
723,723,0,2046,4071
724,724,0,2047,3687
725,725,0,2046,2934
726,726,0,2047,1982
727,727,0,2046,1043
728,728,0,2046,325
729,729,0,2046,0
730,730,0,2046,113
731,731,0,2046,667
732,732,0,2046,1527
733,733,0,2047,2500
734,734,0,2046,3371
735,735,0,2046,3944
736,736,0,2047,4091
737,737,0,2046,3780
738,738,0,2047,3078
739,739,0,2046,2144
740,740,0,2046,1188
741,741,0,2046,420
742,742,0,2046,15
743,743,0,2047,61
744,744,0,2046,550
745,745,0,2046,1371
746,746,0,2046,2342
747,747,0,2046,3244
748,748,0,2047,3877
749,749,0,2047,4095
750,750,0,2046,3861
751,751,0,2046,3215
752,752,0,2046,2306
753,753,0,2046,1338
754,754,0,2046,526
755,755,0,2047,52
756,756,0,2046,21
757,757,0,2046,443
758,758,0,2046,1221
759,759,0,2046,2180
760,760,0,2046,3109
761,761,0,2047,3797
762,762,0,2047,4094
763,763,0,2047,3930
764,764,0,2046,3344
765,765,0,2046,2466
766,766,0,2046,1492
767,767,0,2047,639
768,768,0,2046,101
769,769,0,2046,0
770,770,0,2046,346
771,771,0,2047,1074
772,772,0,2046,2018
773,773,0,2046,2967
774,774,0,2046,3708
775,775,0,2047,4076
776,776,0,2046,3989
777,777,0,2047,3465
778,778,0,2046,2623
779,779,0,2046,1650
780,780,0,2046,764
781,781,0,2046,162
782,782,0,2047,0
783,783,0,2046,258
784,784,0,2046,933
785,785,0,2046,1857
786,786,0,2046,2819
787,787,0,2047,3608
788,788,0,2046,4046
789,789,0,2046,4035
790,790,0,2046,3577
791,791,0,2046,2776
792,792,0,2047,1810
793,793,0,2047,895
794,794,0,2046,235
795,795,0,2046,0
796,796,0,2047,181
797,797,0,2046,800
798,798,0,2047,1696
799,799,0,2047,2667
800,800,0,2047,3498
801,801,0,2047,4003
802,802,0,2046,4068
803,803,0,2046,3681
804,804,0,2046,2925
805,805,0,2047,1972
806,806,0,2047,1033
807,807,0,2046,319
808,808,0,2047,0
809,809,0,2047,117
810,810,0,2046,674
811,811,0,2046,1537
812,812,0,2046,2511
813,813,0,2047,3380
814,814,0,2046,3948
815,815,0,2046,4090
816,816,0,2046,3774
817,817,0,2046,3069
818,818,0,2046,2134
819,819,0,2046,1177
820,820,0,2046,414
821,821,0,2046,13
822,822,0,2046,64
823,823,0,2047,557
824,824,0,2046,1381
825,825,0,2046,2352
826,826,0,2046,3253
827,827,0,2046,3881
828,828,0,2046,4095
829,829,0,2047,3855
830,830,0,2046,3206
831,831,0,2046,2295
832,832,0,2046,1326
833,833,0,2047,519
834,834,0,2047,48
835,835,0,2046,24
836,836,0,2046,449
837,837,0,2046,1230
838,838,0,2046,2191
839,839,0,2046,3118
840,840,0,2046,3803
841,841,0,2047,4095
842,842,0,2047,3926
843,843,0,2046,3336
844,844,0,2047,2455
845,845,0,2046,1482
846,846,0,2047,633
847,847,0,2046,97
848,848,0,2046,0
849,849,0,2047,351
850,850,0,2046,1083
851,851,0,2046,2030
852,852,0,2046,2976
853,853,0,2047,3714
854,854,0,2046,4078
855,855,0,2047,3986
856,856,0,2046,3458
857,857,0,2046,2613
858,858,0,2047,1639
859,859,0,2046,755
860,860,0,2046,158
861,861,0,2046,0
862,862,0,2047,264
863,863,0,2047,943
864,864,0,2047,1868
865,865,0,2046,2829
866,866,0,2046,3615
867,867,0,2046,4048
868,868,0,2047,4033
869,869,0,2046,3570
870,870,0,2046,2767
871,871,0,2047,1799
872,872,0,2047,886
873,873,0,2046,230
874,874,0,2047,0
875,875,0,2046,187
876,876,0,2046,809
877,877,0,2046,1706
878,878,0,2046,2677
879,879,0,2046,3506
880,880,0,2047,4006
881,881,0,2047,4066
882,882,0,2046,3674
883,883,0,2046,2915
884,884,0,2047,1961
885,885,0,2046,1024
886,886,0,2047,313
887,887,0,2047,0
888,888,0,2046,121
889,889,0,2047,683
890,890,0,2046,1547
891,891,0,2046,2521
892,892,0,2047,3388
893,893,0,2046,3952
894,894,0,2046,4089
895,895,0,2047,3767
896,896,0,2046,3060
897,897,0,2046,2123
898,898,0,2046,1168
899,899,0,2046,407
900,900,0,2046,11
901,901,0,2046,68
902,902,0,2046,565
903,903,0,2046,1392
904,904,0,2047,2362
905,905,0,2047,3261
906,906,0,2047,3887
907,907,0,2046,4095
908,908,0,2046,3851
909,909,0,2046,3197
910,910,0,2047,2284
911,911,0,2046,1317
912,912,0,2046,511
913,913,0,2047,47
914,914,0,2046,27
915,915,0,2046,456
916,916,0,2047,1240
917,917,0,2046,2202
918,918,0,2047,3127
919,919,0,2046,3808
920,920,0,2047,4095
921,921,0,2047,3922
922,922,0,2046,3327
923,923,0,2046,2445
924,924,0,2046,1471
925,925,0,2047,625
926,926,0,2046,94
927,927,0,2047,0
928,928,0,2046,357
929,929,0,2046,1094
930,930,0,2046,2040
931,931,0,2046,2986
932,932,0,2046,3720
933,933,0,2046,4079
934,934,0,2047,3982
935,935,0,2046,3450
936,936,0,2046,2602
937,937,0,2047,1628
938,938,0,2046,747
939,939,0,2047,153
940,940,0,2046,0
941,941,0,2046,269
942,942,0,2046,952
943,943,0,2047,1878
944,944,0,2046,2839
945,945,0,2046,3622
946,946,0,2046,4051
947,947,0,2046,4029
948,948,0,2046,3563
949,949,0,2047,2756
950,950,0,2046,1788
951,951,0,2046,877
952,952,0,2046,225
953,953,0,2046,0
954,954,0,2046,191
955,955,0,2047,817
956,956,0,2046,1716
957,957,0,2046,2688
958,958,0,2046,3514
959,959,0,2047,4010
960,960,0,2046,4065
961,961,0,2047,3668
962,962,0,2046,2906
963,963,0,2046,1950
964,964,0,2046,1015
965,965,0,2048,307
966,966,0,2046,0
967,967,0,2046,125
968,968,0,2046,690
969,969,0,2046,1558
970,970,0,2046,2532
971,971,0,2047,3395
972,972,0,2046,3955
973,973,0,2046,4089
974,974,0,2046,3761
975,975,0,2046,3050
976,976,0,2046,2112
977,977,0,2047,1158
978,978,0,2046,401
979,979,0,2046,9
980,980,0,2047,70
981,981,0,2046,573
982,982,0,2047,1401
983,983,0,2046,2373
984,984,0,2046,3269
985,985,0,2046,3891
986,986,0,2047,4095
987,987,0,2047,3845
988,988,0,2046,3188
989,989,0,2046,2273
990,990,0,2046,1307
991,991,0,2046,504
992,992,0,2046,43
993,993,0,2046,29
994,994,0,2046,463
995,995,0,2047,1250
996,996,0,2047,2213
997,997,0,2046,3136
998,998,0,2047,3815
999,999,0,2047,4095
1000,1000,0,2047,3917
1001,1001,0,2046,3319
1002,1002,0,2046,2434
1003,1003,0,2046,1461
1004,1004,0,2046,617
1005,1005,0,2046,90
1006,1006,0,2046,0
1007,1007,0,2047,364
1008,1008,0,2047,1103
1009,1009,0,2046,2051
1010,1010,0,2046,2995
1011,1011,0,2046,3727
1012,1012,0,2047,4080
1013,1013,0,2046,3978
1014,1014,0,2046,3442
1015,1015,0,2046,2592
1016,1016,0,2046,1619
1017,1017,0,2046,738
1018,1018,0,2047,149
1019,1019,0,2046,0
1020,1020,0,2046,274
1021,1021,0,2047,961
1022,1022,0,2046,1889
1023,1023,0,2046,2849
1024,1024,0,2047,3628
1025,1025,0,2046,4053
1026,1026,0,2046,4028
1027,1027,0,2046,3556
1028,1028,0,2046,2746
