Sample in Buffer,Sample in Window,TRIGGER,adc1_data_a_d0[11:0],adc1_data_b_d0[11:0]
0,0,0,2047,3080
1,1,0,2046,2821
2,2,0,2047,2545
3,3,0,2046,2259
4,4,0,2047,1969
5,5,0,2047,1680
6,6,0,2047,1399
7,7,0,2046,1129
8,8,0,2047,877
9,9,0,2046,648
10,10,0,2046,446
11,11,0,2047,274
12,12,0,2046,137
13,13,0,2046,37
14,14,0,2046,0
15,15,0,2047,0
16,16,0,2047,0
17,17,0,2047,36
18,18,0,2046,135
19,19,0,2047,271
20,20,0,2046,442
21,21,0,2047,643
22,22,0,2046,872
23,23,0,2047,1123
24,24,0,2046,1392
25,25,0,2046,1673
26,26,0,2046,1961
27,27,0,2047,2251
28,28,0,2046,2536
29,29,0,2046,2811
30,30,0,2047,3072
31,31,0,2046,3312
32,32,0,2046,3528
33,33,0,2046,3715
34,34,0,2046,3869
35,35,0,2046,3988
36,36,0,2046,4068
37,37,0,2046,4095
38,38,0,2046,4095
39,39,0,2046,4073
40,40,0,2046,3995
41,41,0,2046,3880
42,42,0,2047,3728
43,43,0,2047,3544
44,44,0,2046,3330
45,45,0,2047,3091
46,46,0,2046,2832
47,47,0,2047,2558
48,48,0,2046,2272
49,49,0,2046,1983
50,50,0,2047,1694
51,51,0,2047,1412
52,52,0,2046,1141
53,53,0,2046,888
54,54,0,2046,658
55,55,0,2047,454
56,56,0,2046,281
57,57,0,2047,142
58,58,0,2047,42
59,59,0,2046,0
60,60,0,2046,0
61,61,0,2047,0
62,62,0,2047,33
63,63,0,2047,129
64,64,0,2046,265
65,65,0,2046,434
66,66,0,2046,634
67,67,0,2046,862
68,68,0,2046,1111
69,69,0,2047,1380
70,70,0,2046,1660
71,71,0,2047,1948
72,72,0,2047,2238
73,73,0,2046,2524
74,74,0,2046,2800
75,75,0,2047,3061
76,76,0,2046,3302
77,77,0,2046,3519
78,78,0,2047,3707
79,79,0,2046,3863
80,80,0,2047,3983
81,81,0,2046,4065
82,82,0,2046,4095
83,83,0,2047,4095
84,84,0,2047,4076
85,85,0,2046,3999
86,86,0,2046,3886
87,87,0,2046,3736
88,88,0,2047,3553
89,89,0,2046,3340
90,90,0,2046,3103
91,91,0,2046,2844
92,92,0,2047,2570
93,93,0,2047,2285
94,94,0,2046,1996
95,95,0,2046,1706
96,96,0,2046,1424
97,97,0,2046,1153
98,98,0,2047,900
99,99,0,2046,667
100,100,0,2046,463
101,101,0,2046,289
102,102,0,2046,148
103,103,0,2047,45
104,104,0,2047,0
105,105,0,2047,0
106,106,0,2046,0
107,107,0,2047,29
108,108,0,2046,125
109,109,0,2047,258
110,110,0,2047,425
111,111,0,2047,625
112,112,0,2046,851
113,113,0,2046,1100
114,114,0,2046,1367
115,115,0,2046,1647
116,116,0,2047,1935
117,117,0,2046,2225
118,118,0,2047,2510
119,119,0,2046,2787
120,120,0,2046,3050
121,121,0,2046,3291
122,122,0,2046,3510
123,123,0,2047,3699
124,124,0,2046,3857
125,125,0,2046,3979
126,126,0,2047,4062
127,127,0,2046,4095
128,128,0,2047,4095
129,129,0,2046,4078
130,130,0,2047,4004
131,131,0,2047,3891
132,132,0,2046,3743
133,133,0,2047,3562
134,134,0,2046,3350
135,135,0,2047,3113
136,136,0,2047,2856
137,137,0,2046,2582
138,138,0,2046,2298
139,139,0,2046,2009
140,140,0,2046,1720
141,141,0,2046,1437
142,142,0,2046,1165
143,143,0,2047,910
144,144,0,2046,678
145,145,0,2046,471
146,146,0,2047,296
147,147,0,2047,154
148,148,0,2046,49
149,149,0,2047,0
150,150,0,2047,0
151,151,0,2046,0
152,152,0,2046,25
153,153,0,2046,121
154,154,0,2047,252
155,155,0,2047,416
156,156,0,2046,615
157,157,0,2046,840
158,158,0,2047,1088
159,159,0,2046,1354
160,160,0,2046,1634
161,161,0,2046,1922
162,162,0,2047,2212
163,163,0,2046,2497
164,164,0,2046,2776
165,165,0,2046,3038
166,166,0,2046,3281
167,167,0,2046,3500
168,168,0,2046,3691
169,169,0,2047,3850
170,170,0,2046,3974
171,171,0,2046,4060
172,172,0,2046,4095
173,173,0,2047,4095
174,174,0,2046,4080
175,175,0,2046,4008
176,176,0,2046,3898
177,177,0,2046,3751
178,178,0,2046,3571
179,179,0,2046,3360
180,180,0,2046,3125
181,181,0,2046,2868
182,182,0,2046,2595
183,183,0,2046,2311
184,184,0,2046,2022
185,185,0,2046,1732
186,186,0,2046,1449
187,187,0,2047,1177
188,188,0,2046,921
189,189,0,2046,688
190,190,0,2046,481
191,191,0,2046,303
192,192,0,2046,159
193,193,0,2047,53
194,194,0,2046,0
195,195,0,2047,0
196,196,0,2046,0
197,197,0,2046,22
198,198,0,2046,114
199,199,0,2046,245
200,200,0,2047,409
201,201,0,2047,605
202,202,0,2046,828
203,203,0,2046,1076
204,204,0,2046,1343
205,205,0,2046,1621
206,206,0,2046,1909
207,207,0,2046,2198
208,208,0,2046,2484
209,209,0,2046,2762
210,210,0,2046,3026
211,211,0,2046,3270
212,212,0,2047,3491
213,213,0,2046,3683
214,214,0,2045,3844
215,215,0,2047,3968
216,216,0,2046,4057
217,217,0,2046,4095
218,218,0,2047,4095
219,219,0,2046,4083
220,220,0,2046,4012
221,221,0,2046,3903
222,222,0,2046,3759
223,223,0,2046,3579
224,224,0,2045,3371
225,225,0,2046,3136
226,226,0,2046,2880
227,227,0,2046,2608
228,228,0,2046,2324
229,229,0,2047,2035
230,230,0,2046,1745
231,231,0,2046,1462
232,232,0,2046,1189
233,233,0,2047,933
234,234,0,2046,698
235,235,0,2047,488
236,236,0,2046,310
237,237,0,2046,165
238,238,0,2046,57
239,239,0,2046,0
240,240,0,2046,0
241,241,0,2046,0
242,242,0,2046,19
243,243,0,2047,110
244,244,0,2046,238
245,245,0,2047,400
246,246,0,2047,596
247,247,0,2046,818
248,248,0,2046,1065
249,249,0,2046,1330
250,250,0,2047,1608
251,251,0,2047,1895
252,252,0,2046,2186
253,253,0,2046,2472
254,254,0,2047,2750
255,255,0,2046,3015
256,256,0,2046,3260
257,257,0,2046,3482
258,258,0,2047,3676
259,259,0,2047,3837
260,260,0,2046,3964
261,261,0,2046,4053
262,262,0,2047,4095
263,263,0,2046,4095
264,264,0,2046,4084
265,265,0,2046,4016
266,266,0,2046,3909
267,267,0,2046,3764
268,268,0,2047,3588
269,269,0,2047,3380
270,270,0,2046,3147
271,271,0,2046,2892
272,272,0,2046,2620
273,273,0,2046,2337
274,274,0,2047,2048
275,275,0,2047,1758
276,276,0,2047,1474
277,277,0,2046,1201
278,278,0,2047,943
279,279,0,2047,708
280,280,0,2047,497
281,281,0,2047,318
282,282,0,2046,171
283,283,0,2046,61
284,284,0,2046,0
285,285,0,2046,0
286,286,0,2046,0
287,287,0,2046,15
288,288,0,2046,105
289,289,0,2047,231
290,290,0,2047,392
291,291,0,2046,586
292,292,0,2046,807
293,293,0,2046,1053
294,294,0,2046,1318
295,295,0,2047,1596
296,296,0,2046,1882
297,297,0,2047,2172
298,298,0,2047,2460
299,299,0,2046,2738
300,300,0,2046,3003
301,301,0,2046,3250
302,302,0,2046,3472
303,303,0,2046,3668
304,304,0,2046,3831
305,305,0,2046,3959
306,306,0,2046,4050
307,307,0,2046,4095
308,308,0,2046,4095
309,309,0,2046,4087
310,310,0,2047,4020
311,311,0,2046,3914
312,312,0,2046,3772
313,313,0,2046,3596
314,314,0,2046,3390
315,315,0,2046,3159
316,316,0,2047,2904
317,317,0,2046,2633
318,318,0,2046,2350
319,319,0,2046,2061
320,320,0,2046,1771
321,321,0,2047,1487
322,322,0,2046,1212
323,323,0,2046,955
324,324,0,2046,718
325,325,0,2046,506
326,326,0,2047,325
327,327,0,2046,177
328,328,0,2046,65
329,329,0,2046,0
330,330,0,2046,0
331,331,0,2047,0
332,332,0,2046,13
333,333,0,2046,100
334,334,0,2046,225
335,335,0,2046,384
336,336,0,2046,577
337,337,0,2046,797
338,338,0,2046,1041
339,339,0,2046,1306
340,340,0,2047,1583
341,341,0,2047,1870
342,342,0,2046,2159
343,343,0,2046,2447
344,344,0,2046,2726
345,345,0,2047,2991
346,346,0,2046,3239
347,347,0,2047,3463
348,348,0,2047,3659
349,349,0,2046,3824
350,350,0,2046,3954
351,351,0,2046,4047
352,352,0,2047,4095
353,353,0,2046,4095
354,354,0,2046,4090
355,355,0,2046,4025
356,356,0,2047,3920
357,357,0,2046,3779
358,358,0,2046,3606
359,359,0,2046,3400
360,360,0,2046,3169
361,361,0,2047,2916
362,362,0,2047,2646
363,363,0,2046,2363
364,364,0,2046,2073
365,365,0,2047,1784
366,366,0,2046,1500
367,367,0,2047,1225
368,368,0,2047,967
369,369,0,2046,728
370,370,0,2046,516
371,371,0,2046,333
372,372,0,2046,182
373,373,0,2046,69
374,374,0,2046,0
375,375,0,2046,0
376,376,0,2047,0
377,377,0,2045,9
378,378,0,2047,95
379,379,0,2046,218
380,380,0,2046,377
381,381,0,2047,568
382,382,0,2046,787
383,383,0,2046,1030
384,384,0,2046,1293
385,385,0,2047,1570
386,386,0,2046,1856
387,387,0,2046,2147
388,388,0,2046,2433
389,389,0,2046,2714
390,390,0,2046,2980
391,391,0,2047,3228
392,392,0,2047,3453
393,393,0,2046,3651
394,394,0,2046,3817
395,395,0,2046,3949
396,396,0,2047,4043
397,397,0,2047,4095
398,398,0,2046,4095
399,399,0,2046,4091
400,400,0,2047,4028
401,401,0,2046,3926
402,402,0,2046,3787
403,403,0,2047,3614
404,404,0,2046,3410
405,405,0,2046,3181
406,406,0,2047,2927
407,407,0,2047,2658
408,408,0,2046,2376
409,409,0,2046,2087
410,410,0,2046,1797
411,411,0,2046,1512
412,412,0,2046,1237
413,413,0,2047,977
414,414,0,2046,738
415,415,0,2047,524
416,416,0,2046,340
417,417,0,2046,188
418,418,0,2046,74
419,419,0,2046,0
420,420,0,2047,0
421,421,0,2046,0
422,422,0,2047,7
423,423,0,2047,90
424,424,0,2046,211
425,425,0,2046,369
426,426,0,2047,558
427,427,0,2047,776
428,428,0,2046,1018
429,429,0,2046,1281
430,430,0,2046,1557
431,431,0,2046,1843
432,432,0,2046,2133
433,433,0,2047,2420
434,434,0,2046,2701
435,435,0,2047,2968
436,436,0,2046,3218
437,437,0,2047,3445
438,438,0,2047,3642
439,439,0,2046,3810
440,440,0,2046,3944
441,441,0,2046,4040
442,442,0,2046,4095
443,443,0,2046,4095
444,444,0,2046,4094
445,445,0,2047,4032
446,446,0,2046,3931
447,447,0,2046,3794
448,448,0,2046,3622
449,449,0,2046,3420
450,450,0,2047,3191
451,451,0,2047,2940
452,452,0,2047,2670
453,453,0,2047,2389
454,454,0,2046,2100
455,455,0,2047,1811
456,456,0,2046,1525
457,457,0,2046,1249
458,458,0,2046,989
459,459,0,2047,749
460,460,0,2046,533
461,461,0,2046,348
462,462,0,2046,194
463,463,0,2046,77
464,464,0,2046,0
465,465,0,2046,0
466,466,0,2047,0
467,467,0,2047,5
468,468,0,2046,86
469,469,0,2046,206
470,470,0,2046,360
471,471,0,2046,549
472,472,0,2046,766
473,473,0,2046,1007
474,474,0,2046,1269
475,475,0,2046,1545
476,476,0,2046,1831
477,477,0,2047,2120
478,478,0,2046,2408
479,479,0,2046,2688
480,480,0,2046,2956
481,481,0,2047,3207
482,482,0,2046,3434
483,483,0,2047,3634
484,484,0,2047,3804
485,485,0,2046,3939
486,486,0,2045,4037
487,487,0,2047,4095
488,488,0,2046,4095
489,489,0,2046,4095
490,490,0,2045,4035
491,491,0,2046,3936
492,492,0,2047,3800
493,493,0,2047,3631
494,494,0,2046,3430
495,495,0,2046,3202
496,496,0,2047,2951
497,497,0,2047,2683
498,498,0,2046,2401
499,499,0,2046,2113
500,500,0,2046,1823
501,501,0,2046,1537
502,502,0,2046,1261
503,503,0,2046,1000
504,504,0,2046,759
505,505,0,2046,543
506,506,0,2045,356
507,507,0,2046,202
508,508,0,2047,82
509,509,0,2047,1
510,510,0,2047,0
511,511,0,2047,0
512,512,0,2046,1
513,513,0,2046,81
514,514,0,2046,199
515,515,0,2047,353
516,516,0,2046,540
517,517,0,2046,755
518,518,0,2047,996
519,519,0,2046,1256
520,520,0,2047,1532
521,521,0,2047,1818
522,522,0,2046,2107
523,523,0,2047,2395
524,524,0,2047,2676
525,525,0,2046,2944
526,526,0,2046,3195
527,527,0,2046,3424
528,528,0,2046,3625
529,529,0,2046,3797
530,530,0,2046,3934
531,531,0,2046,4034
532,532,0,2046,4094
533,533,0,2047,4095
534,534,0,2046,4095
535,535,0,2046,4039
536,536,0,2046,3942
537,537,0,2046,3808
538,538,0,2047,3640
539,539,0,2046,3440
540,540,0,2047,3213
541,541,0,2046,2963
542,542,0,2047,2696
543,543,0,2046,2414
544,544,0,2046,2127
545,545,0,2046,1836
546,546,0,2047,1551
547,547,0,2046,1273
548,548,0,2046,1011
549,549,0,2046,770
550,550,0,2047,551
551,551,0,2046,363
552,552,0,2046,208
553,553,0,2046,87
554,554,0,2046,4
555,555,0,2047,0
556,556,0,2047,0
557,557,0,2047,0
558,558,0,2047,77
559,559,0,2046,194
560,560,0,2047,346
561,561,0,2047,531
562,562,0,2047,745
563,563,0,2047,984
564,564,0,2046,1245
565,565,0,2046,1520
566,566,0,2047,1804
567,567,0,2046,2094
568,568,0,2047,2382
569,569,0,2046,2664
570,570,0,2047,2933
571,571,0,2047,3185
572,572,0,2046,3414
573,573,0,2047,3617
574,574,0,2046,3790
575,575,0,2046,3927
576,576,0,2047,4029
577,577,0,2046,4093
578,578,0,2046,4095
579,579,0,2046,4095
580,580,0,2046,4042
581,581,0,2046,3947
582,582,0,2046,3814
583,583,0,2046,3648
584,584,0,2046,3449
585,585,0,2047,3224
586,586,0,2046,2975
587,587,0,2046,2708
588,588,0,2046,2428
589,589,0,2047,2140
590,590,0,2047,1850
591,591,0,2046,1563
592,592,0,2047,1285
593,593,0,2047,1023
594,594,0,2046,780
595,595,0,2047,561
596,596,0,2046,371
597,597,0,2046,214
598,598,0,2047,92
599,599,0,2047,8
600,600,0,2046,0
601,601,0,2047,0
602,602,0,2047,0
603,603,0,2046,73
604,604,0,2046,187
605,605,0,2046,337
606,606,0,2047,521
607,607,0,2046,735
608,608,0,2047,973
609,609,0,2046,1232
610,610,0,2047,1506
611,611,0,2047,1791
612,612,0,2047,2081
613,613,0,2046,2369
614,614,0,2046,2651
615,615,0,2047,2921
616,616,0,2047,3174
617,617,0,2047,3404
618,618,0,2046,3609
619,619,0,2046,3783
620,620,0,2046,3923
621,621,0,2046,4026
622,622,0,2047,4091
623,623,0,2046,4095
624,624,0,2046,4095
625,625,0,2046,4045
626,626,0,2046,3952
627,627,0,2046,3821
628,628,0,2047,3655
629,629,0,2047,3459
630,630,0,2046,3234
631,631,0,2046,2986
632,632,0,2047,2720
633,633,0,2046,2440
634,634,0,2046,2152
635,635,0,2046,1862
636,636,0,2046,1575
637,637,0,2046,1298
638,638,0,2047,1034
639,639,0,2046,790
640,640,0,2046,570
641,641,0,2047,379
642,642,0,2046,220
643,643,0,2046,96
644,644,0,2046,11
645,645,0,2046,0
646,646,0,2047,0
647,647,0,2046,0
648,648,0,2047,69
649,649,0,2047,181
650,650,0,2047,331
651,651,0,2047,513
652,652,0,2047,724
653,653,0,2047,962
654,654,0,2046,1220
655,655,0,2047,1493
656,656,0,2046,1778
657,657,0,2046,2067
658,658,0,2047,2356
659,659,0,2047,2639
660,660,0,2047,2909
661,661,0,2046,3163
662,662,0,2047,3395
663,663,0,2046,3601
664,664,0,2046,3775
665,665,0,2046,3917
666,666,0,2047,4022
667,667,0,2046,4089
668,668,0,2046,4095
669,669,0,2046,4095
670,670,0,2046,4050
671,671,0,2046,3957
672,672,0,2047,3827
673,673,0,2047,3664
674,674,0,2046,3468
675,675,0,2047,3245
676,676,0,2046,2998
677,677,0,2047,2733
678,678,0,2046,2453
679,679,0,2047,2166
680,680,0,2046,1876
681,681,0,2046,1589
682,682,0,2046,1311
683,683,0,2047,1046
684,684,0,2046,801
685,685,0,2046,580
686,686,0,2046,387
687,687,0,2046,226
688,688,0,2047,101
689,689,0,2046,14
690,690,0,2046,0
691,691,0,2046,0
692,692,0,2047,0
693,693,0,2046,65
694,694,0,2046,175
695,695,0,2046,323
696,696,0,2046,503
697,697,0,2047,715
698,698,0,2047,951
699,699,0,2047,1208
700,700,0,2046,1481
701,701,0,2046,1766
702,702,0,2047,2055
703,703,0,2047,2343
704,704,0,2046,2626
705,705,0,2047,2897
706,706,0,2047,3152
707,707,0,2046,3385
708,708,0,2046,3591
709,709,0,2047,3768
710,710,0,2047,3911
711,711,0,2046,4018
712,712,0,2046,4087
713,713,0,2047,4095
714,714,0,2046,4095
715,715,0,2047,4053
716,716,0,2046,3961
717,717,0,2046,3834
718,718,0,2046,3671
719,719,0,2046,3477
720,720,0,2047,3255
721,721,0,2046,3010
722,722,0,2046,2745
723,723,0,2047,2466
724,724,0,2046,2179
725,725,0,2046,1888
726,726,0,2047,1601
727,727,0,2046,1323
728,728,0,2046,1057
729,729,0,2047,811
730,730,0,2046,589
731,731,0,2047,395
732,732,0,2046,234
733,733,0,2047,106
734,734,0,2047,17
735,735,0,2047,0
736,736,0,2047,0
737,737,0,2046,0
738,738,0,2046,60
739,739,0,2046,169
740,740,0,2047,316
741,741,0,2046,495
742,742,0,2046,704
743,743,0,2046,940
744,744,0,2046,1196
745,745,0,2046,1469
746,746,0,2046,1752
747,747,0,2046,2041
748,748,0,2047,2331
749,749,0,2047,2614
750,750,0,2046,2885
751,751,0,2047,3141
752,752,0,2046,3375
753,753,0,2047,3583
754,754,0,2046,3761
755,755,0,2046,3906
756,756,0,2046,4014
757,757,0,2047,4084
758,758,0,2047,4095
759,759,0,2047,4095
760,760,0,2046,4056
761,761,0,2047,3967
762,762,0,2047,3841
763,763,0,2046,3680
764,764,0,2046,3487
765,765,0,2046,3267
766,766,0,2046,3021
767,767,0,2047,2757
768,768,0,2047,2479
769,769,0,2046,2192
770,770,0,2046,1901
771,771,0,2046,1615
772,772,0,2046,1335
773,773,0,2047,1069
774,774,0,2046,822
775,775,0,2047,598
776,776,0,2047,403
777,777,0,2046,239
778,778,0,2046,111
779,779,0,2046,20
780,780,0,2047,0
781,781,0,2047,0
782,782,0,2046,0
783,783,0,2046,56
784,784,0,2046,163
785,785,0,2047,308
786,786,0,2046,486
787,787,0,2046,694
788,788,0,2046,929
789,789,0,2046,1184
790,790,0,2047,1456
791,791,0,2046,1740
792,792,0,2046,2029
793,793,0,2047,2317
794,794,0,2047,2601
795,795,0,2047,2872
796,796,0,2047,3130
797,797,0,2046,3364
798,798,0,2046,3574
799,799,0,2046,3754
800,800,0,2046,3900
801,801,0,2047,4010
802,802,0,2046,4082
803,803,0,2046,4095
804,804,0,2046,4095
805,805,0,2046,4058
806,806,0,2046,3971
807,807,0,2047,3847
808,808,0,2046,3688
809,809,0,2046,3496
810,810,0,2046,3276
811,811,0,2047,3032
812,812,0,2046,2769
813,813,0,2046,2492
814,814,0,2046,2205
815,815,0,2047,1916
816,816,0,2047,1627
817,817,0,2047,1347
818,818,0,2047,1081
819,819,0,2047,832
820,820,0,2047,608
821,821,0,2046,411
822,822,0,2047,246
823,823,0,2046,115
824,824,0,2046,23
825,825,0,2046,0
826,826,0,2047,0
827,827,0,2047,0
828,828,0,2046,52
829,829,0,2046,158
830,830,0,2047,301
831,831,0,2046,478
832,832,0,2046,684
833,833,0,2046,918
834,834,0,2046,1172
835,835,0,2047,1443
836,836,0,2047,1727
837,837,0,2046,2015
838,838,0,2046,2304
839,839,0,2046,2588
840,840,0,2047,2861
841,841,0,2046,3119
842,842,0,2046,3354
843,843,0,2047,3565
844,844,0,2046,3746
845,845,0,2047,3894
846,846,0,2046,4005
847,847,0,2046,4080
848,848,0,2047,4095
849,849,0,2046,4095
850,850,0,2046,4061
851,851,0,2047,3976
852,852,0,2046,3854
853,853,0,2047,3695
854,854,0,2046,3505
855,855,0,2047,3287
856,856,0,2047,3044
857,857,0,2047,2782
858,858,0,2046,2504
859,859,0,2046,2218
860,860,0,2047,1929
861,861,0,2046,1640
862,862,0,2047,1359
863,863,0,2047,1092
864,864,0,2046,844
865,865,0,2046,617
866,866,0,2046,419
867,867,0,2047,253
868,868,0,2046,121
869,869,0,2046,27
870,870,0,2047,0
871,871,0,2047,0
872,872,0,2046,0
873,873,0,2047,48
874,874,0,2046,153
875,875,0,2047,294
876,876,0,2046,468
877,877,0,2045,674
878,878,0,2046,906
879,879,0,2046,1160
880,880,0,2046,1431
881,881,0,2046,1713
882,882,0,2046,2002
883,883,0,2046,2291
884,884,0,2046,2576
885,885,0,2047,2850
886,886,0,2046,3107
887,887,0,2047,3344
888,888,0,2047,3556
889,889,0,2046,3739
890,890,0,2046,3888
891,891,0,2046,4001
892,892,0,2047,4077
893,893,0,2046,4095
894,894,0,2046,4095
895,895,0,2047,4065
896,896,0,2046,3981
897,897,0,2047,3860
898,898,0,2046,3704
899,899,0,2046,3514
900,900,0,2046,3298
901,901,0,2047,3056
902,902,0,2046,2794
903,903,0,2046,2518
904,904,0,2046,2231
905,905,0,2046,1942
906,906,0,2046,1653
907,907,0,2046,1372
908,908,0,2046,1104
909,909,0,2047,854
910,910,0,2046,627
911,911,0,2046,428
912,912,0,2046,259
913,913,0,2046,126
914,914,0,2047,30
915,915,0,2047,0
916,916,0,2047,0
917,917,0,2046,0
918,918,0,2047,44
919,919,0,2046,148
920,920,0,2047,287
921,921,0,2047,461
922,922,0,2046,664
923,923,0,2046,896
924,924,0,2046,1149
925,925,0,2047,1419
926,926,0,2046,1701
927,927,0,2046,1990
928,928,0,2046,2279
929,929,0,2046,2564
930,930,0,2046,2837
931,931,0,2046,3097
932,932,0,2047,3334
933,933,0,2047,3547
934,934,0,2047,3731
935,935,0,2046,3882
936,936,0,2046,3996
937,937,0,2046,4074
938,938,0,2046,4095
939,939,0,2046,4095
940,940,0,2046,4067
941,941,0,2046,3986
942,942,0,2046,3866
943,943,0,2046,3711
944,944,0,2046,3523
945,945,0,2046,3308
946,946,0,2046,3067
947,947,0,2046,2806
948,948,0,2046,2531
949,949,0,2047,2245
950,950,0,2046,1954
951,951,0,2046,1666
952,952,0,2047,1385
953,953,0,2047,1117
954,954,0,2047,865
955,955,0,2046,637
956,956,0,2047,436
957,957,0,2046,267
958,958,0,2046,131
959,959,0,2046,34
960,960,0,2046,0
961,961,0,2046,0
962,962,0,2046,0
963,963,0,2047,40
964,964,0,2046,141
965,965,0,2046,280
966,966,0,2046,451
967,967,0,2047,655
968,968,0,2047,885
969,969,0,2047,1136
970,970,0,2047,1406
971,971,0,2047,1688
972,972,0,2047,1976
973,973,0,2047,2266
974,974,0,2047,2550
975,975,0,2047,2825
976,976,0,2047,3085
977,977,0,2046,3324
978,978,0,2047,3538
979,979,0,2046,3723
980,980,0,2046,3876
981,981,0,2046,3993
982,982,0,2047,4071
983,983,0,2046,4095
984,984,0,2046,4095
985,985,0,2047,4071
986,986,0,2047,3990
987,987,0,2046,3872
988,988,0,2047,3719
989,989,0,2046,3533
990,990,0,2047,3318
991,991,0,2047,3078
992,992,0,2046,2818
993,993,0,2046,2543
994,994,0,2047,2257
995,995,0,2047,1968
996,996,0,2046,1679
997,997,0,2047,1398
998,998,0,2047,1128
999,999,0,2047,876
1000,1000,0,2046,647
1001,1001,0,2046,445
1002,1002,0,2046,274
1003,1003,0,2047,137
1004,1004,0,2047,38
1005,1005,0,2046,0
1006,1006,0,2046,0
1007,1007,0,2047,0
1008,1008,0,2046,37
1009,1009,0,2046,136
1010,1010,0,2046,272
1011,1011,0,2047,443
1012,1012,0,2047,644
1013,1013,0,2047,874
1014,1014,0,2046,1124
1015,1015,0,2047,1393
1016,1016,0,2047,1675
1017,1017,0,2047,1964
1018,1018,0,2047,2253
1019,1019,0,2046,2538
1020,1020,0,2046,2814
1021,1021,0,2046,3074
1022,1022,0,2046,3314
1023,1023,0,2047,3530
1024,1024,0,2046,3716
1025,1025,0,2047,3870
1026,1026,0,2046,3989
1027,1027,0,2046,4069
1028,1028,0,2047,4095
1029,1029,0,2046,4095
