Sample in Buffer,Sample in Window,TRIGGER,adc1_data_a_d0[11:0],adc1_data_b_d0[11:0]
0,0,0,2046,3073
1,1,0,2046,3779
2,2,0,2047,4092
3,3,0,2046,3944
4,4,0,2046,3369
5,5,0,2046,2494
6,6,0,2046,1517
7,7,0,2046,657
8,8,0,2046,107
9,9,0,2046,0
10,10,0,2046,335
11,11,0,2047,1061
12,12,0,2046,2008
13,13,0,2046,2960
14,14,0,2046,3706
15,15,0,2046,4077
16,16,0,2046,3990
17,17,0,2047,3465
18,18,0,2047,2617
19,19,0,2047,1642
20,20,0,2046,755
21,21,0,2046,155
22,22,0,2046,0
23,23,0,2047,265
24,24,0,2046,951
25,25,0,2047,1879
26,26,0,2047,2844
27,27,0,2046,3627
28,28,0,2046,4053
29,29,0,2046,4028
30,30,0,2047,3555
31,31,0,2047,2740
32,32,0,2046,1769
33,33,0,2046,857
34,34,0,2046,211
35,35,0,2046,0
36,36,0,2046,204
37,37,0,2047,843
38,38,0,2046,1752
39,39,0,2047,2724
40,40,0,2046,3543
41,41,0,2046,4023
42,42,0,2047,4058
43,43,0,2047,3638
44,44,0,2047,2860
45,45,0,2047,1897
46,46,0,2046,965
47,47,0,2046,274
48,48,0,2046,0
49,49,0,2046,148
50,50,0,2046,741
51,51,0,2047,1625
52,52,0,2046,2602
53,53,0,2046,3451
54,54,0,2046,3984
55,55,0,2046,4080
56,56,0,2046,3717
57,57,0,2045,2976
58,58,0,2047,2025
59,59,0,2046,1077
60,60,0,2047,345
61,61,0,2046,0
62,62,0,2046,101
63,63,0,2047,644
64,64,0,2046,1500
65,65,0,2047,2477
66,66,0,2047,3355
67,67,0,2046,3938
68,68,0,2046,4094
69,69,0,2047,3788
70,70,0,2046,3089
71,71,0,2046,2153
72,72,0,2046,1192
73,73,0,2046,422
74,74,0,2046,14
75,75,0,2046,60
76,76,0,2047,551
77,77,0,2046,1377
78,78,0,2046,2351
79,79,0,2046,3253
80,80,0,2047,3884
81,81,0,2046,4095
82,82,0,2047,3853
83,83,0,2046,3198
84,84,0,2047,2281
85,85,0,2046,1311
86,86,0,2047,504
87,87,0,2046,42
88,88,0,2046,28
89,89,0,2047,465
90,90,0,2046,1256
91,91,0,2047,2223
92,92,0,2046,3147
93,93,0,2046,3824
94,94,0,2046,4095
95,95,0,2046,3910
96,96,0,2046,3301
97,97,0,2047,2408
98,98,0,2046,1433
99,99,0,2046,594
100,100,0,2046,77
101,101,0,2047,3
102,102,0,2047,385
103,103,0,2046,1139
104,104,0,2046,2094
105,105,0,2047,3037
106,106,0,2046,3756
107,107,0,2046,4089
108,108,0,2046,3960
109,109,0,2046,3400
110,110,0,2047,2534
111,111,0,2046,1557
112,112,0,2046,687
113,113,0,2046,121
114,114,0,2047,0
115,115,0,2047,311
116,116,0,2046,1025
117,117,0,2046,1966
118,118,0,2047,2923
119,119,0,2046,3681
120,120,0,2046,4071
121,121,0,2046,4003
122,122,0,2046,3495
123,123,0,2046,2658
124,124,0,2046,1682
125,125,0,2046,787
126,126,0,2046,173
127,127,0,2046,0
128,128,0,2046,245
129,129,0,2047,915
130,130,0,2046,1837
131,131,0,2046,2805
132,132,0,2047,3600
133,133,0,2046,4044
134,134,0,2046,4038
135,135,0,2046,3582
136,136,0,2047,2779
137,137,0,2046,1810
138,138,0,2046,892
139,139,0,2046,231
140,140,0,2046,0
141,141,0,2046,185
142,142,0,2047,809
143,143,0,2046,1710
144,144,0,2047,2684
145,145,0,2047,3513
146,146,0,2046,4011
147,147,0,2046,4065
148,148,0,2046,3665
149,149,0,2047,2897
150,150,0,2046,1939
151,151,0,2046,1001
152,152,0,2046,297
153,153,0,2046,0
154,154,0,2046,131
155,155,0,2046,708
156,156,0,2046,1584
157,157,0,2046,2561
158,158,0,2046,3420
159,159,0,2046,3969
160,160,0,2046,4085
161,161,0,2046,3741
162,162,0,2046,3013
163,163,0,2046,2067
164,164,0,2047,1114
165,165,0,2046,369
166,166,0,2047,0
167,167,0,2046,87
168,168,0,2047,613
169,169,0,2046,1459
170,170,0,2046,2436
171,171,0,2047,3323
172,172,0,2046,3922
173,173,0,2046,4095
174,174,0,2047,3809
175,175,0,2047,3124
176,176,0,2046,2196
177,177,0,2047,1231
178,178,0,2046,448
179,179,0,2046,21
180,180,0,2046,48
181,181,0,2046,522
182,182,0,2046,1338
183,183,0,2046,2309
184,184,0,2047,3219
185,185,0,2046,3866
186,186,0,2046,4095
187,187,0,2047,3872
188,188,0,2046,3231
189,189,0,2046,2323
190,190,0,2046,1351
191,191,0,2046,533
192,192,0,2046,52
193,193,0,2046,19
194,194,0,2046,439
195,195,0,2046,1218
196,196,0,2047,2181
197,197,0,2046,3112
198,198,0,2047,3802
199,199,0,2046,4095
200,200,0,2046,3927
201,201,0,2046,3333
202,202,0,2046,2449
203,203,0,2046,1473
204,204,0,2047,623
205,205,0,2046,91
206,206,0,2046,0
207,207,0,2046,360
208,208,0,2046,1101
209,209,0,2046,2052
210,210,0,2047,3000
211,211,0,2047,3732
212,212,0,2047,4083
213,213,0,2046,3975
214,214,0,2047,3432
215,215,0,2046,2575
216,216,0,2046,1598
217,217,0,2046,720
218,218,0,2047,138
219,219,0,2046,0
220,220,0,2047,288
221,221,0,2046,989
222,222,0,2047,1924
223,223,0,2046,2884
224,224,0,2047,3656
225,225,0,2046,4063
226,226,0,2046,4015
227,227,0,2046,3524
228,228,0,2046,2698
229,229,0,2046,1724
230,230,0,2046,821
231,231,0,2047,191
232,232,0,2045,0
233,233,0,2047,224
234,234,0,2046,880
235,235,0,2047,1797
236,236,0,2047,2766
237,237,0,2047,3573
238,238,0,2046,4034
239,239,0,2046,4048
240,240,0,2046,3610
241,241,0,2046,2819
242,242,0,2046,1852
243,243,0,2047,927
244,244,0,2046,252
245,245,0,2046,0
246,246,0,2046,167
247,247,0,2046,776
248,248,0,2046,1668
249,249,0,2046,2644
250,250,0,2046,3484
251,251,0,2046,3998
252,252,0,2046,4073
253,253,0,2047,3690
254,254,0,2046,2936
255,255,0,2047,1981
256,256,0,2047,1037
257,257,0,2047,319
258,258,0,2046,0
259,259,0,2046,117
260,260,0,2046,676
261,261,0,2047,1543
262,262,0,2046,2521
263,263,0,2047,3389
264,264,0,2047,3955
265,265,0,2047,4089
266,266,0,2046,3764
267,267,0,2046,3050
268,268,0,2046,2109
269,269,0,2047,1151
270,270,0,2046,395
271,271,0,2047,6
272,272,0,2047,73
273,273,0,2046,583
274,274,0,2046,1419
275,275,0,2046,2395
276,276,0,2046,3290
277,277,0,2047,3904
278,278,0,2047,4095
279,279,0,2047,3831
280,280,0,2046,3161
281,281,0,2046,2237
282,282,0,2046,1270
283,283,0,2046,474
284,284,0,2046,30
285,285,0,2046,38
286,286,0,2046,495
287,287,0,2046,1297
288,288,0,2047,2267
289,289,0,2046,3185
290,290,0,2047,3846
291,291,0,2046,4095
292,292,0,2047,3891
293,293,0,2047,3266
294,294,0,2046,2364
295,295,0,2046,1391
296,296,0,2046,562
297,297,0,2046,64
298,298,0,2046,10
299,299,0,2046,413
300,300,0,2046,1180
301,301,0,2047,2140
302,302,0,2046,3077
303,303,0,2047,3779
304,304,0,2047,4093
305,305,0,2047,3944
306,306,0,2046,3366
307,307,0,2046,2490
308,308,0,2046,1515
309,309,0,2047,654
310,310,0,2046,105
311,311,0,2046,0
312,312,0,2046,336
313,313,0,2046,1065
314,314,0,2046,2011
315,315,0,2046,2963
316,316,0,2046,3708
317,317,0,2047,4077
318,318,0,2047,3989
319,319,0,2047,3463
320,320,0,2047,2616
321,321,0,2046,1639
322,322,0,2047,752
323,323,0,2047,154
324,324,0,2046,0
325,325,0,2047,267
326,326,0,2046,953
327,327,0,2047,1882
328,328,0,2046,2847
329,329,0,2046,3629
330,330,0,2046,4054
331,331,0,2046,4027
332,332,0,2047,3552
333,333,0,2046,2737
334,334,0,2047,1765
335,335,0,2046,855
336,336,0,2046,210
337,337,0,2046,0
338,338,0,2046,205
339,339,0,2046,846
340,340,0,2046,1754
341,341,0,2047,2727
342,342,0,2046,3544
343,343,0,2046,4025
344,344,0,2047,4058
345,345,0,2046,3637
346,346,0,2046,2856
347,347,0,2047,1893
348,348,0,2047,962
349,349,0,2046,273
350,350,0,2047,0
351,351,0,2046,149
352,352,0,2047,743
353,353,0,2047,1628
354,354,0,2046,2605
355,355,0,2046,3454
356,356,0,2046,3985
357,357,0,2046,4079
358,358,0,2047,3715
359,359,0,2046,2973
360,360,0,2046,2022
361,361,0,2046,1074
362,362,0,2046,342
363,363,0,2046,0
364,364,0,2046,102
365,365,0,2047,646
366,366,0,2047,1503
367,367,0,2046,2480
368,368,0,2047,3358
369,369,0,2046,3939
370,370,0,2046,4094
371,371,0,2046,3786
372,372,0,2046,3086
373,373,0,2046,2150
374,374,0,2046,1190
375,375,0,2046,420
376,376,0,2046,13
377,377,0,2046,61
378,378,0,2046,554
379,379,0,2046,1380
380,380,0,2046,2354
381,381,0,2046,3256
382,382,0,2046,3886
383,383,0,2046,4095
384,384,0,2047,3851
385,385,0,2047,3195
386,386,0,2047,2278
387,387,0,2047,1309
388,388,0,2047,502
389,389,0,2047,40
390,390,0,2047,29
391,391,0,2047,468
392,392,0,2047,1260
393,393,0,2046,2226
394,394,0,2046,3150
395,395,0,2047,3825
396,396,0,2046,4095
397,397,0,2046,3908
398,398,0,2046,3299
399,399,0,2046,2406
400,400,0,2046,1430
401,401,0,2046,591
402,402,0,2046,77
403,403,0,2047,3
404,404,0,2047,387
405,405,0,2047,1143
406,406,0,2046,2098
407,407,0,2046,3040
408,408,0,2046,3758
409,409,0,2046,4089
410,410,0,2047,3959
411,411,0,2046,3399
412,412,0,2046,2531
413,413,0,2047,1553
414,414,0,2046,685
415,415,0,2047,121
416,416,0,2046,0
417,417,0,2046,313
418,418,0,2046,1028
419,419,0,2046,1969
420,420,0,2046,2926
421,421,0,2046,3683
422,422,0,2046,4071
423,423,0,2047,4002
424,424,0,2046,3492
425,425,0,2046,2655
426,426,0,2046,1680
427,427,0,2047,785
428,428,0,2047,172
429,429,0,2046,0
430,430,0,2047,246
431,431,0,2046,918
432,432,0,2047,1841
433,433,0,2046,2808
434,434,0,2046,3602
435,435,0,2047,4046
436,436,0,2047,4038
437,437,0,2046,3580
438,438,0,2046,2776
439,439,0,2046,1806
440,440,0,2046,890
441,441,0,2046,230
442,442,0,2047,0
443,443,0,2047,186
444,444,0,2047,812
445,445,0,2046,1713
446,446,0,2046,2687
447,447,0,2047,3515
448,448,0,2046,4012
449,449,0,2046,4065
450,450,0,2047,3663
451,451,0,2046,2894
452,452,0,2046,1935
453,453,0,2047,998
454,454,0,2046,295
455,455,0,2046,0
456,456,0,2046,133
457,457,0,2047,711
458,458,0,2047,1587
459,459,0,2047,2564
460,460,0,2046,3423
461,461,0,2047,3971
462,462,0,2046,4084
463,463,0,2046,3739
464,464,0,2046,3010
465,465,0,2047,2064
466,466,0,2046,1111
467,467,0,2046,367
468,468,0,2046,0
469,469,0,2046,88
470,470,0,2046,616
471,471,0,2046,1462
472,472,0,2046,2439
473,473,0,2046,3326
474,474,0,2047,3923
475,475,0,2046,4095
476,476,0,2046,3808
477,477,0,2046,3122
478,478,0,2046,2192
479,479,0,2047,1228
480,480,0,2046,446
481,481,0,2046,21
482,482,0,2046,50
483,483,0,2047,526
484,484,0,2046,1340
485,485,0,2046,2312
486,486,0,2046,3223
487,487,0,2047,3867
488,488,0,2046,4095
489,489,0,2046,3870
490,490,0,2047,3228
491,491,0,2046,2319
492,492,0,2046,1347
493,493,0,2046,530
494,494,0,2047,52
495,495,0,2046,20
496,496,0,2046,441
497,497,0,2046,1221
498,498,0,2046,2184
499,499,0,2046,3115
500,500,0,2047,3804
501,501,0,2047,4095
502,502,0,2046,3925
503,503,0,2047,3331
504,504,0,2046,2446
505,505,0,2046,1470
506,506,0,2046,621
507,507,0,2045,90
508,508,0,2046,0
509,509,0,2047,362
510,510,0,2046,1105
511,511,0,2046,2055
512,512,0,2046,3004
513,513,0,2047,3734
514,514,0,2046,4083
515,515,0,2047,3974
516,516,0,2046,3429
517,517,0,2046,2571
518,518,0,2047,1594
519,519,0,2046,717
520,520,0,2046,137
521,521,0,2046,0
522,522,0,2047,291
523,523,0,2046,991
524,524,0,2047,1927
525,525,0,2046,2888
526,526,0,2046,3657
527,527,0,2045,4063
528,528,0,2046,4014
529,529,0,2047,3521
530,530,0,2046,2695
531,531,0,2047,1721
532,532,0,2046,819
533,533,0,2046,190
534,534,0,2046,0
535,535,0,2046,226
536,536,0,2047,882
537,537,0,2046,1800
538,538,0,2046,2769
539,539,0,2046,3576
540,540,0,2046,4036
541,541,0,2046,4047
542,542,0,2046,3607
543,543,0,2046,2815
544,544,0,2046,1848
545,545,0,2047,924
546,546,0,2046,250
547,547,0,2046,0
548,548,0,2046,168
549,549,0,2046,779
550,550,0,2046,1672
551,551,0,2046,2648
552,552,0,2046,3487
553,553,0,2047,3999
554,554,0,2047,4072
555,555,0,2046,3688
556,556,0,2046,2932
557,557,0,2046,1976
558,558,0,2046,1034
559,559,0,2046,317
560,560,0,2047,0
561,561,0,2046,118
562,562,0,2047,679
563,563,0,2047,1546
564,564,0,2046,2524
565,565,0,2046,3392
566,566,0,2046,3956
567,567,0,2046,4089
568,568,0,2046,3762
569,569,0,2046,3047
570,570,0,2047,2105
571,571,0,2046,1148
572,572,0,2046,392
573,573,0,2046,5
574,574,0,2046,74
575,575,0,2046,586
576,576,0,2046,1422
577,577,0,2046,2398
578,578,0,2047,3293
579,579,0,2047,3905
580,580,0,2046,4095
581,581,0,2046,3829
582,582,0,2047,3157
583,583,0,2046,2234
584,584,0,2045,1266
585,585,0,2046,472
586,586,0,2046,30
587,587,0,2046,39
588,588,0,2047,497
589,589,0,2046,1301
590,590,0,2047,2271
591,591,0,2046,3188
592,592,0,2046,3847
593,593,0,2046,4095
594,594,0,2046,3889
595,595,0,2046,3263
596,596,0,2046,2361
597,597,0,2046,1386
598,598,0,2046,559
599,599,0,2046,63
600,600,0,2046,11
601,601,0,2046,415
602,602,0,2046,1182
603,603,0,2047,2143
604,604,0,2046,3079
605,605,0,2046,3782
606,606,0,2046,4092
607,607,0,2046,3942
608,608,0,2047,3364
609,609,0,2046,2487
610,610,0,2046,1510
611,611,0,2046,651
612,612,0,2047,105
613,613,0,2046,0
614,614,0,2047,338
615,615,0,2046,1067
616,616,0,2046,2014
617,617,0,2047,2967
618,618,0,2046,3710
619,619,0,2046,4078
620,620,0,2047,3988
621,621,0,2047,3459
622,622,0,2046,2611
623,623,0,2045,1635
624,624,0,2046,749
625,625,0,2046,153
626,626,0,2046,0
627,627,0,2047,270
628,628,0,2046,955
629,629,0,2046,1886
630,630,0,2046,2849
631,631,0,2047,3631
632,632,0,2046,4055
633,633,0,2046,4026
634,634,0,2046,3550
635,635,0,2047,2734
636,636,0,2046,1763
637,637,0,2046,851
638,638,0,2046,208
639,639,0,2046,0
640,640,0,2046,207
641,641,0,2046,849
642,642,0,2047,1758
643,643,0,2046,2730
644,644,0,2047,3547
645,645,0,2046,4024
646,646,0,2046,4056
647,647,0,2046,3634
648,648,0,2046,2854
649,649,0,2047,1890
650,650,0,2046,959
651,651,0,2046,272
652,652,0,2047,0
653,653,0,2046,152
654,654,0,2046,746
655,655,0,2047,1632
656,656,0,2047,2608
657,657,0,2047,3456
658,658,0,2046,3986
659,659,0,2046,4079
660,660,0,2046,3713
661,661,0,2047,2970
662,662,0,2047,2019
663,663,0,2047,1071
664,664,0,2045,341
665,665,0,2046,0
666,666,0,2046,103
667,667,0,2046,648
668,668,0,2046,1506
669,669,0,2046,2483
670,670,0,2047,3360
671,671,0,2046,3940
672,672,0,2046,4094
673,673,0,2047,3784
674,674,0,2047,3083
675,675,0,2047,2146
676,676,0,2046,1187
677,677,0,2047,418
678,678,0,2046,13
679,679,0,2047,63
680,680,0,2046,556
681,681,0,2047,1383
682,682,0,2046,2357
683,683,0,2046,3259
684,684,0,2046,3887
685,685,0,2046,4095
686,686,0,2047,3849
687,687,0,2046,3192
688,688,0,2047,2275
689,689,0,2046,1305
690,690,0,2047,500
691,691,0,2047,40
692,692,0,2046,29
693,693,0,2046,469
694,694,0,2046,1262
695,695,0,2047,2230
696,696,0,2046,3153
697,697,0,2047,3826
698,698,0,2046,4095
699,699,0,2047,3907
700,700,0,2046,3296
701,701,0,2046,2402
702,702,0,2046,1426
703,703,0,2046,588
704,704,0,2046,75
705,705,0,2046,5
706,706,0,2046,389
707,707,0,2046,1145
708,708,0,2046,2101
709,709,0,2046,3043
710,710,0,2046,3759
711,711,0,2046,4089
712,712,0,2046,3958
713,713,0,2046,3396
714,714,0,2047,2528
715,715,0,2047,1551
716,716,0,2046,683
717,717,0,2046,120
718,718,0,2046,0
719,719,0,2046,316
720,720,0,2046,1031
721,721,0,2046,1973
722,722,0,2046,2930
723,723,0,2046,3685
724,724,0,2046,4071
725,725,0,2047,4002
726,726,0,2046,3490
727,727,0,2047,2652
728,728,0,2046,1675
729,729,0,2047,783
730,730,0,2046,170
731,731,0,2046,0
732,732,0,2046,248
733,733,0,2046,920
734,734,0,2047,1844
735,735,0,2046,2812
736,736,0,2046,3605
737,737,0,2046,4046
738,738,0,2046,4037
739,739,0,2046,3578
740,740,0,2046,2773
741,741,0,2046,1804
742,742,0,2046,886
743,743,0,2046,228
744,744,0,2046,0
745,745,0,2046,188
746,746,0,2046,815
747,747,0,2046,1716
748,748,0,2046,2691
749,749,0,2047,3518
750,750,0,2046,4013
751,751,0,2046,4065
752,752,0,2046,3661
753,753,0,2046,2892
754,754,0,2046,1932
755,755,0,2046,996
756,756,0,2046,293
757,757,0,2046,0
758,758,0,2046,134
759,759,0,2046,713
760,760,0,2047,1591
761,761,0,2046,2568
762,762,0,2047,3426
763,763,0,2047,3972
764,764,0,2047,4084
765,765,0,2046,3737
766,766,0,2046,3008
767,767,0,2046,2060
768,768,0,2046,1108
769,769,0,2046,365
770,770,0,2046,0
771,771,0,2046,89
772,772,0,2047,617
773,773,0,2046,1465
774,774,0,2046,2442
775,775,0,2047,3328
776,776,0,2046,3924
777,777,0,2046,4095
778,778,0,2046,3806
779,779,0,2046,3119
780,780,0,2046,2189
781,781,0,2046,1225
782,782,0,2046,444
783,783,0,2046,20
784,784,0,2046,51
785,785,0,2047,527
786,786,0,2046,1344
787,787,0,2046,2316
788,788,0,2047,3225
789,789,0,2047,3869
790,790,0,2046,4095
791,791,0,2046,3869
792,792,0,2047,3226
793,793,0,2047,2317
794,794,0,2046,1345
795,795,0,2047,528
796,796,0,2046,51
797,797,0,2045,20
798,798,0,2046,443
799,799,0,2046,1224
800,800,0,2046,2188
801,801,0,2046,3118
802,802,0,2046,3806
803,803,0,2046,4095
804,804,0,2047,3924
805,805,0,2046,3329
806,806,0,2046,2444
807,807,0,2046,1467
808,808,0,2046,619
809,809,0,2046,90
810,810,0,2046,0
811,811,0,2046,364
812,812,0,2046,1106
813,813,0,2046,2059
814,814,0,2046,3006
815,815,0,2046,3736
816,816,0,2046,4084
817,817,0,2046,3973
818,818,0,2046,3427
819,819,0,2047,2568
820,820,0,2047,1591
821,821,0,2046,714
822,822,0,2046,135
823,823,0,2046,0
824,824,0,2046,292
825,825,0,2046,994
826,826,0,2047,1930
827,827,0,2046,2891
828,828,0,2046,3660
829,829,0,2046,4064
830,830,0,2046,4014
831,831,0,2047,3519
832,832,0,2047,2692
833,833,0,2047,1718
834,834,0,2047,815
835,835,0,2046,188
836,836,0,2046,0
837,837,0,2046,228
838,838,0,2046,885
839,839,0,2046,1803
840,840,0,2046,2772
841,841,0,2046,3577
842,842,0,2046,4036
843,843,0,2045,4047
844,844,0,2046,3605
845,845,0,2046,2812
846,846,0,2046,1845
847,847,0,2046,922
848,848,0,2047,249
849,849,0,2046,0
850,850,0,2047,169
851,851,0,2046,781
852,852,0,2046,1675
853,853,0,2046,2651
854,854,0,2046,3489
855,855,0,2047,4001
856,856,0,2046,4072
857,857,0,2047,3686
858,858,0,2047,2930
859,859,0,2046,1973
860,860,0,2046,1031
861,861,0,2046,316
862,862,0,2046,0
863,863,0,2046,119
864,864,0,2046,681
865,865,0,2046,1550
866,866,0,2047,2527
867,867,0,2047,3394
868,868,0,2046,3957
869,869,0,2047,4089
870,870,0,2046,3761
871,871,0,2047,3044
872,872,0,2047,2102
873,873,0,2046,1146
874,874,0,2046,390
875,875,0,2046,5
876,876,0,2046,75
877,877,0,2046,587
878,878,0,2047,1425
879,879,0,2047,2401
880,880,0,2046,3294
881,881,0,2046,3906
882,882,0,2047,4095
883,883,0,2046,3828
884,884,0,2047,3154
885,885,0,2047,2230
886,886,0,2047,1263
887,887,0,2047,471
888,888,0,2046,29
889,889,0,2046,39
890,890,0,2046,499
891,891,0,2046,1304
892,892,0,2046,2273
893,893,0,2046,3191
894,894,0,2046,3849
895,895,0,2046,4095
896,896,0,2046,3888
897,897,0,2046,3260
898,898,0,2046,2358
899,899,0,2047,1385
900,900,0,2047,557
901,901,0,2046,62
902,902,0,2046,12
903,903,0,2046,417
904,904,0,2047,1186
905,905,0,2047,2146
906,906,0,2046,3082
907,907,0,2047,3784
908,908,0,2047,4093
909,909,0,2046,3942
910,910,0,2046,3362
911,911,0,2047,2484
912,912,0,2047,1507
913,913,0,2046,649
914,914,0,2047,103
915,915,0,2046,0
916,916,0,2046,341
917,917,0,2046,1070
918,918,0,2046,2016
919,919,0,2047,2969
920,920,0,2047,3711
921,921,0,2047,4079
922,922,0,2046,3987
923,923,0,2047,3457
924,924,0,2046,2609
925,925,0,2046,1632
926,926,0,2046,747
927,927,0,2046,152
928,928,0,2046,0
929,929,0,2046,271
930,930,0,2047,958
931,931,0,2046,1888
932,932,0,2046,2853
933,933,0,2046,3633
934,934,0,2046,4056
935,935,0,2046,4024
936,936,0,2046,3548
937,937,0,2047,2732
938,938,0,2047,1760
939,939,0,2046,850
940,940,0,2046,207
941,941,0,2046,0
942,942,0,2047,208
943,943,0,2047,851
944,944,0,2047,1761
945,945,0,2046,2733
946,946,0,2047,3549
947,947,0,2046,4026
948,948,0,2047,4056
949,949,0,2046,3633
950,950,0,2046,2851
951,951,0,2046,1887
952,952,0,2047,957
953,953,0,2047,270
954,954,0,2046,0
955,955,0,2047,152
956,956,0,2047,749
957,957,0,2046,1634
958,958,0,2046,2610
959,959,0,2046,3458
960,960,0,2047,3987
961,961,0,2046,4079
962,962,0,2046,3711
963,963,0,2047,2967
964,964,0,2046,2015
965,965,0,2047,1069
966,966,0,2046,339
967,967,0,2046,0
968,968,0,2047,104
969,969,0,2046,650
970,970,0,2046,1508
971,971,0,2046,2486
972,972,0,2046,3363
973,973,0,2046,3941
974,974,0,2046,4093
975,975,0,2046,3783
976,976,0,2046,3081
977,977,0,2047,2144
978,978,0,2046,1184
979,979,0,2046,416
980,980,0,2046,12
981,981,0,2047,62
982,982,0,2046,558
983,983,0,2046,1385
984,984,0,2047,2360
985,985,0,2046,3261
986,986,0,2046,3889
987,987,0,2046,4095
988,988,0,2047,3848
989,989,0,2047,3190
990,990,0,2047,2273
991,991,0,2046,1303
992,992,0,2046,498
993,993,0,2046,39
994,994,0,2047,30
995,995,0,2046,471
996,996,0,2046,1265
997,997,0,2046,2232
998,998,0,2046,3155
999,999,0,2046,3829
1000,1000,0,2046,4095
1001,1001,0,2046,3906
1002,1002,0,2046,3294
1003,1003,0,2047,2399
1004,1004,0,2046,1424
1005,1005,0,2046,587
1006,1006,0,2046,75
1007,1007,0,2046,5
1008,1008,0,2046,391
1009,1009,0,2047,1147
1010,1010,0,2046,2103
1011,1011,0,2046,3045
1012,1012,0,2047,3761
1013,1013,0,2047,4090
1014,1014,0,2047,3958
1015,1015,0,2046,3393
1016,1016,0,2046,2525
1017,1017,0,2046,1548
1018,1018,0,2047,681
1019,1019,0,2046,119
1020,1020,0,2046,0
1021,1021,0,2047,317
1022,1022,0,2046,1033
1023,1023,0,2046,1975
1024,1024,0,2046,2931
1025,1025,0,2046,3686
1026,1026,0,2046,4072
1027,1027,0,2046,4000
1028,1028,0,2047,3488
