Sample in Buffer,Sample in Window,TRIGGER,adc1_data_a_d0[11:0],adc1_data_b_d0[11:0]
0,0,0,2046,2272
1,1,0,2046,1967
2,2,0,2046,1663
3,3,0,2047,1367
4,4,0,2047,1086
5,5,0,2047,825
6,6,0,2047,591
7,7,0,2046,388
8,8,0,2047,220
9,9,0,2046,92
10,10,0,2046,6
11,11,0,2047,0
12,12,0,2047,0
13,13,0,2047,17
14,14,0,2046,110
15,15,0,2046,243
16,16,0,2046,417
17,17,0,2046,625
18,18,0,2047,864
19,19,0,2046,1128
20,20,0,2047,1413
21,21,0,2047,1710
22,22,0,2047,2014
23,23,0,2047,2319
24,24,0,2047,2617
25,25,0,2047,2903
26,26,0,2047,3170
27,27,0,2046,3412
28,28,0,2046,3624
29,29,0,2047,3803
30,30,0,2046,3944
31,31,0,2046,4042
32,32,0,2046,4095
33,33,0,2046,4095
34,34,0,2046,4076
35,35,0,2046,3999
36,36,0,2046,3880
37,37,0,2047,3720
38,38,0,2047,3524
39,39,0,2047,3297
40,40,0,2046,3042
41,41,0,2047,2764
42,42,0,2047,2472
43,43,0,2047,2170
44,44,0,2046,1864
45,45,0,2047,1563
46,46,0,2047,1271
47,47,0,2046,996
48,48,0,2046,743
49,49,0,2047,519
50,50,0,2047,327
51,51,0,2046,173
52,52,0,2046,58
53,53,0,2046,0
54,54,0,2046,0
55,55,0,2046,0
56,56,0,2046,43
57,57,0,2047,151
58,58,0,2047,298
59,59,0,2046,483
60,60,0,2047,703
61,61,0,2047,951
62,62,0,2046,1222
63,63,0,2047,1512
64,64,0,2047,1812
65,65,0,2046,2117
66,66,0,2048,2419
67,67,0,2046,2715
68,68,0,2047,2995
69,69,0,2047,3254
70,70,0,2046,3487
71,71,0,2046,3689
72,72,0,2047,3855
73,73,0,2046,3982
74,74,0,2046,4066
75,75,0,2046,4095
76,76,0,2046,4095
77,77,0,2047,4055
78,78,0,2046,3963
79,79,0,2046,3829
80,80,0,2047,3658
81,81,0,2047,3451
82,82,0,2046,3213
83,83,0,2046,2950
84,84,0,2047,2667
85,85,0,2047,2371
86,86,0,2047,2066
87,87,0,2046,1761
88,88,0,2046,1462
89,89,0,2046,1176
90,90,0,2047,908
91,91,0,2046,664
92,92,0,2047,450
93,93,0,2046,270
94,94,0,2046,129
95,95,0,2046,30
96,96,0,2046,0
97,97,0,2046,0
98,98,0,2047,0
99,99,0,2046,75
100,100,0,2047,195
101,101,0,2046,358
102,102,0,2046,554
103,103,0,2046,784
104,104,0,2047,1040
105,105,0,2046,1319
106,106,0,2047,1612
107,107,0,2046,1915
108,108,0,2046,2221
109,109,0,2047,2521
110,110,0,2046,2812
111,111,0,2046,3085
112,112,0,2046,3336
113,113,0,2047,3559
114,114,0,2047,3749
115,115,0,2046,3902
116,116,0,2047,4015
117,117,0,2046,4085
118,118,0,2046,4095
119,119,0,2046,4091
120,120,0,2046,4028
121,121,0,2047,3923
122,122,0,2046,3776
123,123,0,2047,3592
124,124,0,2047,3374
125,125,0,2047,3127
126,126,0,2046,2856
127,127,0,2046,2568
128,128,0,2047,2268
129,129,0,2046,1963
130,130,0,2047,1660
131,131,0,2047,1364
132,132,0,2047,1083
133,133,0,2047,822
134,134,0,2046,588
135,135,0,2047,385
136,136,0,2046,217
137,137,0,2046,92
138,138,0,2046,5
139,139,0,2046,0
140,140,0,2046,0
141,141,0,2047,18
142,142,0,2046,111
143,143,0,2047,247
144,144,0,2047,420
145,145,0,2047,629
146,146,0,2047,868
147,147,0,2047,1132
148,148,0,2047,1416
149,149,0,2047,1714
150,150,0,2047,2018
151,151,0,2047,2322
152,152,0,2046,2621
153,153,0,2046,2906
154,154,0,2046,3173
155,155,0,2046,3414
156,156,0,2047,3627
157,157,0,2046,3805
158,158,0,2046,3945
159,159,0,2046,4043
160,160,0,2047,4095
161,161,0,2046,4095
162,162,0,2047,4075
163,163,0,2047,3997
164,164,0,2047,3878
165,165,0,2046,3717
166,166,0,2046,3521
167,167,0,2047,3293
168,168,0,2046,3038
169,169,0,2047,2761
170,170,0,2047,2468
171,171,0,2046,2165
172,172,0,2047,1860
173,173,0,2046,1558
174,174,0,2047,1267
175,175,0,2046,992
176,176,0,2046,740
177,177,0,2047,515
178,178,0,2047,324
179,179,0,2046,170
180,180,0,2047,57
181,181,0,2047,0
182,182,0,2046,0
183,183,0,2047,0
184,184,0,2046,44
185,185,0,2046,152
186,186,0,2046,301
187,187,0,2046,487
188,188,0,2046,706
189,189,0,2046,953
190,190,0,2046,1226
191,191,0,2046,1516
192,192,0,2046,1816
193,193,0,2047,2121
194,194,0,2047,2424
195,195,0,2047,2719
196,196,0,2047,2998
197,197,0,2047,3258
198,198,0,2046,3491
199,199,0,2046,3691
200,200,0,2046,3857
201,201,0,2046,3983
202,202,0,2047,4066
203,203,0,2046,4095
204,204,0,2047,4095
205,205,0,2046,4054
206,206,0,2047,3961
207,207,0,2046,3827
208,208,0,2047,3655
209,209,0,2047,3448
210,210,0,2047,3210
211,211,0,2047,2946
212,212,0,2046,2664
213,213,0,2047,2366
214,214,0,2046,2062
215,215,0,2046,1757
216,216,0,2047,1458
217,217,0,2046,1172
218,218,0,2047,904
219,219,0,2046,662
220,220,0,2047,447
221,221,0,2047,269
222,222,0,2046,128
223,223,0,2046,29
224,224,0,2046,0
225,225,0,2046,0
226,226,0,2046,0
227,227,0,2047,76
228,228,0,2047,198
229,229,0,2046,360
230,230,0,2047,558
231,231,0,2047,787
232,232,0,2047,1044
233,233,0,2047,1322
234,234,0,2046,1616
235,235,0,2046,1919
236,236,0,2047,2224
237,237,0,2047,2525
238,238,0,2046,2815
239,239,0,2046,3089
240,240,0,2046,3339
241,241,0,2047,3562
242,242,0,2046,3751
243,243,0,2047,3904
244,244,0,2046,4016
245,245,0,2046,4086
246,246,0,2047,4095
247,247,0,2047,4091
248,248,0,2047,4027
249,249,0,2046,3921
250,250,0,2047,3773
251,251,0,2046,3589
252,252,0,2047,3371
253,253,0,2047,3123
254,254,0,2047,2852
255,255,0,2047,2564
256,256,0,2046,2264
257,257,0,2047,1959
258,258,0,2047,1656
259,259,0,2046,1360
260,260,0,2047,1079
261,261,0,2047,818
262,262,0,2047,584
263,263,0,2047,383
264,264,0,2047,216
265,265,0,2047,89
266,266,0,2046,5
267,267,0,2046,0
268,268,0,2047,0
269,269,0,2046,19
270,270,0,2046,113
271,271,0,2046,248
272,272,0,2046,422
273,273,0,2047,631
274,274,0,2047,871
275,275,0,2047,1136
276,276,0,2047,1420
277,277,0,2046,1718
278,278,0,2047,2022
279,279,0,2047,2326
280,280,0,2047,2625
281,281,0,2047,2910
282,282,0,2046,3176
283,283,0,2046,3418
284,284,0,2047,3630
285,285,0,2047,3807
286,286,0,2047,3947
287,287,0,2046,4044
288,288,0,2047,4095
289,289,0,2047,4095
290,290,0,2047,4074
291,291,0,2047,3996
292,292,0,2046,3875
293,293,0,2047,3715
294,294,0,2046,3519
295,295,0,2046,3290
296,296,0,2047,3034
297,297,0,2047,2757
298,298,0,2046,2464
299,299,0,2046,2161
300,300,0,2046,1856
301,301,0,2047,1554
302,302,0,2047,1263
303,303,0,2046,989
304,304,0,2047,737
305,305,0,2046,513
306,306,0,2046,322
307,307,0,2046,169
308,308,0,2047,56
309,309,0,2047,0
310,310,0,2046,0
311,311,0,2047,0
312,312,0,2047,46
313,313,0,2047,153
314,314,0,2046,303
315,315,0,2046,489
316,316,0,2046,709
317,317,0,2046,958
318,318,0,2047,1230
319,319,0,2046,1520
320,320,0,2047,1820
321,321,0,2047,2125
322,322,0,2047,2428
323,323,0,2047,2723
324,324,0,2046,3002
325,325,0,2046,3261
326,326,0,2046,3493
327,327,0,2046,3694
328,328,0,2047,3858
329,329,0,2046,3984
330,330,0,2047,4068
331,331,0,2047,4095
332,332,0,2047,4095
333,333,0,2047,4053
334,334,0,2046,3960
335,335,0,2046,3826
336,336,0,2046,3653
337,337,0,2047,3445
338,338,0,2046,3206
339,339,0,2047,2942
340,340,0,2047,2660
341,341,0,2047,2363
342,342,0,2047,2058
343,343,0,2046,1753
344,344,0,2046,1455
345,345,0,2046,1168
346,346,0,2047,901
347,347,0,2046,658
348,348,0,2047,444
349,349,0,2047,266
350,350,0,2047,126
351,351,0,2047,27
352,352,0,2046,0
353,353,0,2047,0
354,354,0,2047,0
355,355,0,2047,77
356,356,0,2047,199
357,357,0,2047,362
358,358,0,2046,560
359,359,0,2047,790
360,360,0,2047,1047
361,361,0,2047,1326
362,362,0,2047,1619
363,363,0,2046,1923
364,364,0,2046,2228
365,365,0,2047,2529
366,366,0,2046,2820
367,367,0,2046,3092
368,368,0,2047,3343
369,369,0,2047,3565
370,370,0,2046,3753
371,371,0,2047,3906
372,372,0,2047,4017
373,373,0,2047,4087
374,374,0,2046,4095
375,375,0,2046,4091
376,376,0,2047,4026
377,377,0,2047,3919
378,378,0,2047,3771
379,379,0,2047,3586
380,380,0,2047,3367
381,381,0,2046,3120
382,382,0,2047,2849
383,383,0,2047,2561
384,384,0,2047,2259
385,385,0,2047,1955
386,386,0,2046,1652
387,387,0,2046,1356
388,388,0,2046,1076
389,389,0,2046,815
390,390,0,2047,582
391,391,0,2047,380
392,392,0,2046,214
393,393,0,2047,88
394,394,0,2047,3
395,395,0,2046,0
396,396,0,2046,0
397,397,0,2047,20
398,398,0,2046,114
399,399,0,2046,250
400,400,0,2046,425
401,401,0,2046,634
402,402,0,2047,874
403,403,0,2047,1140
404,404,0,2047,1424
405,405,0,2046,1722
406,406,0,2046,2026
407,407,0,2046,2331
408,408,0,2046,2629
409,409,0,2046,2914
410,410,0,2046,3180
411,411,0,2047,3421
412,412,0,2046,3632
413,413,0,2047,3809
414,414,0,2047,3948
415,415,0,2046,4045
416,416,0,2047,4095
417,417,0,2046,4095
418,418,0,2046,4074
419,419,0,2047,3995
420,420,0,2047,3873
421,421,0,2047,3712
422,422,0,2046,3515
423,423,0,2047,3286
424,424,0,2046,3031
425,425,0,2047,2753
426,426,0,2046,2460
427,427,0,2047,2157
428,428,0,2046,1852
429,429,0,2046,1550
430,430,0,2047,1260
431,431,0,2047,985
432,432,0,2047,733
433,433,0,2047,510
434,434,0,2047,320
435,435,0,2046,167
436,436,0,2046,55
437,437,0,2047,0
438,438,0,2047,0
439,439,0,2046,0
440,440,0,2047,47
441,441,0,2046,156
442,442,0,2047,305
443,443,0,2046,491
444,444,0,2046,712
445,445,0,2046,962
446,446,0,2047,1234
447,447,0,2046,1523
448,448,0,2047,1824
449,449,0,2046,2129
450,450,0,2047,2432
451,451,0,2047,2726
452,452,0,2046,3006
453,453,0,2047,3264
454,454,0,2046,3496
455,455,0,2046,3696
456,456,0,2046,3860
457,457,0,2046,3986
458,458,0,2047,4068
459,459,0,2046,4095
460,460,0,2046,4095
461,461,0,2046,4052
462,462,0,2047,3958
463,463,0,2047,3823
464,464,0,2046,3650
465,465,0,2046,3441
466,466,0,2046,3203
467,467,0,2046,2938
468,468,0,2046,2655
469,469,0,2048,2358
470,470,0,2047,2054
471,471,0,2047,1749
472,472,0,2046,1451
473,473,0,2046,1165
474,474,0,2047,898
475,475,0,2046,654
476,476,0,2046,442
477,477,0,2047,264
478,478,0,2047,124
479,479,0,2046,27
480,480,0,2047,0
481,481,0,2047,0
482,482,0,2046,0
483,483,0,2047,79
484,484,0,2046,201
485,485,0,2046,364
486,486,0,2047,562
487,487,0,2047,794
488,488,0,2046,1052
489,489,0,2046,1330
490,490,0,2047,1623
491,491,0,2046,1927
492,492,0,2047,2232
493,493,0,2046,2533
494,494,0,2046,2823
495,495,0,2046,3096
496,496,0,2047,3345
497,497,0,2047,3567
498,498,0,2047,3756
499,499,0,2047,3908
500,500,0,2047,4018
501,501,0,2046,4088
502,502,0,2047,4095
503,503,0,2047,4089
504,504,0,2046,4024
505,505,0,2047,3917
506,506,0,2047,3768
507,507,0,2047,3583
508,508,0,2047,3365
509,509,0,2046,3116
510,510,0,2046,2845
511,511,0,2047,2556
512,512,0,2046,2256
513,513,0,2046,1951
514,514,0,2047,1647
515,515,0,2047,1352
516,516,0,2047,1072
517,517,0,2047,812
518,518,0,2047,580
519,519,0,2047,378
520,520,0,2047,212
521,521,0,2046,87
522,522,0,2047,3
523,523,0,2046,0
524,524,0,2046,0
525,525,0,2046,20
526,526,0,2047,115
527,527,0,2046,252
528,528,0,2047,428
529,529,0,2047,637
530,530,0,2047,878
531,531,0,2047,1143
532,532,0,2046,1428
533,533,0,2046,1726
534,534,0,2047,2031
535,535,0,2046,2335
536,536,0,2046,2633
537,537,0,2046,2917
538,538,0,2046,3183
539,539,0,2047,3423
540,540,0,2046,3635
541,541,0,2046,3811
542,542,0,2047,3949
543,543,0,2046,4047
544,544,0,2047,4095
545,545,0,2046,4095
546,546,0,2046,4072
547,547,0,2047,3994
548,548,0,2046,3872
549,549,0,2046,3710
550,550,0,2047,3513
551,551,0,2047,3283
552,552,0,2046,3028
553,553,0,2047,2750
554,554,0,2046,2456
555,555,0,2046,2153
556,556,0,2047,1847
557,557,0,2047,1546
558,558,0,2047,1256
559,559,0,2046,982
560,560,0,2047,731
561,561,0,2047,507
562,562,0,2047,317
563,563,0,2046,165
564,564,0,2046,54
565,565,0,2047,0
566,566,0,2047,0
567,567,0,2046,0
568,568,0,2047,48
569,569,0,2047,157
570,570,0,2046,306
571,571,0,2047,495
572,572,0,2046,715
573,573,0,2047,965
574,574,0,2047,1238
575,575,0,2047,1528
576,576,0,2046,1828
577,577,0,2047,2134
578,578,0,2047,2436
579,579,0,2047,2730
580,580,0,2047,3010
581,581,0,2046,3268
582,582,0,2046,3499
583,583,0,2046,3699
584,584,0,2047,3863
585,585,0,2046,3987
586,586,0,2046,4070
587,587,0,2046,4095
588,588,0,2046,4095
589,589,0,2047,4050
590,590,0,2047,3957
591,591,0,2047,3821
592,592,0,2047,3646
593,593,0,2047,3439
594,594,0,2046,3199
595,595,0,2047,2935
596,596,0,2046,2651
597,597,0,2047,2354
598,598,0,2046,2050
599,599,0,2046,1745
600,600,0,2047,1446
601,601,0,2047,1161
602,602,0,2046,894
603,603,0,2047,651
604,604,0,2046,439
605,605,0,2046,262
606,606,0,2046,123
607,607,0,2047,26
608,608,0,2047,0
609,609,0,2047,0
610,610,0,2047,0
611,611,0,2046,80
612,612,0,2046,203
613,613,0,2047,366
614,614,0,2046,566
615,615,0,2046,797
616,616,0,2046,1055
617,617,0,2046,1334
618,618,0,2046,1627
619,619,0,2047,1931
620,620,0,2047,2236
621,621,0,2047,2537
622,622,0,2046,2827
623,623,0,2047,3100
624,624,0,2047,3349
625,625,0,2046,3571
626,626,0,2046,3758
627,627,0,2046,3909
628,628,0,2046,4019
629,629,0,2047,4087
630,630,0,2046,4095
631,631,0,2047,4089
632,632,0,2046,4023
633,633,0,2046,3916
634,634,0,2046,3767
635,635,0,2047,3581
636,636,0,2047,3361
637,637,0,2047,3113
638,638,0,2047,2842
639,639,0,2046,2553
640,640,0,2047,2252
641,641,0,2047,1947
642,642,0,2046,1644
643,643,0,2047,1349
644,644,0,2046,1069
645,645,0,2046,809
646,646,0,2047,577
647,647,0,2046,376
648,648,0,2047,211
649,649,0,2046,85
650,650,0,2046,2
651,651,0,2047,0
652,652,0,2046,0
653,653,0,2046,22
654,654,0,2046,118
655,655,0,2046,254
656,656,0,2047,430
657,657,0,2047,641
658,658,0,2047,882
659,659,0,2046,1148
660,660,0,2047,1433
661,661,0,2047,1730
662,662,0,2046,2034
663,663,0,2046,2339
664,664,0,2046,2636
665,665,0,2046,2921
666,666,0,2047,3186
667,667,0,2046,3427
668,668,0,2046,3637
669,669,0,2047,3813
670,670,0,2046,3952
671,671,0,2047,4047
672,672,0,2046,4095
673,673,0,2047,4095
674,674,0,2047,4072
675,675,0,2046,3992
676,676,0,2046,3870
677,677,0,2046,3708
678,678,0,2047,3510
679,679,0,2046,3280
680,680,0,2047,3023
681,681,0,2046,2746
682,682,0,2046,2452
683,683,0,2046,2149
684,684,0,2047,1843
685,685,0,2046,1542
686,686,0,2046,1252
687,687,0,2047,978
688,688,0,2047,727
689,689,0,2046,504
690,690,0,2046,316
691,691,0,2047,164
692,692,0,2047,53
693,693,0,2046,0
694,694,0,2046,0
695,695,0,2046,0
696,696,0,2046,50
697,697,0,2046,159
698,698,0,2047,309
699,699,0,2046,498
700,700,0,2047,718
701,701,0,2046,969
702,702,0,2046,1242
703,703,0,2047,1531
704,704,0,2046,1832
705,705,0,2047,2137
706,706,0,2047,2440
707,707,0,2046,2734
708,708,0,2046,3012
709,709,0,2046,3271
710,710,0,2046,3502
711,711,0,2046,3701
712,712,0,2047,3865
713,713,0,2046,3988
714,714,0,2046,4070
715,715,0,2046,4095
716,716,0,2046,4095
717,717,0,2047,4050
718,718,0,2047,3955
719,719,0,2046,3818
720,720,0,2047,3645
721,721,0,2046,3436
722,722,0,2046,3196
723,723,0,2046,2931
724,724,0,2047,2647
725,725,0,2046,2350
726,726,0,2046,2046
727,727,0,2047,1741
728,728,0,2046,1443
729,729,0,2047,1157
730,730,0,2047,890
731,731,0,2047,649
732,732,0,2046,437
733,733,0,2046,260
734,734,0,2047,121
735,735,0,2046,25
736,736,0,2046,0
737,737,0,2047,0
738,738,0,2047,1
739,739,0,2047,81
740,740,0,2047,205
741,741,0,2046,369
742,742,0,2046,569
743,743,0,2047,799
744,744,0,2047,1059
745,745,0,2046,1337
746,746,0,2046,1632
747,747,0,2047,1935
748,748,0,2046,2241
749,749,0,2047,2541
750,750,0,2046,2830
751,751,0,2046,3103
752,752,0,2046,3351
753,753,0,2046,3572
754,754,0,2047,3760
755,755,0,2046,3910
756,756,0,2047,4020
757,757,0,2046,4088
758,758,0,2046,4095
759,759,0,2046,4088
760,760,0,2046,4022
761,761,0,2046,3914
762,762,0,2046,3765
763,763,0,2046,3578
764,764,0,2046,3359
765,765,0,2046,3110
766,766,0,2047,2838
767,767,0,2046,2549
768,768,0,2047,2248
769,769,0,2046,1943
770,770,0,2047,1639
771,771,0,2047,1344
772,772,0,2047,1065
773,773,0,2047,806
774,774,0,2047,573
775,775,0,2046,373
776,776,0,2046,209
777,777,0,2046,83
778,778,0,2047,2
779,779,0,2047,0
780,780,0,2047,0
781,781,0,2046,22
782,782,0,2047,118
783,783,0,2047,256
784,784,0,2046,432
785,785,0,2046,643
786,786,0,2047,885
787,787,0,2047,1151
788,788,0,2047,1435
789,789,0,2046,1734
790,790,0,2046,2038
791,791,0,2046,2342
792,792,0,2046,2640
793,793,0,2047,2925
794,794,0,2047,3190
795,795,0,2046,3430
796,796,0,2047,3640
797,797,0,2046,3816
798,798,0,2045,3953
799,799,0,2046,4048
800,800,0,2047,4095
801,801,0,2047,4095
802,802,0,2047,4071
803,803,0,2047,3991
804,804,0,2047,3868
805,805,0,2047,3706
806,806,0,2047,3507
807,807,0,2046,3277
808,808,0,2047,3021
809,809,0,2046,2742
810,810,0,2046,2448
811,811,0,2047,2145
812,812,0,2046,1840
813,813,0,2046,1539
814,814,0,2047,1249
815,815,0,2046,975
816,816,0,2046,724
817,817,0,2047,503
818,818,0,2046,314
819,819,0,2047,162
820,820,0,2046,51
821,821,0,2047,0
822,822,0,2047,0
823,823,0,2047,0
824,824,0,2046,51
825,825,0,2047,161
826,826,0,2046,312
827,827,0,2047,500
828,828,0,2047,721
829,829,0,2046,972
830,830,0,2046,1246
831,831,0,2047,1535
832,832,0,2046,1836
833,833,0,2046,2142
834,834,0,2046,2444
835,835,0,2046,2738
836,836,0,2047,3016
837,837,0,2046,3274
838,838,0,2046,3505
839,839,0,2047,3703
840,840,0,2047,3866
841,841,0,2047,3989
842,842,0,2046,4071
843,843,0,2047,4095
844,844,0,2047,4095
845,845,0,2046,4049
846,846,0,2046,3954
847,847,0,2047,3817
848,848,0,2046,3642
849,849,0,2046,3432
850,850,0,2046,3193
851,851,0,2047,2929
852,852,0,2047,2644
853,853,0,2046,2346
854,854,0,2047,2043
855,855,0,2047,1737
856,856,0,2046,1438
857,857,0,2047,1154
858,858,0,2046,887
859,859,0,2046,645
860,860,0,2047,434
861,861,0,2047,258
862,862,0,2047,120
863,863,0,2046,23
864,864,0,2046,0
865,865,0,2047,0
866,866,0,2046,1
867,867,0,2047,83
868,868,0,2046,207
869,869,0,2046,371
870,870,0,2046,572
871,871,0,2046,803
872,872,0,2047,1062
873,873,0,2047,1342
874,874,0,2047,1637
875,875,0,2046,1939
876,876,0,2047,2244
877,877,0,2047,2545
878,878,0,2046,2834
879,879,0,2047,3106
880,880,0,2047,3355
881,881,0,2046,3576
882,882,0,2047,3762
883,883,0,2046,3914
884,884,0,2046,4022
885,885,0,2046,4089
886,886,0,2046,4095
887,887,0,2047,4088
888,888,0,2046,4022
889,889,0,2046,3912
890,890,0,2046,3762
891,891,0,2046,3575
892,892,0,2046,3355
893,893,0,2047,3106
894,894,0,2047,2834
895,895,0,2047,2544
896,896,0,2046,2243
897,897,0,2047,1938
898,898,0,2046,1635
899,899,0,2047,1341
900,900,0,2046,1061
901,901,0,2047,802
902,902,0,2046,570
903,903,0,2046,370
904,904,0,2046,207
905,905,0,2047,82
906,906,0,2047,1
907,907,0,2046,0
908,908,0,2046,0
909,909,0,2047,24
910,910,0,2046,121
911,911,0,2046,258
912,912,0,2046,435
913,913,0,2047,646
914,914,0,2047,889
915,915,0,2046,1154
916,916,0,2046,1440
917,917,0,2046,1739
918,918,0,2046,2043
919,919,0,2046,2347
920,920,0,2047,2644
921,921,0,2047,2928
922,922,0,2046,3193
923,923,0,2046,3432
924,924,0,2045,3642
925,925,0,2046,3818
926,926,0,2046,3954
927,927,0,2047,4049
928,928,0,2047,4095
929,929,0,2046,4095
930,930,0,2047,4070
931,931,0,2046,3989
932,932,0,2046,3865
933,933,0,2046,3703
934,934,0,2047,3504
935,935,0,2046,3274
936,936,0,2046,3016
937,937,0,2046,2737
938,938,0,2046,2444
939,939,0,2046,2141
940,940,0,2047,1835
941,941,0,2046,1535
942,942,0,2046,1245
943,943,0,2046,971
944,944,0,2046,720
945,945,0,2046,499
946,946,0,2047,311
947,947,0,2046,159
948,948,0,2046,50
949,949,0,2047,0
950,950,0,2047,0
951,951,0,2046,0
952,952,0,2046,52
953,953,0,2046,162
954,954,0,2047,314
955,955,0,2046,503
956,956,0,2047,724
957,957,0,2046,976
958,958,0,2047,1249
959,959,0,2046,1539
960,960,0,2047,1840
961,961,0,2046,2145
962,962,0,2046,2448
963,963,0,2046,2743
964,964,0,2047,3020
965,965,0,2046,3277
966,966,0,2046,3507
967,967,0,2046,3706
968,968,0,2046,3869
969,969,0,2046,3991
970,970,0,2047,4071
971,971,0,2046,4095
972,972,0,2046,4095
973,973,0,2047,4048
974,974,0,2047,3952
975,975,0,2047,3815
976,976,0,2047,3640
977,977,0,2047,3430
978,978,0,2047,3190
979,979,0,2046,2924
980,980,0,2047,2640
981,981,0,2047,2342
982,982,0,2047,2037
983,983,0,2046,1733
984,984,0,2047,1435
985,985,0,2047,1150
986,986,0,2046,883
987,987,0,2046,642
988,988,0,2047,431
989,989,0,2046,255
990,990,0,2047,118
991,991,0,2046,23
992,992,0,2046,0
993,993,0,2046,0
994,994,0,2047,2
995,995,0,2046,84
996,996,0,2047,209
997,997,0,2047,374
998,998,0,2047,574
999,999,0,2046,806
1000,1000,0,2046,1065
1001,1001,0,2047,1345
1002,1002,0,2047,1639
1003,1003,0,2047,1943
1004,1004,0,2046,2248
1005,1005,0,2047,2549
1006,1006,0,2046,2838
1007,1007,0,2047,3109
1008,1008,0,2047,3358
1009,1009,0,2046,3578
1010,1010,0,2046,3765
1011,1011,0,2047,3915
1012,1012,0,2046,4023
1013,1013,0,2047,4089
1014,1014,0,2047,4095
1015,1015,0,2046,4087
1016,1016,0,2046,4020
1017,1017,0,2047,3910
1018,1018,0,2047,3760
1019,1019,0,2046,3573
1020,1020,0,2046,3352
1021,1021,0,2047,3103
1022,1022,0,2047,2830
1023,1023,0,2046,2540
1024,1024,0,2046,2240
1025,1025,0,2046,1935
1026,1026,0,2047,1632
1027,1027,0,2047,1337
1028,1028,0,2046,1058
1029,1029,0,2047,800
