Sample in Buffer,Sample in Window,TRIGGER,adc1_data_a_d0[11:0],adc1_data_b_d0[11:0]
0,0,0,2046,1504
1,1,0,2047,1049
2,2,0,2046,646
3,3,0,2046,333
4,4,0,2047,128
5,5,0,2046,40
6,6,0,2046,81
7,7,0,2046,245
8,8,0,2046,518
9,9,0,2047,891
10,10,0,2046,1338
11,11,0,2046,1823
12,12,0,2046,2323
13,13,0,2046,2806
14,14,0,2047,3240
15,15,0,2047,3600
16,16,0,2047,3863
17,17,0,2047,4011
18,18,0,2047,4030
19,19,0,2047,3929
20,20,0,2047,3708
21,21,0,2046,3377
22,22,0,2047,2969
23,23,0,2046,2498
24,24,0,2046,1991
25,25,0,2046,1499
26,26,0,2046,1046
27,27,0,2047,645
28,28,0,2046,334
29,29,0,2047,129
30,30,0,2046,41
31,31,0,2046,82
32,32,0,2046,245
33,33,0,2046,519
34,34,0,2047,891
35,35,0,2047,1339
36,36,0,2047,1826
37,37,0,2047,2326
38,38,0,2046,2809
39,39,0,2046,3243
40,40,0,2046,3600
41,41,0,2047,3864
42,42,0,2046,4011
43,43,0,2047,4030
44,44,0,2047,3931
45,45,0,2047,3708
46,46,0,2047,3377
47,47,0,2047,2970
48,48,0,2046,2498
49,49,0,2047,1991
50,50,0,2047,1498
51,51,0,2047,1045
52,52,0,2046,644
53,53,0,2047,333
54,54,0,2047,129
55,55,0,2046,40
56,56,0,2047,81
57,57,0,2047,246
58,58,0,2046,518
59,59,0,2047,891
60,60,0,2046,1338
61,61,0,2046,1823
62,62,0,2047,2322
63,63,0,2046,2807
64,64,0,2046,3240
65,65,0,2046,3599
66,66,0,2046,3862
67,67,0,2046,4010
68,68,0,2047,4031
69,69,0,2047,3931
70,70,0,2046,3710
71,71,0,2046,3381
72,72,0,2046,2973
73,73,0,2047,2503
74,74,0,2047,1995
75,75,0,2046,1503
76,76,0,2047,1048
77,77,0,2046,646
78,78,0,2047,334
79,79,0,2046,130
80,80,0,2047,40
81,81,0,2047,82
82,82,0,2046,245
83,83,0,2046,518
84,84,0,2046,890
85,85,0,2046,1336
86,86,0,2047,1822
87,87,0,2046,2322
88,88,0,2046,2804
89,89,0,2047,3237
90,90,0,2046,3597
91,91,0,2046,3861
92,92,0,2046,4009
93,93,0,2046,4030
94,94,0,2047,3931
95,95,0,2046,3710
96,96,0,2047,3381
97,97,0,2047,2975
98,98,0,2047,2502
99,99,0,2047,1995
100,100,0,2046,1504
101,101,0,2046,1049
102,102,0,2046,647
103,103,0,2046,335
104,104,0,2047,131
105,105,0,2047,41
106,106,0,2046,81
107,107,0,2047,245
108,108,0,2046,518
109,109,0,2046,890
110,110,0,2047,1337
111,111,0,2047,1824
112,112,0,2047,2324
113,113,0,2046,2809
114,114,0,2046,3242
115,115,0,2047,3599
116,116,0,2046,3863
117,117,0,2046,4011
118,118,0,2046,4031
119,119,0,2046,3931
120,120,0,2046,3709
121,121,0,2046,3378
122,122,0,2046,2971
123,123,0,2046,2499
124,124,0,2046,1991
125,125,0,2046,1500
126,126,0,2046,1045
127,127,0,2046,644
128,128,0,2047,332
129,129,0,2046,129
130,130,0,2046,40
131,131,0,2047,81
132,132,0,2046,246
133,133,0,2046,520
134,134,0,2047,892
135,135,0,2046,1339
136,136,0,2046,1825
137,137,0,2047,2325
138,138,0,2046,2809
139,139,0,2046,3243
140,140,0,2047,3601
141,141,0,2047,3865
142,142,0,2047,4011
143,143,0,2046,4031
144,144,0,2046,3930
145,145,0,2046,3708
146,146,0,2046,3378
147,147,0,2046,2972
148,148,0,2046,2500
149,149,0,2046,1994
150,150,0,2046,1504
151,151,0,2047,1048
152,152,0,2047,646
153,153,0,2046,334
154,154,0,2046,130
155,155,0,2046,41
156,156,0,2047,81
157,157,0,2046,246
158,158,0,2047,519
159,159,0,2046,892
160,160,0,2046,1337
161,161,0,2047,1823
162,162,0,2047,2323
163,163,0,2046,2806
164,164,0,2047,3239
165,165,0,2046,3598
166,166,0,2046,3861
167,167,0,2046,4009
168,168,0,2046,4031
169,169,0,2046,3931
170,170,0,2047,3711
171,171,0,2047,3382
172,172,0,2046,2975
173,173,0,2046,2505
174,174,0,2046,1998
175,175,0,2047,1507
176,176,0,2047,1051
177,177,0,2047,649
178,178,0,2046,336
179,179,0,2047,131
180,180,0,2046,41
181,181,0,2046,80
182,182,0,2046,242
183,183,0,2047,515
184,184,0,2046,888
185,185,0,2046,1334
186,186,0,2047,1820
187,187,0,2046,2321
188,188,0,2046,2805
189,189,0,2046,3239
190,190,0,2046,3598
191,191,0,2046,3863
192,192,0,2047,4010
193,193,0,2047,4030
194,194,0,2046,3930
195,195,0,2046,3709
196,196,0,2046,3380
197,197,0,2046,2974
198,198,0,2046,2501
199,199,0,2046,1994
200,200,0,2046,1503
201,201,0,2046,1048
202,202,0,2046,646
203,203,0,2047,333
204,204,0,2046,129
205,205,0,2046,40
206,206,0,2047,82
207,207,0,2047,244
208,208,0,2047,519
209,209,0,2047,892
210,210,0,2047,1338
211,211,0,2046,1826
212,212,0,2046,2325
213,213,0,2045,2809
214,214,0,2047,3243
215,215,0,2046,3601
216,216,0,2046,3864
217,217,0,2046,4011
218,218,0,2046,4031
219,219,0,2046,3930
220,220,0,2046,3707
221,221,0,2046,3377
222,222,0,2046,2969
223,223,0,2047,2498
224,224,0,2046,1991
225,225,0,2046,1500
226,226,0,2046,1047
227,227,0,2046,645
228,228,0,2047,333
229,229,0,2046,128
230,230,0,2046,40
231,231,0,2047,82
232,232,0,2046,247
233,233,0,2046,521
234,234,0,2047,894
235,235,0,2047,1341
236,236,0,2046,1828
237,237,0,2047,2328
238,238,0,2047,2811
239,239,0,2046,3243
240,240,0,2046,3601
241,241,0,2046,3863
242,242,0,2046,4009
243,243,0,2046,4030
244,244,0,2047,3930
245,245,0,2046,3708
246,246,0,2047,3379
247,247,0,2047,2971
248,248,0,2046,2499
249,249,0,2046,1992
250,250,0,2047,1500
251,251,0,2046,1047
252,252,0,2047,645
253,253,0,2046,334
254,254,0,2047,130
255,255,0,2046,41
256,256,0,2046,81
257,257,0,2047,244
258,258,0,2046,517
259,259,0,2047,889
260,260,0,2046,1337
261,261,0,2046,1823
262,262,0,2046,2324
263,263,0,2046,2807
264,264,0,2046,3241
265,265,0,2046,3600
266,266,0,2046,3864
267,267,0,2046,4010
268,268,0,2046,4031
269,269,0,2046,3930
270,270,0,2046,3708
271,271,0,2046,3379
272,272,0,2046,2971
273,273,0,2046,2500
274,274,0,2047,1992
275,275,0,2045,1500
276,276,0,2046,1046
277,277,0,2047,644
278,278,0,2046,333
279,279,0,2047,129
280,280,0,2046,39
281,281,0,2046,82
282,282,0,2046,246
283,283,0,2047,519
284,284,0,2046,891
285,285,0,2047,1338
286,286,0,2046,1824
287,287,0,2046,2323
288,288,0,2046,2807
289,289,0,2047,3241
290,290,0,2046,3600
291,291,0,2046,3864
292,292,0,2046,4010
293,293,0,2047,4030
294,294,0,2046,3929
295,295,0,2047,3707
296,296,0,2046,3377
297,297,0,2046,2970
298,298,0,2047,2498
299,299,0,2046,1992
300,300,0,2046,1501
301,301,0,2046,1048
302,302,0,2047,647
303,303,0,2046,335
304,304,0,2046,130
305,305,0,2047,40
306,306,0,2046,81
307,307,0,2047,245
308,308,0,2047,519
309,309,0,2046,893
310,310,0,2047,1341
311,311,0,2046,1826
312,312,0,2046,2325
313,313,0,2047,2810
314,314,0,2046,3241
315,315,0,2046,3600
316,316,0,2046,3863
317,317,0,2047,4010
318,318,0,2046,4031
319,319,0,2046,3931
320,320,0,2046,3709
321,321,0,2046,3381
322,322,0,2047,2972
323,323,0,2047,2500
324,324,0,2047,1993
325,325,0,2047,1503
326,326,0,2046,1047
327,327,0,2046,646
328,328,0,2046,334
329,329,0,2047,131
330,330,0,2046,40
331,331,0,2047,81
332,332,0,2047,244
333,333,0,2047,516
334,334,0,2046,887
335,335,0,2046,1335
336,336,0,2046,1822
337,337,0,2047,2323
338,338,0,2046,2808
339,339,0,2047,3241
340,340,0,2047,3601
341,341,0,2046,3863
342,342,0,2046,4009
343,343,0,2046,4030
344,344,0,2046,3931
345,345,0,2046,3710
346,346,0,2046,3382
347,347,0,2047,2975
348,348,0,2046,2505
349,349,0,2046,1997
350,350,0,2046,1505
351,351,0,2046,1049
352,352,0,2046,646
353,353,0,2046,334
354,354,0,2046,129
355,355,0,2046,40
356,356,0,2046,81
357,357,0,2047,245
358,358,0,2046,519
359,359,0,2046,892
360,360,0,2047,1337
361,361,0,2047,1823
362,362,0,2047,2322
363,363,0,2046,2805
364,364,0,2046,3238
365,365,0,2046,3597
366,366,0,2047,3861
367,367,0,2046,4009
368,368,0,2046,4031
369,369,0,2046,3930
370,370,0,2047,3710
371,371,0,2046,3381
372,372,0,2046,2974
373,373,0,2046,2502
374,374,0,2046,1995
375,375,0,2046,1505
376,376,0,2047,1051
377,377,0,2047,647
378,378,0,2046,336
379,379,0,2046,130
380,380,0,2046,40
381,381,0,2047,80
382,382,0,2046,243
383,383,0,2046,516
384,384,0,2046,889
385,385,0,2046,1335
386,386,0,2047,1822
387,387,0,2047,2322
388,388,0,2046,2807
389,389,0,2046,3241
390,390,0,2047,3598
391,391,0,2046,3861
392,392,0,2046,4008
393,393,0,2046,4031
394,394,0,2046,3932
395,395,0,2047,3712
396,396,0,2046,3382
397,397,0,2047,2976
398,398,0,2046,2505
399,399,0,2047,1996
400,400,0,2046,1504
401,401,0,2046,1050
402,402,0,2046,646
403,403,0,2046,335
404,404,0,2047,129
405,405,0,2047,40
406,406,0,2046,80
407,407,0,2046,245
408,408,0,2046,516
409,409,0,2047,888
410,410,0,2046,1334
411,411,0,2047,1821
412,412,0,2047,2321
413,413,0,2046,2805
414,414,0,2047,3239
415,415,0,2046,3598
416,416,0,2046,3863
417,417,0,2046,4010
418,418,0,2046,4030
419,419,0,2047,3930
420,420,0,2046,3709
421,421,0,2046,3380
422,422,0,2047,2973
423,423,0,2046,2502
424,424,0,2046,1995
425,425,0,2046,1504
426,426,0,2047,1050
427,427,0,2047,647
428,428,0,2046,336
429,429,0,2046,130
430,430,0,2047,40
431,431,0,2047,80
432,432,0,2047,243
433,433,0,2047,515
434,434,0,2047,888
435,435,0,2046,1336
436,436,0,2047,1821
437,437,0,2047,2321
438,438,0,2047,2806
439,439,0,2047,3240
440,440,0,2046,3597
441,441,0,2047,3861
442,442,0,2047,4008
443,443,0,2047,4030
444,444,0,2047,3931
445,445,0,2047,3710
446,446,0,2046,3381
447,447,0,2047,2975
448,448,0,2046,2503
449,449,0,2046,1995
450,450,0,2047,1503
451,451,0,2046,1049
452,452,0,2047,647
453,453,0,2047,336
454,454,0,2047,131
455,455,0,2047,41
456,456,0,2047,80
457,457,0,2047,243
458,458,0,2047,515
459,459,0,2046,888
460,460,0,2047,1333
461,461,0,2046,1820
462,462,0,2046,2320
463,463,0,2047,2804
464,464,0,2046,3239
465,465,0,2047,3597
466,466,0,2046,3862
467,467,0,2047,4010
468,468,0,2046,4031
469,469,0,2046,3931
470,470,0,2046,3711
471,471,0,2047,3384
472,472,0,2047,2977
473,473,0,2047,2506
474,474,0,2046,1999
475,475,0,2047,1506
476,476,0,2047,1051
477,477,0,2047,649
478,478,0,2047,335
479,479,0,2046,131
480,480,0,2047,41
481,481,0,2047,80
482,482,0,2047,243
483,483,0,2047,515
484,484,0,2046,886
485,485,0,2046,1332
486,486,0,2047,1819
487,487,0,2046,2319
488,488,0,2046,2803
489,489,0,2046,3237
490,490,0,2047,3597
491,491,0,2047,3862
492,492,0,2046,4010
493,493,0,2046,4030
494,494,0,2046,3931
495,495,0,2047,3710
496,496,0,2047,3381
497,497,0,2046,2974
498,498,0,2046,2502
499,499,0,2047,1995
500,500,0,2046,1504
501,501,0,2046,1049
502,502,0,2046,647
503,503,0,2046,334
504,504,0,2047,129
505,505,0,2047,40
506,506,0,2047,81
507,507,0,2046,244
508,508,0,2047,517
509,509,0,2047,891
510,510,0,2047,1336
511,511,0,2046,1823
512,512,0,2047,2322
513,513,0,2047,2805
514,514,0,2046,3239
515,515,0,2047,3598
516,516,0,2047,3862
517,517,0,2047,4010
518,518,0,2046,4030
519,519,0,2047,3931
520,520,0,2047,3710
521,521,0,2047,3381
522,522,0,2047,2974
523,523,0,2047,2502
524,524,0,2046,1994
525,525,0,2046,1503
526,526,0,2046,1048
527,527,0,2046,646
528,528,0,2047,334
529,529,0,2046,130
530,530,0,2047,40
531,531,0,2047,80
532,532,0,2047,245
533,533,0,2047,517
534,534,0,2047,889
535,535,0,2047,1335
536,536,0,2047,1821
537,537,0,2047,2321
538,538,0,2047,2804
539,539,0,2046,3237
540,540,0,2047,3598
541,541,0,2047,3863
542,542,0,2047,4010
543,543,0,2046,4031
544,544,0,2046,3933
545,545,0,2047,3711
546,546,0,2046,3384
547,547,0,2046,2979
548,548,0,2047,2508
549,549,0,2047,1999
550,550,0,2047,1508
551,551,0,2046,1052
552,552,0,2046,649
553,553,0,2047,336
554,554,0,2046,130
555,555,0,2046,41
556,556,0,2047,80
557,557,0,2047,243
558,558,0,2046,516
559,559,0,2047,889
560,560,0,2047,1334
561,561,0,2046,1820
562,562,0,2047,2321
563,563,0,2047,2805
564,564,0,2046,3239
565,565,0,2046,3597
566,566,0,2047,3862
567,567,0,2046,4009
568,568,0,2047,4031
569,569,0,2046,3930
570,570,0,2047,3709
571,571,0,2047,3379
572,572,0,2047,2972
573,573,0,2047,2502
574,574,0,2046,1994
575,575,0,2046,1502
576,576,0,2046,1048
577,577,0,2047,647
578,578,0,2047,335
579,579,0,2046,130
580,580,0,2047,41
581,581,0,2047,82
582,582,0,2047,244
583,583,0,2047,517
584,584,0,2046,891
585,585,0,2047,1338
586,586,0,2046,1823
587,587,0,2046,2325
588,588,0,2046,2809
589,589,0,2047,3240
590,590,0,2046,3599
591,591,0,2047,3862
592,592,0,2047,4009
593,593,0,2046,4030
594,594,0,2046,3931
595,595,0,2046,3709
596,596,0,2047,3380
597,597,0,2047,2972
598,598,0,2047,2500
599,599,0,2046,1993
600,600,0,2046,1502
601,601,0,2047,1048
602,602,0,2047,646
603,603,0,2046,335
604,604,0,2047,130
605,605,0,2047,41
606,606,0,2046,80
607,607,0,2047,243
608,608,0,2047,515
609,609,0,2046,888
610,610,0,2046,1334
611,611,0,2046,1821
612,612,0,2046,2321
613,613,0,2047,2806
614,614,0,2046,3239
615,615,0,2046,3599
616,616,0,2046,3864
617,617,0,2047,4009
618,618,0,2046,4031
619,619,0,2047,3930
620,620,0,2047,3709
621,621,0,2046,3380
622,622,0,2047,2974
623,623,0,2046,2503
624,624,0,2047,1996
625,625,0,2046,1504
626,626,0,2046,1049
627,627,0,2047,646
628,628,0,2046,334
629,629,0,2047,129
630,630,0,2046,41
631,631,0,2046,82
632,632,0,2046,245
633,633,0,2046,519
634,634,0,2046,891
635,635,0,2047,1338
636,636,0,2046,1824
637,637,0,2047,2322
638,638,0,2046,2806
639,639,0,2047,3239
640,640,0,2047,3598
641,641,0,2046,3863
642,642,0,2046,4010
643,643,0,2047,4030
644,644,0,2046,3931
645,645,0,2046,3709
646,646,0,2047,3380
647,647,0,2047,2973
648,648,0,2046,2503
649,649,0,2046,1995
650,650,0,2047,1503
651,651,0,2047,1049
652,652,0,2046,647
653,653,0,2046,335
654,654,0,2046,131
655,655,0,2046,41
656,656,0,2047,81
657,657,0,2047,244
658,658,0,2047,518
659,659,0,2046,891
660,660,0,2047,1338
661,661,0,2046,1825
662,662,0,2047,2324
663,663,0,2047,2808
664,664,0,2046,3241
665,665,0,2047,3600
666,666,0,2047,3863
667,667,0,2046,4009
668,668,0,2047,4030
669,669,0,2046,3930
670,670,0,2046,3710
671,671,0,2046,3381
672,672,0,2047,2973
673,673,0,2046,2502
674,674,0,2046,1994
675,675,0,2046,1503
676,676,0,2046,1049
677,677,0,2046,645
678,678,0,2046,333
679,679,0,2047,130
680,680,0,2046,41
681,681,0,2047,81
682,682,0,2047,244
683,683,0,2047,516
684,684,0,2046,889
685,685,0,2046,1334
686,686,0,2047,1821
687,687,0,2047,2321
688,688,0,2046,2805
689,689,0,2046,3238
690,690,0,2047,3599
691,691,0,2047,3862
692,692,0,2046,4010
693,693,0,2046,4030
694,694,0,2046,3931
695,695,0,2046,3710
696,696,0,2047,3381
697,697,0,2047,2975
698,698,0,2046,2503
699,699,0,2047,1997
700,700,0,2046,1505
701,701,0,2046,1050
702,702,0,2046,647
703,703,0,2046,335
704,704,0,2046,130
705,705,0,2046,40
706,706,0,2047,81
707,707,0,2047,243
708,708,0,2046,517
709,709,0,2047,889
710,710,0,2046,1335
711,711,0,2046,1821
712,712,0,2046,2321
713,713,0,2046,2803
714,714,0,2046,3237
715,715,0,2046,3596
716,716,0,2047,3861
717,717,0,2046,4009
718,718,0,2046,4031
719,719,0,2047,3931
720,720,0,2046,3711
721,721,0,2046,3382
722,722,0,2046,2974
723,723,0,2046,2503
724,724,0,2046,1995
725,725,0,2046,1504
726,726,0,2047,1050
727,727,0,2047,648
728,728,0,2047,336
729,729,0,2046,131
730,730,0,2046,41
731,731,0,2046,80
732,732,0,2046,243
733,733,0,2046,515
734,734,0,2047,887
735,735,0,2046,1334
736,736,0,2047,1820
737,737,0,2046,2320
738,738,0,2046,2805
739,739,0,2047,3239
740,740,0,2047,3597
741,741,0,2047,3861
742,742,0,2047,4009
743,743,0,2047,4031
744,744,0,2046,3932
745,745,0,2046,3712
746,746,0,2046,3384
747,747,0,2047,2977
748,748,0,2047,2505
749,749,0,2047,1996
750,750,0,2047,1504
751,751,0,2046,1050
752,752,0,2046,648
753,753,0,2047,335
754,754,0,2047,131
755,755,0,2046,41
756,756,0,2047,80
757,757,0,2047,243
758,758,0,2047,515
759,759,0,2046,886
760,760,0,2047,1333
761,761,0,2046,1818
762,762,0,2046,2318
763,763,0,2047,2803
764,764,0,2046,3239
765,765,0,2047,3598
766,766,0,2047,3862
767,767,0,2046,4010
768,768,0,2046,4031
769,769,0,2046,3932
770,770,0,2047,3709
771,771,0,2046,3380
772,772,0,2046,2974
773,773,0,2046,2502
774,774,0,2047,1995
775,775,0,2046,1504
776,776,0,2046,1049
777,777,0,2046,647
778,778,0,2047,336
779,779,0,2047,131
780,780,0,2046,41
781,781,0,2047,81
782,782,0,2047,245
783,783,0,2046,517
784,784,0,2047,890
785,785,0,2046,1336
786,786,0,2047,1823
787,787,0,2047,2322
788,788,0,2046,2806
789,789,0,2046,3240
790,790,0,2046,3598
791,791,0,2046,3863
792,792,0,2047,4010
793,793,0,2047,4031
794,794,0,2046,3931
795,795,0,2046,3711
796,796,0,2046,3382
797,797,0,2047,2975
798,798,0,2047,2504
799,799,0,2046,1997
800,800,0,2046,1505
801,801,0,2046,1050
802,802,0,2047,647
803,803,0,2047,335
804,804,0,2046,130
805,805,0,2047,39
806,806,0,2046,81
807,807,0,2046,244
808,808,0,2047,516
809,809,0,2047,889
810,810,0,2047,1335
811,811,0,2046,1822
812,812,0,2047,2322
813,813,0,2047,2806
814,814,0,2046,3240
815,815,0,2046,3599
816,816,0,2046,3863
817,817,0,2047,4009
818,818,0,2047,4030
819,819,0,2046,3932
820,820,0,2047,3712
821,821,0,2046,3382
822,822,0,2046,2976
823,823,0,2047,2505
824,824,0,2047,1997
825,825,0,2046,1504
826,826,0,2047,1049
827,827,0,2046,646
828,828,0,2046,334
829,829,0,2047,129
830,830,0,2046,39
831,831,0,2046,81
832,832,0,2046,244
833,833,0,2046,516
834,834,0,2047,889
835,835,0,2046,1335
836,836,0,2046,1820
837,837,0,2046,2320
838,838,0,2046,2805
839,839,0,2047,3239
840,840,0,2047,3598
841,841,0,2047,3863
842,842,0,2047,4010
843,843,0,2046,4031
844,844,0,2046,3930
845,845,0,2046,3708
846,846,0,2046,3379
847,847,0,2047,2972
848,848,0,2046,2501
849,849,0,2047,1993
850,850,0,2047,1503
851,851,0,2046,1048
852,852,0,2047,647
853,853,0,2046,334
854,854,0,2047,130
855,855,0,2046,41
856,856,0,2047,81
857,857,0,2047,245
858,858,0,2046,518
859,859,0,2046,890
860,860,0,2046,1337
861,861,0,2046,1824
862,862,0,2046,2323
863,863,0,2047,2807
864,864,0,2046,3241
865,865,0,2046,3600
866,866,0,2046,3863
867,867,0,2047,4010
868,868,0,2046,4031
869,869,0,2047,3932
870,870,0,2046,3711
871,871,0,2046,3382
872,872,0,2046,2975
873,873,0,2047,2504
874,874,0,2047,1997
875,875,0,2047,1505
876,876,0,2046,1050
877,877,0,2046,648
878,878,0,2046,337
879,879,0,2046,131
880,880,0,2046,41
881,881,0,2046,79
882,882,0,2047,241
883,883,0,2046,514
884,884,0,2046,886
885,885,0,2046,1331
886,886,0,2047,1819
887,887,0,2047,2320
888,888,0,2047,2804
889,889,0,2047,3237
890,890,0,2046,3597
891,891,0,2046,3861
892,892,0,2046,4009
893,893,0,2046,4030
894,894,0,2046,3931
895,895,0,2047,3710
896,896,0,2046,3382
897,897,0,2047,2976
898,898,0,2046,2506
899,899,0,2046,1998
900,900,0,2047,1506
901,901,0,2046,1051
902,902,0,2046,648
903,903,0,2046,335
904,904,0,2046,131
905,905,0,2046,41
906,906,0,2046,80
907,907,0,2047,245
908,908,0,2046,517
909,909,0,2047,890
910,910,0,2046,1336
911,911,0,2046,1823
912,912,0,2047,2321
913,913,0,2046,2806
914,914,0,2046,3239
915,915,0,2047,3598
916,916,0,2047,3863
917,917,0,2047,4010
918,918,0,2046,4030
919,919,0,2047,3931
920,920,0,2046,3709
921,921,0,2046,3380
922,922,0,2046,2973
923,923,0,2047,2502
924,924,0,2046,1994
925,925,0,2047,1503
926,926,0,2047,1049
927,927,0,2046,648
928,928,0,2046,335
929,929,0,2047,130
930,930,0,2047,40
931,931,0,2046,80
932,932,0,2047,243
933,933,0,2047,516
934,934,0,2046,888
935,935,0,2047,1334
936,936,0,2047,1818
937,937,0,2046,2319
938,938,0,2046,2802
939,939,0,2047,3237
940,940,0,2046,3596
941,941,0,2046,3861
942,942,0,2046,4008
943,943,0,2047,4031
944,944,0,2047,3932
945,945,0,2046,3712
946,946,0,2046,3385
947,947,0,2047,2978
948,948,0,2046,2506
949,949,0,2047,1997
950,950,0,2046,1506
951,951,0,2046,1051
952,952,0,2046,649
953,953,0,2046,336
954,954,0,2047,131
955,955,0,2047,40
956,956,0,2046,80
957,957,0,2047,243
958,958,0,2046,515
959,959,0,2046,887
960,960,0,2047,1333
961,961,0,2047,1822
962,962,0,2047,2321
963,963,0,2047,2806
964,964,0,2047,3241
965,965,0,2046,3600
966,966,0,2046,3863
967,967,0,2046,4010
968,968,0,2046,4030
969,969,0,2046,3930
970,970,0,2046,3709
971,971,0,2046,3380
972,972,0,2047,2972
973,973,0,2047,2502
974,974,0,2046,1996
975,975,0,2046,1504
976,976,0,2046,1051
977,977,0,2047,648
978,978,0,2046,335
979,979,0,2046,130
980,980,0,2047,41
981,981,0,2046,80
982,982,0,2046,244
983,983,0,2046,517
984,984,0,2047,889
985,985,0,2047,1336
986,986,0,2046,1822
987,987,0,2046,2321
988,988,0,2047,2804
989,989,0,2046,3237
990,990,0,2047,3596
991,991,0,2047,3861
992,992,0,2046,4009
993,993,0,2046,4031
994,994,0,2047,3932
995,995,0,2047,3711
996,996,0,2046,3384
997,997,0,2046,2976
998,998,0,2046,2504
999,999,0,2046,1998
1000,1000,0,2047,1507
1001,1001,0,2046,1052
1002,1002,0,2046,648
1003,1003,0,2047,336
1004,1004,0,2047,131
1005,1005,0,2047,41
1006,1006,0,2047,80
1007,1007,0,2047,243
1008,1008,0,2047,514
1009,1009,0,2047,887
1010,1010,0,2047,1333
1011,1011,0,2046,1819
1012,1012,0,2047,2318
1013,1013,0,2047,2803
1014,1014,0,2046,3236
1015,1015,0,2046,3595
1016,1016,0,2046,3861
1017,1017,0,2047,4009
1018,1018,0,2046,4031
1019,1019,0,2046,3933
1020,1020,0,2046,3713
1021,1021,0,2047,3384
1022,1022,0,2046,2978
1023,1023,0,2047,2507
