Sample in Buffer,Sample in Window,TRIGGER,adc1_data_a_d0[11:0],adc1_data_b_d0[11:0]
0,0,0,2045,385
1,1,0,2046,196
2,2,0,2047,61
3,3,0,2046,0
4,4,0,2046,0
5,5,0,2047,16
6,6,0,2046,122
7,7,0,2046,284
8,8,0,2047,499
9,9,0,2046,759
10,10,0,2046,1057
11,11,0,2046,1384
12,12,0,2046,1731
13,13,0,2046,2087
14,14,0,2047,2441
15,15,0,2047,2783
16,16,0,2047,3104
17,17,0,2046,3392
18,18,0,2047,3641
19,19,0,2047,3841
20,20,0,2047,3989
21,21,0,2046,4079
22,22,0,2047,4095
23,23,0,2046,4076
24,24,0,2047,3984
25,25,0,2047,3834
26,26,0,2047,3632
27,27,0,2047,3383
28,28,0,2046,3094
29,29,0,2047,2773
30,30,0,2046,2432
31,31,0,2047,2079
32,32,0,2047,1724
33,33,0,2046,1379
34,34,0,2047,1053
35,35,0,2047,756
36,36,0,2047,497
37,37,0,2046,283
38,38,0,2046,121
39,39,0,2046,16
40,40,0,2047,0
41,41,0,2046,0
42,42,0,2046,62
43,43,0,2046,197
44,44,0,2046,386
45,45,0,2046,625
46,46,0,2047,905
47,47,0,2047,1219
48,48,0,2047,1558
49,49,0,2047,1910
50,50,0,2046,2266
51,51,0,2047,2615
52,52,0,2047,2948
53,53,0,2046,3254
54,54,0,2047,3522
55,55,0,2046,3748
56,56,0,2046,3923
57,57,0,2047,4041
58,58,0,2047,4095
59,59,0,2046,4095
60,60,0,2047,4037
61,61,0,2047,3916
62,62,0,2047,3739
63,63,0,2046,3512
64,64,0,2046,3242
65,65,0,2046,2937
66,66,0,2046,2605
67,67,0,2046,2255
68,68,0,2047,1900
69,69,0,2046,1548
70,70,0,2046,1212
71,71,0,2047,900
72,72,0,2047,621
73,73,0,2046,384
74,74,0,2047,195
75,75,0,2046,60
76,76,0,2046,0
77,77,0,2046,0
78,78,0,2046,17
79,79,0,2047,123
80,80,0,2046,286
81,81,0,2046,501
82,82,0,2047,762
83,83,0,2046,1059
84,84,0,2047,1387
85,85,0,2047,1734
86,86,0,2046,2090
87,87,0,2046,2443
88,88,0,2047,2786
89,89,0,2047,3105
90,90,0,2046,3394
91,91,0,2046,3642
92,92,0,2046,3843
93,93,0,2047,3990
94,94,0,2046,4079
95,95,0,2047,4095
96,96,0,2046,4075
97,97,0,2046,3983
98,98,0,2046,3834
99,99,0,2047,3631
100,100,0,2046,3381
101,101,0,2046,3092
102,102,0,2046,2772
103,103,0,2046,2430
104,104,0,2046,2076
105,105,0,2045,1721
106,106,0,2047,1377
107,107,0,2047,1052
108,108,0,2046,754
109,109,0,2047,496
110,110,0,2047,282
111,111,0,2047,120
112,112,0,2047,16
113,113,0,2047,0
114,114,0,2046,0
115,115,0,2047,63
116,116,0,2047,198
117,117,0,2047,388
118,118,0,2047,627
119,119,0,2046,908
120,120,0,2046,1221
121,121,0,2046,1559
122,122,0,2047,1912
123,123,0,2046,2269
124,124,0,2046,2619
125,125,0,2046,2951
126,126,0,2047,3255
127,127,0,2046,3525
128,128,0,2047,3750
129,129,0,2046,3924
130,130,0,2046,4042
131,131,0,2047,4095
132,132,0,2047,4095
133,133,0,2046,4037
134,134,0,2047,3915
135,135,0,2046,3738
136,136,0,2047,3510
137,137,0,2046,3240
138,138,0,2046,2934
139,139,0,2047,2601
140,140,0,2046,2252
141,141,0,2046,1898
142,142,0,2047,1546
143,143,0,2046,1209
144,144,0,2046,898
145,145,0,2046,619
146,146,0,2047,381
147,147,0,2046,194
148,148,0,2047,60
149,149,0,2047,0
150,150,0,2046,0
151,151,0,2047,17
152,152,0,2046,124
153,153,0,2047,288
154,154,0,2047,502
155,155,0,2047,763
156,156,0,2047,1062
157,157,0,2046,1389
158,158,0,2046,1736
159,159,0,2046,2092
160,160,0,2046,2446
161,161,0,2047,2789
162,162,0,2047,3108
163,163,0,2046,3396
164,164,0,2046,3644
165,165,0,2046,3844
166,166,0,2046,3992
167,167,0,2046,4080
168,168,0,2046,4095
169,169,0,2046,4076
170,170,0,2047,3983
171,171,0,2046,3833
172,172,0,2046,3629
173,173,0,2046,3379
174,174,0,2047,3090
175,175,0,2047,2770
176,176,0,2047,2427
177,177,0,2046,2074
178,178,0,2046,1719
179,179,0,2046,1375
180,180,0,2046,1049
181,181,0,2046,752
182,182,0,2046,493
183,183,0,2046,281
184,184,0,2046,119
185,185,0,2046,15
186,186,0,2047,0
187,187,0,2047,0
188,188,0,2046,63
189,189,0,2046,199
190,190,0,2046,389
191,191,0,2046,629
192,192,0,2047,909
193,193,0,2046,1224
194,194,0,2047,1563
195,195,0,2047,1915
196,196,0,2046,2271
197,197,0,2047,2620
198,198,0,2046,2952
199,199,0,2046,3257
200,200,0,2047,3526
201,201,0,2047,3751
202,202,0,2046,3926
203,203,0,2046,4043
204,204,0,2047,4095
205,205,0,2047,4095
206,206,0,2046,4035
207,207,0,2047,3914
208,208,0,2047,3736
209,209,0,2046,3509
210,210,0,2046,3238
211,211,0,2047,2932
212,212,0,2047,2600
213,213,0,2046,2250
214,214,0,2046,1895
215,215,0,2046,1544
216,216,0,2046,1207
217,217,0,2046,896
218,218,0,2046,617
219,219,0,2046,380
220,220,0,2047,192
221,221,0,2046,59
222,222,0,2046,0
223,223,0,2046,0
224,224,0,2046,18
225,225,0,2047,125
226,226,0,2046,289
227,227,0,2047,504
228,228,0,2046,765
229,229,0,2046,1064
230,230,0,2047,1392
231,231,0,2046,1738
232,232,0,2047,2095
233,233,0,2046,2449
234,234,0,2046,2791
235,235,0,2046,3110
236,236,0,2047,3398
237,237,0,2047,3646
238,238,0,2047,3845
239,239,0,2046,3992
240,240,0,2046,4080
241,241,0,2047,4095
242,242,0,2046,4076
243,243,0,2047,3982
244,244,0,2046,3831
245,245,0,2046,3627
246,246,0,2046,3378
247,247,0,2046,3088
248,248,0,2046,2767
249,249,0,2047,2425
250,250,0,2046,2071
251,251,0,2046,1718
252,252,0,2046,1372
253,253,0,2046,1047
254,254,0,2047,750
255,255,0,2047,493
256,256,0,2047,279
257,257,0,2046,119
258,258,0,2047,14
259,259,0,2047,0
260,260,0,2047,0
261,261,0,2047,64
262,262,0,2046,201
263,263,0,2047,391
264,264,0,2047,631
265,265,0,2047,912
266,266,0,2046,1226
267,267,0,2046,1565
268,268,0,2047,1918
269,269,0,2047,2274
270,270,0,2046,2623
271,271,0,2046,2955
272,272,0,2046,3260
273,273,0,2046,3528
274,274,0,2046,3752
275,275,0,2047,3927
276,276,0,2046,4044
277,277,0,2047,4095
278,278,0,2047,4095
279,279,0,2047,4035
280,280,0,2047,3913
281,281,0,2046,3736
282,282,0,2047,3507
283,283,0,2046,3236
284,284,0,2047,2929
285,285,0,2046,2596
286,286,0,2046,2248
287,287,0,2047,1892
288,288,0,2046,1542
289,289,0,2046,1204
290,290,0,2046,893
291,291,0,2046,615
292,292,0,2046,379
293,293,0,2046,191
294,294,0,2047,59
295,295,0,2046,0
296,296,0,2047,0
297,297,0,2045,19
298,298,0,2046,126
299,299,0,2047,290
300,300,0,2046,506
301,301,0,2046,768
302,302,0,2047,1067
303,303,0,2046,1394
304,304,0,2047,1742
305,305,0,2046,2097
306,306,0,2047,2451
307,307,0,2046,2794
308,308,0,2047,3112
309,309,0,2046,3400
310,310,0,2047,3647
311,311,0,2047,3846
312,312,0,2046,3993
313,313,0,2046,4081
314,314,0,2046,4095
315,315,0,2046,4075
316,316,0,2046,3981
317,317,0,2046,3829
318,318,0,2047,3627
319,319,0,2047,3376
320,320,0,2047,3085
321,321,0,2047,2764
322,322,0,2046,2423
323,323,0,2046,2069
324,324,0,2046,1715
325,325,0,2046,1370
326,326,0,2046,1045
327,327,0,2046,748
328,328,0,2046,491
329,329,0,2047,278
330,330,0,2046,117
331,331,0,2047,14
332,332,0,2046,0
333,333,0,2046,0
334,334,0,2047,65
335,335,0,2047,202
336,336,0,2046,393
337,337,0,2046,632
338,338,0,2046,913
339,339,0,2047,1228
340,340,0,2046,1568
341,341,0,2047,1920
342,342,0,2047,2276
343,343,0,2047,2625
344,344,0,2046,2958
345,345,0,2047,3262
346,346,0,2046,3529
347,347,0,2047,3754
348,348,0,2046,3927
349,349,0,2047,4044
350,350,0,2047,4095
351,351,0,2046,4095
352,352,0,2046,4035
353,353,0,2046,3912
354,354,0,2046,3733
355,355,0,2046,3505
356,356,0,2047,3233
357,357,0,2047,2927
358,358,0,2046,2594
359,359,0,2047,2245
360,360,0,2047,1889
361,361,0,2047,1540
362,362,0,2046,1203
363,363,0,2046,891
364,364,0,2047,613
365,365,0,2047,377
366,366,0,2046,191
367,367,0,2047,57
368,368,0,2047,0
369,369,0,2047,0
370,370,0,2047,19
371,371,0,2046,126
372,372,0,2047,292
373,373,0,2046,507
374,374,0,2047,769
375,375,0,2047,1069
376,376,0,2047,1397
377,377,0,2047,1743
378,378,0,2047,2100
379,379,0,2046,2453
380,380,0,2046,2795
381,381,0,2047,3115
382,382,0,2046,3402
383,383,0,2047,3649
384,384,0,2046,3847
385,385,0,2046,3993
386,386,0,2046,4081
387,387,0,2047,4095
388,388,0,2047,4074
389,389,0,2046,3979
390,390,0,2047,3828
391,391,0,2046,3625
392,392,0,2046,3374
393,393,0,2046,3083
394,394,0,2047,2762
395,395,0,2046,2420
396,396,0,2047,2067
397,397,0,2047,1711
398,398,0,2046,1368
399,399,0,2046,1042
400,400,0,2046,746
401,401,0,2047,490
402,402,0,2047,277
403,403,0,2046,117
404,404,0,2047,14
405,405,0,2047,0
406,406,0,2046,0
407,407,0,2046,66
408,408,0,2046,202
409,409,0,2046,393
410,410,0,2047,634
411,411,0,2046,916
412,412,0,2046,1231
413,413,0,2046,1570
414,414,0,2046,1923
415,415,0,2046,2279
416,416,0,2047,2627
417,417,0,2046,2959
418,418,0,2046,3263
419,419,0,2047,3531
420,420,0,2046,3754
421,421,0,2047,3928
422,422,0,2046,4044
423,423,0,2047,4095
424,424,0,2047,4095
425,425,0,2047,4034
426,426,0,2046,3911
427,427,0,2047,3732
428,428,0,2047,3503
429,429,0,2047,3232
430,430,0,2046,2924
431,431,0,2047,2591
432,432,0,2047,2243
433,433,0,2047,1888
434,434,0,2047,1536
435,435,0,2046,1200
436,436,0,2046,889
437,437,0,2047,612
438,438,0,2047,375
439,439,0,2046,190
440,440,0,2047,57
441,441,0,2047,0
442,442,0,2046,0
443,443,0,2046,19
444,444,0,2046,127
445,445,0,2046,292
446,446,0,2046,509
447,447,0,2047,771
448,448,0,2047,1070
449,449,0,2047,1399
450,450,0,2046,1746
451,451,0,2047,2102
452,452,0,2047,2456
453,453,0,2046,2798
454,454,0,2047,3116
455,455,0,2047,3403
456,456,0,2047,3650
457,457,0,2047,3848
458,458,0,2046,3994
459,459,0,2047,4081
460,460,0,2046,4095
461,461,0,2047,4074
462,462,0,2047,3979
463,463,0,2046,3827
464,464,0,2047,3623
465,465,0,2047,3371
466,466,0,2047,3081
467,467,0,2046,2760
468,468,0,2046,2418
469,469,0,2046,2064
470,470,0,2046,1710
471,471,0,2047,1365
472,472,0,2047,1040
473,473,0,2046,744
474,474,0,2047,486
475,475,0,2046,275
476,476,0,2047,115
477,477,0,2047,13
478,478,0,2047,0
479,479,0,2047,0
480,480,0,2047,67
481,481,0,2047,203
482,482,0,2047,396
483,483,0,2046,636
484,484,0,2046,918
485,485,0,2046,1232
486,486,0,2046,1572
487,487,0,2047,1924
488,488,0,2047,2281
489,489,0,2046,2630
490,490,0,2046,2962
491,491,0,2047,3266
492,492,0,2046,3533
493,493,0,2047,3757
494,494,0,2046,3929
495,495,0,2047,4045
496,496,0,2047,4095
497,497,0,2046,4095
498,498,0,2046,4033
499,499,0,2047,3909
500,500,0,2047,3731
501,501,0,2046,3501
502,502,0,2047,3230
503,503,0,2047,2923
504,504,0,2047,2589
505,505,0,2046,2240
506,506,0,2047,1885
507,507,0,2046,1535
508,508,0,2047,1198
509,509,0,2047,888
510,510,0,2047,609
511,511,0,2046,374
512,512,0,2047,188
513,513,0,2047,56
514,514,0,2047,0
515,515,0,2047,0
516,516,0,2046,20
517,517,0,2047,129
518,518,0,2047,293
519,519,0,2046,510
520,520,0,2047,772
521,521,0,2047,1073
522,522,0,2046,1401
523,523,0,2046,1749
524,524,0,2047,2105
525,525,0,2047,2458
526,526,0,2046,2800
527,527,0,2046,3118
528,528,0,2047,3405
529,529,0,2047,3651
530,530,0,2047,3850
531,531,0,2046,3995
532,532,0,2047,4082
533,533,0,2047,4095
534,534,0,2046,4072
535,535,0,2046,3979
536,536,0,2047,3825
537,537,0,2047,3621
538,538,0,2047,3369
539,539,0,2047,3079
540,540,0,2046,2758
541,541,0,2047,2415
542,542,0,2046,2061
543,543,0,2047,1707
544,544,0,2046,1362
545,545,0,2046,1038
546,546,0,2047,743
547,547,0,2047,484
548,548,0,2047,274
549,549,0,2047,114
550,550,0,2047,12
551,551,0,2047,0
552,552,0,2046,0
553,553,0,2046,67
554,554,0,2047,204
555,555,0,2047,398
556,556,0,2046,637
557,557,0,2047,920
558,558,0,2046,1235
559,559,0,2047,1575
560,560,0,2046,1927
561,561,0,2046,2284
562,562,0,2046,2632
563,563,0,2046,2964
564,564,0,2047,3268
565,565,0,2046,3536
566,566,0,2047,3758
567,567,0,2047,3931
568,568,0,2046,4047
569,569,0,2047,4095
570,570,0,2046,4095
571,571,0,2046,4033
572,572,0,2045,3909
573,573,0,2046,3729
574,574,0,2047,3500
575,575,0,2046,3228
576,576,0,2046,2921
577,577,0,2046,2588
578,578,0,2046,2238
579,579,0,2047,1883
580,580,0,2046,1532
581,581,0,2046,1196
582,582,0,2046,885
583,583,0,2046,608
584,584,0,2047,373
585,585,0,2046,187
586,586,0,2046,56
587,587,0,2046,0
588,588,0,2047,0
589,589,0,2047,20
590,590,0,2046,129
591,591,0,2046,296
592,592,0,2046,512
593,593,0,2046,775
594,594,0,2046,1075
595,595,0,2046,1404
596,596,0,2046,1751
597,597,0,2047,2106
598,598,0,2047,2460
599,599,0,2046,2802
600,600,0,2046,3120
601,601,0,2046,3407
602,602,0,2047,3654
603,603,0,2047,3851
604,604,0,2046,3996
605,605,0,2046,4082
606,606,0,2047,4095
607,607,0,2047,4073
608,608,0,2047,3977
609,609,0,2047,3824
610,610,0,2046,3619
611,611,0,2046,3368
612,612,0,2047,3077
613,613,0,2046,2755
614,614,0,2046,2413
615,615,0,2046,2059
616,616,0,2046,1705
617,617,0,2047,1361
618,618,0,2047,1035
619,619,0,2047,740
620,620,0,2047,483
621,621,0,2047,272
622,622,0,2047,114
623,623,0,2046,11
624,624,0,2047,0
625,625,0,2047,0
626,626,0,2047,68
627,627,0,2047,206
628,628,0,2046,399
629,629,0,2047,640
630,630,0,2046,922
631,631,0,2047,1237
632,632,0,2046,1577
633,633,0,2046,1929
634,634,0,2047,2286
635,635,0,2046,2635
636,636,0,2046,2965
637,637,0,2047,3270
638,638,0,2047,3537
639,639,0,2046,3759
640,640,0,2046,3931
641,641,0,2046,4046
642,642,0,2046,4095
643,643,0,2047,4095
644,644,0,2046,4032
645,645,0,2046,3908
646,646,0,2046,3728
647,647,0,2047,3498
648,648,0,2046,3226
649,649,0,2047,2918
650,650,0,2046,2585
651,651,0,2046,2235
652,652,0,2047,1880
653,653,0,2047,1529
654,654,0,2046,1194
655,655,0,2046,883
656,656,0,2047,606
657,657,0,2046,372
658,658,0,2047,186
659,659,0,2047,54
660,660,0,2047,0
661,661,0,2047,0
662,662,0,2047,22
663,663,0,2047,130
664,664,0,2046,296
665,665,0,2047,514
666,666,0,2047,777
667,667,0,2046,1077
668,668,0,2046,1406
669,669,0,2047,1753
670,670,0,2047,2110
671,671,0,2046,2463
672,672,0,2047,2804
673,673,0,2046,3123
674,674,0,2047,3409
675,675,0,2047,3655
676,676,0,2047,3853
677,677,0,2046,3996
678,678,0,2046,4082
679,679,0,2046,4095
680,680,0,2047,4072
681,681,0,2047,3977
682,682,0,2047,3823
683,683,0,2047,3617
684,684,0,2047,3367
685,685,0,2046,3074
686,686,0,2047,2753
687,687,0,2046,2410
688,688,0,2047,2057
689,689,0,2047,1702
690,690,0,2046,1357
691,691,0,2046,1034
692,692,0,2047,738
693,693,0,2046,483
694,694,0,2047,271
695,695,0,2047,112
696,696,0,2047,11
697,697,0,2047,0
698,698,0,2047,0
699,699,0,2047,70
700,700,0,2047,207
701,701,0,2047,401
702,702,0,2047,642
703,703,0,2046,924
704,704,0,2046,1240
705,705,0,2046,1579
706,706,0,2046,1932
707,707,0,2046,2289
708,708,0,2047,2637
709,709,0,2047,2967
710,710,0,2047,3272
711,711,0,2046,3538
712,712,0,2047,3761
713,713,0,2046,3933
714,714,0,2047,4047
715,715,0,2047,4095
716,716,0,2047,4095
717,717,0,2046,4031
718,718,0,2047,3906
719,719,0,2047,3726
720,720,0,2047,3496
721,721,0,2047,3223
722,722,0,2047,2916
723,723,0,2046,2582
724,724,0,2046,2232
725,725,0,2047,1878
726,726,0,2047,1528
727,727,0,2047,1192
728,728,0,2047,881
729,729,0,2047,604
730,730,0,2046,370
731,731,0,2046,185
732,732,0,2046,55
733,733,0,2046,0
734,734,0,2046,0
735,735,0,2047,22
736,736,0,2046,131
737,737,0,2046,297
738,738,0,2047,516
739,739,0,2047,779
740,740,0,2046,1080
741,741,0,2047,1408
742,742,0,2047,1756
743,743,0,2046,2112
744,744,0,2046,2465
745,745,0,2047,2807
746,746,0,2047,3124
747,747,0,2046,3411
748,748,0,2047,3656
749,749,0,2046,3853
750,750,0,2047,3997
751,751,0,2047,4083
752,752,0,2046,4095
753,753,0,2046,4072
754,754,0,2047,3976
755,755,0,2047,3822
756,756,0,2047,3616
757,757,0,2046,3364
758,758,0,2047,3073
759,759,0,2046,2750
760,760,0,2047,2408
761,761,0,2046,2054
762,762,0,2046,1700
763,763,0,2046,1356
764,764,0,2047,1031
765,765,0,2046,737
766,766,0,2047,480
767,767,0,2046,270
768,768,0,2047,111
769,769,0,2047,10
770,770,0,2047,0
771,771,0,2046,0
772,772,0,2047,70
773,773,0,2047,208
774,774,0,2046,402
775,775,0,2046,644
776,776,0,2046,927
777,777,0,2046,1242
778,778,0,2046,1581
779,779,0,2046,1935
780,780,0,2047,2291
781,781,0,2047,2639
782,782,0,2047,2971
783,783,0,2047,3274
784,784,0,2046,3540
785,785,0,2046,3762
786,786,0,2047,3933
787,787,0,2046,4047
788,788,0,2046,4095
789,789,0,2047,4095
790,790,0,2046,4030
791,791,0,2047,3906
792,792,0,2047,3725
793,793,0,2047,3495
794,794,0,2047,3222
795,795,0,2046,2914
796,796,0,2047,2580
797,797,0,2046,2231
798,798,0,2047,1875
799,799,0,2046,1524
800,800,0,2046,1189
801,801,0,2047,879
802,802,0,2046,603
803,803,0,2047,368
804,804,0,2047,184
805,805,0,2047,55
806,806,0,2046,0
807,807,0,2047,0
808,808,0,2046,22
809,809,0,2046,132
810,810,0,2047,300
811,811,0,2046,518
812,812,0,2046,781
813,813,0,2047,1082
814,814,0,2047,1410
815,815,0,2047,1759
816,816,0,2047,2114
817,817,0,2047,2468
818,818,0,2046,2809
819,819,0,2047,3127
820,820,0,2046,3412
821,821,0,2047,3658
822,822,0,2046,3855
823,823,0,2046,3998
824,824,0,2046,4083
825,825,0,2046,4095
826,826,0,2046,4071
827,827,0,2047,3975
828,828,0,2047,3821
829,829,0,2046,3614
830,830,0,2046,3362
831,831,0,2047,3070
832,832,0,2046,2748
833,833,0,2046,2405
834,834,0,2047,2051
835,835,0,2047,1697
836,836,0,2046,1353
837,837,0,2047,1029
838,838,0,2047,734
839,839,0,2046,479
840,840,0,2046,268
841,841,0,2047,111
842,842,0,2046,11
843,843,0,2046,0
844,844,0,2046,0
845,845,0,2046,71
846,846,0,2047,210
847,847,0,2047,403
848,848,0,2046,646
849,849,0,2047,928
850,850,0,2047,1244
851,851,0,2047,1584
852,852,0,2047,1937
853,853,0,2046,2294
854,854,0,2046,2643
855,855,0,2046,2973
856,856,0,2046,3276
857,857,0,2047,3541
858,858,0,2046,3763
859,859,0,2046,3934
860,860,0,2047,4048
861,861,0,2046,4095
862,862,0,2046,4095
863,863,0,2046,4030
864,864,0,2046,3904
865,865,0,2046,3723
866,866,0,2046,3493
867,867,0,2046,3220
868,868,0,2048,2912
869,869,0,2047,2578
870,870,0,2046,2228
871,871,0,2046,1872
872,872,0,2047,1522
873,873,0,2046,1186
874,874,0,2046,876
875,875,0,2047,600
876,876,0,2047,367
877,877,0,2046,182
878,878,0,2046,53
879,879,0,2047,0
880,880,0,2047,0
881,881,0,2047,23
882,882,0,2046,134
883,883,0,2046,301
884,884,0,2047,519
885,885,0,2047,782
886,886,0,2046,1084
887,887,0,2046,1413
888,888,0,2047,1760
889,889,0,2047,2117
890,890,0,2046,2470
891,891,0,2047,2812
892,892,0,2047,3130
893,893,0,2046,3415
894,894,0,2047,3659
895,895,0,2047,3856
896,896,0,2046,3999
897,897,0,2047,4084
898,898,0,2046,4095
899,899,0,2046,4071
900,900,0,2046,3974
901,901,0,2047,3820
902,902,0,2046,3614
903,903,0,2046,3360
904,904,0,2047,3068
905,905,0,2046,2746
906,906,0,2046,2403
907,907,0,2046,2049
908,908,0,2047,1695
909,909,0,2046,1351
910,910,0,2046,1027
911,911,0,2046,733
912,912,0,2046,478
913,913,0,2047,267
914,914,0,2046,110
915,915,0,2046,10
916,916,0,2046,0
917,917,0,2046,0
918,918,0,2046,71
919,919,0,2046,210
920,920,0,2046,405
921,921,0,2047,647
922,922,0,2046,932
923,923,0,2046,1247
924,924,0,2046,1587
925,925,0,2047,1940
926,926,0,2047,2296
927,927,0,2047,2644
928,928,0,2046,2975
929,929,0,2046,3278
930,930,0,2046,3543
931,931,0,2047,3765
932,932,0,2047,3935
933,933,0,2046,4050
934,934,0,2046,4095
935,935,0,2047,4095
936,936,0,2047,4029
937,937,0,2046,3902
938,938,0,2047,3722
939,939,0,2047,3491
940,940,0,2047,3217
941,941,0,2047,2909
942,942,0,2047,2575
943,943,0,2046,2225
944,944,0,2047,1870
945,945,0,2047,1519
946,946,0,2047,1184
947,947,0,2046,875
948,948,0,2047,599
949,949,0,2046,366
950,950,0,2046,182
951,951,0,2046,52
952,952,0,2047,0
953,953,0,2047,0
954,954,0,2046,24
955,955,0,2046,135
956,956,0,2047,302
957,957,0,2047,521
958,958,0,2047,784
959,959,0,2047,1086
960,960,0,2046,1416
961,961,0,2047,1764
962,962,0,2047,2120
963,963,0,2047,2473
964,964,0,2047,2813
965,965,0,2047,3131
966,966,0,2046,3417
967,967,0,2047,3661
968,968,0,2047,3857
969,969,0,2047,4000
970,970,0,2046,4084
971,971,0,2047,4095
972,972,0,2047,4070
973,973,0,2046,3973
974,974,0,2047,3819
975,975,0,2047,3612
976,976,0,2047,3358
977,977,0,2046,3066
978,978,0,2046,2743
979,979,0,2047,2401
980,980,0,2047,2046
981,981,0,2047,1692
982,982,0,2047,1349
983,983,0,2047,1024
984,984,0,2047,731
985,985,0,2047,475
986,986,0,2046,266
987,987,0,2046,109
988,988,0,2047,9
989,989,0,2046,0
990,990,0,2047,0
991,991,0,2046,72
992,992,0,2046,212
993,993,0,2046,406
994,994,0,2046,649
995,995,0,2047,933
996,996,0,2046,1249
997,997,0,2046,1589
998,998,0,2046,1942
999,999,0,2046,2298
1000,1000,0,2046,2647
1001,1001,0,2046,2977
1002,1002,0,2047,3280
1003,1003,0,2046,3545
1004,1004,0,2047,3767
1005,1005,0,2047,3936
1006,1006,0,2047,4050
1007,1007,0,2046,4095
1008,1008,0,2047,4095
1009,1009,0,2047,4029
1010,1010,0,2047,3902
1011,1011,0,2047,3720
1012,1012,0,2047,3489
1013,1013,0,2047,3215
1014,1014,0,2046,2906
1015,1015,0,2046,2572
1016,1016,0,2047,2223
1017,1017,0,2047,1868
1018,1018,0,2047,1518
1019,1019,0,2047,1182
1020,1020,0,2046,873
1021,1021,0,2046,597
1022,1022,0,2047,364
1023,1023,0,2047,180
1024,1024,0,2047,51
1025,1025,0,2047,0
1026,1026,0,2047,0
1027,1027,0,2046,24
1028,1028,0,2046,135
