Sample in Buffer,Sample in Window,TRIGGER,adc1_data_a_d0[11:0],adc1_data_b_d0[11:0]
0,0,0,2045,1286
1,1,0,2047,387
2,2,0,2046,0
3,3,0,2046,240
4,4,0,2047,1039
5,5,0,2046,2147
6,6,0,2047,3222
7,7,0,2046,3929
8,8,0,2046,4052
9,9,0,2046,3552
10,10,0,2046,2582
11,11,0,2046,1445
12,12,0,2046,491
13,13,0,2046,16
14,14,0,2046,167
15,15,0,2046,896
16,16,0,2046,1979
17,17,0,2046,3080
18,18,0,2046,3860
19,19,0,2046,4075
20,20,0,2046,3660
21,21,0,2046,2743
22,22,0,2047,1608
23,23,0,2046,606
24,24,0,2047,48
25,25,0,2047,105
26,26,0,2047,760
27,27,0,2047,1811
28,28,0,2046,2933
29,29,0,2047,3776
30,30,0,2047,4083
31,31,0,2046,3756
32,32,0,2046,2898
33,33,0,2046,1774
34,34,0,2047,730
35,35,0,2046,93
36,36,0,2046,57
37,37,0,2046,634
38,38,0,2047,1646
39,39,0,2046,2778
40,40,0,2047,3683
41,41,0,2047,4078
42,42,0,2046,3842
43,43,0,2046,3047
44,44,0,2047,1941
45,45,0,2046,865
46,46,0,2047,151
47,47,0,2047,23
48,48,0,2046,517
49,49,0,2046,1481
50,50,0,2047,2620
51,51,0,2046,3577
52,52,0,2046,4059
53,53,0,2046,3915
54,54,0,2047,3190
55,55,0,2046,2109
56,56,0,2047,1006
57,57,0,2047,223
58,58,0,2046,1
59,59,0,2047,410
60,60,0,2046,1322
61,61,0,2048,2457
62,62,0,2047,3462
63,63,0,2046,4027
64,64,0,2046,3975
65,65,0,2046,3324
66,66,0,2046,2277
67,67,0,2047,1155
68,68,0,2046,307
69,69,0,2046,0
70,70,0,2047,314
71,71,0,2047,1167
72,72,0,2046,2291
73,73,0,2046,3337
74,74,0,2047,3979
75,75,0,2046,4023
76,76,0,2046,3451
77,77,0,2046,2443
78,78,0,2047,1310
79,79,0,2046,401
80,80,0,2046,0
81,81,0,2046,229
82,82,0,2046,1018
83,83,0,2046,2123
84,84,0,2046,3202
85,85,0,2046,3921
86,86,0,2046,4057
87,87,0,2046,3568
88,88,0,2046,2606
89,89,0,2046,1469
90,90,0,2047,507
91,91,0,2046,20
92,92,0,2047,157
93,93,0,2047,876
94,94,0,2046,1956
95,95,0,2047,3060
96,96,0,2047,3849
97,97,0,2046,4077
98,98,0,2048,3674
99,99,0,2046,2765
100,100,0,2046,1631
101,101,0,2046,624
102,102,0,2046,54
103,103,0,2046,97
104,104,0,2046,742
105,105,0,2047,1788
106,106,0,2046,2911
107,107,0,2046,3764
108,108,0,2046,4084
109,109,0,2047,3770
110,110,0,2047,2920
111,111,0,2046,1797
112,112,0,2046,750
113,113,0,2046,101
114,114,0,2047,52
115,115,0,2046,616
116,116,0,2046,1621
117,117,0,2047,2756
118,118,0,2047,3669
119,119,0,2046,4076
120,120,0,2046,3852
121,121,0,2046,3068
122,122,0,2046,1965
123,123,0,2046,885
124,124,0,2046,161
125,125,0,2046,18
126,126,0,2047,501
127,127,0,2047,1459
128,128,0,2046,2597
129,129,0,2046,3562
130,130,0,2046,4055
131,131,0,2046,3924
132,132,0,2047,3210
133,133,0,2046,2133
134,134,0,2047,1027
135,135,0,2046,234
136,136,0,2046,0
137,137,0,2047,395
138,138,0,2047,1300
139,139,0,2047,2434
140,140,0,2046,3444
141,141,0,2046,4020
142,142,0,2046,3983
143,143,0,2046,3344
144,144,0,2047,2300
145,145,0,2046,1176
146,146,0,2046,319
147,147,0,2046,0
148,148,0,2046,301
149,149,0,2046,1146
150,150,0,2047,2267
151,151,0,2047,3317
152,152,0,2047,3972
153,153,0,2046,4028
154,154,0,2046,3468
155,155,0,2046,2466
156,156,0,2046,1331
157,157,0,2046,416
158,158,0,2046,2
159,159,0,2047,218
160,160,0,2046,998
161,161,0,2046,2100
162,162,0,2046,3182
163,163,0,2047,3911
164,164,0,2047,4060
165,165,0,2046,3583
166,166,0,2046,2629
167,167,0,2047,1491
168,168,0,2046,523
169,169,0,2046,24
170,170,0,2046,148
171,171,0,2047,857
172,172,0,2047,1932
173,173,0,2047,3039
174,174,0,2046,3837
175,175,0,2046,4078
176,176,0,2046,3687
177,177,0,2046,2787
178,178,0,2046,1655
179,179,0,2046,641
180,180,0,2047,60
181,181,0,2047,90
182,182,0,2046,723
183,183,0,2046,1765
184,184,0,2046,2890
185,185,0,2047,3751
186,186,0,2046,4084
187,187,0,2046,3781
188,188,0,2047,2941
189,189,0,2046,1821
190,190,0,2047,768
191,191,0,2046,109
192,192,0,2046,46
193,193,0,2046,599
194,194,0,2047,1598
195,195,0,2046,2733
196,196,0,2047,3654
197,197,0,2047,4074
198,198,0,2046,3864
199,199,0,2046,3089
200,200,0,2047,1989
201,201,0,2047,905
202,202,0,2046,170
203,203,0,2046,15
204,204,0,2047,485
205,205,0,2046,1436
206,206,0,2046,2574
207,207,0,2046,3546
208,208,0,2046,4051
209,209,0,2046,3933
210,210,0,2046,3229
211,211,0,2047,2157
212,212,0,2046,1048
213,213,0,2047,245
214,214,0,2046,0
215,215,0,2046,382
216,216,0,2047,1278
217,217,0,2047,2409
218,218,0,2047,3427
219,219,0,2046,4014
220,220,0,2046,3990
221,221,0,2046,3362
222,222,0,2046,2324
223,223,0,2047,1198
224,224,0,2046,332
225,225,0,2046,0
226,226,0,2046,288
227,227,0,2047,1125
228,228,0,2047,2243
229,229,0,2046,3299
230,230,0,2047,3964
231,231,0,2047,4033
232,232,0,2047,3485
233,233,0,2046,2489
234,234,0,2046,1354
235,235,0,2046,430
236,236,0,2046,4
237,237,0,2046,207
238,238,0,2046,977
239,239,0,2046,2075
240,240,0,2046,3163
241,241,0,2046,3902
242,242,0,2047,4064
243,243,0,2046,3599
244,244,0,2046,2652
245,245,0,2047,1514
246,246,0,2046,539
247,247,0,2046,28
248,248,0,2047,139
249,249,0,2047,838
250,250,0,2047,1908
251,251,0,2046,3019
252,252,0,2046,3826
253,253,0,2046,4080
254,254,0,2047,3702
255,255,0,2047,2810
256,256,0,2046,1679
257,257,0,2046,658
258,258,0,2046,66
259,259,0,2046,83
260,260,0,2047,705
261,261,0,2046,1741
262,262,0,2046,2868
263,263,0,2047,3738
264,264,0,2047,4083
265,265,0,2046,3795
266,266,0,2046,2963
267,267,0,2047,1845
268,268,0,2047,787
269,269,0,2047,117
270,270,0,2046,41
271,271,0,2046,583
272,272,0,2047,1575
273,273,0,2047,2711
274,274,0,2047,3639
275,275,0,2046,4072
276,276,0,2046,3875
277,277,0,2045,3109
278,278,0,2046,2013
279,279,0,2046,925
280,280,0,2047,181
281,281,0,2047,12
282,282,0,2047,469
283,283,0,2047,1414
284,284,0,2047,2551
285,285,0,2047,3529
286,286,0,2046,4047
287,287,0,2046,3943
288,288,0,2047,3249
289,289,0,2047,2181
290,290,0,2046,1069
291,291,0,2046,256
292,292,0,2046,0
293,293,0,2046,367
294,294,0,2046,1256
295,295,0,2046,2386
296,296,0,2046,3409
297,297,0,2046,4008
298,298,0,2047,3997
299,299,0,2046,3379
300,300,0,2047,2348
301,301,0,2046,1220
302,302,0,2046,345
303,303,0,2046,0
304,304,0,2046,276
305,305,0,2047,1103
306,306,0,2046,2219
307,307,0,2046,3280
308,308,0,2046,3957
309,309,0,2047,4039
310,310,0,2046,3502
311,311,0,2047,2513
312,312,0,2046,1376
313,313,0,2046,444
314,314,0,2046,6
315,315,0,2046,196
316,316,0,2046,957
317,317,0,2047,2052
318,318,0,2046,3142
319,319,0,2047,3891
320,320,0,2046,4067
321,321,0,2046,3615
322,322,0,2047,2675
323,323,0,2046,1538
324,324,0,2046,556
325,325,0,2046,33
326,326,0,2046,130
327,327,0,2047,818
328,328,0,2047,1884
329,329,0,2046,2997
330,330,0,2047,3814
331,331,0,2046,4081
332,332,0,2046,3717
333,333,0,2046,2832
334,334,0,2046,1702
335,335,0,2046,677
336,336,0,2046,72
337,337,0,2046,76
338,338,0,2046,687
339,339,0,2046,1718
340,340,0,2046,2845
341,341,0,2047,3725
342,342,0,2046,4082
343,343,0,2047,3807
344,344,0,2046,2984
345,345,0,2046,1869
346,346,0,2047,806
347,347,0,2046,125
348,348,0,2046,36
349,349,0,2046,565
350,350,0,2046,1552
351,351,0,2046,2689
352,352,0,2046,3624
353,353,0,2046,4069
354,354,0,2046,3886
355,355,0,2046,3131
356,356,0,2047,2036
357,357,0,2046,944
358,358,0,2046,191
359,359,0,2046,8
360,360,0,2047,455
361,361,0,2046,1391
362,362,0,2046,2527
363,363,0,2046,3513
364,364,0,2046,4042
365,365,0,2046,3951
366,366,0,2046,3268
367,367,0,2047,2205
368,368,0,2047,1090
369,369,0,2046,269
370,370,0,2047,0
371,371,0,2046,355
372,372,0,2046,1234
373,373,0,2046,2363
374,374,0,2046,3391
375,375,0,2047,4001
376,376,0,2047,4004
377,377,0,2047,3398
378,378,0,2047,2371
379,379,0,2046,1242
380,380,0,2046,358
381,381,0,2046,0
382,382,0,2047,264
383,383,0,2047,1081
384,384,0,2047,2196
385,385,0,2046,3261
386,386,0,2046,3947
387,387,0,2047,4044
388,388,0,2047,3519
389,389,0,2046,2536
390,390,0,2047,1400
391,391,0,2047,460
392,392,0,2047,10
393,393,0,2047,186
394,394,0,2046,937
395,395,0,2047,2028
396,396,0,2047,3122
397,397,0,2046,3881
398,398,0,2047,4069
399,399,0,2047,3629
400,400,0,2046,2697
401,401,0,2047,1561
402,402,0,2046,572
403,403,0,2046,38
404,404,0,2046,122
405,405,0,2047,799
406,406,0,2046,1860
407,407,0,2047,2977
408,408,0,2046,3803
409,409,0,2047,4082
410,410,0,2046,3729
411,411,0,2047,2854
412,412,0,2047,1726
413,413,0,2046,694
414,414,0,2046,78
415,415,0,2046,69
416,416,0,2046,669
417,417,0,2047,1694
418,418,0,2046,2824
419,419,0,2046,3712
420,420,0,2046,4081
421,421,0,2047,3819
422,422,0,2047,3004
423,423,0,2046,1892
424,424,0,2047,826
425,425,0,2047,134
426,426,0,2046,31
427,427,0,2047,550
428,428,0,2046,1529
429,429,0,2046,2666
430,430,0,2046,3609
431,431,0,2047,4065
432,432,0,2046,3895
433,433,0,2046,3150
434,434,0,2046,2060
435,435,0,2046,965
436,436,0,2047,201
437,437,0,2046,6
438,438,0,2046,439
439,439,0,2047,1368
440,440,0,2047,2504
441,441,0,2047,3496
442,442,0,2046,4037
443,443,0,2047,3959
444,444,0,2046,3287
445,445,0,2046,2229
446,446,0,2046,1111
447,447,0,2046,281
448,448,0,2046,0
449,449,0,2047,340
450,450,0,2046,1211
451,451,0,2046,2339
452,452,0,2046,3373
453,453,0,2046,3995
454,454,0,2046,4011
455,455,0,2047,3416
456,456,0,2046,2394
457,457,0,2047,1264
458,458,0,2046,373
459,459,0,2046,0
460,460,0,2046,252
461,461,0,2047,1061
462,462,0,2047,2172
463,463,0,2047,3242
464,464,0,2047,3939
465,465,0,2046,4049
466,466,0,2046,3535
467,467,0,2046,2559
468,468,0,2046,1422
469,469,0,2046,475
470,470,0,2046,13
471,471,0,2047,176
472,472,0,2046,917
473,473,0,2047,2004
474,474,0,2047,3102
475,475,0,2047,3870
476,476,0,2047,4072
477,477,0,2046,3644
478,478,0,2046,2720
479,479,0,2047,1584
480,480,0,2047,590
481,481,0,2047,42
482,482,0,2046,113
483,483,0,2046,780
484,484,0,2046,1836
485,485,0,2046,2954
486,486,0,2047,3789
487,487,0,2047,4083
488,488,0,2046,3743
489,489,0,2046,2876
490,490,0,2046,1749
491,491,0,2047,713
492,492,0,2046,85
493,493,0,2046,63
494,494,0,2047,652
495,495,0,2047,1670
496,496,0,2046,2802
497,497,0,2046,3697
498,498,0,2046,4079
499,499,0,2047,3830
500,500,0,2046,3026
501,501,0,2047,1917
502,502,0,2046,845
503,503,0,2047,143
504,504,0,2047,27
505,505,0,2047,534
506,506,0,2046,1505
507,507,0,2047,2643
508,508,0,2046,3593
509,509,0,2046,4063
510,510,0,2047,3905
511,511,0,2046,3170
512,512,0,2046,2084
513,513,0,2046,985
514,514,0,2046,212
515,515,0,2046,2
516,516,0,2046,425
517,517,0,2046,1346
518,518,0,2046,2480
519,519,0,2047,3479
520,520,0,2046,4032
521,521,0,2047,3967
522,522,0,2047,3306
523,523,0,2046,2252
524,524,0,2046,1133
525,525,0,2046,293
526,526,0,2047,0
527,527,0,2046,326
528,528,0,2046,1189
529,529,0,2046,2315
530,530,0,2047,3355
531,531,0,2046,3988
532,532,0,2046,4017
533,533,0,2046,3434
534,534,0,2046,2418
535,535,0,2046,1286
536,536,0,2047,387
537,537,0,2047,0
538,538,0,2046,241
539,539,0,2046,1040
540,540,0,2047,2148
541,541,0,2046,3221
542,542,0,2046,3929
543,543,0,2046,4052
544,544,0,2046,3551
545,545,0,2046,2582
546,546,0,2046,1445
547,547,0,2046,491
548,548,0,2046,16
549,549,0,2046,166
550,550,0,2046,897
551,551,0,2046,1980
552,552,0,2047,3081
553,553,0,2046,3860
554,554,0,2046,4074
555,555,0,2046,3659
556,556,0,2046,2743
557,557,0,2046,1607
558,558,0,2046,607
559,559,0,2046,47
560,560,0,2047,105
561,561,0,2046,761
562,562,0,2046,1812
563,563,0,2046,2933
564,564,0,2046,3777
565,565,0,2047,4083
566,566,0,2047,3756
567,567,0,2047,2897
568,568,0,2047,1774
569,569,0,2047,730
570,570,0,2046,93
571,571,0,2047,58
572,572,0,2047,634
573,573,0,2047,1646
574,574,0,2047,2779
575,575,0,2047,3684
576,576,0,2046,4078
577,577,0,2046,3841
578,578,0,2047,3047
579,579,0,2047,1940
580,580,0,2046,865
581,581,0,2047,151
582,582,0,2046,22
583,583,0,2046,517
584,584,0,2047,1483
585,585,0,2047,2620
586,586,0,2046,3578
587,587,0,2047,4058
588,588,0,2046,3915
589,589,0,2047,3190
590,590,0,2047,2109
591,591,0,2046,1006
592,592,0,2047,222
593,593,0,2046,1
594,594,0,2046,409
595,595,0,2047,1323
596,596,0,2047,2457
597,597,0,2046,3463
598,598,0,2047,4026
599,599,0,2046,3975
600,600,0,2046,3324
601,601,0,2047,2277
602,602,0,2046,1154
603,603,0,2047,306
604,604,0,2046,0
605,605,0,2046,313
606,606,0,2047,1168
607,607,0,2047,2292
608,608,0,2046,3337
609,609,0,2046,3981
610,610,0,2045,4023
611,611,0,2047,3451
612,612,0,2046,2442
613,613,0,2046,1308
614,614,0,2047,401
615,615,0,2046,0
616,616,0,2046,229
617,617,0,2046,1019
618,618,0,2047,2124
619,619,0,2047,3202
620,620,0,2046,3921
621,621,0,2046,4056
622,622,0,2047,3567
623,623,0,2047,2606
624,624,0,2046,1468
625,625,0,2047,507
626,626,0,2046,20
627,627,0,2047,157
628,628,0,2047,877
629,629,0,2047,1955
630,630,0,2046,3061
631,631,0,2047,3849
632,632,0,2046,4077
633,633,0,2047,3674
634,634,0,2046,2765
635,635,0,2046,1631
636,636,0,2047,623
637,637,0,2046,53
638,638,0,2046,97
639,639,0,2047,742
640,640,0,2047,1788
641,641,0,2047,2912
642,642,0,2047,3764
643,643,0,2046,4084
644,644,0,2047,3769
645,645,0,2046,2919
646,646,0,2046,1797
647,647,0,2046,750
648,648,0,2047,100
649,649,0,2047,51
650,650,0,2047,617
651,651,0,2047,1621
652,652,0,2047,2756
653,653,0,2047,3668
654,654,0,2046,4076
655,655,0,2046,3853
656,656,0,2047,3067
657,657,0,2047,1964
658,658,0,2047,884
659,659,0,2046,161
660,660,0,2046,18
661,661,0,2046,500
662,662,0,2047,1459
663,663,0,2047,2597
664,664,0,2047,3561
665,665,0,2047,4055
666,666,0,2046,3925
667,667,0,2047,3210
668,668,0,2047,2132
669,669,0,2047,1027
670,670,0,2047,234
671,671,0,2046,0
672,672,0,2047,395
673,673,0,2046,1300
674,674,0,2047,2433
675,675,0,2046,3444
676,676,0,2047,4020
677,677,0,2047,3984
678,678,0,2047,3343
679,679,0,2046,2300
680,680,0,2047,1176
681,681,0,2046,319
682,682,0,2047,0
683,683,0,2046,301
684,684,0,2046,1146
685,685,0,2047,2268
686,686,0,2046,3319
687,687,0,2046,3973
688,688,0,2046,4027
689,689,0,2046,3468
690,690,0,2047,2466
691,691,0,2046,1331
692,692,0,2047,415
693,693,0,2046,1
694,694,0,2046,218
695,695,0,2047,998
696,696,0,2046,2099
697,697,0,2047,3183
698,698,0,2046,3911
699,699,0,2047,4060
700,700,0,2046,3583
701,701,0,2047,2629
702,702,0,2047,1491
703,703,0,2046,524
704,704,0,2046,23
705,705,0,2046,147
706,706,0,2046,857
707,707,0,2046,1932
708,708,0,2046,3040
709,709,0,2047,3838
710,710,0,2046,4079
711,711,0,2047,3688
712,712,0,2047,2787
713,713,0,2047,1655
714,714,0,2046,641
715,715,0,2046,59
716,716,0,2046,90
717,717,0,2046,723
718,718,0,2046,1765
719,719,0,2047,2890
720,720,0,2047,3752
721,721,0,2046,4083
722,722,0,2046,3782
723,723,0,2047,2940
724,724,0,2047,1821
725,725,0,2046,768
726,726,0,2046,108
727,727,0,2046,45
728,728,0,2047,599
729,729,0,2047,1599
730,730,0,2046,2734
731,731,0,2046,3654
732,732,0,2047,4073
733,733,0,2046,3864
734,734,0,2047,3088
735,735,0,2046,1989
736,736,0,2047,904
737,737,0,2046,170
738,738,0,2046,15
739,739,0,2047,485
740,740,0,2046,1436
741,741,0,2046,2574
742,742,0,2047,3546
743,743,0,2046,4052
744,744,0,2046,3934
745,745,0,2047,3229
746,746,0,2046,2156
747,747,0,2047,1047
748,748,0,2047,245
749,749,0,2047,0
750,750,0,2047,381
751,751,0,2046,1278
752,752,0,2047,2409
753,753,0,2047,3427
754,754,0,2046,4014
755,755,0,2047,3990
756,756,0,2047,3362
757,757,0,2046,2324
758,758,0,2047,1198
759,759,0,2046,332
760,760,0,2047,0
761,761,0,2047,289
762,762,0,2047,1125
763,763,0,2046,2243
764,764,0,2046,3299
765,765,0,2047,3964
766,766,0,2046,4034
767,767,0,2047,3485
768,768,0,2047,2489
769,769,0,2047,1353
770,770,0,2046,430
771,771,0,2047,4
772,772,0,2047,208
773,773,0,2047,978
774,774,0,2047,2076
775,775,0,2047,3162
776,776,0,2047,3901
777,777,0,2046,4064
778,778,0,2047,3599
779,779,0,2047,2652
780,780,0,2047,1514
781,781,0,2046,540
782,782,0,2046,28
783,783,0,2047,138
784,784,0,2047,838
785,785,0,2046,1907
786,786,0,2047,3019
787,787,0,2047,3826
788,788,0,2046,4080
789,789,0,2047,3702
790,790,0,2047,2809
791,791,0,2046,1678
792,792,0,2047,659
793,793,0,2046,66
794,794,0,2047,83
795,795,0,2047,706
796,796,0,2046,1741
797,797,0,2047,2868
798,798,0,2047,3738
799,799,0,2047,4083
800,800,0,2046,3794
801,801,0,2046,2962
802,802,0,2045,1845
803,803,0,2047,787
804,804,0,2046,117
805,805,0,2046,40
806,806,0,2047,583
807,807,0,2046,1576
808,808,0,2046,2712
809,809,0,2046,3639
810,810,0,2047,4072
811,811,0,2047,3875
812,812,0,2047,3109
813,813,0,2047,2012
814,814,0,2046,924
815,815,0,2047,180
816,816,0,2046,12
817,817,0,2046,470
818,818,0,2047,1413
819,819,0,2046,2551
820,820,0,2047,3529
821,821,0,2046,4046
822,822,0,2046,3942
823,823,0,2047,3249
824,824,0,2046,2181
825,825,0,2046,1068
826,826,0,2047,257
827,827,0,2046,0
828,828,0,2046,367
829,829,0,2046,1256
830,830,0,2046,2386
831,831,0,2047,3409
832,832,0,2047,4008
833,833,0,2047,3997
834,834,0,2046,3380
835,835,0,2046,2347
836,836,0,2047,1220
837,837,0,2046,344
838,838,0,2047,0
839,839,0,2046,276
840,840,0,2046,1102
841,841,0,2046,2220
842,842,0,2046,3280
843,843,0,2046,3956
844,844,0,2046,4039
845,845,0,2046,3502
846,846,0,2046,2512
847,847,0,2046,1376
848,848,0,2046,444
849,849,0,2047,7
850,850,0,2046,196
851,851,0,2046,957
852,852,0,2046,2052
853,853,0,2046,3143
854,854,0,2047,3892
855,855,0,2047,4067
856,856,0,2046,3615
857,857,0,2046,2674
858,858,0,2046,1537
859,859,0,2047,556
860,860,0,2046,33
861,861,0,2047,130
862,862,0,2046,818
863,863,0,2046,1884
864,864,0,2046,2996
865,865,0,2046,3814
866,866,0,2047,4082
867,867,0,2046,3716
868,868,0,2047,2831
869,869,0,2047,1702
870,870,0,2046,676
871,871,0,2046,71
872,872,0,2046,76
873,873,0,2046,687
874,874,0,2046,1718
875,875,0,2047,2846
876,876,0,2047,3725
877,877,0,2047,4082
878,878,0,2046,3807
879,879,0,2047,2984
880,880,0,2047,1869
881,881,0,2046,806
882,882,0,2046,124
883,883,0,2046,36
884,884,0,2047,566
885,885,0,2046,1552
886,886,0,2047,2689
887,887,0,2046,3624
888,888,0,2046,4068
889,889,0,2046,3885
890,890,0,2047,3129
891,891,0,2046,2037
892,892,0,2046,945
893,893,0,2046,190
894,894,0,2046,9
895,895,0,2046,454
896,896,0,2047,1391
897,897,0,2047,2527
898,898,0,2047,3513
899,899,0,2046,4042
900,900,0,2046,3950
901,901,0,2046,3268
902,902,0,2046,2204
903,903,0,2046,1090
904,904,0,2046,268
905,905,0,2047,0
906,906,0,2047,354
907,907,0,2047,1234
908,908,0,2046,2363
909,909,0,2047,3391
910,910,0,2047,4002
911,911,0,2047,4004
912,912,0,2046,3398
913,913,0,2046,2371
914,914,0,2047,1241
915,915,0,2046,358
916,916,0,2046,0
917,917,0,2047,264
918,918,0,2047,1083
919,919,0,2046,2196
920,920,0,2047,3261
921,921,0,2046,3948
922,922,0,2046,4044
923,923,0,2046,3518
924,924,0,2047,2536
925,925,0,2046,1399
926,926,0,2046,460
927,927,0,2046,9
928,928,0,2047,186
929,929,0,2047,937
930,930,0,2046,2028
931,931,0,2046,3122
932,932,0,2046,3881
933,933,0,2046,4069
934,934,0,2046,3630
935,935,0,2047,2697
936,936,0,2047,1561
937,937,0,2046,573
938,938,0,2047,37
939,939,0,2046,122
940,940,0,2047,799
941,941,0,2046,1860
942,942,0,2047,2976
943,943,0,2047,3802
944,944,0,2047,4082
945,945,0,2046,3730
946,946,0,2046,2854
947,947,0,2046,1726
948,948,0,2046,694
949,949,0,2047,79
950,950,0,2046,70
951,951,0,2047,670
952,952,0,2046,1694
953,953,0,2046,2824
954,954,0,2046,3712
955,955,0,2046,4081
956,956,0,2046,3819
957,957,0,2046,3005
958,958,0,2046,1893
959,959,0,2046,825
960,960,0,2046,133
961,961,0,2046,31
962,962,0,2046,549
963,963,0,2046,1529
964,964,0,2047,2666
965,965,0,2046,3609
966,966,0,2047,4065
967,967,0,2046,3896
968,968,0,2046,3150
969,969,0,2046,2060
970,970,0,2047,964
971,971,0,2047,201
972,972,0,2046,6
973,973,0,2046,440
974,974,0,2046,1368
975,975,0,2047,2504
976,976,0,2046,3496
977,977,0,2046,4037
978,978,0,2046,3960
979,979,0,2047,3287
980,980,0,2046,2228
981,981,0,2046,1112
982,982,0,2046,280
983,983,0,2046,0
984,984,0,2047,340
985,985,0,2047,1211
986,986,0,2046,2340
987,987,0,2046,3373
988,988,0,2047,3995
989,989,0,2047,4010
990,990,0,2046,3416
991,991,0,2047,2394
992,992,0,2047,1264
993,993,0,2046,372
994,994,0,2047,0
995,995,0,2046,252
996,996,0,2046,1060
997,997,0,2046,2172
998,998,0,2046,3242
999,999,0,2046,3939
1000,1000,0,2047,4048
1001,1001,0,2046,3536
1002,1002,0,2046,2559
1003,1003,0,2047,1422
1004,1004,0,2046,475
1005,1005,0,2047,12
1006,1006,0,2046,176
1007,1007,0,2046,917
1008,1008,0,2046,2004
1009,1009,0,2046,3102
1010,1010,0,2047,3870
1011,1011,0,2047,4072
1012,1012,0,2047,3644
1013,1013,0,2046,2719
1014,1014,0,2046,1584
1015,1015,0,2046,589
1016,1016,0,2046,42
1017,1017,0,2047,113
1018,1018,0,2046,780
1019,1019,0,2046,1836
1020,1020,0,2046,2955
1021,1021,0,2046,3789
1022,1022,0,2046,4082
1023,1023,0,2046,3743
1024,1024,0,2047,2876
1025,1025,0,2047,1749
1026,1026,0,2046,712
1027,1027,0,2046,86
