Sample in Buffer,Sample in Window,TRIGGER,adc1_data_a_d0[11:0],adc1_data_b_d0[11:0]
0,0,0,2047,0
1,1,0,2046,46
2,2,0,2045,222
3,3,0,2046,482
4,4,0,2047,813
5,5,0,2047,1198
6,6,0,2046,1623
7,7,0,2046,2066
8,8,0,2047,2510
9,9,0,2046,2930
10,10,0,2047,3311
11,11,0,2046,3635
12,12,0,2046,3886
13,13,0,2046,4053
14,14,0,2047,4095
15,15,0,2046,4095
16,16,0,2046,3992
17,17,0,2046,3788
18,18,0,2046,3505
19,19,0,2046,3155
20,20,0,2046,2754
21,21,0,2046,2320
22,22,0,2047,1875
23,23,0,2047,1437
24,24,0,2046,1027
25,25,0,2046,662
26,26,0,2046,361
27,27,0,2046,136
28,28,0,2046,0
29,29,0,2046,0
30,30,0,2046,0
31,31,0,2047,139
32,32,0,2047,366
33,33,0,2046,669
34,34,0,2046,1033
35,35,0,2046,1444
36,36,0,2047,1883
37,37,0,2046,2328
38,38,0,2047,2761
39,39,0,2047,3161
40,40,0,2047,3510
41,41,0,2046,3792
42,42,0,2046,3994
43,43,0,2046,4095
44,44,0,2046,4095
45,45,0,2046,4050
46,46,0,2046,3883
47,47,0,2047,3630
48,48,0,2047,3306
49,49,0,2046,2924
50,50,0,2046,2502
51,51,0,2046,2059
52,52,0,2046,1615
53,53,0,2046,1191
54,54,0,2046,806
55,55,0,2046,476
56,56,0,2047,218
57,57,0,2045,42
58,58,0,2046,0
59,59,0,2046,0
60,60,0,2046,70
61,61,0,2047,262
62,62,0,2046,535
63,63,0,2046,877
64,64,0,2047,1271
65,65,0,2046,1700
66,66,0,2046,2145
67,67,0,2046,2586
68,68,0,2047,3001
69,69,0,2047,3374
70,70,0,2046,3685
71,71,0,2046,3922
72,72,0,2047,4073
73,73,0,2046,4095
74,74,0,2046,4094
75,75,0,2046,3963
76,76,0,2046,3744
77,77,0,2047,3449
78,78,0,2046,3087
79,79,0,2046,2679
80,80,0,2046,2243
81,81,0,2047,1797
82,82,0,2046,1362
83,83,0,2046,959
84,84,0,2046,605
85,85,0,2046,315
86,86,0,2046,104
87,87,0,2047,0
88,88,0,2047,0
89,89,0,2046,16
90,90,0,2046,173
91,91,0,2046,414
92,92,0,2046,730
93,93,0,2047,1103
94,94,0,2046,1520
95,95,0,2046,1961
96,96,0,2046,2406
97,97,0,2046,2834
98,98,0,2046,3226
99,99,0,2046,3565
100,100,0,2046,3834
101,101,0,2046,4022
102,102,0,2046,4095
103,103,0,2046,4095
104,104,0,2046,4027
105,105,0,2046,3844
106,106,0,2046,3578
107,107,0,2047,3242
108,108,0,2046,2852
109,109,0,2047,2424
110,110,0,2047,1980
111,111,0,2046,1539
112,112,0,2046,1119
113,113,0,2046,742
114,114,0,2046,425
115,115,0,2046,180
116,116,0,2047,21
117,117,0,2047,0
118,118,0,2047,0
119,119,0,2047,97
120,120,0,2047,305
121,121,0,2047,591
122,122,0,2046,943
123,123,0,2046,1345
124,124,0,2047,1778
125,125,0,2047,2224
126,126,0,2047,2661
127,127,0,2046,3070
128,128,0,2047,3433
129,129,0,2046,3732
130,130,0,2046,3954
131,131,0,2046,4090
132,132,0,2046,4095
133,133,0,2047,4077
134,134,0,2046,3930
135,135,0,2047,3696
136,136,0,2046,3388
137,137,0,2047,3018
138,138,0,2047,2604
139,139,0,2046,2164
140,140,0,2047,1719
141,141,0,2047,1288
142,142,0,2046,892
143,143,0,2047,548
144,144,0,2047,272
145,145,0,2046,76
146,146,0,2046,0
147,147,0,2046,0
148,148,0,2047,38
149,149,0,2046,209
150,150,0,2046,464
151,151,0,2046,792
152,152,0,2047,1174
153,153,0,2046,1597
154,154,0,2047,2040
155,155,0,2046,2483
156,156,0,2046,2907
157,157,0,2046,3290
158,158,0,2046,3618
159,159,0,2046,3873
160,160,0,2046,4045
161,161,0,2046,4095
162,162,0,2047,4095
163,163,0,2046,4001
164,164,0,2047,3802
165,165,0,2047,3523
166,166,0,2046,3177
167,167,0,2047,2778
168,168,0,2047,2347
169,169,0,2046,1901
170,170,0,2046,1462
171,171,0,2046,1050
172,172,0,2046,683
173,173,0,2046,377
174,174,0,2046,146
175,175,0,2046,2
176,176,0,2047,0
177,177,0,2046,0
178,178,0,2046,128
179,179,0,2046,350
180,180,0,2047,648
181,181,0,2047,1010
182,182,0,2046,1420
183,183,0,2047,1857
184,184,0,2046,2302
185,185,0,2046,2736
186,186,0,2046,3138
187,187,0,2046,3491
188,188,0,2046,3778
189,189,0,2047,3985
190,190,0,2046,4095
191,191,0,2047,4095
192,192,0,2046,4058
193,193,0,2046,3895
194,194,0,2046,3647
195,195,0,2046,3327
196,196,0,2046,2948
197,197,0,2047,2528
198,198,0,2046,2085
199,199,0,2046,1641
200,200,0,2045,1215
201,201,0,2047,827
202,202,0,2046,494
203,203,0,2046,231
204,204,0,2047,50
205,205,0,2046,0
206,206,0,2046,0
207,207,0,2046,61
208,208,0,2047,248
209,209,0,2046,518
210,210,0,2046,855
211,211,0,2046,1246
212,212,0,2047,1675
213,213,0,2047,2119
214,214,0,2046,2560
215,215,0,2046,2977
216,216,0,2046,3354
217,217,0,2046,3668
218,218,0,2046,3910
219,219,0,2047,4067
220,220,0,2047,4095
221,221,0,2047,4095
222,222,0,2046,3973
223,223,0,2046,3759
224,224,0,2046,3467
225,225,0,2046,3110
226,226,0,2046,2704
227,227,0,2046,2269
228,228,0,2046,1823
229,229,0,2047,1387
230,230,0,2046,982
231,231,0,2046,624
232,232,0,2046,331
233,233,0,2047,114
234,234,0,2046,0
235,235,0,2046,0
236,236,0,2047,10
237,237,0,2047,161
238,238,0,2046,397
239,239,0,2046,709
240,240,0,2047,1079
241,241,0,2046,1495
242,242,0,2046,1935
243,243,0,2046,2380
244,244,0,2047,2810
245,245,0,2047,3205
246,246,0,2047,3547
247,247,0,2046,3821
248,248,0,2047,4012
249,249,0,2046,4095
250,250,0,2046,4095
251,251,0,2047,4035
252,252,0,2046,3857
253,253,0,2047,3596
254,254,0,2046,3263
255,255,0,2046,2876
256,256,0,2046,2450
257,257,0,2046,2007
258,258,0,2046,1564
259,259,0,2047,1144
260,260,0,2047,765
261,261,0,2046,442
262,262,0,2046,193
263,263,0,2046,28
264,264,0,2046,0
265,265,0,2047,0
266,266,0,2047,88
267,267,0,2047,291
268,268,0,2047,572
269,269,0,2046,920
270,270,0,2046,1319
271,271,0,2046,1752
272,272,0,2046,2198
273,273,0,2046,2637
274,274,0,2046,3047
275,275,0,2047,3413
276,276,0,2046,3717
277,277,0,2047,3944
278,278,0,2046,4084
279,279,0,2047,4095
280,280,0,2046,4083
281,281,0,2047,3941
282,282,0,2046,3713
283,283,0,2047,3409
284,284,0,2046,3042
285,285,0,2047,2629
286,286,0,2046,2190
287,287,0,2046,1745
288,288,0,2046,1313
289,289,0,2046,914
290,290,0,2046,567
291,291,0,2047,286
292,292,0,2046,85
293,293,0,2046,0
294,294,0,2046,0
295,295,0,2047,30
296,296,0,2046,196
297,297,0,2046,447
298,298,0,2046,770
299,299,0,2046,1150
300,300,0,2046,1571
301,301,0,2046,2013
302,302,0,2046,2457
303,303,0,2047,2883
304,304,0,2047,3270
305,305,0,2047,3600
306,306,0,2047,3861
307,307,0,2046,4038
308,308,0,2046,4095
309,309,0,2046,4095
310,310,0,2046,4011
311,311,0,2046,3817
312,312,0,2046,3542
313,313,0,2047,3200
314,314,0,2047,2804
315,315,0,2046,2373
316,316,0,2045,1928
317,317,0,2046,1488
318,318,0,2046,1073
319,319,0,2047,703
320,320,0,2046,393
321,321,0,2046,158
322,322,0,2046,7
323,323,0,2047,0
324,324,0,2046,0
325,325,0,2046,117
326,326,0,2046,334
327,327,0,2047,629
328,328,0,2046,987
329,329,0,2047,1394
330,330,0,2046,1830
331,331,0,2047,2276
332,332,0,2046,2710
333,333,0,2046,3116
334,334,0,2047,3472
335,335,0,2046,3763
336,336,0,2046,3975
337,337,0,2046,4095
338,338,0,2046,4095
339,339,0,2046,4065
340,340,0,2046,3907
341,341,0,2047,3664
342,342,0,2046,3347
343,343,0,2046,2972
344,344,0,2046,2554
345,345,0,2046,2112
346,346,0,2046,1668
347,347,0,2046,1239
348,348,0,2047,849
349,349,0,2046,512
350,350,0,2046,244
351,351,0,2046,59
352,352,0,2046,0
353,353,0,2046,0
354,354,0,2046,53
355,355,0,2047,235
356,356,0,2046,499
357,357,0,2047,833
358,358,0,2046,1222
359,359,0,2047,1648
360,360,0,2046,2093
361,361,0,2046,2534
362,362,0,2046,2954
363,363,0,2047,3332
364,364,0,2047,3652
365,365,0,2046,3898
366,366,0,2047,4060
367,367,0,2047,4095
368,368,0,2047,4095
369,369,0,2047,3982
370,370,0,2047,3774
371,371,0,2047,3486
372,372,0,2047,3133
373,373,0,2047,2730
374,374,0,2046,2295
375,375,0,2046,1849
376,376,0,2046,1412
377,377,0,2046,1004
378,378,0,2047,644
379,379,0,2047,345
380,380,0,2046,125
381,381,0,2047,0
382,382,0,2046,0
383,383,0,2047,3
384,384,0,2047,150
385,385,0,2047,381
386,386,0,2046,688
387,387,0,2046,1056
388,388,0,2046,1470
389,389,0,2047,1908
390,390,0,2046,2353
391,391,0,2047,2785
392,392,0,2046,3183
393,393,0,2046,3528
394,394,0,2046,3807
395,395,0,2046,4003
396,396,0,2047,4095
397,397,0,2047,4095
398,398,0,2047,4043
399,399,0,2047,3871
400,400,0,2047,3614
401,401,0,2046,3285
402,402,0,2046,2901
403,403,0,2047,2475
404,404,0,2046,2033
405,405,0,2046,1589
406,406,0,2046,1167
407,407,0,2046,786
408,408,0,2046,459
409,409,0,2046,205
410,410,0,2047,35
411,411,0,2047,0
412,412,0,2046,0
413,413,0,2047,79
414,414,0,2046,276
415,415,0,2047,553
416,416,0,2046,898
417,417,0,2046,1295
418,418,0,2046,1726
419,419,0,2046,2172
420,420,0,2046,2610
421,421,0,2046,3024
422,422,0,2047,3393
423,423,0,2047,3701
424,424,0,2046,3933
425,425,0,2046,4079
426,426,0,2047,4095
427,427,0,2046,4088
428,428,0,2046,3952
429,429,0,2047,3728
430,430,0,2047,3428
431,431,0,2046,3064
432,432,0,2047,2655
433,433,0,2046,2216
434,434,0,2046,1771
435,435,0,2046,1338
436,436,0,2047,936
437,437,0,2046,586
438,438,0,2046,301
439,439,0,2046,94
440,440,0,2046,0
441,441,0,2046,0
442,442,0,2046,23
443,443,0,2047,185
444,444,0,2046,430
445,445,0,2047,749
446,446,0,2046,1127
447,447,0,2047,1545
448,448,0,2046,1987
449,449,0,2047,2432
450,450,0,2046,2858
451,451,0,2046,3248
452,452,0,2046,3583
453,453,0,2046,3847
454,454,0,2047,4029
455,455,0,2046,4095
456,456,0,2047,4095
457,457,0,2047,4019
458,458,0,2046,3830
459,459,0,2047,3560
460,460,0,2046,3221
461,461,0,2047,2828
462,462,0,2047,2399
463,463,0,2046,1954
464,464,0,2046,1513
465,465,0,2046,1097
466,466,0,2046,723
467,467,0,2047,409
468,468,0,2046,170
469,469,0,2046,15
470,470,0,2046,0
471,471,0,2046,0
472,472,0,2046,106
473,473,0,2047,319
474,474,0,2047,610
475,475,0,2046,965
476,476,0,2046,1369
477,477,0,2047,1804
478,478,0,2046,2250
479,479,0,2047,2686
480,480,0,2047,3093
481,481,0,2046,3453
482,482,0,2046,3748
483,483,0,2047,3965
484,484,0,2046,4095
485,485,0,2046,4095
486,486,0,2046,4071
487,487,0,2046,3919
488,488,0,2047,3681
489,489,0,2047,3368
490,490,0,2047,2995
491,491,0,2047,2578
492,492,0,2046,2138
493,493,0,2047,1693
494,494,0,2047,1264
495,495,0,2046,871
496,496,0,2046,530
497,497,0,2046,259
498,498,0,2047,68
499,499,0,2047,0
500,500,0,2046,0
501,501,0,2046,45
502,502,0,2046,221
503,503,0,2046,481
504,504,0,2047,811
505,505,0,2046,1198
506,506,0,2046,1623
507,507,0,2046,2066
508,508,0,2047,2509
509,509,0,2046,2930
510,510,0,2047,3311
511,511,0,2046,3635
512,512,0,2046,3886
513,513,0,2046,4053
514,514,0,2046,4095
515,515,0,2046,4095
516,516,0,2046,3992
517,517,0,2046,3788
518,518,0,2046,3505
519,519,0,2047,3155
520,520,0,2047,2754
521,521,0,2046,2321
522,522,0,2046,1876
523,523,0,2046,1438
524,524,0,2047,1027
525,525,0,2047,663
526,526,0,2046,362
527,527,0,2047,135
528,528,0,2047,0
529,529,0,2046,0
530,530,0,2047,0
531,531,0,2046,138
532,532,0,2047,365
533,533,0,2046,669
534,534,0,2046,1033
535,535,0,2046,1444
536,536,0,2046,1882
537,537,0,2046,2328
538,538,0,2046,2761
539,539,0,2046,3161
540,540,0,2046,3510
541,541,0,2047,3793
542,542,0,2046,3994
543,543,0,2047,4095
544,544,0,2047,4095
545,545,0,2046,4051
546,546,0,2046,3882
547,547,0,2046,3631
548,548,0,2046,3306
549,549,0,2046,2924
550,550,0,2046,2502
551,551,0,2046,2059
552,552,0,2047,1616
553,553,0,2046,1192
554,554,0,2047,807
555,555,0,2046,476
556,556,0,2046,218
557,557,0,2047,43
558,558,0,2047,0
559,559,0,2047,0
560,560,0,2047,69
561,561,0,2046,262
562,562,0,2047,534
563,563,0,2047,876
564,564,0,2046,1270
565,565,0,2046,1700
566,566,0,2046,2145
567,567,0,2046,2585
568,568,0,2046,3001
569,569,0,2047,3373
570,570,0,2046,3685
571,571,0,2047,3921
572,572,0,2046,4072
573,573,0,2047,4095
574,574,0,2046,4094
575,575,0,2046,3963
576,576,0,2047,3744
577,577,0,2047,3448
578,578,0,2046,3087
579,579,0,2047,2680
580,580,0,2046,2243
581,581,0,2047,1798
582,582,0,2046,1362
583,583,0,2047,959
584,584,0,2047,604
585,585,0,2047,316
586,586,0,2047,104
587,587,0,2046,0
588,588,0,2047,0
589,589,0,2046,16
590,590,0,2047,172
591,591,0,2046,413
592,592,0,2046,728
593,593,0,2046,1103
594,594,0,2047,1520
595,595,0,2046,1960
596,596,0,2047,2406
597,597,0,2046,2834
598,598,0,2046,3226
599,599,0,2046,3565
600,600,0,2046,3834
601,601,0,2046,4022
602,602,0,2045,4095
603,603,0,2048,4095
604,604,0,2047,4028
605,605,0,2047,3844
606,606,0,2046,3578
607,607,0,2046,3242
608,608,0,2046,2852
609,609,0,2047,2424
610,610,0,2047,1980
611,611,0,2047,1539
612,612,0,2046,1120
613,613,0,2047,743
614,614,0,2047,425
615,615,0,2047,182
616,616,0,2046,21
617,617,0,2046,0
618,618,0,2047,0
619,619,0,2047,97
620,620,0,2047,304
621,621,0,2047,590
622,622,0,2046,942
623,623,0,2046,1344
624,624,0,2047,1777
625,625,0,2047,2223
626,626,0,2047,2661
627,627,0,2046,3070
628,628,0,2046,3432
629,629,0,2047,3732
630,630,0,2047,3954
631,631,0,2046,4090
632,632,0,2046,4095
633,633,0,2047,4078
634,634,0,2047,3931
635,635,0,2046,3697
636,636,0,2046,3389
637,637,0,2046,3019
638,638,0,2047,2604
639,639,0,2046,2164
640,640,0,2047,1719
641,641,0,2046,1289
642,642,0,2047,892
643,643,0,2046,548
644,644,0,2046,272
645,645,0,2047,76
646,646,0,2047,0
647,647,0,2046,0
648,648,0,2045,37
649,649,0,2046,209
650,650,0,2047,464
651,651,0,2046,790
652,652,0,2047,1173
653,653,0,2047,1597
654,654,0,2046,2040
655,655,0,2047,2483
656,656,0,2046,2906
657,657,0,2046,3289
658,658,0,2047,3617
659,659,0,2046,3873
660,660,0,2046,4046
661,661,0,2046,4095
662,662,0,2046,4095
663,663,0,2046,4002
664,664,0,2047,3803
665,665,0,2046,3525
666,666,0,2046,3178
667,667,0,2046,2780
668,668,0,2047,2347
669,669,0,2047,1902
670,670,0,2046,1463
671,671,0,2047,1050
672,672,0,2046,683
673,673,0,2047,377
674,674,0,2046,147
675,675,0,2047,2
676,676,0,2046,0
677,677,0,2046,0
678,678,0,2046,128
679,679,0,2046,350
680,680,0,2046,648
681,681,0,2046,1010
682,682,0,2046,1419
683,683,0,2046,1856
684,684,0,2046,2302
685,685,0,2047,2735
686,686,0,2046,3138
687,687,0,2047,3491
688,688,0,2046,3778
689,689,0,2046,3984
690,690,0,2046,4095
691,691,0,2047,4095
692,692,0,2046,4058
693,693,0,2047,3895
694,694,0,2046,3648
695,695,0,2046,3327
696,696,0,2047,2949
697,697,0,2047,2528
698,698,0,2047,2086
699,699,0,2046,1641
700,700,0,2046,1216
701,701,0,2047,828
702,702,0,2046,494
703,703,0,2047,231
704,704,0,2047,51
705,705,0,2047,0
706,706,0,2046,0
707,707,0,2046,61
708,708,0,2047,249
709,709,0,2047,517
710,710,0,2047,854
711,711,0,2046,1246
712,712,0,2047,1674
713,713,0,2046,2117
714,714,0,2047,2559
715,715,0,2047,2977
716,716,0,2046,3352
717,717,0,2046,3668
718,718,0,2047,3910
719,719,0,2046,4066
720,720,0,2047,4095
721,721,0,2046,4095
722,722,0,2046,3973
723,723,0,2047,3759
724,724,0,2046,3468
725,725,0,2046,3110
726,726,0,2046,2705
727,727,0,2046,2269
728,728,0,2046,1823
729,729,0,2046,1388
730,730,0,2046,981
731,731,0,2046,624
732,732,0,2046,331
733,733,0,2047,114
734,734,0,2046,0
735,735,0,2047,0
736,736,0,2046,10
737,737,0,2046,161
738,738,0,2046,397
739,739,0,2047,708
740,740,0,2046,1079
741,741,0,2046,1494
742,742,0,2046,1934
743,743,0,2046,2380
744,744,0,2047,2809
745,745,0,2047,3204
746,746,0,2047,3546
747,747,0,2046,3820
748,748,0,2046,4013
749,749,0,2047,4095
750,750,0,2046,4095
751,751,0,2046,4036
752,752,0,2046,3858
753,753,0,2047,3596
754,754,0,2047,3264
755,755,0,2046,2877
756,756,0,2046,2451
757,757,0,2046,2007
758,758,0,2046,1565
759,759,0,2046,1144
760,760,0,2047,765
761,761,0,2046,442
762,762,0,2046,193
763,763,0,2046,28
764,764,0,2046,0
765,765,0,2046,0
766,766,0,2046,88
767,767,0,2046,289
768,768,0,2046,571
769,769,0,2046,920
770,770,0,2046,1319
771,771,0,2046,1751
772,772,0,2046,2196
773,773,0,2047,2635
774,774,0,2046,3046
775,775,0,2046,3413
776,776,0,2046,3717
777,777,0,2046,3944
778,778,0,2046,4084
779,779,0,2046,4095
780,780,0,2046,4083
781,781,0,2047,3942
782,782,0,2047,3714
783,783,0,2046,3408
784,784,0,2047,3042
785,785,0,2046,2630
786,786,0,2046,2191
787,787,0,2047,1745
788,788,0,2046,1313
789,789,0,2046,914
790,790,0,2046,567
791,791,0,2046,287
792,792,0,2046,85
793,793,0,2047,0
794,794,0,2047,0
795,795,0,2047,29
796,796,0,2047,196
797,797,0,2047,446
798,798,0,2046,770
799,799,0,2047,1150
800,800,0,2047,1570
801,801,0,2046,2012
802,802,0,2046,2457
803,803,0,2047,2882
804,804,0,2046,3269
805,805,0,2046,3600
806,806,0,2046,3860
807,807,0,2046,4038
808,808,0,2046,4095
809,809,0,2046,4095
810,810,0,2047,4011
811,811,0,2046,3817
812,812,0,2046,3542
813,813,0,2046,3200
814,814,0,2046,2804
815,815,0,2046,2374
816,816,0,2046,1928
817,817,0,2047,1489
818,818,0,2046,1075
819,819,0,2046,704
820,820,0,2047,393
821,821,0,2046,158
822,822,0,2046,8
823,823,0,2047,0
824,824,0,2046,0
825,825,0,2046,117
826,826,0,2046,334
827,827,0,2046,628
828,828,0,2046,987
829,829,0,2046,1393
830,830,0,2046,1829
831,831,0,2047,2275
832,832,0,2046,2711
833,833,0,2046,3116
834,834,0,2047,3471
835,835,0,2046,3763
836,836,0,2047,3975
837,837,0,2046,4095
838,838,0,2047,4095
839,839,0,2046,4065
840,840,0,2047,3908
841,841,0,2047,3665
842,842,0,2046,3348
843,843,0,2046,2972
844,844,0,2046,2554
845,845,0,2046,2111
846,846,0,2047,1668
847,847,0,2047,1240
848,848,0,2046,850
849,849,0,2046,512
850,850,0,2047,245
851,851,0,2047,59
852,852,0,2046,0
853,853,0,2047,0
854,854,0,2047,52
855,855,0,2047,235
856,856,0,2047,499
857,857,0,2047,832
858,858,0,2046,1221
859,859,0,2047,1648
860,860,0,2046,2092
861,861,0,2046,2534
862,862,0,2046,2953
863,863,0,2047,3331
864,864,0,2046,3652
865,865,0,2046,3897
866,866,0,2046,4059
867,867,0,2046,4095
868,868,0,2047,4095
869,869,0,2047,3983
870,870,0,2046,3774
871,871,0,2047,3486
872,872,0,2046,3133
873,873,0,2046,2730
874,874,0,2046,2295
875,875,0,2046,1850
876,876,0,2047,1413
877,877,0,2046,1005
878,878,0,2046,644
879,879,0,2047,346
880,880,0,2046,125
881,881,0,2046,0
882,882,0,2046,0
883,883,0,2046,3
884,884,0,2046,149
885,885,0,2046,381
886,886,0,2047,688
887,887,0,2046,1055
888,888,0,2047,1469
889,889,0,2046,1908
890,890,0,2046,2353
891,891,0,2047,2785
892,892,0,2046,3182
893,893,0,2046,3528
894,894,0,2046,3806
895,895,0,2046,4003
896,896,0,2046,4095
897,897,0,2047,4095
898,898,0,2046,4043
899,899,0,2046,3870
900,900,0,2047,3614
901,901,0,2047,3286
902,902,0,2046,2901
903,903,0,2046,2477
904,904,0,2046,2034
905,905,0,2046,1591
906,906,0,2046,1168
907,907,0,2047,785
908,908,0,2046,460
909,909,0,2047,206
910,910,0,2046,36
911,911,0,2046,0
912,912,0,2046,0
913,913,0,2046,78
914,914,0,2046,276
915,915,0,2046,553
916,916,0,2046,898
917,917,0,2046,1295
918,918,0,2047,1725
919,919,0,2047,2171
920,920,0,2047,2610
921,921,0,2046,3023
922,922,0,2046,3392
923,923,0,2047,3700
924,924,0,2047,3932
925,925,0,2047,4079
926,926,0,2046,4095
927,927,0,2046,4089
928,928,0,2047,3952
929,929,0,2046,3729
930,930,0,2046,3429
931,931,0,2046,3065
932,932,0,2047,2655
933,933,0,2046,2217
934,934,0,2046,1772
935,935,0,2047,1339
936,936,0,2046,937
937,937,0,2047,586
938,938,0,2047,301
939,939,0,2047,95
940,940,0,2046,0
941,941,0,2046,0
942,942,0,2046,22
943,943,0,2047,184
944,944,0,2046,430
945,945,0,2047,748
946,946,0,2046,1126
947,947,0,2047,1544
948,948,0,2047,1987
949,949,0,2047,2430
950,950,0,2046,2858
951,951,0,2046,3247
952,952,0,2046,3583
953,953,0,2047,3847
954,954,0,2046,4030
955,955,0,2047,4095
956,956,0,2046,4095
957,957,0,2046,4019
958,958,0,2047,3831
959,959,0,2046,3561
960,960,0,2046,3222
961,961,0,2046,2829
962,962,0,2046,2399
963,963,0,2046,1954
964,964,0,2046,1514
965,965,0,2046,1097
966,966,0,2047,724
967,967,0,2047,409
968,968,0,2046,170
969,969,0,2047,14
970,970,0,2047,0
971,971,0,2047,0
972,972,0,2046,107
973,973,0,2047,319
974,974,0,2047,609
975,975,0,2047,964
976,976,0,2046,1369
977,977,0,2046,1803
978,978,0,2047,2248
979,979,0,2046,2686
980,980,0,2046,3092
981,981,0,2047,3451
982,982,0,2046,3747
983,983,0,2046,3964
984,984,0,2046,4095
985,985,0,2047,4095
986,986,0,2046,4071
987,987,0,2047,3919
988,988,0,2046,3681
989,989,0,2046,3369
990,990,0,2047,2995
991,991,0,2047,2579
992,992,0,2046,2139
993,993,0,2046,1694
994,994,0,2046,1265
995,995,0,2046,871
996,996,0,2046,531
997,997,0,2047,258
998,998,0,2047,67
999,999,0,2047,0
1000,1000,0,2047,0
1001,1001,0,2046,45
1002,1002,0,2046,221
1003,1003,0,2046,481
1004,1004,0,2046,811
1005,1005,0,2047,1196
1006,1006,0,2047,1621
1007,1007,0,2046,2064
1008,1008,0,2047,2508
1009,1009,0,2046,2930
1010,1010,0,2047,3310
1011,1011,0,2047,3635
1012,1012,0,2046,3886
1013,1013,0,2046,4052
1014,1014,0,2046,4095
1015,1015,0,2047,4095
1016,1016,0,2046,3993
1017,1017,0,2046,3789
1018,1018,0,2047,3506
1019,1019,0,2046,3156
1020,1020,0,2046,2755
1021,1021,0,2046,2322
1022,1022,0,2047,1876
1023,1023,0,2047,1438
1024,1024,0,2046,1028
1025,1025,0,2046,664
1026,1026,0,2046,362
1027,1027,0,2046,137
1028,1028,0,2046,0
1029,1029,0,2046,0
1030,1030,0,2046,0
