Sample in Buffer,Sample in Window,TRIGGER,adc1_data_a_d0[11:0],adc1_data_b_d0[11:0]
0,0,0,2047,3584
1,1,0,2046,3881
2,2,0,2046,4065
3,3,0,2047,4095
4,4,0,2046,4057
5,5,0,2046,3865
6,6,0,2046,3560
7,7,0,2046,3163
8,8,0,2046,2696
9,9,0,2046,2189
10,10,0,2046,1672
11,11,0,2046,1179
12,12,0,2047,739
13,13,0,2046,376
14,14,0,2046,118
15,15,0,2047,0
16,16,0,2046,0
17,17,0,2046,73
18,18,0,2046,307
19,19,0,2047,646
20,20,0,2046,1070
21,21,0,2047,1554
22,22,0,2046,2068
23,23,0,2047,2580
24,24,0,2046,3059
25,25,0,2047,3474
26,26,0,2047,3803
27,27,0,2047,4022
28,28,0,2046,4095
29,29,0,2047,4091
30,30,0,2047,3936
31,31,0,2047,3663
32,32,0,2046,3292
33,33,0,2046,2844
34,34,0,2047,2345
35,35,0,2046,1828
36,36,0,2047,1325
37,37,0,2047,864
38,38,0,2047,476
39,39,0,2047,185
40,40,0,2046,6
41,41,0,2047,0
42,42,0,2046,27
43,43,0,2046,224
44,44,0,2047,533
45,45,0,2046,933
46,46,0,2046,1402
47,47,0,2047,1910
48,48,0,2046,2426
49,49,0,2047,2919
50,50,0,2046,3356
51,51,0,2047,3714
52,52,0,2046,3969
53,53,0,2046,4095
54,54,0,2046,4095
55,55,0,2046,3996
56,56,0,2046,3757
57,57,0,2046,3414
58,58,0,2045,2986
59,59,0,2047,2500
60,60,0,2046,1986
61,61,0,2046,1474
62,62,0,2047,998
63,63,0,2046,585
64,64,0,2046,262
65,65,0,2046,48
66,66,0,2047,0
67,67,0,2045,0
68,68,0,2047,151
69,69,0,2046,428
70,70,0,2046,803
71,71,0,2047,1254
72,72,0,2046,1754
73,73,0,2046,2271
74,74,0,2047,2774
75,75,0,2047,3230
76,76,0,2046,3616
77,77,0,2046,3903
78,78,0,2046,4077
79,79,0,2046,4095
80,80,0,2047,4045
81,81,0,2046,3842
82,82,0,2046,3529
83,83,0,2046,3123
84,84,0,2046,2652
85,85,0,2047,2142
86,86,0,2047,1627
87,87,0,2047,1138
88,88,0,2046,702
89,89,0,2046,349
90,90,0,2046,100
91,91,0,2046,0
92,92,0,2047,0
93,93,0,2046,89
94,94,0,2046,333
95,95,0,2047,680
96,96,0,2047,1112
97,97,0,2046,1599
98,98,0,2047,2114
99,99,0,2047,2624
100,100,0,2047,3098
101,101,0,2047,3507
102,102,0,2046,3827
103,103,0,2046,4037
104,104,0,2046,4095
105,105,0,2046,4082
106,106,0,2046,3915
107,107,0,2046,3634
108,108,0,2046,3254
109,109,0,2047,2801
110,110,0,2047,2300
111,111,0,2046,1782
112,112,0,2047,1282
113,113,0,2046,827
114,114,0,2047,446
115,115,0,2047,164
116,116,0,2046,0
117,117,0,2046,0
118,118,0,2046,38
119,119,0,2047,247
120,120,0,2047,565
121,121,0,2046,973
122,122,0,2046,1447
123,123,0,2046,1957
124,124,0,2046,2472
125,125,0,2047,2960
126,126,0,2047,3391
127,127,0,2047,3741
128,128,0,2046,3985
129,129,0,2047,4095
130,130,0,2046,4095
131,131,0,2046,3979
132,132,0,2047,3730
133,133,0,2046,3379
134,134,0,2046,2944
135,135,0,2047,2455
136,136,0,2046,1939
137,137,0,2046,1429
138,138,0,2046,958
139,139,0,2046,553
140,140,0,2047,238
141,141,0,2046,34
142,142,0,2047,0
143,143,0,2046,0
144,144,0,2047,172
145,145,0,2047,458
146,146,0,2046,841
147,147,0,2046,1298
148,148,0,2046,1800
149,149,0,2047,2317
150,150,0,2046,2817
151,151,0,2046,3268
152,152,0,2046,3645
153,153,0,2047,3923
154,154,0,2046,4086
155,155,0,2047,4095
156,156,0,2047,4032
157,157,0,2046,3818
158,158,0,2047,3495
159,159,0,2046,3084
160,160,0,2046,2608
161,161,0,2046,2097
162,162,0,2046,1582
163,163,0,2046,1096
164,164,0,2046,668
165,165,0,2046,323
166,166,0,2046,84
167,167,0,2047,0
168,168,0,2046,0
169,169,0,2047,106
170,170,0,2046,360
171,171,0,2047,716
172,172,0,2046,1153
173,173,0,2046,1644
174,174,0,2047,2160
175,175,0,2046,2669
176,176,0,2047,3137
177,177,0,2047,3540
178,178,0,2046,3851
179,179,0,2046,4049
180,180,0,2046,4095
181,181,0,2047,4072
182,182,0,2047,3895
183,183,0,2047,3603
184,184,0,2046,3217
185,185,0,2047,2757
186,186,0,2046,2254
187,187,0,2046,1737
188,188,0,2047,1239
189,189,0,2046,790
190,190,0,2046,417
191,191,0,2046,144
192,192,0,2047,0
193,193,0,2046,0
194,194,0,2047,52
195,195,0,2046,271
196,196,0,2046,597
197,197,0,2047,1013
198,198,0,2047,1492
199,199,0,2047,2003
200,200,0,2047,2517
201,201,0,2047,3001
202,202,0,2047,3426
203,203,0,2047,3767
204,204,0,2046,4001
205,205,0,2046,4095
206,206,0,2046,4095
207,207,0,2046,3962
208,208,0,2046,3703
209,209,0,2046,3343
210,210,0,2046,2903
211,211,0,2046,2410
212,212,0,2046,1894
213,213,0,2046,1386
214,214,0,2046,919
215,215,0,2046,521
216,216,0,2046,215
217,217,0,2047,22
218,218,0,2047,0
219,219,0,2047,9
220,220,0,2047,193
221,221,0,2047,488
222,222,0,2046,878
223,223,0,2046,1341
224,224,0,2047,1846
225,225,0,2046,2362
226,226,0,2046,2859
227,227,0,2046,3305
228,228,0,2047,3674
229,229,0,2047,3942
230,230,0,2047,4095
231,231,0,2046,4095
232,232,0,2047,4017
233,233,0,2046,3794
234,234,0,2047,3462
235,235,0,2046,3043
236,236,0,2046,2563
237,237,0,2047,2051
238,238,0,2046,1538
239,239,0,2046,1055
240,240,0,2047,633
241,241,0,2046,297
242,242,0,2047,68
243,243,0,2047,0
244,244,0,2047,0
245,245,0,2046,124
246,246,0,2047,388
247,247,0,2046,752
248,248,0,2046,1194
249,249,0,2046,1689
250,250,0,2046,2206
251,251,0,2046,2712
252,252,0,2046,3178
253,253,0,2047,3572
254,254,0,2047,3873
255,255,0,2046,4061
256,256,0,2046,4095
257,257,0,2046,4062
258,258,0,2047,3873
259,259,0,2046,3573
260,260,0,2046,3178
261,261,0,2046,2714
262,262,0,2046,2209
263,263,0,2046,1691
264,264,0,2046,1197
265,265,0,2046,753
266,266,0,2046,389
267,267,0,2047,125
268,268,0,2046,0
269,269,0,2046,0
270,270,0,2047,67
271,271,0,2046,295
272,272,0,2047,631
273,273,0,2046,1053
274,274,0,2046,1535
275,275,0,2046,2048
276,276,0,2047,2561
277,277,0,2046,3042
278,278,0,2046,3461
279,279,0,2047,3793
280,280,0,2047,4017
281,281,0,2046,4095
282,282,0,2046,4094
283,283,0,2046,3943
284,284,0,2047,3675
285,285,0,2046,3307
286,286,0,2047,2861
287,287,0,2046,2364
288,288,0,2046,1847
289,289,0,2047,1343
290,290,0,2046,880
291,291,0,2046,490
292,292,0,2046,194
293,293,0,2046,11
294,294,0,2046,0
295,295,0,2047,21
296,296,0,2046,214
297,297,0,2047,519
298,298,0,2047,918
299,299,0,2046,1385
300,300,0,2046,1891
301,301,0,2046,2408
302,302,0,2046,2901
303,303,0,2047,3342
304,304,0,2046,3703
305,305,0,2047,3961
306,306,0,2046,4095
307,307,0,2046,4095
308,308,0,2047,4003
309,309,0,2047,3768
310,310,0,2047,3428
311,311,0,2047,3003
312,312,0,2047,2519
313,313,0,2047,2005
314,314,0,2046,1492
315,315,0,2045,1015
316,316,0,2046,599
317,317,0,2047,272
318,318,0,2047,53
319,319,0,2047,0
320,320,0,2046,0
321,321,0,2047,143
322,322,0,2047,415
323,323,0,2047,789
324,324,0,2046,1237
325,325,0,2045,1735
326,326,0,2047,2252
327,327,0,2046,2755
328,328,0,2046,3215
329,329,0,2046,3603
330,330,0,2046,3894
331,331,0,2046,4071
332,332,0,2047,4095
333,333,0,2046,4050
334,334,0,2046,3851
335,335,0,2046,3541
336,336,0,2046,3140
337,337,0,2047,2670
338,338,0,2046,2163
339,339,0,2046,1647
340,340,0,2047,1155
341,341,0,2047,719
342,342,0,2047,361
343,343,0,2047,107
344,344,0,2046,0
345,345,0,2047,0
346,346,0,2046,82
347,347,0,2046,322
348,348,0,2046,665
349,349,0,2046,1094
350,350,0,2047,1580
351,351,0,2047,2095
352,352,0,2046,2606
353,353,0,2046,3082
354,354,0,2046,3494
355,355,0,2047,3817
356,356,0,2046,4031
357,357,0,2046,4095
358,358,0,2046,4086
359,359,0,2046,3924
360,360,0,2046,3646
361,361,0,2046,3269
362,362,0,2047,2819
363,363,0,2046,2319
364,364,0,2047,1802
365,365,0,2047,1300
366,366,0,2046,843
367,367,0,2046,459
368,368,0,2046,172
369,369,0,2047,0
370,370,0,2047,0
371,371,0,2046,33
372,372,0,2046,237
373,373,0,2046,551
374,374,0,2046,956
375,375,0,2046,1428
376,376,0,2046,1937
377,377,0,2046,2453
378,378,0,2046,2943
379,379,0,2046,3377
380,380,0,2046,3730
381,381,0,2046,3979
382,382,0,2047,4095
383,383,0,2046,4095
384,384,0,2046,3986
385,385,0,2046,3742
386,386,0,2046,3394
387,387,0,2047,2961
388,388,0,2047,2474
389,389,0,2046,1959
390,390,0,2046,1449
391,391,0,2046,975
392,392,0,2046,566
393,393,0,2046,248
394,394,0,2046,40
395,395,0,2046,0
396,396,0,2046,0
397,397,0,2046,163
398,398,0,2046,445
399,399,0,2046,825
400,400,0,2046,1279
401,401,0,2047,1781
402,402,0,2046,2297
403,403,0,2046,2798
404,404,0,2046,3252
405,405,0,2046,3633
406,406,0,2046,3915
407,407,0,2047,4082
408,408,0,2046,4095
409,409,0,2046,4037
410,410,0,2046,3828
411,411,0,2046,3509
412,412,0,2046,3101
413,413,0,2046,2626
414,414,0,2047,2116
415,415,0,2047,1601
416,416,0,2046,1113
417,417,0,2046,682
418,418,0,2046,333
419,419,0,2046,90
420,420,0,2047,0
421,421,0,2047,0
422,422,0,2047,98
423,423,0,2047,348
424,424,0,2046,701
425,425,0,2046,1135
426,426,0,2046,1625
427,427,0,2046,2140
428,428,0,2046,2650
429,429,0,2046,3121
430,430,0,2046,3527
431,431,0,2046,3840
432,432,0,2046,4044
433,433,0,2046,4095
434,434,0,2047,4077
435,435,0,2046,3904
436,436,0,2046,3617
437,437,0,2046,3233
438,438,0,2046,2776
439,439,0,2046,2273
440,440,0,2046,1756
441,441,0,2047,1257
442,442,0,2047,805
443,443,0,2046,429
444,444,0,2047,153
445,445,0,2046,0
446,446,0,2046,0
447,447,0,2046,47
448,448,0,2046,260
449,449,0,2047,583
450,450,0,2046,995
451,451,0,2046,1472
452,452,0,2046,1983
453,453,0,2046,2497
454,454,0,2047,2984
455,455,0,2046,3413
456,456,0,2046,3756
457,457,0,2046,3995
458,458,0,2047,4095
459,459,0,2046,4095
460,460,0,2046,3969
461,461,0,2046,3715
462,462,0,2046,3358
463,463,0,2046,2921
464,464,0,2047,2429
465,465,0,2046,1912
466,466,0,2046,1405
467,467,0,2046,936
468,468,0,2047,534
469,469,0,2046,225
470,470,0,2047,26
471,471,0,2046,0
472,472,0,2047,5
473,473,0,2046,183
474,474,0,2046,475
475,475,0,2046,863
476,476,0,2047,1322
477,477,0,2046,1826
478,478,0,2047,2342
479,479,0,2047,2840
480,480,0,2047,3290
481,481,0,2046,3663
482,482,0,2047,3934
483,483,0,2046,4091
484,484,0,2047,4095
485,485,0,2046,4023
486,486,0,2046,3804
487,487,0,2046,3477
488,488,0,2046,3060
489,489,0,2047,2582
490,490,0,2046,2070
491,491,0,2047,1557
492,492,0,2047,1072
493,493,0,2046,648
494,494,0,2047,308
495,495,0,2046,74
496,496,0,2047,0
497,497,0,2047,0
498,498,0,2047,116
499,499,0,2047,376
500,500,0,2047,736
501,501,0,2046,1176
502,502,0,2047,1670
503,503,0,2047,2187
504,504,0,2047,2694
505,505,0,2046,3161
506,506,0,2046,3559
507,507,0,2047,3863
508,508,0,2046,4056
509,509,0,2046,4095
510,510,0,2046,4067
511,511,0,2046,3883
512,512,0,2046,3586
513,513,0,2046,3194
514,514,0,2047,2732
515,515,0,2046,2228
516,516,0,2046,1711
517,517,0,2046,1215
518,518,0,2047,768
519,519,0,2046,400
520,520,0,2047,133
521,521,0,2046,0
522,522,0,2046,0
523,523,0,2047,61
524,524,0,2045,285
525,525,0,2046,617
526,526,0,2046,1036
527,527,0,2046,1517
528,528,0,2047,2029
529,529,0,2046,2543
530,530,0,2046,3025
531,531,0,2047,3446
532,532,0,2047,3782
533,533,0,2046,4011
534,534,0,2047,4095
535,535,0,2046,4095
536,536,0,2047,3952
537,537,0,2046,3687
538,538,0,2046,3322
539,539,0,2046,2879
540,540,0,2046,2383
541,541,0,2046,1867
542,542,0,2047,1361
543,543,0,2046,897
544,544,0,2047,502
545,545,0,2046,203
546,546,0,2047,15
547,547,0,2047,0
548,548,0,2046,16
549,549,0,2046,205
550,550,0,2046,506
551,551,0,2047,901
552,552,0,2046,1366
553,553,0,2046,1872
554,554,0,2046,2388
555,555,0,2047,2883
556,556,0,2046,3326
557,557,0,2046,3690
558,558,0,2046,3953
559,559,0,2046,4095
560,560,0,2046,4095
561,561,0,2046,4008
562,562,0,2047,3779
563,563,0,2046,3442
564,564,0,2046,3020
565,565,0,2047,2538
566,566,0,2046,2024
567,567,0,2047,1512
568,568,0,2046,1032
569,569,0,2047,613
570,570,0,2046,282
571,571,0,2046,59
572,572,0,2046,0
573,573,0,2046,0
574,574,0,2046,135
575,575,0,2046,403
576,576,0,2046,773
577,577,0,2047,1219
578,578,0,2046,1716
579,579,0,2047,2233
580,580,0,2046,2737
581,581,0,2047,3199
582,582,0,2046,3590
583,583,0,2046,3885
584,584,0,2046,4067
585,585,0,2046,4095
586,586,0,2046,4055
587,587,0,2046,3861
588,588,0,2046,3555
589,589,0,2047,3156
590,590,0,2046,2688
591,591,0,2046,2181
592,592,0,2046,1665
593,593,0,2046,1172
594,594,0,2046,733
595,595,0,2046,373
596,596,0,2046,115
597,597,0,2046,0
598,598,0,2046,0
599,599,0,2046,76
600,600,0,2046,311
601,601,0,2046,652
602,602,0,2046,1077
603,603,0,2046,1561
604,604,0,2046,2075
605,605,0,2046,2587
606,606,0,2047,3065
607,607,0,2046,3479
608,608,0,2046,3807
609,609,0,2046,4025
610,610,0,2046,4095
611,611,0,2046,4090
612,612,0,2047,3932
613,613,0,2046,3658
614,614,0,2046,3286
615,615,0,2047,2836
616,616,0,2047,2338
617,617,0,2046,1822
618,618,0,2047,1318
619,619,0,2047,859
620,620,0,2046,472
621,621,0,2046,181
622,622,0,2046,4
623,623,0,2046,0
624,624,0,2046,28
625,625,0,2046,228
626,626,0,2046,537
627,627,0,2046,940
628,628,0,2047,1410
629,629,0,2047,1918
630,630,0,2046,2433
631,631,0,2046,2925
632,632,0,2046,3362
633,633,0,2046,3718
634,634,0,2047,3971
635,635,0,2047,4095
636,636,0,2046,4095
637,637,0,2047,3994
638,638,0,2047,3754
639,639,0,2046,3408
640,640,0,2046,2979
641,641,0,2046,2493
642,642,0,2047,1979
643,643,0,2047,1468
644,644,0,2046,992
645,645,0,2047,580
646,646,0,2047,258
647,647,0,2046,45
648,648,0,2046,0
649,649,0,2046,0
650,650,0,2047,154
651,651,0,2046,433
652,652,0,2047,809
653,653,0,2046,1261
654,654,0,2047,1761
655,655,0,2047,2278
656,656,0,2046,2780
657,657,0,2047,3236
658,658,0,2046,3621
659,659,0,2046,3906
660,660,0,2047,4079
661,661,0,2046,4095
662,662,0,2047,4043
663,663,0,2047,3838
664,664,0,2047,3523
665,665,0,2046,3118
666,666,0,2047,2645
667,667,0,2047,2136
668,668,0,2047,1620
669,669,0,2047,1131
670,670,0,2046,697
671,671,0,2047,345
672,672,0,2047,97
673,673,0,2047,0
674,674,0,2046,0
675,675,0,2047,92
676,676,0,2047,337
677,677,0,2047,685
678,678,0,2046,1118
679,679,0,2046,1606
680,680,0,2046,2121
681,681,0,2047,2631
682,682,0,2047,3105
683,683,0,2046,3513
684,684,0,2047,3831
685,685,0,2046,4038
686,686,0,2046,4095
687,687,0,2046,4081
688,688,0,2047,3912
689,689,0,2046,3630
690,690,0,2046,3249
691,691,0,2046,2794
692,692,0,2046,2293
693,693,0,2046,1775
694,694,0,2046,1274
695,695,0,2046,821
696,696,0,2047,442
697,697,0,2046,161
698,698,0,2047,0
699,699,0,2046,0
700,700,0,2047,41
701,701,0,2047,251
702,702,0,2047,570
703,703,0,2046,979
704,704,0,2046,1453
705,705,0,2046,1963
706,706,0,2046,2479
707,707,0,2046,2966
708,708,0,2046,3397
709,709,0,2047,3745
710,710,0,2047,3988
711,711,0,2046,4095
712,712,0,2046,4095
713,713,0,2046,3976
714,714,0,2047,3727
715,715,0,2047,3373
716,716,0,2047,2938
717,717,0,2047,2448
718,718,0,2046,1932
719,719,0,2047,1423
720,720,0,2046,952
721,721,0,2046,548
722,722,0,2046,235
723,723,0,2047,32
724,724,0,2046,0
725,725,0,2046,0
726,726,0,2047,175
727,727,0,2047,462
728,728,0,2047,847
729,729,0,2047,1303
730,730,0,2046,1807
731,731,0,2046,2323
732,732,0,2047,2823
733,733,0,2047,3274
734,734,0,2046,3650
735,735,0,2046,3927
736,736,0,2047,4087
737,737,0,2046,4095
738,738,0,2047,4030
739,739,0,2046,3814
740,740,0,2046,3490
741,741,0,2046,3078
742,742,0,2047,2600
743,743,0,2046,2089
744,744,0,2046,1575
745,745,0,2046,1090
746,746,0,2046,662
747,747,0,2047,319
748,748,0,2046,81
749,749,0,2046,0
750,750,0,2046,0
751,751,0,2046,109
752,752,0,2046,364
753,753,0,2047,721
754,754,0,2046,1159
755,755,0,2046,1651
756,756,0,2047,2168
757,757,0,2046,2675
758,758,0,2046,3144
759,759,0,2047,3545
760,760,0,2047,3854
761,761,0,2046,4051
762,762,0,2046,4095
763,763,0,2046,4071
764,764,0,2047,3892
765,765,0,2047,3599
766,766,0,2046,3211
767,767,0,2047,2751
768,768,0,2046,2246
769,769,0,2047,1730
770,770,0,2046,1233
771,771,0,2046,785
772,772,0,2047,413
773,773,0,2046,141
774,774,0,2046,0
775,775,0,2047,0
776,776,0,2046,54
777,777,0,2046,274
778,778,0,2046,602
779,779,0,2047,1019
780,780,0,2047,1498
781,781,0,2046,2010
782,782,0,2046,2524
783,783,0,2046,3007
784,784,0,2046,3432
785,785,0,2046,3771
786,786,0,2046,4004
787,787,0,2046,4095
788,788,0,2047,4095
789,789,0,2046,3959
790,790,0,2046,3699
791,791,0,2046,3337
792,792,0,2047,2896
793,793,0,2046,2403
794,794,0,2046,1887
795,795,0,2046,1380
796,796,0,2046,913
797,797,0,2047,516
798,798,0,2047,211
799,799,0,2047,20
800,800,0,2047,0
801,801,0,2046,11
802,802,0,2046,195
803,803,0,2046,492
804,804,0,2047,885
805,805,0,2047,1346
806,806,0,2047,1852
807,807,0,2047,2368
808,808,0,2046,2865
809,809,0,2047,3311
810,810,0,2047,3679
811,811,0,2047,3946
812,812,0,2046,4095
813,813,0,2046,4095
814,814,0,2046,4016
815,815,0,2046,3790
816,816,0,2046,3457
817,817,0,2046,3037
818,818,0,2046,2557
819,819,0,2047,2044
820,820,0,2047,1531
821,821,0,2046,1049
822,822,0,2047,628
823,823,0,2047,293
824,824,0,2047,65
825,825,0,2046,0
826,826,0,2047,0
827,827,0,2047,127
828,828,0,2047,391
829,829,0,2046,757
830,830,0,2046,1201
831,831,0,2047,1696
832,832,0,2047,2212
833,833,0,2046,2719
834,834,0,2047,3183
835,835,0,2046,3576
836,836,0,2047,3876
837,837,0,2046,4062
838,838,0,2046,4095
839,839,0,2047,4060
840,840,0,2046,3871
841,841,0,2046,3568
842,842,0,2046,3173
843,843,0,2047,2707
844,844,0,2047,2201
845,845,0,2047,1685
846,846,0,2046,1190
847,847,0,2046,747
848,848,0,2047,385
849,849,0,2046,123
850,850,0,2046,0
851,851,0,2047,0
852,852,0,2046,69
853,853,0,2047,300
854,854,0,2046,637
855,855,0,2046,1060
856,856,0,2047,1542
857,857,0,2046,2055
858,858,0,2047,2568
859,859,0,2046,3048
860,860,0,2046,3465
861,861,0,2047,3796
862,862,0,2047,4019
863,863,0,2046,4095
864,864,0,2046,4094
865,865,0,2047,3940
866,866,0,2046,3671
867,867,0,2047,3302
868,868,0,2046,2855
869,869,0,2046,2357
870,870,0,2046,1841
871,871,0,2046,1336
872,872,0,2047,875
873,873,0,2046,485
874,874,0,2046,190
875,875,0,2047,9
876,876,0,2047,0
877,877,0,2047,23
878,878,0,2046,217
879,879,0,2046,524
880,880,0,2046,923
881,881,0,2047,1392
882,882,0,2047,1899
883,883,0,2046,2415
884,884,0,2046,2907
885,885,0,2046,3347
886,886,0,2047,3707
887,887,0,2046,3964
888,888,0,2047,4095
889,889,0,2047,4095
890,890,0,2047,4000
891,891,0,2046,3764
892,892,0,2046,3423
893,893,0,2045,2996
894,894,0,2047,2512
895,895,0,2047,1998
896,896,0,2046,1486
897,897,0,2047,1009
898,898,0,2046,594
899,899,0,2046,268
900,900,0,2046,51
901,901,0,2046,0
902,902,0,2047,0
903,903,0,2046,146
904,904,0,2046,420
905,905,0,2046,794
906,906,0,2047,1244
907,907,0,2046,1742
908,908,0,2047,2259
909,909,0,2047,2762
910,910,0,2046,3221
911,911,0,2047,3608
912,912,0,2046,3897
913,913,0,2046,4074
914,914,0,2046,4095
915,915,0,2047,4048
916,916,0,2046,3848
917,917,0,2046,3537
918,918,0,2047,3134
919,919,0,2046,2663
920,920,0,2046,2155
921,921,0,2047,1640
922,922,0,2046,1148
923,923,0,2047,712
924,924,0,2047,357
925,925,0,2046,105
926,926,0,2046,0
927,927,0,2046,0
928,928,0,2047,84
929,929,0,2046,326
930,930,0,2046,671
931,931,0,2046,1101
932,932,0,2046,1587
933,933,0,2046,2102
934,934,0,2047,2612
935,935,0,2046,3089
936,936,0,2047,3499
937,937,0,2046,3821
938,938,0,2046,4033
939,939,0,2046,4095
940,940,0,2046,4085
941,941,0,2046,3921
942,942,0,2047,3641
943,943,0,2046,3265
944,944,0,2047,2812
945,945,0,2047,2312
946,946,0,2046,1794
947,947,0,2046,1293
948,948,0,2046,837
949,949,0,2046,454
950,950,0,2046,170
951,951,0,2046,0
952,952,0,2046,0
953,953,0,2046,35
954,954,0,2046,241
955,955,0,2046,557
956,956,0,2046,962
957,957,0,2046,1435
958,958,0,2046,1944
959,959,0,2046,2459
960,960,0,2046,2949
961,961,0,2047,3383
962,962,0,2047,3733
963,963,0,2047,3982
964,964,0,2046,4095
965,965,0,2046,4095
966,966,0,2046,3983
967,967,0,2046,3737
968,968,0,2046,3388
969,969,0,2046,2955
970,970,0,2046,2467
971,971,0,2047,1952
972,972,0,2047,1443
973,973,0,2047,969
974,974,0,2046,561
975,975,0,2046,244
976,976,0,2047,38
977,977,0,2046,0
978,978,0,2046,0
979,979,0,2046,166
980,980,0,2047,449
981,981,0,2046,830
982,982,0,2046,1286
983,983,0,2046,1788
984,984,0,2047,2304
985,985,0,2047,2805
986,986,0,2046,3259
987,987,0,2047,3638
988,988,0,2046,3918
989,989,0,2047,4083
990,990,0,2047,4095
991,991,0,2046,4035
992,992,0,2046,3824
993,993,0,2046,3505
994,994,0,2047,3095
995,995,0,2047,2620
996,996,0,2047,2109
997,997,0,2046,1594
998,998,0,2046,1107
999,999,0,2046,677
1000,1000,0,2046,330
1001,1001,0,2046,88
1002,1002,0,2046,0
1003,1003,0,2047,0
1004,1004,0,2047,101
1005,1005,0,2046,352
1006,1006,0,2047,706
1007,1007,0,2046,1141
1008,1008,0,2046,1632
1009,1009,0,2047,2148
1010,1010,0,2047,2657
1011,1011,0,2046,3127
1012,1012,0,2046,3531
1013,1013,0,2046,3844
1014,1014,0,2046,4046
1015,1015,0,2046,4095
1016,1016,0,2046,4075
1017,1017,0,2046,3900
1018,1018,0,2046,3613
1019,1019,0,2046,3227
1020,1020,0,2046,2769
1021,1021,0,2046,2267
1022,1022,0,2046,1750
1023,1023,0,2047,1250
1024,1024,0,2046,800
1025,1025,0,2046,424
1026,1026,0,2046,150
1027,1027,0,2046,0
1028,1028,0,2046,0
1029,1029,0,2046,48
1030,1030,0,2047,264
