Sample in Buffer,Sample in Window,TRIGGER,adc1_data_a_d0[11:0],adc1_data_b_d0[11:0]
0,0,0,2046,60
1,1,0,2046,129
2,2,0,2047,867
3,3,0,2046,2013
4,4,0,2046,3168
5,5,0,2047,3930
6,6,0,2047,4027
7,7,0,2046,3430
8,8,0,2047,2346
9,9,0,2047,1154
10,10,0,2047,272
11,11,0,2046,6
12,12,0,2046,452
13,13,0,2047,1452
14,14,0,2046,2658
15,15,0,2046,3647
16,16,0,2047,4073
17,17,0,2047,3786
18,18,0,2046,2889
19,19,0,2047,1695
20,20,0,2046,619
21,21,0,2046,42
22,22,0,2047,161
23,23,0,2046,938
24,24,0,2046,2100
25,25,0,2046,3240
26,26,0,2047,3960
27,27,0,2047,4007
28,28,0,2046,3366
29,29,0,2047,2260
30,30,0,2046,1078
31,31,0,2046,230
32,32,0,2046,15
33,33,0,2047,509
34,34,0,2046,1536
35,35,0,2046,2741
36,36,0,2046,3698
37,37,0,2046,4077
38,38,0,2046,3740
39,39,0,2047,2810
40,40,0,2046,1609
41,41,0,2046,558
42,42,0,2046,25
43,43,0,2046,196
44,44,0,2046,1012
45,45,0,2047,2186
46,46,0,2046,3309
47,47,0,2046,3987
48,48,0,2047,3984
49,49,0,2046,3299
50,50,0,2047,2174
51,51,0,2046,1002
52,52,0,2047,192
53,53,0,2046,28
54,54,0,2046,566
55,55,0,2046,1620
56,56,0,2047,2821
57,57,0,2046,3746
58,58,0,2047,4076
59,59,0,2046,3691
60,60,0,2046,2729
61,61,0,2046,1525
62,62,0,2046,501
63,63,0,2046,14
64,64,0,2046,235
65,65,0,2046,1088
66,66,0,2046,2272
67,67,0,2046,3375
68,68,0,2046,4010
69,69,0,2046,3956
70,70,0,2046,3230
71,71,0,2047,2088
72,72,0,2047,928
73,73,0,2046,157
74,74,0,2047,43
75,75,0,2047,628
76,76,0,2046,1705
77,77,0,2046,2900
78,78,0,2046,3792
79,79,0,2047,4072
80,80,0,2047,3638
81,81,0,2046,2646
82,82,0,2047,1442
83,83,0,2047,446
84,84,0,2047,6
85,85,0,2048,277
86,86,0,2046,1164
87,87,0,2046,2357
88,88,0,2047,3439
89,89,0,2046,4030
90,90,0,2046,3924
91,91,0,2046,3159
92,92,0,2046,2002
93,93,0,2046,858
94,94,0,2046,126
95,95,0,2046,63
96,96,0,2046,691
97,97,0,2046,1791
98,98,0,2047,2978
99,99,0,2047,3835
100,100,0,2046,4064
101,101,0,2046,3585
102,102,0,2046,2564
103,103,0,2047,1360
104,104,0,2046,393
105,105,0,2046,2
106,106,0,2047,322
107,107,0,2047,1243
108,108,0,2046,2443
109,109,0,2046,3501
110,110,0,2046,4047
111,111,0,2046,3890
112,112,0,2047,3086
113,113,0,2046,1914
114,114,0,2046,787
115,115,0,2046,98
116,116,0,2046,86
117,117,0,2047,757
118,118,0,2046,1877
119,119,0,2047,3053
120,120,0,2046,3874
121,121,0,2046,4052
122,122,0,2046,3526
123,123,0,2046,2480
124,124,0,2045,1279
125,125,0,2047,343
126,126,0,2047,0
127,127,0,2046,371
128,128,0,2046,1324
129,129,0,2046,2526
130,130,0,2046,3559
131,131,0,2046,4059
132,132,0,2046,3852
133,133,0,2046,3011
134,134,0,2047,1829
135,135,0,2047,720
136,136,0,2046,73
137,137,0,2047,112
138,138,0,2046,825
139,139,0,2046,1963
140,140,0,2046,3127
141,141,0,2046,3910
142,142,0,2047,4038
143,143,0,2046,3467
144,144,0,2046,2395
145,145,0,2046,1200
146,146,0,2046,297
147,147,0,2046,3
148,148,0,2046,421
149,149,0,2046,1406
150,150,0,2047,2611
151,151,0,2047,3616
152,152,0,2046,4069
153,153,0,2046,3812
154,154,0,2046,2934
155,155,0,2046,1743
156,156,0,2046,656
157,157,0,2046,52
158,158,0,2046,142
159,159,0,2047,896
160,160,0,2046,2050
161,161,0,2046,3199
162,162,0,2046,3943
163,163,0,2046,4020
164,164,0,2047,3404
165,165,0,2046,2310
166,166,0,2046,1121
167,167,0,2046,253
168,168,0,2046,10
169,169,0,2047,476
170,170,0,2046,1488
171,171,0,2047,2693
172,172,0,2046,3669
173,173,0,2046,4074
174,174,0,2046,3768
175,175,0,2046,2855
176,176,0,2046,1658
177,177,0,2047,594
178,178,0,2046,35
179,179,0,2046,176
180,180,0,2047,969
181,181,0,2047,2137
182,182,0,2047,3269
183,183,0,2047,3971
184,184,0,2046,3997
185,185,0,2047,3338
186,186,0,2047,2224
187,187,0,2047,1045
188,188,0,2046,213
189,189,0,2046,20
190,190,0,2046,533
191,191,0,2046,1572
192,192,0,2046,2774
193,193,0,2047,3719
194,194,0,2046,4077
195,195,0,2047,3720
196,196,0,2046,2776
197,197,0,2046,1573
198,198,0,2046,534
199,199,0,2047,20
200,200,0,2046,213
201,201,0,2046,1044
202,202,0,2046,2223
203,203,0,2046,3338
204,204,0,2046,3997
205,205,0,2046,3972
206,206,0,2046,3270
207,207,0,2046,2138
208,208,0,2046,971
209,209,0,2046,177
210,210,0,2047,34
211,211,0,2047,592
212,212,0,2047,1656
213,213,0,2046,2854
214,214,0,2046,3767
215,215,0,2046,4075
216,216,0,2046,3670
217,217,0,2046,2695
218,218,0,2046,1489
219,219,0,2046,477
220,220,0,2046,10
221,221,0,2047,253
222,222,0,2046,1120
223,223,0,2047,2309
224,224,0,2046,3403
225,225,0,2047,4020
226,226,0,2046,3944
227,227,0,2046,3200
228,228,0,2046,2052
229,229,0,2046,898
230,230,0,2047,143
231,231,0,2046,51
232,232,0,2047,654
233,233,0,2047,1741
234,234,0,2046,2933
235,235,0,2046,3811
236,236,0,2047,4069
237,237,0,2046,3616
238,238,0,2046,2612
239,239,0,2046,1407
240,240,0,2046,424
241,241,0,2047,4
242,242,0,2047,296
243,243,0,2046,1197
244,244,0,2047,2394
245,245,0,2046,3466
246,246,0,2046,4038
247,247,0,2046,3910
248,248,0,2047,3128
249,249,0,2046,1965
250,250,0,2046,828
251,251,0,2046,113
252,252,0,2046,72
253,253,0,2046,718
254,254,0,2046,1827
255,255,0,2046,3010
256,256,0,2047,3853
257,257,0,2046,4060
258,258,0,2047,3561
259,259,0,2046,2529
260,260,0,2047,1325
261,261,0,2047,371
262,262,0,2046,1
263,263,0,2046,343
264,264,0,2046,1277
265,265,0,2046,2479
266,266,0,2047,3526
267,267,0,2046,4053
268,268,0,2047,3875
269,269,0,2046,3054
270,270,0,2047,1879
271,271,0,2047,759
272,272,0,2047,87
273,273,0,2046,97
274,274,0,2047,786
275,275,0,2047,1914
276,276,0,2046,3085
277,277,0,2046,3890
278,278,0,2046,4047
279,279,0,2046,3501
280,280,0,2047,2444
281,281,0,2046,1245
282,282,0,2047,323
283,283,0,2046,1
284,284,0,2047,392
285,285,0,2046,1358
286,286,0,2046,2563
287,287,0,2047,3584
288,288,0,2047,4064
289,289,0,2046,3836
290,290,0,2047,2978
291,291,0,2047,1792
292,292,0,2046,693
293,293,0,2047,63
294,294,0,2046,124
295,295,0,2046,856
296,296,0,2047,2000
297,297,0,2047,3158
298,298,0,2047,3925
299,299,0,2047,4031
300,300,0,2046,3440
301,301,0,2047,2359
302,302,0,2046,1166
303,303,0,2047,279
304,304,0,2047,5
305,305,0,2046,444
306,306,0,2046,1440
307,307,0,2047,2646
308,308,0,2046,3638
309,309,0,2047,4071
310,310,0,2046,3792
311,311,0,2046,2900
312,312,0,2046,1707
313,313,0,2047,630
314,314,0,2046,44
315,315,0,2047,156
316,316,0,2046,927
317,317,0,2046,2086
318,318,0,2046,3230
319,319,0,2046,3956
320,320,0,2046,4011
321,321,0,2047,3376
322,322,0,2047,2273
323,323,0,2046,1088
324,324,0,2046,236
325,325,0,2047,13
326,326,0,2047,500
327,327,0,2046,1523
328,328,0,2046,2728
329,329,0,2046,3691
330,330,0,2046,4075
331,331,0,2046,3748
332,332,0,2047,2822
333,333,0,2046,1622
334,334,0,2047,568
335,335,0,2046,28
336,336,0,2046,191
337,337,0,2047,1000
338,338,0,2046,2173
339,339,0,2046,3299
340,340,0,2046,3982
341,341,0,2046,3988
342,342,0,2046,3310
343,343,0,2046,2187
344,344,0,2046,1014
345,345,0,2046,197
346,346,0,2047,26
347,347,0,2045,557
348,348,0,2046,1608
349,349,0,2046,2808
350,350,0,2047,3740
351,351,0,2046,4076
352,352,0,2047,3700
353,353,0,2046,2741
354,354,0,2046,1538
355,355,0,2046,509
356,356,0,2047,16
357,357,0,2046,229
358,358,0,2046,1075
359,359,0,2047,2259
360,360,0,2046,3366
361,361,0,2046,4007
362,362,0,2046,3961
363,363,0,2046,3241
364,364,0,2046,2100
365,365,0,2047,940
366,366,0,2047,163
367,367,0,2046,42
368,368,0,2047,619
369,369,0,2046,1692
370,370,0,2046,2888
371,371,0,2046,3786
372,372,0,2046,4073
373,373,0,2046,3647
374,374,0,2046,2659
375,375,0,2046,1455
376,376,0,2047,453
377,377,0,2047,7
378,378,0,2047,270
379,379,0,2046,1153
380,380,0,2047,2345
381,381,0,2046,3430
382,382,0,2046,4029
383,383,0,2047,3931
384,384,0,2046,3170
385,385,0,2047,2015
386,386,0,2046,868
387,387,0,2046,130
388,388,0,2047,60
389,389,0,2046,681
390,390,0,2046,1778
391,391,0,2047,2965
392,392,0,2046,3829
393,393,0,2047,4065
394,394,0,2046,3593
395,395,0,2047,2578
396,396,0,2046,1373
397,397,0,2046,401
398,398,0,2046,2
399,399,0,2047,315
400,400,0,2047,1231
401,401,0,2046,2430
402,402,0,2046,3491
403,403,0,2046,4045
404,404,0,2047,3897
405,405,0,2047,3097
406,406,0,2046,1928
407,407,0,2046,798
408,408,0,2046,102
409,409,0,2046,82
410,410,0,2047,746
411,411,0,2046,1864
412,412,0,2046,3041
413,413,0,2046,3868
414,414,0,2046,4055
415,415,0,2047,3535
416,416,0,2046,2493
417,417,0,2047,1291
418,418,0,2046,351
419,419,0,2047,0
420,420,0,2047,363
421,421,0,2047,1312
422,422,0,2046,2514
423,423,0,2047,3550
424,424,0,2046,4058
425,425,0,2046,3858
426,426,0,2046,3023
427,427,0,2047,1842
428,428,0,2047,731
429,429,0,2047,76
430,430,0,2046,107
431,431,0,2047,814
432,432,0,2046,1950
433,433,0,2046,3116
434,434,0,2047,3905
435,435,0,2047,4040
436,436,0,2046,3476
437,437,0,2046,2408
438,438,0,2046,1212
439,439,0,2046,303
440,440,0,2046,2
441,441,0,2046,413
442,442,0,2046,1393
443,443,0,2046,2598
444,444,0,2046,3607
445,445,0,2046,4068
446,446,0,2046,3818
447,447,0,2046,2945
448,448,0,2046,1756
449,449,0,2046,665
450,450,0,2047,55
451,451,0,2046,138
452,452,0,2046,885
453,453,0,2046,2036
454,454,0,2047,3188
455,455,0,2046,3938
456,456,0,2047,4022
457,457,0,2046,3413
458,458,0,2046,2323
459,459,0,2047,1134
460,460,0,2046,260
461,461,0,2046,8
462,462,0,2047,467
463,463,0,2047,1475
464,464,0,2047,2680
465,465,0,2046,3661
466,466,0,2046,4074
467,467,0,2046,3774
468,468,0,2046,2868
469,469,0,2047,1671
470,470,0,2046,603
471,471,0,2046,36
472,472,0,2047,170
473,473,0,2046,958
474,474,0,2046,2123
475,475,0,2046,3259
476,476,0,2046,3967
477,477,0,2047,4000
478,478,0,2047,3348
479,479,0,2047,2237
480,480,0,2046,1056
481,481,0,2046,219
482,482,0,2046,18
483,483,0,2047,524
484,484,0,2046,1558
485,485,0,2046,2762
486,486,0,2046,3712
487,487,0,2046,4076
488,488,0,2046,3728
489,489,0,2046,2787
490,490,0,2046,1586
491,491,0,2046,543
492,492,0,2046,22
493,493,0,2046,207
494,494,0,2046,1032
495,495,0,2046,2210
496,496,0,2046,3327
497,497,0,2046,3993
498,498,0,2047,3976
499,499,0,2046,3281
500,500,0,2046,2150
501,501,0,2046,982
502,502,0,2046,181
503,503,0,2046,32
504,504,0,2047,583
505,505,0,2046,1643
506,506,0,2046,2842
507,507,0,2046,3760
508,508,0,2046,4076
509,509,0,2046,3678
510,510,0,2046,2707
511,511,0,2046,1502
512,512,0,2047,486
513,513,0,2046,11
514,514,0,2047,246
515,515,0,2046,1108
516,516,0,2046,2296
517,517,0,2046,3392
518,518,0,2047,4016
519,519,0,2047,3948
520,520,0,2046,3210
521,521,0,2046,2064
522,522,0,2047,909
523,523,0,2046,148
524,524,0,2047,48
525,525,0,2046,645
526,526,0,2046,1728
527,527,0,2047,2920
528,528,0,2046,3805
529,529,0,2046,4070
530,530,0,2046,3625
531,531,0,2046,2624
532,532,0,2047,1419
533,533,0,2047,431
534,534,0,2047,4
535,535,0,2047,290
536,536,0,2046,1185
537,537,0,2046,2382
538,538,0,2047,3456
539,539,0,2046,4036
540,540,0,2047,3916
541,541,0,2046,3140
542,542,0,2046,1978
543,543,0,2046,838
544,544,0,2046,118
545,545,0,2046,69
546,546,0,2046,709
547,547,0,2047,1814
548,548,0,2046,2997
549,549,0,2046,3846
550,550,0,2047,4061
551,551,0,2046,3569
552,552,0,2046,2542
553,553,0,2047,1338
554,554,0,2047,379
555,555,0,2047,1
556,556,0,2046,334
557,557,0,2046,1265
558,558,0,2046,2466
559,559,0,2046,3516
560,560,0,2047,4051
561,561,0,2046,3881
562,562,0,2046,3065
563,563,0,2046,1892
564,564,0,2046,769
565,565,0,2046,91
566,566,0,2046,93
567,567,0,2047,776
568,568,0,2046,1900
569,569,0,2046,3073
570,570,0,2047,3884
571,571,0,2047,4050
572,572,0,2046,3511
573,573,0,2046,2457
574,574,0,2046,1257
575,575,0,2046,331
576,576,0,2047,1
577,577,0,2047,384
578,578,0,2046,1346
579,579,0,2047,2550
580,580,0,2046,3575
581,581,0,2046,4062
582,582,0,2046,3842
583,583,0,2046,2990
584,584,0,2047,1806
585,585,0,2047,703
586,586,0,2046,67
587,587,0,2046,120
588,588,0,2046,844
589,589,0,2047,1987
590,590,0,2047,3147
591,591,0,2046,3919
592,592,0,2046,4033
593,593,0,2047,3449
594,594,0,2047,2372
595,595,0,2046,1178
596,596,0,2046,285
597,597,0,2047,5
598,598,0,2046,436
599,599,0,2047,1428
600,600,0,2046,2633
601,601,0,2046,3630
602,602,0,2046,4070
603,603,0,2046,3799
604,604,0,2047,2913
605,605,0,2047,1720
606,606,0,2046,638
607,607,0,2047,47
608,608,0,2046,151
609,609,0,2047,916
610,610,0,2046,2073
611,611,0,2047,3218
612,612,0,2047,3951
613,613,0,2046,4014
614,614,0,2046,3386
615,615,0,2047,2287
616,616,0,2046,1101
617,617,0,2047,242
618,618,0,2047,12
619,619,0,2046,491
620,620,0,2047,1511
621,621,0,2046,2715
622,622,0,2047,3683
623,623,0,2047,4075
624,624,0,2046,3755
625,625,0,2046,2835
626,626,0,2046,1635
627,627,0,2046,577
628,628,0,2047,30
629,629,0,2047,185
630,630,0,2046,988
631,631,0,2047,2160
632,632,0,2046,3288
633,633,0,2046,3979
634,634,0,2046,3990
635,635,0,2047,3320
636,636,0,2047,2201
637,637,0,2046,1025
638,638,0,2046,203
639,639,0,2046,24
640,640,0,2046,548
641,641,0,2046,1594
642,642,0,2047,2796
643,643,0,2047,3733
644,644,0,2046,4076
645,645,0,2046,3707
646,646,0,2046,2754
647,647,0,2047,1551
648,648,0,2046,518
649,649,0,2046,17
650,650,0,2047,223
651,651,0,2046,1064
652,652,0,2046,2246
653,653,0,2046,3355
654,654,0,2046,4003
655,655,0,2047,3965
656,656,0,2047,3251
657,657,0,2047,2115
658,658,0,2046,951
659,659,0,2047,167
660,660,0,2046,38
661,661,0,2046,609
662,662,0,2046,1679
663,663,0,2046,2876
664,664,0,2047,3779
665,665,0,2047,4074
666,666,0,2047,3656
667,667,0,2046,2673
668,668,0,2046,1468
669,669,0,2047,463
670,670,0,2047,8
671,671,0,2047,263
672,672,0,2046,1141
673,673,0,2046,2332
674,674,0,2046,3419
675,675,0,2046,4025
676,676,0,2046,3934
677,677,0,2046,3181
678,678,0,2046,2028
679,679,0,2047,879
680,680,0,2046,135
681,681,0,2046,57
682,682,0,2047,671
683,683,0,2047,1765
684,684,0,2046,2953
685,685,0,2046,3822
686,686,0,2046,4067
687,687,0,2046,3601
688,688,0,2046,2589
689,689,0,2046,1385
690,690,0,2047,409
691,691,0,2046,2
692,692,0,2046,307
693,693,0,2047,1218
694,694,0,2046,2417
695,695,0,2046,3481
696,696,0,2046,4043
697,697,0,2047,3902
698,698,0,2046,3109
699,699,0,2047,1941
700,700,0,2046,809
701,701,0,2047,106
702,702,0,2046,79
703,703,0,2046,736
704,704,0,2047,1851
705,705,0,2047,3030
706,706,0,2046,3863
707,707,0,2047,4057
708,708,0,2047,3545
709,709,0,2047,2506
710,710,0,2046,1303
711,711,0,2046,358
712,712,0,2047,0
713,713,0,2047,355
714,714,0,2046,1298
715,715,0,2047,2501
716,716,0,2046,3542
717,717,0,2046,4057
718,718,0,2047,3865
719,719,0,2046,3034
720,720,0,2046,1855
721,721,0,2046,741
722,722,0,2047,80
723,723,0,2046,104
724,724,0,2046,804
725,725,0,2047,1937
726,726,0,2047,3105
727,727,0,2046,3900
728,728,0,2047,4042
729,729,0,2046,3485
730,730,0,2046,2422
731,731,0,2046,1224
732,732,0,2046,311
733,733,0,2046,1
734,734,0,2046,405
735,735,0,2046,1380
736,736,0,2046,2584
737,737,0,2047,3599
738,738,0,2047,4066
739,739,0,2046,3824
740,740,0,2046,2958
741,741,0,2046,1769
742,742,0,2046,675
743,743,0,2046,58
744,744,0,2047,133
745,745,0,2046,875
746,746,0,2047,2023
747,747,0,2047,3177
748,748,0,2047,3933
749,749,0,2046,4026
750,750,0,2046,3424
751,751,0,2046,2336
752,752,0,2046,1146
753,753,0,2047,266
754,754,0,2046,8
755,755,0,2046,459
756,756,0,2047,1463
757,757,0,2046,2668
758,758,0,2046,3653
759,759,0,2046,4073
760,760,0,2047,3782
761,761,0,2046,2879
762,762,0,2046,1684
763,763,0,2046,613
764,764,0,2046,39
765,765,0,2046,165
766,766,0,2046,946
767,767,0,2046,2111
768,768,0,2046,3248
769,769,0,2047,3963
770,770,0,2046,4004
771,771,0,2046,3358
772,772,0,2047,2251
773,773,0,2046,1068
774,774,0,2046,226
775,775,0,2046,16
776,776,0,2047,515
777,777,0,2047,1545
778,778,0,2047,2749
779,779,0,2047,3704
780,780,0,2046,4076
781,781,0,2046,3735
782,782,0,2047,2800
783,783,0,2046,1599
784,784,0,2046,551
785,785,0,2046,24
786,786,0,2046,201
787,787,0,2047,1020
788,788,0,2047,2196
789,789,0,2046,3317
790,790,0,2047,3990
791,791,0,2046,3980
792,792,0,2047,3291
793,793,0,2047,2164
794,794,0,2046,993
795,795,0,2047,187
796,796,0,2046,29
797,797,0,2047,573
798,798,0,2046,1629
799,799,0,2047,2830
800,800,0,2046,3753
801,801,0,2046,4076
802,802,0,2046,3685
803,803,0,2046,2719
804,804,0,2046,1515
805,805,0,2046,494
806,806,0,2046,13
807,807,0,2046,240
808,808,0,2047,1096
809,809,0,2046,2282
810,810,0,2047,3383
811,811,0,2046,4012
812,812,0,2046,3952
813,813,0,2047,3222
814,814,0,2046,2078
815,815,0,2047,920
816,816,0,2047,154
817,817,0,2046,46
818,818,0,2046,635
819,819,0,2046,1715
820,820,0,2046,2909
821,821,0,2047,3798
822,822,0,2046,4071
823,823,0,2047,3632
824,824,0,2046,2637
825,825,0,2046,1432
826,826,0,2046,439
827,827,0,2046,5
828,828,0,2046,283
829,829,0,2047,1173
830,830,0,2047,2368
831,831,0,2047,3447
832,832,0,2047,4033
833,833,0,2047,3921
834,834,0,2047,3151
835,835,0,2047,1991
836,836,0,2047,850
837,837,0,2046,122
838,838,0,2046,65
839,839,0,2046,698
840,840,0,2047,1801
841,841,0,2046,2986
842,842,0,2047,3840
843,843,0,2046,4064
844,844,0,2047,3578
845,845,0,2046,2554
846,846,0,2046,1350
847,847,0,2047,387
848,848,0,2046,1
849,849,0,2046,328
850,850,0,2047,1253
851,851,0,2047,2453
852,852,0,2047,3508
853,853,0,2046,4049
854,854,0,2046,3886
855,855,0,2047,3077
856,856,0,2046,1906
857,857,0,2047,780
858,858,0,2047,94
859,859,0,2047,89
860,860,0,2046,765
861,861,0,2046,1887
862,862,0,2047,3062
863,863,0,2047,3879
864,864,0,2047,4052
865,865,0,2046,3520
866,866,0,2046,2470
867,867,0,2046,1269
868,868,0,2046,337
869,869,0,2046,0
870,870,0,2046,375
871,871,0,2045,1334
872,872,0,2046,2537
873,873,0,2047,3567
874,874,0,2046,4061
875,875,0,2047,3848
876,876,0,2047,3002
877,877,0,2047,1819
878,878,0,2047,713
879,879,0,2047,70
880,880,0,2046,116
881,881,0,2046,834
882,882,0,2046,1973
883,883,0,2046,3136
884,884,0,2047,3914
885,885,0,2046,4036
886,886,0,2047,3459
887,887,0,2046,2384
888,888,0,2046,1190
889,889,0,2046,292
890,890,0,2047,4
891,891,0,2046,428
892,892,0,2046,1415
893,893,0,2047,2621
894,894,0,2046,3622
895,895,0,2047,4070
896,896,0,2047,3806
897,897,0,2046,2925
898,898,0,2046,1733
899,899,0,2047,648
900,900,0,2047,50
901,901,0,2046,145
902,902,0,2047,905
903,903,0,2046,2060
904,904,0,2046,3207
905,905,0,2047,3946
906,906,0,2047,4017
907,907,0,2047,3395
908,908,0,2046,2300
909,909,0,2046,1112
910,910,0,2046,248
911,911,0,2046,10
912,912,0,2046,483
913,913,0,2046,1498
914,914,0,2047,2702
915,915,0,2046,3675
916,916,0,2046,4075
917,917,0,2047,3762
918,918,0,2046,2846
919,919,0,2047,1648
920,920,0,2046,586
921,921,0,2046,33
922,922,0,2047,179
923,923,0,2046,978
924,924,0,2046,2147
925,925,0,2046,3277
926,926,0,2047,3975
927,927,0,2046,3995
928,928,0,2046,3330
929,929,0,2047,2214
930,930,0,2046,1036
931,931,0,2046,209
932,932,0,2046,22
933,933,0,2047,539
934,934,0,2047,1582
935,935,0,2046,2784
936,936,0,2046,3725
937,937,0,2046,4076
938,938,0,2047,3715
939,939,0,2047,2766
940,940,0,2046,1563
941,941,0,2047,527
942,942,0,2047,19
943,943,0,2047,217
944,944,0,2046,1053
945,945,0,2047,2233
946,946,0,2046,3345
947,947,0,2046,4000
948,948,0,2046,3969
949,949,0,2046,3262
950,950,0,2046,2128
951,951,0,2046,961
952,952,0,2047,172
953,953,0,2046,36
954,954,0,2046,600
955,955,0,2046,1666
956,956,0,2046,2864
957,957,0,2047,3772
958,958,0,2046,4074
959,959,0,2047,3663
960,960,0,2047,2685
961,961,0,2046,1480
962,962,0,2047,471
963,963,0,2046,9
964,964,0,2046,257
965,965,0,2046,1129
966,966,0,2046,2319
967,967,0,2047,3411
968,968,0,2046,4022
969,969,0,2046,3939
970,970,0,2047,3191
971,971,0,2047,2042
972,972,0,2047,889
973,973,0,2046,140
974,974,0,2046,54
975,975,0,2047,662
976,976,0,2046,1752
977,977,0,2047,2942
978,978,0,2046,3816
979,979,0,2046,4068
980,980,0,2046,3610
981,981,0,2046,2602
982,982,0,2047,1397
983,983,0,2046,416
984,984,0,2047,3
985,985,0,2047,302
986,986,0,2046,1207
987,987,0,2046,2404
988,988,0,2046,3473
989,989,0,2046,4040
990,990,0,2046,3906
991,991,0,2046,3119
992,992,0,2047,1954
993,993,0,2047,819
994,994,0,2047,110
995,995,0,2047,75
996,996,0,2046,727
997,997,0,2047,1837
998,998,0,2046,3019
999,999,0,2047,3857
1000,1000,0,2047,4058
1001,1001,0,2047,3553
1002,1002,0,2045,2519
1003,1003,0,2046,1316
1004,1004,0,2046,366
1005,1005,0,2046,0
1006,1006,0,2046,348
1007,1007,0,2046,1287
1008,1008,0,2046,2489
1009,1009,0,2046,3533
1010,1010,0,2046,4055
1011,1011,0,2046,3870
1012,1012,0,2046,3045
1013,1013,0,2047,1869
1014,1014,0,2046,751
1015,1015,0,2046,83
1016,1016,0,2046,100
1017,1017,0,2046,794
1018,1018,0,2046,1924
1019,1019,0,2046,3093
1020,1020,0,2047,3894
1021,1021,0,2046,4045
1022,1022,0,2046,3493
1023,1023,0,2046,2434
1024,1024,0,2046,1236
1025,1025,0,2046,318
1026,1026,0,2046,1
