Sample in Buffer,Sample in Window,TRIGGER,adc1_data_a_d0[11:0],adc1_data_b_d0[11:0]
0,0,0,2046,2698
1,1,0,2046,2028
2,2,0,2046,1359
3,3,0,2046,762
4,4,0,2047,301
5,5,0,2046,25
6,6,0,2047,0
7,7,0,2047,124
8,8,0,2047,488
9,9,0,2046,1017
10,10,0,2047,1655
11,11,0,2046,2335
12,12,0,2047,2982
13,13,0,2046,3529
14,14,0,2047,3917
15,15,0,2046,4095
16,16,0,2046,4072
17,17,0,2046,3823
18,18,0,2047,3383
19,19,0,2046,2799
20,20,0,2046,2135
21,21,0,2047,1461
22,22,0,2046,849
23,23,0,2046,363
24,24,0,2046,55
25,25,0,2047,0
26,26,0,2047,84
27,27,0,2046,418
28,28,0,2046,926
29,29,0,2046,1551
30,30,0,2047,2229
31,31,0,2047,2885
32,32,0,2046,3452
33,33,0,2047,3868
34,34,0,2046,4089
35,35,0,2046,4092
36,36,0,2046,3875
37,37,0,2046,3463
38,38,0,2046,2899
39,39,0,2046,2242
40,40,0,2046,1565
41,41,0,2046,937
42,42,0,2046,428
43,43,0,2046,89
44,44,0,2047,0
45,45,0,2046,50
46,46,0,2046,353
47,47,0,2047,836
48,48,0,2047,1448
49,49,0,2047,2121
50,50,0,2046,2786
51,51,0,2046,3372
52,52,0,2046,3815
53,53,0,2046,4070
54,54,0,2046,4095
55,55,0,2046,3923
56,56,0,2046,3539
57,57,0,2046,2994
58,58,0,2046,2349
59,59,0,2046,1669
60,60,0,2046,1030
61,61,0,2046,498
62,62,0,2046,129
63,63,0,2046,0
64,64,0,2047,21
65,65,0,2047,293
66,66,0,2046,751
67,67,0,2046,1345
68,68,0,2047,2014
69,69,0,2046,2685
70,70,0,2046,3287
71,71,0,2046,3757
72,72,0,2046,4043
73,73,0,2046,4095
74,74,0,2046,3967
75,75,0,2046,3611
76,76,0,2046,3088
77,77,0,2046,2454
78,78,0,2046,1776
79,79,0,2046,1125
80,80,0,2046,572
81,81,0,2046,174
82,82,0,2046,0
83,83,0,2047,0
84,84,0,2047,237
85,85,0,2046,668
86,86,0,2046,1245
87,87,0,2046,1906
88,88,0,2047,2583
89,89,0,2046,3200
90,90,0,2046,3694
91,91,0,2046,4011
92,92,0,2046,4095
93,93,0,2046,4004
94,94,0,2046,3680
95,95,0,2045,3180
96,96,0,2046,2558
97,97,0,2046,1883
98,98,0,2046,1222
99,99,0,2046,649
100,100,0,2047,225
101,101,0,2046,0
102,102,0,2046,0
103,103,0,2046,185
104,104,0,2046,589
105,105,0,2046,1147
106,106,0,2046,1800
107,107,0,2047,2478
108,108,0,2046,3111
109,109,0,2047,3626
110,110,0,2047,3975
111,111,0,2046,4095
112,112,0,2047,4036
113,113,0,2046,3744
114,114,0,2046,3268
115,115,0,2046,2662
116,116,0,2047,1989
117,117,0,2046,1322
118,118,0,2046,731
119,119,0,2046,280
120,120,0,2046,15
121,121,0,2047,0
122,122,0,2046,139
123,123,0,2046,515
124,124,0,2046,1051
125,125,0,2047,1694
126,126,0,2046,2373
127,127,0,2047,3016
128,128,0,2047,3556
129,129,0,2046,3933
130,130,0,2046,4095
131,131,0,2046,4063
132,132,0,2046,3802
133,133,0,2046,3353
134,134,0,2046,2763
135,135,0,2045,2097
136,136,0,2046,1423
137,137,0,2046,816
138,138,0,2046,340
139,139,0,2046,43
140,140,0,2046,0
141,141,0,2046,98
142,142,0,2046,443
143,143,0,2046,958
144,144,0,2047,1588
145,145,0,2046,2266
146,146,0,2047,2921
147,147,0,2046,3480
148,148,0,2046,3887
149,149,0,2046,4095
150,150,0,2047,4086
151,151,0,2046,3857
152,152,0,2046,3434
153,153,0,2046,2863
154,154,0,2046,2203
155,155,0,2046,1527
156,156,0,2046,904
157,157,0,2046,404
158,158,0,2046,77
159,159,0,2046,0
160,160,0,2046,62
161,161,0,2046,376
162,162,0,2046,868
163,163,0,2046,1484
164,164,0,2047,2160
165,165,0,2047,2823
166,166,0,2046,3401
167,167,0,2047,3834
168,168,0,2046,4077
169,169,0,2047,4095
170,170,0,2047,3907
171,171,0,2046,3512
172,172,0,2046,2960
173,173,0,2046,2310
174,174,0,2046,1632
175,175,0,2046,996
176,176,0,2047,472
177,177,0,2046,115
178,178,0,2046,0
179,179,0,2046,31
180,180,0,2047,314
181,181,0,2046,781
182,182,0,2046,1382
183,183,0,2046,2053
184,184,0,2046,2722
185,185,0,2046,3318
186,186,0,2047,3779
187,187,0,2047,4053
188,188,0,2046,4095
189,189,0,2046,3951
190,190,0,2047,3585
191,191,0,2046,3055
192,192,0,2047,2417
193,193,0,2046,1736
194,194,0,2046,1090
195,195,0,2047,544
196,196,0,2046,157
197,197,0,2046,0
198,198,0,2046,5
199,199,0,2046,256
200,200,0,2046,697
201,201,0,2046,1281
202,202,0,2046,1946
203,203,0,2046,2621
204,204,0,2047,3232
205,205,0,2046,3718
206,206,0,2046,4024
207,207,0,2047,4095
208,208,0,2047,3991
209,209,0,2046,3655
210,210,0,2046,3147
211,211,0,2046,2520
212,212,0,2047,1843
213,213,0,2046,1186
214,214,0,2046,621
215,215,0,2046,205
216,216,0,2046,0
217,217,0,2046,0
218,218,0,2046,203
219,219,0,2046,617
220,220,0,2047,1182
221,221,0,2046,1839
222,222,0,2047,2516
223,223,0,2046,3143
224,224,0,2047,3653
225,225,0,2046,3990
226,226,0,2046,4095
227,227,0,2047,4025
228,228,0,2046,3721
229,229,0,2046,3236
230,230,0,2046,2625
231,231,0,2046,1950
232,232,0,2047,1286
233,233,0,2047,701
234,234,0,2046,259
235,235,0,2046,6
236,236,0,2045,0
237,237,0,2046,155
238,238,0,2047,540
239,239,0,2046,1085
240,240,0,2047,1732
241,241,0,2046,2411
242,242,0,2047,3050
243,243,0,2046,3583
244,244,0,2047,3950
245,245,0,2046,4095
246,246,0,2046,4054
247,247,0,2046,3781
248,248,0,2046,3322
249,249,0,2046,2726
250,250,0,2046,2057
251,251,0,2046,1386
252,252,0,2047,784
253,253,0,2046,317
254,254,0,2046,32
255,255,0,2046,0
256,256,0,2046,113
257,257,0,2046,469
258,258,0,2047,992
259,259,0,2046,1627
260,260,0,2046,2306
261,261,0,2046,2956
262,262,0,2046,3508
263,263,0,2046,3905
264,264,0,2046,4095
265,265,0,2047,4078
266,266,0,2046,3837
267,267,0,2046,3404
268,268,0,2047,2826
269,269,0,2046,2164
270,270,0,2047,1489
271,271,0,2046,872
272,272,0,2046,379
273,273,0,2046,64
274,274,0,2047,0
275,275,0,2046,75
276,276,0,2046,400
277,277,0,2046,901
278,278,0,2047,1522
279,279,0,2047,2198
280,280,0,2046,2859
281,281,0,2047,3430
282,282,0,2046,3855
283,283,0,2046,4084
284,284,0,2046,4095
285,285,0,2046,3889
286,286,0,2047,3483
287,287,0,2047,2924
288,288,0,2046,2271
289,289,0,2046,1593
290,290,0,2047,962
291,291,0,2046,446
292,292,0,2046,100
293,293,0,2046,0
294,294,0,2046,42
295,295,0,2047,336
296,296,0,2046,813
297,297,0,2047,1419
298,298,0,2046,2092
299,299,0,2046,2759
300,300,0,2047,3349
301,301,0,2046,3799
302,302,0,2047,4063
303,303,0,2046,4095
304,304,0,2046,3935
305,305,0,2046,3559
306,306,0,2047,3020
307,307,0,2047,2377
308,308,0,2046,1698
309,309,0,2046,1056
310,310,0,2047,517
311,311,0,2046,142
312,312,0,2047,0
313,313,0,2046,14
314,314,0,2047,277
315,315,0,2046,728
316,316,0,2046,1318
317,317,0,2046,1985
318,318,0,2046,2658
319,319,0,2046,3264
320,320,0,2047,3740
321,321,0,2047,4035
322,322,0,2046,4095
323,323,0,2046,3976
324,324,0,2046,3630
325,325,0,2046,3113
326,326,0,2047,2483
327,327,0,2046,1804
328,328,0,2047,1151
329,329,0,2046,592
330,330,0,2047,188
331,331,0,2046,0
332,332,0,2046,0
333,333,0,2046,222
334,334,0,2046,646
335,335,0,2046,1218
336,336,0,2047,1877
337,337,0,2046,2554
338,338,0,2046,3176
339,339,0,2046,3676
340,340,0,2046,4002
341,341,0,2046,4095
342,342,0,2047,4013
343,343,0,2046,3698
344,344,0,2046,3204
345,345,0,2046,2587
346,346,0,2046,1912
347,347,0,2046,1249
348,348,0,2046,671
349,349,0,2046,239
350,350,0,2046,0
351,351,0,2046,0
352,352,0,2046,172
353,353,0,2046,567
354,354,0,2046,1120
355,355,0,2046,1770
356,356,0,2046,2450
357,357,0,2047,3084
358,358,0,2046,3608
359,359,0,2046,3964
360,360,0,2046,4095
361,361,0,2046,4045
362,362,0,2046,3760
363,363,0,2046,3292
364,364,0,2046,2690
365,365,0,2046,2018
366,366,0,2046,1350
367,367,0,2047,754
368,368,0,2046,296
369,369,0,2046,22
370,370,0,2046,0
371,371,0,2047,127
372,372,0,2046,494
373,373,0,2046,1026
374,374,0,2046,1665
375,375,0,2046,2345
376,376,0,2046,2991
377,377,0,2046,3536
378,378,0,2047,3922
379,379,0,2046,4095
380,380,0,2046,4070
381,381,0,2046,3818
382,382,0,2046,3375
383,383,0,2047,2791
384,384,0,2046,2126
385,385,0,2046,1452
386,386,0,2046,840
387,387,0,2046,356
388,388,0,2046,52
389,389,0,2046,0
390,390,0,2046,88
391,391,0,2046,425
392,392,0,2046,933
393,393,0,2046,1561
394,394,0,2047,2238
395,395,0,2046,2894
396,396,0,2046,3459
397,397,0,2046,3873
398,398,0,2046,4091
399,399,0,2046,4090
400,400,0,2047,3871
401,401,0,2046,3455
402,402,0,2046,2889
403,403,0,2046,2232
404,404,0,2046,1555
405,405,0,2047,930
406,406,0,2047,422
407,407,0,2046,86
408,408,0,2047,0
409,409,0,2046,53
410,410,0,2046,359
411,411,0,2046,845
412,412,0,2046,1456
413,413,0,2046,2131
414,414,0,2046,2795
415,415,0,2046,3379
416,416,0,2046,3820
417,417,0,2046,4071
418,418,0,2046,4095
419,419,0,2047,3919
420,420,0,2046,3533
421,421,0,2046,2986
422,422,0,2047,2339
423,423,0,2046,1660
424,424,0,2046,1022
425,425,0,2046,491
426,426,0,2047,126
427,427,0,2046,0
428,428,0,2046,23
429,429,0,2046,297
430,430,0,2047,758
431,431,0,2046,1355
432,432,0,2046,2024
433,433,0,2046,2695
434,434,0,2047,3296
435,435,0,2046,3762
436,436,0,2046,4046
437,437,0,2046,4095
438,438,0,2046,3962
439,439,0,2047,3604
440,440,0,2046,3080
441,441,0,2046,2445
442,442,0,2046,1766
443,443,0,2046,1116
444,444,0,2046,564
445,445,0,2047,170
446,446,0,2047,0
447,447,0,2046,0
448,448,0,2046,241
449,449,0,2046,675
450,450,0,2046,1254
451,451,0,2046,1916
452,452,0,2046,2592
453,453,0,2046,3209
454,454,0,2047,3700
455,455,0,2046,4016
456,456,0,2046,4095
457,457,0,2047,4001
458,458,0,2046,3674
459,459,0,2046,3172
460,460,0,2047,2550
461,461,0,2046,1873
462,462,0,2047,1214
463,463,0,2047,643
464,464,0,2046,220
465,465,0,2046,0
466,466,0,2047,0
467,467,0,2047,190
468,468,0,2046,595
469,469,0,2047,1155
470,470,0,2046,1810
471,471,0,2046,2488
472,472,0,2046,3119
473,473,0,2046,3634
474,474,0,2046,3979
475,475,0,2045,4095
476,476,0,2046,4034
477,477,0,2046,3738
478,478,0,2047,3260
479,479,0,2046,2653
480,480,0,2046,1980
481,481,0,2047,1313
482,482,0,2047,723
483,483,0,2046,273
484,484,0,2046,13
485,485,0,2046,0
486,486,0,2046,143
487,487,0,2047,521
488,488,0,2046,1060
489,489,0,2047,1703
490,490,0,2045,2383
491,491,0,2047,3025
492,492,0,2046,3562
493,493,0,2047,3938
494,494,0,2046,4095
495,495,0,2046,4061
496,496,0,2046,3798
497,497,0,2047,3345
498,498,0,2047,2754
499,499,0,2046,2087
500,500,0,2046,1414
501,501,0,2046,809
502,502,0,2046,334
503,503,0,2047,40
504,504,0,2046,0
505,505,0,2046,101
506,506,0,2046,450
507,507,0,2046,965
508,508,0,2046,1598
509,509,0,2046,2276
510,510,0,2046,2930
511,511,0,2047,3487
512,512,0,2046,3892
513,513,0,2047,4095
514,514,0,2047,4084
515,515,0,2047,3853
516,516,0,2046,3427
517,517,0,2046,2853
518,518,0,2046,2194
519,519,0,2046,1518
520,520,0,2047,897
521,521,0,2046,398
522,522,0,2047,73
523,523,0,2046,0
524,524,0,2047,65
525,525,0,2046,382
526,526,0,2047,877
527,527,0,2046,1494
528,528,0,2046,2170
529,529,0,2046,2831
530,530,0,2047,3409
531,531,0,2046,3840
532,532,0,2046,4080
533,533,0,2045,4095
534,534,0,2046,3902
535,535,0,2046,3505
536,536,0,2046,2952
537,537,0,2046,2300
538,538,0,2046,1622
539,539,0,2047,988
540,540,0,2047,465
541,541,0,2047,111
542,542,0,2046,0
543,543,0,2046,34
544,544,0,2047,319
545,545,0,2047,789
546,546,0,2046,1391
547,547,0,2046,2063
548,548,0,2046,2731
549,549,0,2046,3326
550,550,0,2047,3784
551,551,0,2046,4056
552,552,0,2047,4095
553,553,0,2047,3947
554,554,0,2047,3579
555,555,0,2046,3047
556,556,0,2046,2407
557,557,0,2046,1727
558,558,0,2046,1082
559,559,0,2047,538
560,560,0,2045,153
561,561,0,2047,0
562,562,0,2046,8
563,563,0,2046,261
564,564,0,2047,704
565,565,0,2046,1290
566,566,0,2046,1955
567,567,0,2046,2629
568,568,0,2047,3240
569,569,0,2047,3723
570,570,0,2046,4026
571,571,0,2047,4095
572,572,0,2047,3987
573,573,0,2046,3649
574,574,0,2046,3139
575,575,0,2047,2512
576,576,0,2046,1833
577,577,0,2047,1177
578,578,0,2046,614
579,579,0,2046,201
580,580,0,2046,0
581,581,0,2046,0
582,582,0,2046,207
583,583,0,2046,624
584,584,0,2046,1191
585,585,0,2046,1848
586,586,0,2047,2526
587,587,0,2046,3151
588,588,0,2046,3658
589,589,0,2046,3992
590,590,0,2046,4095
591,591,0,2046,4022
592,592,0,2046,3715
593,593,0,2046,3228
594,594,0,2046,2615
595,595,0,2046,1941
596,596,0,2046,1277
597,597,0,2046,694
598,598,0,2046,254
599,599,0,2046,4
600,600,0,2046,0
601,601,0,2046,160
602,602,0,2047,548
603,603,0,2046,1094
604,604,0,2046,1742
605,605,0,2046,2421
606,606,0,2047,3059
607,607,0,2046,3589
608,608,0,2046,3953
609,609,0,2046,4095
610,610,0,2046,4051
611,611,0,2046,3777
612,612,0,2047,3315
613,613,0,2046,2718
614,614,0,2046,2048
615,615,0,2046,1377
616,616,0,2046,778
617,617,0,2046,311
618,618,0,2046,30
619,619,0,2046,0
620,620,0,2046,115
621,621,0,2047,475
622,622,0,2047,1000
623,623,0,2046,1635
624,624,0,2047,2315
625,625,0,2047,2964
626,626,0,2047,3516
627,627,0,2046,3909
628,628,0,2046,4095
629,629,0,2046,4077
630,630,0,2046,3833
631,631,0,2046,3398
632,632,0,2045,2818
633,633,0,2046,2155
634,634,0,2046,1480
635,635,0,2047,864
636,636,0,2046,374
637,637,0,2047,60
638,638,0,2047,0
639,639,0,2046,78
640,640,0,2046,406
641,641,0,2047,909
642,642,0,2046,1531
643,643,0,2046,2208
644,644,0,2047,2867
645,645,0,2046,3438
646,646,0,2047,3859
647,647,0,2046,4086
648,648,0,2046,4095
649,649,0,2046,3884
650,650,0,2046,3477
651,651,0,2046,2916
652,652,0,2046,2262
653,653,0,2046,1584
654,654,0,2047,954
655,655,0,2046,440
656,656,0,2046,97
657,657,0,2046,0
658,658,0,2047,44
659,659,0,2046,342
660,660,0,2047,819
661,661,0,2046,1428
662,662,0,2047,2101
663,663,0,2046,2767
664,664,0,2046,3357
665,665,0,2047,3805
666,666,0,2046,4066
667,667,0,2047,4095
668,668,0,2047,3931
669,669,0,2046,3552
670,670,0,2047,3013
671,671,0,2046,2369
672,672,0,2046,1689
673,673,0,2046,1047
674,674,0,2046,510
675,675,0,2046,137
676,676,0,2046,0
677,677,0,2046,16
678,678,0,2047,282
679,679,0,2046,735
680,680,0,2046,1327
681,681,0,2046,1994
682,682,0,2046,2666
683,683,0,2046,3272
684,684,0,2046,3745
685,685,0,2046,4039
686,686,0,2046,4095
687,687,0,2046,3973
688,688,0,2047,3624
689,689,0,2046,3106
690,690,0,2047,2474
691,691,0,2047,1795
692,692,0,2046,1143
693,693,0,2046,586
694,694,0,2046,184
695,695,0,2046,0
696,696,0,2046,0
697,697,0,2047,226
698,698,0,2046,653
699,699,0,2047,1226
700,700,0,2046,1887
701,701,0,2046,2563
702,702,0,2047,3184
703,703,0,2047,3682
704,704,0,2046,4005
705,705,0,2046,4095
706,706,0,2046,4011
707,707,0,2046,3691
708,708,0,2046,3197
709,709,0,2046,2578
710,710,0,2046,1903
711,711,0,2047,1241
712,712,0,2046,664
713,713,0,2046,235
714,714,0,2046,0
715,715,0,2046,0
716,716,0,2047,176
717,717,0,2046,575
718,718,0,2046,1129
719,719,0,2046,1780
720,720,0,2046,2459
721,721,0,2046,3093
722,722,0,2047,3615
723,723,0,2047,3969
724,724,0,2047,4095
725,725,0,2046,4042
726,726,0,2046,3755
727,727,0,2046,3284
728,728,0,2047,2681
729,729,0,2046,2009
730,730,0,2046,1341
731,731,0,2046,747
732,732,0,2046,291
733,733,0,2046,19
734,734,0,2046,0
735,735,0,2047,131
736,736,0,2046,501
737,737,0,2047,1033
738,738,0,2047,1674
739,739,0,2047,2353
740,740,0,2046,2999
741,741,0,2047,3542
742,742,0,2046,3925
743,743,0,2046,4095
744,744,0,2046,4068
745,745,0,2046,3813
746,746,0,2046,3368
747,747,0,2046,2782
748,748,0,2046,2116
749,749,0,2047,1443
750,750,0,2047,832
751,751,0,2047,351
752,752,0,2046,49
753,753,0,2046,0
754,754,0,2047,91
755,755,0,2047,430
756,756,0,2046,942
757,757,0,2046,1569
758,758,0,2046,2246
759,759,0,2047,2902
760,760,0,2046,3466
761,761,0,2046,3878
762,762,0,2046,4093
763,763,0,2046,4089
764,764,0,2046,3866
765,765,0,2047,3448
766,766,0,2047,2881
767,767,0,2046,2223
768,768,0,2046,1546
769,769,0,2047,922
770,770,0,2047,416
771,771,0,2046,83
772,772,0,2045,0
773,773,0,2046,56
774,774,0,2047,364
775,775,0,2047,852
776,776,0,2046,1466
777,777,0,2046,2141
778,778,0,2047,2804
779,779,0,2047,3386
780,780,0,2047,3825
781,781,0,2047,4073
782,782,0,2046,4095
783,783,0,2046,3915
784,784,0,2047,3525
785,785,0,2047,2978
786,786,0,2046,2330
787,787,0,2046,1651
788,788,0,2046,1013
789,789,0,2047,484
790,790,0,2046,122
791,791,0,2046,0
792,792,0,2046,26
793,793,0,2047,302
794,794,0,2047,766
795,795,0,2046,1363
796,796,0,2046,2033
797,797,0,2046,2703
798,798,0,2046,3304
799,799,0,2046,3768
800,800,0,2046,4049
801,801,0,2046,4095
802,802,0,2046,3959
803,803,0,2047,3598
804,804,0,2046,3071
805,805,0,2047,2435
806,806,0,2046,1757
807,807,0,2047,1108
808,808,0,2047,558
809,809,0,2046,166
810,810,0,2047,0
811,811,0,2046,1
812,812,0,2047,246
813,813,0,2046,681
814,814,0,2046,1263
815,815,0,2046,1926
816,816,0,2046,2601
817,817,0,2046,3216
818,818,0,2046,3705
819,819,0,2046,4018
820,820,0,2046,4095
821,821,0,2046,3997
822,822,0,2046,3667
823,823,0,2046,3164
824,824,0,2046,2540
825,825,0,2046,1863
826,826,0,2046,1205
827,827,0,2046,636
828,828,0,2046,216
829,829,0,2046,0
830,830,0,2046,0
831,831,0,2047,194
832,832,0,2046,603
833,833,0,2046,1164
834,834,0,2047,1819
835,835,0,2046,2497
836,836,0,2046,3126
837,837,0,2047,3639
838,838,0,2047,3982
839,839,0,2046,4095
840,840,0,2046,4031
841,841,0,2046,3732
842,842,0,2047,3253
843,843,0,2046,2643
844,844,0,2045,1970
845,845,0,2046,1305
846,846,0,2047,716
847,847,0,2046,269
848,848,0,2046,11
849,849,0,2046,0
850,850,0,2046,147
851,851,0,2047,528
852,852,0,2046,1068
853,853,0,2047,1712
854,854,0,2045,2392
855,855,0,2046,3034
856,856,0,2046,3569
857,857,0,2046,3941
858,858,0,2046,4095
859,859,0,2046,4059
860,860,0,2046,3792
861,861,0,2047,3338
862,862,0,2046,2745
863,863,0,2046,2078
864,864,0,2046,1405
865,865,0,2046,801
866,866,0,2047,328
867,867,0,2046,38
868,868,0,2046,0
869,869,0,2047,105
870,870,0,2046,455
871,871,0,2046,975
872,872,0,2046,1606
873,873,0,2046,2285
874,874,0,2047,2938
875,875,0,2046,3494
876,876,0,2047,3896
877,877,0,2047,4095
878,878,0,2047,4083
879,879,0,2046,3847
880,880,0,2047,3420
881,881,0,2047,2844
882,882,0,2046,2184
883,883,0,2046,1509
884,884,0,2046,889
885,885,0,2045,391
886,886,0,2046,70
887,887,0,2046,0
888,888,0,2046,68
889,889,0,2046,388
890,890,0,2046,884
891,891,0,2047,1502
892,892,0,2046,2179
893,893,0,2046,2839
894,894,0,2047,3416
895,895,0,2046,3844
896,896,0,2046,4081
897,897,0,2047,4095
898,898,0,2046,3898
899,899,0,2046,3498
900,900,0,2046,2943
901,901,0,2046,2292
902,902,0,2046,1613
903,903,0,2046,979
904,904,0,2046,459
905,905,0,2046,107
906,906,0,2047,0
907,907,0,2046,36
908,908,0,2046,325
909,909,0,2046,796
910,910,0,2046,1399
911,911,0,2047,2072
912,912,0,2046,2740
913,913,0,2046,3334
914,914,0,2047,3789
915,915,0,2046,4058
916,916,0,2046,4095
917,917,0,2046,3944
918,918,0,2046,3572
919,919,0,2046,3038
920,920,0,2046,2397
921,921,0,2046,1718
922,922,0,2046,1074
923,923,0,2046,531
924,924,0,2046,149
925,925,0,2047,0
926,926,0,2046,10
927,927,0,2047,266
928,928,0,2046,712
929,929,0,2046,1300
930,930,0,2046,1965
931,931,0,2047,2638
932,932,0,2046,3247
933,933,0,2046,3729
934,934,0,2047,4030
935,935,0,2047,4095
936,936,0,2046,3984
937,937,0,2047,3643
938,938,0,2046,3131
939,939,0,2047,2502
940,940,0,2046,1824
941,941,0,2046,1169
942,942,0,2047,607
943,943,0,2046,197
944,944,0,2047,0
945,945,0,2047,0
946,946,0,2047,212
947,947,0,2047,631
948,948,0,2045,1200
949,949,0,2046,1858
950,950,0,2046,2535
951,951,0,2047,3159
952,952,0,2046,3664
953,953,0,2046,3996
954,954,0,2046,4095
955,955,0,2046,4019
956,956,0,2046,3709
957,957,0,2046,3221
958,958,0,2046,2607
959,959,0,2046,1931
960,960,0,2045,1268
961,961,0,2046,687
962,962,0,2046,249
963,963,0,2046,3
964,964,0,2046,0
965,965,0,2046,164
966,966,0,2046,554
967,967,0,2046,1103
968,968,0,2046,1751
969,969,0,2046,2430
970,970,0,2046,3067
971,971,0,2046,3595
972,972,0,2046,3957
973,973,0,2045,4095
974,974,0,2046,4049
975,975,0,2046,3771
976,976,0,2047,3306
977,977,0,2046,2708
978,978,0,2046,2038
979,979,0,2046,1369
980,980,0,2046,770
981,981,0,2046,306
982,982,0,2046,27
983,983,0,2047,0
984,984,0,2046,119
985,985,0,2046,481
986,986,0,2047,1008
987,987,0,2046,1645
988,988,0,2047,2324
989,989,0,2046,2973
990,990,0,2046,3522
991,991,0,2047,3913
992,992,0,2047,4095
993,993,0,2046,4074
994,994,0,2046,3828
995,995,0,2047,3390
996,996,0,2046,2809
997,997,0,2046,2146
998,998,0,2046,1471
999,999,0,2046,857
1000,1000,0,2047,368
1001,1001,0,2046,57
1002,1002,0,2046,0
1003,1003,0,2047,80
1004,1004,0,2047,411
1005,1005,0,2046,917
1006,1006,0,2046,1540
1007,1007,0,2047,2218
1008,1008,0,2047,2876
1009,1009,0,2047,3445
1010,1010,0,2046,3863
1011,1011,0,2046,4088
1012,1012,0,2046,4094
1013,1013,0,2046,3880
1014,1014,0,2047,3469
1015,1015,0,2046,2907
1016,1016,0,2045,2253
1017,1017,0,2046,1575
1018,1018,0,2046,945
1019,1019,0,2046,434
1020,1020,0,2046,93
1021,1021,0,2046,0
1022,1022,0,2047,47
1023,1023,0,2046,347
1024,1024,0,2047,828
1025,1025,0,2046,1438
1026,1026,0,2047,2111
1027,1027,0,2047,2776
1028,1028,0,2046,3364
1029,1029,0,2046,3810
