Sample in Buffer,Sample in Window,TRIGGER,adc1_data_a_d0[11:0],adc1_data_b_d0[11:0]
0,0,0,2046,4081
1,1,0,2046,3730
2,2,0,2046,3006
3,3,0,2046,2068
4,4,0,2046,1123
5,5,0,2046,381
6,6,0,2046,5
7,7,0,2047,78
8,8,0,2046,582
9,9,0,2046,1409
10,10,0,2046,2375
11,11,0,2046,3266
12,12,0,2046,3887
13,13,0,2047,4095
14,14,0,2047,3857
15,15,0,2046,3212
16,16,0,2047,2309
17,17,0,2046,1346
18,18,0,2046,536
19,19,0,2047,58
20,20,0,2046,16
21,21,0,2047,421
22,22,0,2046,1183
23,23,0,2046,2133
24,24,0,2046,3063
25,25,0,2047,3766
26,26,0,2046,4089
27,27,0,2047,3957
28,28,0,2046,3404
29,29,0,2046,2548
30,30,0,2047,1580
31,31,0,2047,712
32,32,0,2046,138
33,33,0,2046,0
34,34,0,2046,282
35,35,0,2047,968
36,36,0,2046,1891
37,37,0,2046,2846
38,38,0,2046,3622
39,39,0,2047,4049
40,40,0,2047,4033
41,41,0,2047,3577
42,42,0,2047,2779
43,43,0,2047,1819
44,44,0,2047,907
45,45,0,2046,245
46,46,0,2046,0
47,47,0,2046,168
48,48,0,2046,768
49,49,0,2047,1649
50,50,0,2046,2617
51,51,0,2046,3456
52,52,0,2046,3983
53,53,0,2047,4080
54,54,0,2046,3726
55,55,0,2047,2999
56,56,0,2046,2062
57,57,0,2046,1117
58,58,0,2046,377
59,59,0,2047,4
60,60,0,2046,79
61,61,0,2046,587
62,62,0,2046,1414
63,63,0,2047,2380
64,64,0,2047,3271
65,65,0,2047,3889
66,66,0,2047,4095
67,67,0,2047,3854
68,68,0,2047,3208
69,69,0,2047,2304
70,70,0,2046,1341
71,71,0,2047,532
72,72,0,2046,56
73,73,0,2047,17
74,74,0,2047,424
75,75,0,2046,1188
76,76,0,2047,2139
77,77,0,2047,3067
78,78,0,2046,3770
79,79,0,2046,4088
80,80,0,2046,3956
81,81,0,2046,3399
82,82,0,2047,2542
83,83,0,2047,1574
84,84,0,2046,709
85,85,0,2046,137
86,86,0,2046,0
87,87,0,2046,285
88,88,0,2047,973
89,89,0,2047,1897
90,90,0,2046,2850
91,91,0,2047,3626
92,92,0,2047,4051
93,93,0,2047,4032
94,94,0,2046,3573
95,95,0,2047,2774
96,96,0,2046,1814
97,97,0,2047,902
98,98,0,2046,243
99,99,0,2047,0
100,100,0,2047,170
101,101,0,2046,773
102,102,0,2046,1655
103,103,0,2046,2623
104,104,0,2046,3460
105,105,0,2047,3984
106,106,0,2047,4079
107,107,0,2047,3723
108,108,0,2047,2996
109,109,0,2046,2056
110,110,0,2046,1114
111,111,0,2046,374
112,112,0,2046,3
113,113,0,2047,81
114,114,0,2047,591
115,115,0,2047,1419
116,116,0,2046,2386
117,117,0,2047,3275
118,118,0,2046,3892
119,119,0,2047,4095
120,120,0,2047,3851
121,121,0,2046,3203
122,122,0,2046,2299
123,123,0,2047,1336
124,124,0,2047,528
125,125,0,2047,55
126,126,0,2046,18
127,127,0,2046,428
128,128,0,2046,1192
129,129,0,2046,2145
130,130,0,2047,3073
131,131,0,2047,3772
132,132,0,2046,4090
133,133,0,2046,3954
134,134,0,2046,3395
135,135,0,2046,2536
136,136,0,2047,1568
137,137,0,2046,704
138,138,0,2046,134
139,139,0,2047,0
140,140,0,2046,288
141,141,0,2046,977
142,142,0,2046,1901
143,143,0,2047,2855
144,144,0,2046,3630
145,145,0,2046,4052
146,146,0,2047,4030
147,147,0,2046,3568
148,148,0,2047,2769
149,149,0,2046,1808
150,150,0,2047,898
151,151,0,2047,240
152,152,0,2047,0
153,153,0,2046,172
154,154,0,2046,777
155,155,0,2046,1661
156,156,0,2047,2628
157,157,0,2046,3464
158,158,0,2046,3986
159,159,0,2047,4078
160,160,0,2046,3720
161,161,0,2047,2990
162,162,0,2046,2051
163,163,0,2046,1108
164,164,0,2047,371
165,165,0,2046,2
166,166,0,2046,82
167,167,0,2047,595
168,168,0,2046,1425
169,169,0,2047,2391
170,170,0,2047,3280
171,171,0,2047,3894
172,172,0,2046,4095
173,173,0,2046,3849
174,174,0,2046,3199
175,175,0,2046,2292
176,176,0,2046,1331
177,177,0,2046,525
178,178,0,2046,53
179,179,0,2046,19
180,180,0,2046,432
181,181,0,2047,1199
182,182,0,2047,2150
183,183,0,2046,3078
184,184,0,2047,3775
185,185,0,2046,4090
186,186,0,2046,3952
187,187,0,2046,3391
188,188,0,2047,2532
189,189,0,2046,1563
190,190,0,2046,700
191,191,0,2047,132
192,192,0,2046,0
193,193,0,2046,290
194,194,0,2046,983
195,195,0,2046,1907
196,196,0,2046,2861
197,197,0,2046,3633
198,198,0,2047,4054
199,199,0,2047,4029
200,200,0,2046,3565
201,201,0,2047,2763
202,202,0,2046,1803
203,203,0,2047,894
204,204,0,2046,238
205,205,0,2046,0
206,206,0,2046,175
207,207,0,2046,782
208,208,0,2047,1667
209,209,0,2047,2634
210,210,0,2047,3469
211,211,0,2046,3988
212,212,0,2046,4078
213,213,0,2047,3717
214,214,0,2046,2985
215,215,0,2046,2045
216,216,0,2047,1103
217,217,0,2046,368
218,218,0,2047,1
219,219,0,2046,84
220,220,0,2047,598
221,221,0,2047,1430
222,222,0,2047,2397
223,223,0,2047,3285
224,224,0,2046,3897
225,225,0,2047,4095
226,226,0,2046,3846
227,227,0,2046,3195
228,228,0,2046,2288
229,229,0,2046,1326
230,230,0,2046,522
231,231,0,2046,51
232,232,0,2047,20
233,233,0,2047,436
234,234,0,2047,1204
235,235,0,2047,2156
236,236,0,2046,3082
237,237,0,2047,3779
238,238,0,2046,4091
239,239,0,2046,3950
240,240,0,2047,3387
241,241,0,2047,2526
242,242,0,2046,1558
243,243,0,2047,696
244,244,0,2046,129
245,245,0,2047,0
246,246,0,2046,294
247,247,0,2046,987
248,248,0,2046,1913
249,249,0,2046,2866
250,250,0,2047,3637
251,251,0,2047,4054
252,252,0,2046,4028
253,253,0,2047,3561
254,254,0,2046,2759
255,255,0,2046,1798
256,256,0,2047,889
257,257,0,2046,235
258,258,0,2046,0
259,259,0,2046,177
260,260,0,2047,786
261,261,0,2046,1673
262,262,0,2046,2639
263,263,0,2046,3473
264,264,0,2047,3990
265,265,0,2046,4077
266,266,0,2047,3714
267,267,0,2046,2981
268,268,0,2045,2040
269,269,0,2046,1099
270,270,0,2046,364
271,271,0,2046,0
272,272,0,2046,86
273,273,0,2045,602
274,274,0,2047,1436
275,275,0,2047,2402
276,276,0,2046,3289
277,277,0,2046,3899
278,278,0,2046,4095
279,279,0,2047,3843
280,280,0,2046,3190
281,281,0,2047,2282
282,282,0,2046,1320
283,283,0,2046,517
284,284,0,2046,50
285,285,0,2046,21
286,286,0,2047,438
287,287,0,2047,1208
288,288,0,2047,2161
289,289,0,2046,3087
290,290,0,2046,3781
291,291,0,2047,4091
292,292,0,2047,3948
293,293,0,2046,3383
294,294,0,2046,2520
295,295,0,2046,1553
296,296,0,2046,691
297,297,0,2046,128
298,298,0,2046,0
299,299,0,2047,296
300,300,0,2046,992
301,301,0,2047,1918
302,302,0,2047,2871
303,303,0,2046,3640
304,304,0,2047,4055
305,305,0,2046,4026
306,306,0,2046,3557
307,307,0,2047,2753
308,308,0,2046,1792
309,309,0,2046,884
310,310,0,2047,231
311,311,0,2046,0
312,312,0,2046,179
313,313,0,2046,791
314,314,0,2047,1678
315,315,0,2047,2644
316,316,0,2047,3477
317,317,0,2047,3992
318,318,0,2047,4076
319,319,0,2047,3710
320,320,0,2046,2975
321,321,0,2046,2033
322,322,0,2046,1093
323,323,0,2047,361
324,324,0,2047,0
325,325,0,2047,88
326,326,0,2047,607
327,327,0,2046,1441
328,328,0,2046,2408
329,329,0,2047,3292
330,330,0,2046,3901
331,331,0,2046,4095
332,332,0,2046,3841
333,333,0,2047,3186
334,334,0,2046,2277
335,335,0,2047,1315
336,336,0,2046,513
337,337,0,2046,48
338,338,0,2047,23
339,339,0,2046,442
340,340,0,2046,1214
341,341,0,2047,2167
342,342,0,2046,3092
343,343,0,2047,3784
344,344,0,2046,4092
345,345,0,2046,3945
346,346,0,2047,3378
347,347,0,2047,2515
348,348,0,2047,1547
349,349,0,2047,687
350,350,0,2046,126
351,351,0,2046,0
352,352,0,2046,299
353,353,0,2047,997
354,354,0,2047,1924
355,355,0,2046,2876
356,356,0,2047,3644
357,357,0,2046,4057
358,358,0,2046,4024
359,359,0,2046,3554
360,360,0,2046,2748
361,361,0,2046,1786
362,362,0,2046,880
363,363,0,2046,229
364,364,0,2046,0
365,365,0,2046,182
366,366,0,2046,795
367,367,0,2046,1683
368,368,0,2047,2649
369,369,0,2047,3480
370,370,0,2047,3994
371,371,0,2046,4075
372,372,0,2046,3707
373,373,0,2046,2971
374,374,0,2046,2029
375,375,0,2046,1088
376,376,0,2047,358
377,377,0,2046,0
378,378,0,2046,89
379,379,0,2046,610
380,380,0,2047,1446
381,381,0,2046,2413
382,382,0,2046,3297
383,383,0,2047,3904
384,384,0,2046,4095
385,385,0,2046,3838
386,386,0,2047,3180
387,387,0,2046,2271
388,388,0,2046,1310
389,389,0,2046,510
390,390,0,2046,47
391,391,0,2046,24
392,392,0,2047,445
393,393,0,2046,1218
394,394,0,2047,2172
395,395,0,2046,3097
396,396,0,2046,3788
397,397,0,2046,4092
398,398,0,2047,3944
399,399,0,2046,3374
400,400,0,2046,2510
401,401,0,2046,1543
402,402,0,2046,683
403,403,0,2046,123
404,404,0,2046,0
405,405,0,2047,303
406,406,0,2047,1002
407,407,0,2046,1930
408,408,0,2047,2882
409,409,0,2046,3647
410,410,0,2046,4058
411,411,0,2047,4023
412,412,0,2047,3550
413,413,0,2046,2743
414,414,0,2046,1781
415,415,0,2046,875
416,416,0,2046,227
417,417,0,2046,0
418,418,0,2047,183
419,419,0,2047,799
420,420,0,2047,1688
421,421,0,2046,2655
422,422,0,2046,3484
423,423,0,2046,3996
424,424,0,2046,4075
425,425,0,2047,3704
426,426,0,2046,2966
427,427,0,2046,2023
428,428,0,2047,1084
429,429,0,2046,355
430,430,0,2046,0
431,431,0,2046,91
432,432,0,2046,614
433,433,0,2046,1451
434,434,0,2046,2419
435,435,0,2046,3301
436,436,0,2047,3906
437,437,0,2046,4095
438,438,0,2046,3835
439,439,0,2046,3176
440,440,0,2046,2266
441,441,0,2046,1305
442,442,0,2046,506
443,443,0,2046,46
444,444,0,2047,25
445,445,0,2046,449
446,446,0,2046,1224
447,447,0,2046,2178
448,448,0,2047,3101
449,449,0,2047,3791
450,450,0,2047,4093
451,451,0,2047,3942
452,452,0,2047,3370
453,453,0,2046,2505
454,454,0,2046,1537
455,455,0,2047,679
456,456,0,2046,122
457,457,0,2046,0
458,458,0,2046,306
459,459,0,2047,1006
460,460,0,2047,1935
461,461,0,2046,2886
462,462,0,2046,3650
463,463,0,2046,4059
464,464,0,2046,4021
465,465,0,2046,3546
466,466,0,2045,2739
467,467,0,2047,1775
468,468,0,2046,871
469,469,0,2046,225
470,470,0,2047,0
471,471,0,2046,187
472,472,0,2046,804
473,473,0,2046,1694
474,474,0,2046,2659
475,475,0,2046,3488
476,476,0,2047,3997
477,477,0,2047,4073
478,478,0,2046,3701
479,479,0,2047,2961
480,480,0,2046,2018
481,481,0,2046,1079
482,482,0,2046,352
483,483,0,2047,0
484,484,0,2046,93
485,485,0,2046,617
486,486,0,2047,1456
487,487,0,2047,2425
488,488,0,2047,3306
489,489,0,2046,3908
490,490,0,2046,4095
491,491,0,2046,3832
492,492,0,2046,3171
493,493,0,2046,2259
494,494,0,2046,1300
495,495,0,2046,504
496,496,0,2046,45
497,497,0,2047,26
498,498,0,2047,452
499,499,0,2046,1229
500,500,0,2046,2183
501,501,0,2046,3106
502,502,0,2046,3793
503,503,0,2047,4093
504,504,0,2046,3939
505,505,0,2047,3366
506,506,0,2046,2499
507,507,0,2046,1532
508,508,0,2047,675
509,509,0,2047,120
510,510,0,2046,0
511,511,0,2046,308
512,512,0,2046,1011
513,513,0,2047,1940
514,514,0,2046,2891
515,515,0,2046,3653
516,516,0,2046,4060
517,517,0,2046,4019
518,518,0,2046,3543
519,519,0,2047,2733
520,520,0,2047,1770
521,521,0,2046,867
522,522,0,2047,221
523,523,0,2047,0
524,524,0,2046,189
525,525,0,2047,808
526,526,0,2047,1699
527,527,0,2046,2664
528,528,0,2047,3491
529,529,0,2046,3999
530,530,0,2047,4073
531,531,0,2047,3698
532,532,0,2046,2956
533,533,0,2046,2012
534,534,0,2046,1073
535,535,0,2047,348
536,536,0,2047,0
537,537,0,2047,95
538,538,0,2047,622
539,539,0,2047,1462
540,540,0,2046,2430
541,541,0,2046,3310
542,542,0,2046,3910
543,543,0,2047,4095
544,544,0,2047,3830
545,545,0,2047,3167
546,546,0,2047,2254
547,547,0,2046,1295
548,548,0,2047,499
549,549,0,2046,43
550,550,0,2046,28
551,551,0,2047,456
552,552,0,2046,1234
553,553,0,2046,2189
554,554,0,2046,3111
555,555,0,2046,3796
556,556,0,2046,4094
557,557,0,2047,3937
558,558,0,2046,3361
559,559,0,2047,2494
560,560,0,2046,1526
561,561,0,2046,671
562,562,0,2046,119
563,563,0,2046,0
564,564,0,2047,311
565,565,0,2046,1015
566,566,0,2047,1946
567,567,0,2046,2896
568,568,0,2046,3657
569,569,0,2047,4061
570,570,0,2046,4018
571,571,0,2047,3539
572,572,0,2046,2727
573,573,0,2046,1764
574,574,0,2046,862
575,575,0,2046,219
576,576,0,2047,0
577,577,0,2046,191
578,578,0,2046,812
579,579,0,2047,1704
580,580,0,2046,2670
581,581,0,2046,3496
582,582,0,2046,4001
583,583,0,2047,4071
584,584,0,2046,3695
585,585,0,2047,2950
586,586,0,2047,2006
587,587,0,2046,1069
588,588,0,2046,346
589,589,0,2046,0
590,590,0,2046,96
591,591,0,2046,625
592,592,0,2047,1468
593,593,0,2047,2435
594,594,0,2046,3315
595,595,0,2046,3912
596,596,0,2046,4095
597,597,0,2046,3827
598,598,0,2047,3162
599,599,0,2047,2249
600,600,0,2046,1290
601,601,0,2047,496
602,602,0,2046,42
603,603,0,2046,29
604,604,0,2047,459
605,605,0,2046,1238
606,606,0,2046,2194
607,607,0,2047,3115
608,608,0,2046,3799
609,609,0,2046,4095
610,610,0,2047,3935
611,611,0,2046,3357
612,612,0,2047,2489
613,613,0,2047,1521
614,614,0,2046,668
615,615,0,2046,115
616,616,0,2046,0
617,617,0,2046,314
618,618,0,2046,1021
619,619,0,2046,1951
620,620,0,2046,2901
621,621,0,2047,3661
622,622,0,2046,4062
623,623,0,2046,4018
624,624,0,2046,3535
625,625,0,2046,2722
626,626,0,2047,1759
627,627,0,2046,857
628,628,0,2047,216
629,629,0,2047,0
630,630,0,2047,193
631,631,0,2047,817
632,632,0,2046,1710
633,633,0,2046,2676
634,634,0,2046,3500
635,635,0,2047,4002
636,636,0,2047,4071
637,637,0,2047,3691
638,638,0,2046,2947
639,639,0,2047,2001
640,640,0,2046,1065
641,641,0,2046,343
642,642,0,2046,0
643,643,0,2047,99
644,644,0,2047,630
645,645,0,2047,1473
646,646,0,2047,2440
647,647,0,2046,3319
648,648,0,2047,3915
649,649,0,2046,4095
650,650,0,2046,3825
651,651,0,2046,3158
652,652,0,2046,2244
653,653,0,2046,1285
654,654,0,2046,492
655,655,0,2046,40
656,656,0,2047,29
657,657,0,2046,462
658,658,0,2047,1243
659,659,0,2047,2199
660,660,0,2046,3120
661,661,0,2046,3802
662,662,0,2046,4094
663,663,0,2046,3933
664,664,0,2047,3354
665,665,0,2047,2484
666,666,0,2047,1516
667,667,0,2046,664
668,668,0,2047,114
669,669,0,2046,0
670,670,0,2046,317
671,671,0,2047,1026
672,672,0,2046,1956
673,673,0,2047,2906
674,674,0,2046,3663
675,675,0,2046,4063
676,676,0,2047,4016
677,677,0,2046,3530
678,678,0,2046,2717
679,679,0,2046,1754
680,680,0,2046,853
681,681,0,2046,213
682,682,0,2047,0
683,683,0,2047,196
684,684,0,2047,821
685,685,0,2046,1715
686,686,0,2046,2681
687,687,0,2046,3504
688,688,0,2046,4004
689,689,0,2046,4070
690,690,0,2047,3688
691,691,0,2047,2941
692,692,0,2047,1995
693,693,0,2046,1060
694,694,0,2046,340
695,695,0,2046,0
696,696,0,2047,100
697,697,0,2047,634
698,698,0,2047,1478
699,699,0,2047,2446
700,700,0,2046,3324
701,701,0,2046,3917
702,702,0,2046,4095
703,703,0,2046,3822
704,704,0,2046,3153
705,705,0,2047,2238
706,706,0,2046,1280
707,707,0,2046,488
708,708,0,2046,39
709,709,0,2046,31
710,710,0,2046,466
711,711,0,2047,1249
712,712,0,2046,2205
713,713,0,2046,3124
714,714,0,2046,3804
715,715,0,2046,4094
716,716,0,2046,3931
717,717,0,2046,3349
718,718,0,2047,2479
719,719,0,2046,1511
720,720,0,2046,659
721,721,0,2046,112
722,722,0,2046,0
723,723,0,2047,320
724,724,0,2046,1030
725,725,0,2046,1962
726,726,0,2046,2911
727,727,0,2046,3667
728,728,0,2046,4064
729,729,0,2046,4014
730,730,0,2047,3528
731,731,0,2047,2712
732,732,0,2046,1749
733,733,0,2046,848
734,734,0,2046,211
735,735,0,2046,0
736,736,0,2046,199
737,737,0,2047,826
738,738,0,2046,1720
739,739,0,2047,2686
740,740,0,2046,3507
741,741,0,2046,4006
742,742,0,2046,4070
743,743,0,2046,3685
744,744,0,2046,2936
745,745,0,2046,1990
746,746,0,2047,1055
747,747,0,2046,336
748,748,0,2046,0
749,749,0,2046,102
750,750,0,2046,638
751,751,0,2046,1483
752,752,0,2046,2451
753,753,0,2046,3327
754,754,0,2046,3919
755,755,0,2046,4095
756,756,0,2046,3819
757,757,0,2046,3148
758,758,0,2047,2232
759,759,0,2047,1275
760,760,0,2046,486
761,761,0,2046,37
762,762,0,2046,32
763,763,0,2047,469
764,764,0,2047,1254
765,765,0,2046,2211
766,766,0,2047,3129
767,767,0,2046,3807
768,768,0,2046,4095
769,769,0,2047,3928
770,770,0,2046,3345
771,771,0,2046,2473
772,772,0,2047,1506
773,773,0,2046,655
774,774,0,2047,110
775,775,0,2047,0
776,776,0,2046,323
777,777,0,2047,1035
778,778,0,2047,1968
779,779,0,2047,2916
780,780,0,2047,3670
781,781,0,2047,4065
782,782,0,2047,4012
783,783,0,2046,3523
784,784,0,2046,2707
785,785,0,2046,1743
786,786,0,2047,845
787,787,0,2046,209
788,788,0,2047,0
789,789,0,2046,201
790,790,0,2046,830
791,791,0,2046,1726
792,792,0,2046,2691
793,793,0,2046,3511
794,794,0,2047,4007
795,795,0,2047,4068
796,796,0,2046,3681
797,797,0,2046,2932
798,798,0,2046,1985
799,799,0,2047,1051
800,800,0,2047,333
801,801,0,2046,0
802,802,0,2046,104
803,803,0,2046,642
804,804,0,2046,1488
805,805,0,2046,2457
806,806,0,2047,3332
807,807,0,2047,3922
808,808,0,2046,4095
809,809,0,2047,3816
810,810,0,2047,3144
811,811,0,2046,2227
812,812,0,2046,1270
813,813,0,2046,481
814,814,0,2046,36
815,815,0,2046,34
816,816,0,2046,473
817,817,0,2046,1259
818,818,0,2046,2217
819,819,0,2047,3134
820,820,0,2046,3811
821,821,0,2047,4095
822,822,0,2046,3926
823,823,0,2047,3341
824,824,0,2046,2467
825,825,0,2046,1499
826,826,0,2046,650
827,827,0,2046,109
828,828,0,2047,0
829,829,0,2046,326
830,830,0,2046,1039
831,831,0,2046,1973
832,832,0,2047,2922
833,833,0,2047,3674
834,834,0,2046,4066
835,835,0,2047,4011
836,836,0,2046,3519
837,837,0,2046,2702
838,838,0,2047,1738
839,839,0,2046,839
840,840,0,2046,206
841,841,0,2046,0
842,842,0,2047,203
843,843,0,2047,834
844,844,0,2046,1732
845,845,0,2046,2696
846,846,0,2046,3515
847,847,0,2046,4008
848,848,0,2047,4068
849,849,0,2046,3677
850,850,0,2046,2927
851,851,0,2046,1979
852,852,0,2047,1045
853,853,0,2047,330
854,854,0,2046,0
855,855,0,2047,106
856,856,0,2047,647
857,857,0,2047,1494
858,858,0,2047,2461
859,859,0,2046,3336
860,860,0,2047,3924
861,861,0,2046,4095
862,862,0,2046,3814
863,863,0,2047,3139
864,864,0,2046,2222
865,865,0,2046,1264
866,866,0,2046,478
867,867,0,2046,35
868,868,0,2047,35
869,869,0,2046,477
870,870,0,2047,1264
871,871,0,2046,2221
872,872,0,2046,3139
873,873,0,2047,3813
874,874,0,2046,4095
875,875,0,2047,3924
876,876,0,2046,3336
877,877,0,2046,2462
878,878,0,2047,1495
879,879,0,2047,647
880,880,0,2047,106
881,881,0,2046,0
882,882,0,2047,330
883,883,0,2046,1044
884,884,0,2047,1979
885,885,0,2046,2926
886,886,0,2046,3677
887,887,0,2047,4067
888,888,0,2047,4009
889,889,0,2047,3516
890,890,0,2047,2697
891,891,0,2047,1732
892,892,0,2046,834
893,893,0,2047,204
894,894,0,2047,0
895,895,0,2047,206
896,896,0,2047,839
897,897,0,2047,1736
898,898,0,2047,2701
899,899,0,2047,3519
900,900,0,2046,4010
901,901,0,2047,4067
902,902,0,2047,3674
903,903,0,2046,2921
904,904,0,2046,1974
905,905,0,2046,1040
906,906,0,2046,327
907,907,0,2047,0
908,908,0,2046,108
909,909,0,2046,651
910,910,0,2047,1499
911,911,0,2047,2467
912,912,0,2047,3340
913,913,0,2046,3926
914,914,0,2047,4095
915,915,0,2046,3811
916,916,0,2046,3134
917,917,0,2047,2216
918,918,0,2046,1260
919,919,0,2046,474
920,920,0,2046,34
921,921,0,2046,36
922,922,0,2047,481
923,923,0,2046,1269
924,924,0,2046,2226
925,925,0,2046,3143
926,926,0,2046,3816
927,927,0,2047,4095
928,928,0,2046,3921
929,929,0,2047,3332
930,930,0,2046,2456
931,931,0,2046,1488
932,932,0,2046,643
933,933,0,2046,105
934,934,0,2046,0
935,935,0,2047,332
936,936,0,2046,1049
937,937,0,2047,1984
938,938,0,2046,2931
939,939,0,2046,3680
940,940,0,2046,4067
941,941,0,2046,4008
942,942,0,2046,3512
943,943,0,2046,2691
944,944,0,2046,1727
945,945,0,2047,830
946,946,0,2046,202
947,947,0,2046,0
948,948,0,2047,209
949,949,0,2046,843
950,950,0,2047,1742
951,951,0,2046,2706
952,952,0,2046,3522
953,953,0,2046,4012
954,954,0,2046,4066
955,955,0,2046,3672
956,956,0,2046,2916
957,957,0,2046,1968
958,958,0,2046,1035
959,959,0,2046,323
960,960,0,2046,0
961,961,0,2046,110
962,962,0,2047,654
963,963,0,2046,1504
964,964,0,2046,2472
965,965,0,2046,3344
966,966,0,2047,3928
967,967,0,2047,4095
968,968,0,2046,3807
969,969,0,2046,3130
970,970,0,2047,2211
971,971,0,2046,1255
972,972,0,2046,470
973,973,0,2046,32
974,974,0,2046,38
975,975,0,2046,484
976,976,0,2046,1274
977,977,0,2046,2232
978,978,0,2046,3148
979,979,0,2046,3818
980,980,0,2046,4095
981,981,0,2046,3920
982,982,0,2047,3327
983,983,0,2047,2451
984,984,0,2047,1484
985,985,0,2047,638
986,986,0,2047,103
987,987,0,2046,0
988,988,0,2046,336
989,989,0,2047,1054
990,990,0,2046,1991
991,991,0,2046,2936
992,992,0,2046,3685
993,993,0,2046,4069
994,994,0,2047,4006
995,995,0,2046,3508
996,996,0,2046,2686
997,997,0,2046,1720
998,998,0,2047,826
999,999,0,2046,199
1000,1000,0,2047,0
1001,1001,0,2046,211
1002,1002,0,2046,849
1003,1003,0,2047,1748
1004,1004,0,2046,2712
1005,1005,0,2046,3527
1006,1006,0,2046,4013
1007,1007,0,2046,4064
1008,1008,0,2046,3668
1009,1009,0,2046,2911
1010,1010,0,2046,1962
1011,1011,0,2046,1030
1012,1012,0,2047,320
1013,1013,0,2046,0
1014,1014,0,2047,112
1015,1015,0,2047,659
1016,1016,0,2046,1510
1017,1017,0,2046,2478
1018,1018,0,2046,3349
1019,1019,0,2047,3930
1020,1020,0,2046,4095
1021,1021,0,2047,3805
1022,1022,0,2046,3126
1023,1023,0,2046,2206
1024,1024,0,2046,1249
1025,1025,0,2046,467
1026,1026,0,2047,32
1027,1027,0,2047,39
1028,1028,0,2047,489
