Sample in Buffer,Sample in Window,TRIGGER,adc1_data_a_d0[11:0],adc1_data_b_d0[11:0]
0,0,0,2046,2866
1,1,0,2046,3349
2,2,0,2046,3737
3,3,0,2046,4000
4,4,0,2047,4095
5,5,0,2046,4083
6,6,0,2047,3899
7,7,0,2046,3576
8,8,0,2046,3140
9,9,0,2046,2624
10,10,0,2046,2064
11,11,0,2046,1503
12,12,0,2047,980
13,13,0,2046,536
14,14,0,2046,203
15,15,0,2047,4
16,16,0,2046,0
17,17,0,2047,59
18,18,0,2046,310
19,19,0,2046,688
20,20,0,2046,1165
21,21,0,2046,1707
22,22,0,2047,2272
23,23,0,2046,2821
24,24,0,2047,3312
25,25,0,2047,3709
26,26,0,2047,3983
27,27,0,2046,4095
28,28,0,2046,4092
29,29,0,2047,3920
30,30,0,2046,3608
31,31,0,2046,3180
32,32,0,2046,2669
33,33,0,2047,2111
34,34,0,2046,1548
35,35,0,2047,1021
36,36,0,2046,570
37,37,0,2046,226
38,38,0,2046,14
39,39,0,2047,0
40,40,0,2047,45
41,41,0,2046,284
42,42,0,2046,652
43,43,0,2046,1122
44,44,0,2047,1659
45,45,0,2047,2225
46,46,0,2047,2777
47,47,0,2046,3274
48,48,0,2046,3681
49,49,0,2047,3966
50,50,0,2046,4095
51,51,0,2046,4095
52,52,0,2046,3939
53,53,0,2047,3638
54,54,0,2047,3220
55,55,0,2046,2715
56,56,0,2046,2159
57,57,0,2047,1595
58,58,0,2046,1064
59,59,0,2046,604
60,60,0,2046,250
61,61,0,2046,27
62,62,0,2046,0
63,63,0,2046,32
64,64,0,2047,259
65,65,0,2047,616
66,66,0,2046,1079
67,67,0,2046,1612
68,68,0,2047,2177
69,69,0,2047,2732
70,70,0,2047,3235
71,71,0,2046,3650
72,72,0,2047,3948
73,73,0,2046,4095
74,74,0,2046,4095
75,75,0,2046,3959
76,76,0,2046,3669
77,77,0,2047,3259
78,78,0,2046,2760
79,79,0,2046,2207
80,80,0,2047,1642
81,81,0,2046,1106
82,82,0,2047,639
83,83,0,2047,275
84,84,0,2046,40
85,85,0,2046,0
86,86,0,2046,19
87,87,0,2046,234
88,88,0,2046,582
89,89,0,2047,1037
90,90,0,2047,1566
91,91,0,2047,2129
92,92,0,2047,2686
93,93,0,2046,3196
94,94,0,2046,3619
95,95,0,2046,3927
96,96,0,2047,4095
97,97,0,2046,4095
98,98,0,2046,3977
99,99,0,2047,3698
100,100,0,2046,3298
101,101,0,2046,2805
102,102,0,2047,2254
103,103,0,2047,1689
104,104,0,2046,1149
105,105,0,2047,674
106,106,0,2046,300
107,107,0,2047,54
108,108,0,2046,0
109,109,0,2046,8
110,110,0,2046,211
111,111,0,2047,548
112,112,0,2046,995
113,113,0,2046,1519
114,114,0,2047,2082
115,115,0,2046,2641
116,116,0,2047,3156
117,117,0,2047,3588
118,118,0,2046,3907
119,119,0,2047,4087
120,120,0,2046,4095
121,121,0,2046,3995
122,122,0,2047,3727
123,123,0,2046,3335
124,124,0,2047,2849
125,125,0,2046,2301
126,126,0,2046,1735
127,127,0,2046,1193
128,128,0,2046,711
129,129,0,2046,327
130,130,0,2046,69
131,131,0,2046,0
132,132,0,2047,0
133,133,0,2046,188
134,134,0,2047,515
135,135,0,2047,954
136,136,0,2046,1473
137,137,0,2047,2034
138,138,0,2046,2595
139,139,0,2046,3115
140,140,0,2046,3556
141,141,0,2047,3885
142,142,0,2047,4078
143,143,0,2047,4095
144,144,0,2047,4011
145,145,0,2046,3755
146,146,0,2046,3373
147,147,0,2047,2892
148,148,0,2046,2349
149,149,0,2046,1783
150,150,0,2046,1236
151,151,0,2046,748
152,152,0,2046,355
153,153,0,2046,86
154,154,0,2046,0
155,155,0,2046,0
156,156,0,2046,167
157,157,0,2047,483
158,158,0,2047,914
159,159,0,2046,1427
160,160,0,2046,1986
161,161,0,2046,2549
162,162,0,2047,3074
163,163,0,2046,3522
164,164,0,2046,3863
165,165,0,2046,4067
166,166,0,2046,4095
167,167,0,2047,4025
168,168,0,2045,3780
169,169,0,2046,3408
170,170,0,2047,2935
171,171,0,2046,2396
172,172,0,2047,1830
173,173,0,2046,1280
174,174,0,2046,786
175,175,0,2047,384
176,176,0,2046,103
177,177,0,2046,0
178,178,0,2047,0
179,179,0,2047,146
180,180,0,2046,452
181,181,0,2046,874
182,182,0,2046,1382
183,183,0,2046,1938
184,184,0,2046,2502
185,185,0,2047,3032
186,186,0,2046,3488
187,187,0,2046,3839
188,188,0,2046,4055
189,189,0,2046,4095
190,190,0,2046,4039
191,191,0,2046,3807
192,192,0,2047,3444
193,193,0,2047,2978
194,194,0,2046,2443
195,195,0,2047,1878
196,196,0,2047,1325
197,197,0,2047,824
198,198,0,2045,413
199,199,0,2045,122
200,200,0,2047,0
201,201,0,2046,0
202,202,0,2046,126
203,203,0,2046,421
204,204,0,2046,835
205,205,0,2046,1336
206,206,0,2046,1891
207,207,0,2047,2456
208,208,0,2046,2990
209,209,0,2046,3454
210,210,0,2046,3813
211,211,0,2046,4042
212,212,0,2046,4095
213,213,0,2046,4052
214,214,0,2047,3832
215,215,0,2046,3479
216,216,0,2046,3020
217,217,0,2046,2490
218,218,0,2047,1926
219,219,0,2046,1371
220,220,0,2047,863
221,221,0,2046,443
222,222,0,2046,141
223,223,0,2046,0
224,224,0,2046,0
225,225,0,2046,108
226,226,0,2046,392
227,227,0,2045,797
228,228,0,2046,1292
229,229,0,2046,1843
230,230,0,2047,2408
231,231,0,2046,2947
232,232,0,2046,3418
233,233,0,2046,3788
234,234,0,2046,4029
235,235,0,2047,4095
236,236,0,2046,4064
237,237,0,2046,3856
238,238,0,2046,3512
239,239,0,2046,3062
240,240,0,2047,2536
241,241,0,2047,1974
242,242,0,2046,1416
243,243,0,2046,904
244,244,0,2047,475
245,245,0,2047,162
246,246,0,2046,0
247,247,0,2047,0
248,248,0,2046,90
249,249,0,2046,363
250,250,0,2046,758
251,251,0,2046,1248
252,252,0,2046,1796
253,253,0,2046,2362
254,254,0,2046,2903
255,255,0,2045,3383
256,256,0,2046,3762
257,257,0,2046,4014
258,258,0,2046,4095
259,259,0,2047,4075
260,260,0,2046,3878
261,261,0,2046,3546
262,262,0,2046,3104
263,263,0,2046,2583
264,264,0,2047,2021
265,265,0,2046,1462
266,266,0,2046,944
267,267,0,2046,507
268,268,0,2046,182
269,269,0,2047,0
270,270,0,2045,0
271,271,0,2047,73
272,272,0,2046,334
273,273,0,2046,720
274,274,0,2047,1204
275,275,0,2047,1749
276,276,0,2046,2315
277,277,0,2046,2861
278,278,0,2046,3345
279,279,0,2046,3735
280,280,0,2047,3998
281,281,0,2046,4095
282,282,0,2046,4084
283,283,0,2046,3900
284,284,0,2046,3580
285,285,0,2046,3145
286,286,0,2046,2628
287,287,0,2047,2069
288,288,0,2046,1507
289,289,0,2046,984
290,290,0,2046,539
291,291,0,2046,205
292,292,0,2046,5
293,293,0,2047,0
294,294,0,2046,58
295,295,0,2046,308
296,296,0,2046,684
297,297,0,2046,1161
298,298,0,2046,1702
299,299,0,2046,2268
300,300,0,2046,2816
301,301,0,2047,3309
302,302,0,2046,3707
303,303,0,2046,3982
304,304,0,2046,4095
305,305,0,2047,4094
306,306,0,2047,3922
307,307,0,2046,3611
308,308,0,2046,3185
309,309,0,2046,2674
310,310,0,2047,2116
311,311,0,2046,1553
312,312,0,2047,1026
313,313,0,2046,573
314,314,0,2047,228
315,315,0,2046,16
316,316,0,2046,0
317,317,0,2046,44
318,318,0,2046,281
319,319,0,2046,648
320,320,0,2047,1117
321,321,0,2046,1654
322,322,0,2047,2219
323,323,0,2047,2771
324,324,0,2046,3270
325,325,0,2046,3677
326,326,0,2047,3964
327,327,0,2046,4095
328,328,0,2046,4095
329,329,0,2046,3942
330,330,0,2047,3642
331,331,0,2046,3224
332,332,0,2046,2719
333,333,0,2046,2164
334,334,0,2046,1601
335,335,0,2046,1068
336,336,0,2046,608
337,337,0,2046,253
338,338,0,2046,28
339,339,0,2047,0
340,340,0,2046,30
341,341,0,2046,255
342,342,0,2047,613
343,343,0,2046,1075
344,344,0,2047,1607
345,345,0,2046,2172
346,346,0,2046,2727
347,347,0,2046,3231
348,348,0,2047,3648
349,349,0,2047,3945
350,350,0,2046,4095
351,351,0,2047,4095
352,352,0,2046,3960
353,353,0,2046,3672
354,354,0,2046,3263
355,355,0,2046,2765
356,356,0,2046,2212
357,357,0,2046,1647
358,358,0,2046,1111
359,359,0,2047,642
360,360,0,2047,278
361,361,0,2046,42
362,362,0,2046,0
363,363,0,2047,19
364,364,0,2046,232
365,365,0,2046,578
366,366,0,2046,1033
367,367,0,2047,1561
368,368,0,2047,2124
369,369,0,2046,2681
370,370,0,2046,3191
371,371,0,2046,3616
372,372,0,2046,3925
373,373,0,2047,4094
374,374,0,2047,4095
375,375,0,2047,3978
376,376,0,2046,3701
377,377,0,2046,3301
378,378,0,2046,2809
379,379,0,2046,2258
380,380,0,2046,1694
381,381,0,2046,1153
382,382,0,2046,679
383,383,0,2046,304
384,384,0,2046,56
385,385,0,2046,0
386,386,0,2046,6
387,387,0,2046,209
388,388,0,2046,545
389,389,0,2047,991
390,390,0,2046,1515
391,391,0,2046,2077
392,392,0,2046,2636
393,393,0,2046,3151
394,394,0,2047,3584
395,395,0,2046,3904
396,396,0,2046,4086
397,397,0,2046,4095
398,398,0,2046,3996
399,399,0,2046,3729
400,400,0,2047,3339
401,401,0,2046,2854
402,402,0,2046,2306
403,403,0,2047,1741
404,404,0,2046,1197
405,405,0,2047,715
406,406,0,2047,331
407,407,0,2047,71
408,408,0,2046,0
409,409,0,2047,0
410,410,0,2046,186
411,411,0,2046,512
412,412,0,2046,950
413,413,0,2047,1469
414,414,0,2046,2029
415,415,0,2046,2589
416,416,0,2046,3110
417,417,0,2047,3552
418,418,0,2046,3882
419,419,0,2046,4076
420,420,0,2046,4095
421,421,0,2046,4012
422,422,0,2046,3758
423,423,0,2046,3376
424,424,0,2046,2897
425,425,0,2047,2354
426,426,0,2046,1788
427,427,0,2046,1241
428,428,0,2046,751
429,429,0,2047,358
430,430,0,2046,88
431,431,0,2046,0
432,432,0,2046,0
433,433,0,2046,164
434,434,0,2047,480
435,435,0,2047,909
436,436,0,2046,1422
437,437,0,2046,1981
438,438,0,2046,2544
439,439,0,2046,3069
440,440,0,2047,3519
441,441,0,2046,3860
442,442,0,2047,4066
443,443,0,2046,4095
444,444,0,2046,4027
445,445,0,2046,3784
446,446,0,2047,3413
447,447,0,2046,2940
448,448,0,2046,2402
449,449,0,2047,1835
450,450,0,2046,1285
451,451,0,2047,790
452,452,0,2046,386
453,453,0,2047,105
454,454,0,2047,0
455,455,0,2047,0
456,456,0,2046,143
457,457,0,2046,449
458,458,0,2046,869
459,459,0,2047,1377
460,460,0,2046,1933
461,461,0,2047,2498
462,462,0,2047,3027
463,463,0,2046,3484
464,464,0,2046,3836
465,465,0,2047,4055
466,466,0,2046,4095
467,467,0,2046,4041
468,468,0,2047,3810
469,469,0,2047,3448
470,470,0,2046,2983
471,471,0,2047,2448
472,472,0,2046,1884
473,473,0,2046,1329
474,474,0,2046,828
475,475,0,2046,416
476,476,0,2046,124
477,477,0,2046,0
478,478,0,2046,0
479,479,0,2047,125
480,480,0,2046,418
481,481,0,2047,831
482,482,0,2046,1332
483,483,0,2046,1885
484,484,0,2045,2450
485,485,0,2046,2985
486,486,0,2046,3450
487,487,0,2046,3811
488,488,0,2046,4041
489,489,0,2046,4095
490,490,0,2046,4053
491,491,0,2046,3835
492,492,0,2047,3483
493,493,0,2046,3025
494,494,0,2046,2495
495,495,0,2046,1931
496,496,0,2047,1375
497,497,0,2046,868
498,498,0,2046,447
499,499,0,2047,143
500,500,0,2047,0
501,501,0,2046,0
502,502,0,2046,105
503,503,0,2046,389
504,504,0,2046,792
505,505,0,2046,1287
506,506,0,2047,1839
507,507,0,2047,2404
508,508,0,2046,2942
509,509,0,2047,3415
510,510,0,2047,3786
511,511,0,2046,4027
512,512,0,2046,4095
513,513,0,2046,4065
514,514,0,2046,3858
515,515,0,2047,3517
516,516,0,2047,3067
517,517,0,2046,2541
518,518,0,2046,1979
519,519,0,2047,1421
520,520,0,2046,907
521,521,0,2046,479
522,522,0,2047,164
523,523,0,2046,0
524,524,0,2047,0
525,525,0,2046,88
526,526,0,2046,360
527,527,0,2046,754
528,528,0,2046,1243
529,529,0,2046,1791
530,530,0,2046,2357
531,531,0,2047,2899
532,532,0,2046,3378
533,533,0,2046,3758
534,534,0,2046,4012
535,535,0,2046,4095
536,536,0,2046,4077
537,537,0,2046,3881
538,538,0,2046,3550
539,539,0,2046,3108
540,540,0,2046,2588
541,541,0,2047,2027
542,542,0,2047,1466
543,543,0,2046,948
544,544,0,2046,510
545,545,0,2047,185
546,546,0,2046,0
547,547,0,2047,0
548,548,0,2046,72
549,549,0,2046,331
550,550,0,2046,716
551,551,0,2046,1199
552,552,0,2046,1743
553,553,0,2046,2309
554,554,0,2047,2856
555,555,0,2046,3341
556,556,0,2046,3732
557,557,0,2046,3996
558,558,0,2046,4095
559,559,0,2047,4085
560,560,0,2047,3903
561,561,0,2047,3582
562,562,0,2046,3149
563,563,0,2046,2634
564,564,0,2046,2074
565,565,0,2047,1513
566,566,0,2046,988
567,567,0,2046,543
568,568,0,2046,208
569,569,0,2047,7
570,570,0,2047,0
571,571,0,2047,56
572,572,0,2046,305
573,573,0,2046,680
574,574,0,2046,1155
575,575,0,2046,1696
576,576,0,2047,2262
577,577,0,2047,2812
578,578,0,2046,3303
579,579,0,2046,3704
580,580,0,2046,3979
581,581,0,2047,4095
582,582,0,2046,4094
583,583,0,2047,3923
584,584,0,2046,3615
585,585,0,2047,3189
586,586,0,2047,2678
587,587,0,2047,2122
588,588,0,2046,1558
589,589,0,2046,1031
590,590,0,2047,577
591,591,0,2047,231
592,592,0,2046,18
593,593,0,2046,0
594,594,0,2047,42
595,595,0,2046,279
596,596,0,2046,644
597,597,0,2047,1113
598,598,0,2046,1649
599,599,0,2047,2215
600,600,0,2046,2767
601,601,0,2047,3265
602,602,0,2046,3674
603,603,0,2047,3962
604,604,0,2047,4095
605,605,0,2045,4095
606,606,0,2046,3944
607,607,0,2046,3645
608,608,0,2046,3228
609,609,0,2047,2725
610,610,0,2046,2169
611,611,0,2046,1605
612,612,0,2046,1072
613,613,0,2046,611
614,614,0,2046,255
615,615,0,2046,30
616,616,0,2046,0
617,617,0,2047,29
618,618,0,2047,254
619,619,0,2047,610
620,620,0,2047,1069
621,621,0,2047,1603
622,622,0,2046,2167
623,623,0,2047,2722
624,624,0,2046,3227
625,625,0,2046,3644
626,626,0,2046,3943
627,627,0,2047,4095
628,628,0,2047,4095
629,629,0,2047,3963
630,630,0,2046,3675
631,631,0,2047,3268
632,632,0,2046,2769
633,633,0,2046,2217
634,634,0,2047,1652
635,635,0,2047,1116
636,636,0,2046,646
637,637,0,2047,280
638,638,0,2047,43
639,639,0,2047,0
640,640,0,2047,18
641,641,0,2046,229
642,642,0,2046,575
643,643,0,2047,1028
644,644,0,2046,1556
645,645,0,2047,2119
646,646,0,2046,2676
647,647,0,2046,3187
648,648,0,2046,3613
649,649,0,2047,3923
650,650,0,2047,4094
651,651,0,2046,4095
652,652,0,2046,3980
653,653,0,2046,3704
654,654,0,2046,3305
655,655,0,2046,2814
656,656,0,2046,2265
657,657,0,2047,1700
658,658,0,2045,1158
659,659,0,2046,683
660,660,0,2046,307
661,661,0,2046,57
662,662,0,2046,0
663,663,0,2046,6
664,664,0,2047,206
665,665,0,2046,541
666,666,0,2047,987
667,667,0,2047,1510
668,668,0,2047,2071
669,669,0,2046,2631
670,670,0,2046,3147
671,671,0,2046,3581
672,672,0,2047,3902
673,673,0,2046,4086
674,674,0,2046,4095
675,675,0,2046,3998
676,676,0,2046,3732
677,677,0,2046,3343
678,678,0,2047,2858
679,679,0,2047,2312
680,680,0,2046,1746
681,681,0,2047,1202
682,682,0,2046,719
683,683,0,2046,333
684,684,0,2046,73
685,685,0,2046,0
686,686,0,2046,0
687,687,0,2047,184
688,688,0,2046,508
689,689,0,2046,946
690,690,0,2046,1464
691,691,0,2046,2024
692,692,0,2046,2586
693,693,0,2047,3106
694,694,0,2046,3548
695,695,0,2047,3881
696,696,0,2046,4076
697,697,0,2047,4095
698,698,0,2046,4014
699,699,0,2046,3760
700,700,0,2046,3380
701,701,0,2047,2902
702,702,0,2046,2359
703,703,0,2046,1794
704,704,0,2046,1245
705,705,0,2047,756
706,706,0,2047,362
707,707,0,2047,90
708,708,0,2047,0
709,709,0,2046,0
710,710,0,2046,162
711,711,0,2046,477
712,712,0,2046,905
713,713,0,2047,1418
714,714,0,2046,1976
715,715,0,2046,2538
716,716,0,2047,3065
717,717,0,2047,3516
718,718,0,2046,3857
719,719,0,2047,4065
720,720,0,2046,4095
721,721,0,2047,4029
722,722,0,2046,3786
723,723,0,2047,3416
724,724,0,2046,2945
725,725,0,2046,2406
726,726,0,2047,1841
727,727,0,2046,1290
728,728,0,2046,794
729,729,0,2047,390
730,730,0,2047,107
731,731,0,2046,0
732,732,0,2046,0
733,733,0,2045,141
734,734,0,2047,445
735,735,0,2046,865
736,736,0,2046,1373
737,737,0,2046,1928
738,738,0,2046,2493
739,739,0,2046,3023
740,740,0,2046,3481
741,741,0,2047,3833
742,742,0,2047,4053
743,743,0,2046,4095
744,744,0,2046,4043
745,745,0,2046,3813
746,746,0,2047,3451
747,747,0,2047,2987
748,748,0,2046,2453
749,749,0,2046,1889
750,750,0,2047,1335
751,751,0,2047,833
752,752,0,2046,420
753,753,0,2046,126
754,754,0,2046,0
755,755,0,2046,0
756,756,0,2047,122
757,757,0,2046,415
758,758,0,2046,826
759,759,0,2047,1328
760,760,0,2046,1880
761,761,0,2046,2446
762,762,0,2047,2981
763,763,0,2047,3446
764,764,0,2047,3809
765,765,0,2047,4040
766,766,0,2046,4095
767,767,0,2046,4055
768,768,0,2045,3837
769,769,0,2047,3486
770,770,0,2046,3030
771,771,0,2047,2500
772,772,0,2046,1937
773,773,0,2046,1380
774,774,0,2047,871
775,775,0,2046,450
776,776,0,2047,145
777,777,0,2046,0
778,778,0,2046,0
779,779,0,2047,103
780,780,0,2047,385
781,781,0,2046,788
782,782,0,2047,1282
783,783,0,2046,1833
784,784,0,2046,2398
785,785,0,2047,2938
786,786,0,2046,3410
787,787,0,2046,3783
788,788,0,2046,4026
789,789,0,2047,4095
790,790,0,2046,4066
791,791,0,2047,3860
792,792,0,2047,3521
793,793,0,2047,3072
794,794,0,2046,2547
795,795,0,2047,1984
796,796,0,2046,1426
797,797,0,2047,913
798,798,0,2046,482
799,799,0,2046,166
800,800,0,2046,0
801,801,0,2046,0
802,802,0,2046,86
803,803,0,2047,356
804,804,0,2046,751
805,805,0,2047,1239
806,806,0,2046,1786
807,807,0,2046,2351
808,808,0,2046,2894
809,809,0,2047,3374
810,810,0,2046,3756
811,811,0,2046,4011
812,812,0,2047,4095
813,813,0,2047,4078
814,814,0,2046,3884
815,815,0,2047,3553
816,816,0,2047,3114
817,817,0,2046,2593
818,818,0,2046,2031
819,819,0,2046,1471
820,820,0,2047,952
821,821,0,2047,515
822,822,0,2047,187
823,823,0,2047,0
824,824,0,2047,0
825,825,0,2047,69
826,826,0,2047,329
827,827,0,2046,713
828,828,0,2046,1195
829,829,0,2046,1738
830,830,0,2046,2304
831,831,0,2046,2851
832,832,0,2047,3337
833,833,0,2046,3728
834,834,0,2046,3995
835,835,0,2047,4095
836,836,0,2046,4087
837,837,0,2046,3906
838,838,0,2047,3586
839,839,0,2047,3153
840,840,0,2046,2639
841,841,0,2047,2079
842,842,0,2047,1517
843,843,0,2047,994
844,844,0,2046,547
845,845,0,2047,210
846,846,0,2047,7
847,847,0,2047,0
848,848,0,2047,55
849,849,0,2047,302
850,850,0,2047,676
851,851,0,2047,1151
852,852,0,2046,1691
853,853,0,2046,2256
854,854,0,2046,2806
855,855,0,2046,3299
856,856,0,2046,3700
857,857,0,2047,3978
858,858,0,2046,4095
859,859,0,2046,4095
860,860,0,2046,3926
861,861,0,2047,3618
862,862,0,2046,3193
863,863,0,2046,2684
864,864,0,2047,2127
865,865,0,2047,1564
866,866,0,2046,1035
867,867,0,2047,581
868,868,0,2046,233
869,869,0,2047,19
870,870,0,2047,0
871,871,0,2046,41
872,872,0,2047,276
873,873,0,2046,640
874,874,0,2047,1108
875,875,0,2046,1644
876,876,0,2046,2209
877,877,0,2046,2763
878,878,0,2046,3261
879,879,0,2046,3671
880,880,0,2046,3960
881,881,0,2046,4095
882,882,0,2046,4095
883,883,0,2046,3946
884,884,0,2046,3649
885,885,0,2047,3233
886,886,0,2046,2730
887,887,0,2046,2174
888,888,0,2046,1610
889,889,0,2046,1078
890,890,0,2046,616
891,891,0,2047,258
892,892,0,2047,32
893,893,0,2046,0
894,894,0,2046,28
895,895,0,2047,251
896,896,0,2046,605
897,897,0,2046,1065
898,898,0,2046,1597
899,899,0,2046,2161
900,900,0,2046,2717
901,901,0,2047,3222
902,902,0,2046,3641
903,903,0,2046,3941
904,904,0,2047,4095
905,905,0,2046,4095
906,906,0,2046,3964
907,907,0,2046,3678
908,908,0,2046,3271
909,909,0,2047,2774
910,910,0,2046,2222
911,911,0,2046,1658
912,912,0,2046,1120
913,913,0,2046,650
914,914,0,2045,282
915,915,0,2047,45
916,916,0,2046,0
917,917,0,2046,15
918,918,0,2045,227
919,919,0,2046,572
920,920,0,2047,1024
921,921,0,2047,1551
922,922,0,2046,2114
923,923,0,2046,2672
924,924,0,2047,3183
925,925,0,2046,3609
926,926,0,2047,3921
927,927,0,2047,4093
928,928,0,2046,4095
929,929,0,2047,3983
930,930,0,2046,3707
931,931,0,2047,3310
932,932,0,2047,2819
933,933,0,2046,2270
934,934,0,2046,1705
935,935,0,2047,1163
936,936,0,2047,687
937,937,0,2046,310
938,938,0,2046,59
939,939,0,2047,0
940,940,0,2047,4
941,941,0,2046,203
942,942,0,2046,538
943,943,0,2046,982
944,944,0,2046,1504
945,945,0,2046,2066
946,946,0,2046,2626
947,947,0,2046,3143
948,948,0,2046,3578
949,949,0,2046,3900
950,950,0,2047,4084
951,951,0,2046,4095
952,952,0,2047,3999
953,953,0,2046,3736
954,954,0,2046,3348
955,955,0,2047,2863
956,956,0,2047,2317
957,957,0,2047,1752
958,958,0,2046,1206
959,959,0,2047,723
960,960,0,2046,337
961,961,0,2047,75
962,962,0,2046,0
963,963,0,2046,0
964,964,0,2046,181
965,965,0,2046,505
966,966,0,2046,941
967,967,0,2046,1459
968,968,0,2046,2019
969,969,0,2046,2580
970,970,0,2047,3102
971,971,0,2047,3544
972,972,0,2047,3878
973,973,0,2047,4074
974,974,0,2046,4095
975,975,0,2047,4016
976,976,0,2046,3763
977,977,0,2046,3385
978,978,0,2046,2906
979,979,0,2046,2364
980,980,0,2046,1798
981,981,0,2046,1251
982,982,0,2047,761
983,983,0,2046,364
984,984,0,2046,91
985,985,0,2046,0
986,986,0,2046,0
987,987,0,2047,160
988,988,0,2047,473
989,989,0,2046,901
990,990,0,2046,1413
991,991,0,2046,1971
992,992,0,2046,2533
993,993,0,2046,3060
994,994,0,2046,3512
995,995,0,2046,3854
996,996,0,2046,4064
997,997,0,2046,4095
998,998,0,2046,4030
999,999,0,2046,3790
1000,1000,0,2047,3420
1001,1001,0,2047,2949
1002,1002,0,2046,2411
1003,1003,0,2047,1846
1004,1004,0,2046,1295
1005,1005,0,2045,798
1006,1006,0,2046,393
1007,1007,0,2046,109
1008,1008,0,2046,0
1009,1009,0,2046,0
1010,1010,0,2046,139
1011,1011,0,2046,441
1012,1012,0,2047,861
1013,1013,0,2046,1367
1014,1014,0,2046,1923
1015,1015,0,2046,2487
1016,1016,0,2046,3019
1017,1017,0,2047,3477
1018,1018,0,2046,3830
1019,1019,0,2047,4052
1020,1020,0,2046,4095
1021,1021,0,2046,4043
1022,1022,0,2046,3815
1023,1023,0,2046,3456
1024,1024,0,2047,2992
1025,1025,0,2046,2459
1026,1026,0,2046,1894
1027,1027,0,2046,1340
1028,1028,0,2046,837
1029,1029,0,2046,423
