Sample in Buffer,Sample in Window,TRIGGER,adc1_data_a_d0[11:0],adc1_data_b_d0[11:0]
0,0,0,2046,586
1,1,0,2047,133
2,2,0,2046,0
3,3,0,2047,108
4,4,0,2046,541
5,5,0,2047,1198
6,6,0,2047,1981
7,7,0,2046,2772
8,8,0,2047,3454
9,9,0,2047,3923
10,10,0,2047,4095
11,11,0,2046,3987
12,12,0,2046,3570
13,13,0,2047,2925
14,14,0,2046,2147
15,15,0,2046,1353
16,16,0,2047,661
17,17,0,2046,176
18,18,0,2046,0
19,19,0,2046,73
20,20,0,2046,471
21,21,0,2046,1104
22,22,0,2047,1877
23,23,0,2047,2674
24,24,0,2047,3376
25,25,0,2046,3878
26,26,0,2046,4095
27,27,0,2046,4020
28,28,0,2047,3639
29,29,0,2046,3018
30,30,0,2047,2251
31,31,0,2046,1452
32,32,0,2046,740
33,33,0,2047,224
34,34,0,2047,0
35,35,0,2046,43
36,36,0,2047,405
37,37,0,2047,1012
38,38,0,2046,1774
39,39,0,2046,2574
40,40,0,2047,3294
41,41,0,2046,3827
42,42,0,2047,4092
43,43,0,2046,4048
44,44,0,2046,3704
45,45,0,2047,3109
46,46,0,2046,2354
47,47,0,2047,1553
48,48,0,2046,824
49,49,0,2047,277
50,50,0,2047,0
51,51,0,2047,16
52,52,0,2046,343
53,53,0,2047,923
54,54,0,2047,1671
55,55,0,2047,2473
56,56,0,2047,3209
57,57,0,2047,3771
58,58,0,2046,4074
59,59,0,2046,4071
60,60,0,2047,3763
61,61,0,2047,3197
62,62,0,2046,2457
63,63,0,2046,1655
64,64,0,2046,910
65,65,0,2046,334
66,66,0,2046,14
67,67,0,2046,0
68,68,0,2046,285
69,69,0,2047,837
70,70,0,2047,1568
71,71,0,2046,2370
72,72,0,2047,3123
73,73,0,2047,3713
74,74,0,2047,4052
75,75,0,2047,4089
76,76,0,2047,3818
77,77,0,2046,3282
78,78,0,2047,2559
79,79,0,2047,1758
80,80,0,2047,998
81,81,0,2047,396
82,82,0,2047,38
83,83,0,2046,0
84,84,0,2047,232
85,85,0,2047,753
86,86,0,2046,1467
87,87,0,2046,2267
88,88,0,2046,3032
89,89,0,2047,3649
90,90,0,2046,4025
91,91,0,2046,4095
92,92,0,2047,3870
93,93,0,2047,3363
94,94,0,2047,2659
95,95,0,2046,1861
96,96,0,2047,1090
97,97,0,2047,460
98,98,0,2047,69
99,99,0,2047,0
100,100,0,2047,183
101,101,0,2046,673
102,102,0,2047,1368
103,103,0,2046,2162
104,104,0,2047,2939
105,105,0,2047,3580
106,106,0,2046,3991
107,107,0,2046,4095
108,108,0,2047,3917
109,109,0,2047,3442
110,110,0,2047,2757
111,111,0,2046,1965
112,112,0,2047,1184
113,113,0,2047,531
114,114,0,2047,103
115,115,0,2046,0
116,116,0,2047,139
117,117,0,2047,597
118,118,0,2047,1270
119,119,0,2046,2059
120,120,0,2047,2845
121,121,0,2046,3510
122,122,0,2046,3955
123,123,0,2046,4095
124,124,0,2046,3959
125,125,0,2047,3517
126,126,0,2046,2854
127,127,0,2047,2069
128,128,0,2047,1280
129,129,0,2046,604
130,130,0,2047,143
131,131,0,2047,0
132,132,0,2047,99
133,133,0,2047,524
134,134,0,2046,1174
135,135,0,2046,1955
136,136,0,2046,2748
137,137,0,2047,3435
138,138,0,2047,3912
139,139,0,2046,4095
140,140,0,2046,3995
141,141,0,2047,3588
142,142,0,2046,2949
143,143,0,2047,2173
144,144,0,2046,1378
145,145,0,2047,680
146,146,0,2047,187
147,147,0,2047,0
148,148,0,2046,65
149,149,0,2047,455
150,150,0,2047,1081
151,151,0,2047,1850
152,152,0,2047,2649
153,153,0,2047,3356
154,154,0,2046,3866
155,155,0,2047,4095
156,156,0,2046,4028
157,157,0,2046,3656
158,158,0,2046,3042
159,159,0,2046,2278
160,160,0,2047,1478
161,161,0,2047,761
162,162,0,2047,237
163,163,0,2046,0
164,164,0,2046,36
165,165,0,2047,389
166,166,0,2047,990
167,167,0,2046,1748
168,168,0,2047,2549
169,169,0,2046,3273
170,170,0,2047,3814
171,171,0,2047,4088
172,172,0,2046,4055
173,173,0,2046,3719
174,174,0,2047,3131
175,175,0,2047,2380
176,176,0,2047,1579
177,177,0,2046,845
178,178,0,2047,291
179,179,0,2047,0
180,180,0,2046,10
181,181,0,2046,327
182,182,0,2046,900
183,183,0,2047,1644
184,184,0,2047,2447
185,185,0,2046,3189
186,186,0,2047,3757
187,187,0,2046,4070
188,188,0,2047,4076
189,189,0,2047,3779
190,190,0,2047,3219
191,191,0,2046,2483
192,192,0,2047,1680
193,193,0,2046,932
194,194,0,2046,350
195,195,0,2047,20
196,196,0,2047,0
197,197,0,2046,271
198,198,0,2046,816
199,199,0,2047,1543
200,200,0,2046,2344
201,201,0,2046,3099
202,202,0,2046,3697
203,203,0,2047,4046
204,204,0,2046,4093
205,205,0,2047,3832
206,206,0,2047,3303
207,207,0,2046,2584
208,208,0,2047,1783
209,209,0,2046,1021
210,210,0,2046,412
211,211,0,2047,45
212,212,0,2046,0
213,213,0,2047,219
214,214,0,2046,733
215,215,0,2046,1443
216,216,0,2046,2241
217,217,0,2046,3010
218,218,0,2047,3632
219,219,0,2046,4017
220,220,0,2047,4095
221,221,0,2046,3883
222,222,0,2047,3384
223,223,0,2047,2684
224,224,0,2046,1887
225,225,0,2047,1113
226,226,0,2046,478
227,227,0,2047,77
228,228,0,2047,0
229,229,0,2046,171
230,230,0,2047,653
231,231,0,2046,1343
232,232,0,2046,2137
233,233,0,2047,2916
234,234,0,2046,3564
235,235,0,2047,3982
236,236,0,2046,4095
237,237,0,2047,3928
238,238,0,2046,3461
239,239,0,2046,2781
240,240,0,2047,1991
241,241,0,2047,1208
242,242,0,2047,549
243,243,0,2046,114
244,244,0,2046,0
245,245,0,2046,128
246,246,0,2046,578
247,247,0,2047,1246
248,248,0,2046,2032
249,249,0,2047,2820
250,250,0,2046,3491
251,251,0,2046,3944
252,252,0,2046,4095
253,253,0,2047,3968
254,254,0,2046,3536
255,255,0,2046,2878
256,256,0,2046,2096
257,257,0,2047,1304
258,258,0,2046,624
259,259,0,2046,154
260,260,0,2047,0
261,261,0,2046,90
262,262,0,2047,505
263,263,0,2046,1151
264,264,0,2046,1929
265,265,0,2048,2724
266,266,0,2046,3415
267,267,0,2047,3901
268,268,0,2047,4095
269,269,0,2046,4004
270,270,0,2047,3606
271,271,0,2047,2973
272,272,0,2047,2199
273,273,0,2046,1404
274,274,0,2047,702
275,275,0,2047,200
276,276,0,2046,0
277,277,0,2046,57
278,278,0,2047,437
279,279,0,2046,1057
280,280,0,2047,1824
281,281,0,2047,2624
282,282,0,2047,3336
283,283,0,2047,3853
284,284,0,2046,4095
285,285,0,2047,4035
286,286,0,2046,3672
287,287,0,2047,3064
288,288,0,2046,2304
289,289,0,2046,1503
290,290,0,2046,783
291,291,0,2046,250
292,292,0,2046,0
293,293,0,2047,29
294,294,0,2046,373
295,295,0,2046,967
296,296,0,2047,1721
297,297,0,2046,2524
298,298,0,2047,3252
299,299,0,2046,3800
300,300,0,2046,4084
301,301,0,2046,4060
302,302,0,2046,3734
303,303,0,2047,3154
304,304,0,2046,2406
305,305,0,2047,1603
306,306,0,2046,866
307,307,0,2046,306
308,308,0,2047,3
309,309,0,2046,6
310,310,0,2046,313
311,311,0,2047,879
312,312,0,2047,1618
313,313,0,2047,2421
314,314,0,2046,3166
315,315,0,2046,3743
316,316,0,2047,4064
317,317,0,2046,4081
318,318,0,2046,3792
319,319,0,2046,3240
320,320,0,2047,2509
321,321,0,2047,1707
322,322,0,2047,954
323,323,0,2047,365
324,324,0,2046,26
325,325,0,2046,0
326,326,0,2047,257
327,327,0,2046,794
328,328,0,2046,1517
329,329,0,2047,2318
330,330,0,2047,3077
331,331,0,2046,3681
332,332,0,2046,4039
333,333,0,2046,4095
334,334,0,2046,3846
335,335,0,2047,3323
336,336,0,2046,2609
337,337,0,2046,1810
338,338,0,2047,1044
339,339,0,2047,429
340,340,0,2046,53
341,341,0,2047,0
342,342,0,2047,207
343,343,0,2047,712
344,344,0,2046,1417
345,345,0,2047,2215
346,346,0,2046,2986
347,347,0,2046,3616
348,348,0,2046,4009
349,349,0,2046,4095
350,350,0,2047,3894
351,351,0,2046,3404
352,352,0,2046,2709
353,353,0,2047,1914
354,354,0,2046,1137
355,355,0,2047,496
356,356,0,2047,86
357,357,0,2046,0
358,358,0,2047,160
359,359,0,2047,635
360,360,0,2047,1318
361,361,0,2046,2110
362,362,0,2047,2892
363,363,0,2047,3546
364,364,0,2046,3973
365,365,0,2046,4095
366,366,0,2046,3939
367,367,0,2047,3481
368,368,0,2047,2806
369,369,0,2047,2018
370,370,0,2047,1232
371,371,0,2047,567
372,372,0,2046,123
373,373,0,2046,0
374,374,0,2046,119
375,375,0,2047,560
376,376,0,2046,1222
377,377,0,2046,2006
378,378,0,2047,2796
379,379,0,2046,3472
380,380,0,2047,3934
381,381,0,2046,4095
382,382,0,2047,3978
383,383,0,2047,3554
384,384,0,2047,2902
385,385,0,2046,2122
386,386,0,2046,1329
387,387,0,2047,642
388,388,0,2046,166
389,389,0,2046,0
390,390,0,2046,80
391,391,0,2047,488
392,392,0,2046,1127
393,393,0,2046,1902
394,394,0,2046,2698
395,395,0,2047,3395
396,396,0,2047,3888
397,397,0,2047,4095
398,398,0,2047,4013
399,399,0,2046,3624
400,400,0,2046,2996
401,401,0,2046,2226
402,402,0,2046,1428
403,403,0,2046,721
404,404,0,2047,211
405,405,0,2047,0
406,406,0,2047,48
407,407,0,2046,421
408,408,0,2047,1035
409,409,0,2047,1798
410,410,0,2047,2598
411,411,0,2047,3314
412,412,0,2047,3839
413,413,0,2047,4095
414,414,0,2047,4042
415,415,0,2046,3688
416,416,0,2047,3088
417,417,0,2046,2329
418,418,0,2046,1529
419,419,0,2047,804
420,420,0,2047,264
421,421,0,2046,0
422,422,0,2047,22
423,423,0,2046,357
424,424,0,2047,945
425,425,0,2047,1695
426,426,0,2046,2497
427,427,0,2046,3231
428,428,0,2046,3786
429,429,0,2047,4079
430,430,0,2046,4067
431,431,0,2046,3749
432,432,0,2046,3175
433,433,0,2047,2432
434,434,0,2046,1630
435,435,0,2047,888
436,436,0,2047,320
437,437,0,2046,8
438,438,0,2046,0
439,439,0,2047,298
440,440,0,2046,857
441,441,0,2046,1592
442,442,0,2046,2394
443,443,0,2046,3144
444,444,0,2046,3727
445,445,0,2047,4058
446,446,0,2047,4085
447,447,0,2047,3806
448,448,0,2046,3262
449,449,0,2046,2534
450,450,0,2046,1733
451,451,0,2046,977
452,452,0,2046,380
453,453,0,2046,32
454,454,0,2047,0
455,455,0,2046,244
456,456,0,2046,773
457,457,0,2046,1491
458,458,0,2047,2292
459,459,0,2047,3054
460,460,0,2047,3664
461,461,0,2046,4032
462,462,0,2047,4095
463,463,0,2048,3858
464,464,0,2047,3344
465,465,0,2047,2634
466,466,0,2047,1836
467,467,0,2047,1068
468,468,0,2046,444
469,469,0,2046,60
470,470,0,2047,0
471,471,0,2046,194
472,472,0,2047,692
473,473,0,2047,1392
474,474,0,2046,2188
475,475,0,2046,2962
476,476,0,2046,3598
477,477,0,2046,4000
478,478,0,2047,4095
479,479,0,2047,3906
480,480,0,2047,3424
481,481,0,2046,2733
482,482,0,2046,1940
483,483,0,2046,1161
484,484,0,2046,513
485,485,0,2047,94
486,486,0,2046,0
487,487,0,2047,148
488,488,0,2046,615
489,489,0,2046,1294
490,490,0,2046,2084
491,491,0,2047,2868
492,492,0,2047,3527
493,493,0,2047,3964
494,494,0,2046,4095
495,495,0,2047,3948
496,496,0,2046,3499
497,497,0,2047,2831
498,498,0,2046,2044
499,499,0,2047,1256
500,500,0,2046,586
501,501,0,2046,133
502,502,0,2047,0
503,503,0,2047,109
504,504,0,2047,540
505,505,0,2046,1197
506,506,0,2046,1980
507,507,0,2046,2771
508,508,0,2046,3452
509,509,0,2047,3922
510,510,0,2047,4095
511,511,0,2047,3988
512,512,0,2047,3572
513,513,0,2046,2926
514,514,0,2047,2148
515,515,0,2045,1354
516,516,0,2047,662
517,517,0,2047,177
518,518,0,2047,0
519,519,0,2046,73
520,520,0,2046,470
521,521,0,2047,1103
522,522,0,2046,1876
523,523,0,2047,2672
524,524,0,2046,3374
525,525,0,2046,3876
526,526,0,2046,4095
527,527,0,2046,4021
528,528,0,2046,3640
529,529,0,2046,3019
530,530,0,2046,2252
531,531,0,2046,1453
532,532,0,2047,742
533,533,0,2047,224
534,534,0,2046,0
535,535,0,2047,42
536,536,0,2046,404
537,537,0,2046,1011
538,538,0,2046,1772
539,539,0,2046,2573
540,540,0,2047,3294
541,541,0,2046,3827
542,542,0,2045,4091
543,543,0,2047,4048
544,544,0,2046,3705
545,545,0,2046,3110
546,546,0,2046,2356
547,547,0,2047,1553
548,548,0,2046,825
549,549,0,2047,277
550,550,0,2047,0
551,551,0,2047,17
552,552,0,2047,342
553,553,0,2046,922
554,554,0,2046,1669
555,555,0,2046,2472
556,556,0,2046,3209
557,557,0,2047,3772
558,558,0,2046,4074
559,559,0,2047,4071
560,560,0,2047,3764
561,561,0,2046,3198
562,562,0,2046,2459
563,563,0,2047,1656
564,564,0,2046,910
565,565,0,2047,334
566,566,0,2047,14
567,567,0,2046,0
568,568,0,2046,284
569,569,0,2047,836
570,570,0,2047,1567
571,571,0,2047,2368
572,572,0,2047,3121
573,573,0,2047,3712
574,574,0,2047,4051
575,575,0,2046,4089
576,576,0,2046,3819
577,577,0,2046,3283
578,578,0,2046,2560
579,579,0,2046,1759
580,580,0,2047,1000
581,581,0,2047,396
582,582,0,2046,39
583,583,0,2046,0
584,584,0,2046,231
585,585,0,2047,752
586,586,0,2047,1467
587,587,0,2047,2265
588,588,0,2047,3031
589,589,0,2046,3649
590,590,0,2047,4024
591,591,0,2047,4095
592,592,0,2046,3870
593,593,0,2047,3365
594,594,0,2047,2660
595,595,0,2047,1863
596,596,0,2047,1091
597,597,0,2047,462
598,598,0,2046,69
599,599,0,2046,0
600,600,0,2047,182
601,601,0,2047,673
602,602,0,2047,1367
603,603,0,2047,2161
604,604,0,2046,2938
605,605,0,2047,3580
606,606,0,2047,3992
607,607,0,2046,4095
608,608,0,2047,3917
609,609,0,2047,3442
610,610,0,2047,2759
611,611,0,2047,1967
612,612,0,2047,1185
613,613,0,2046,532
614,614,0,2046,104
615,615,0,2046,0
616,616,0,2047,138
617,617,0,2047,596
618,618,0,2047,1269
619,619,0,2047,2057
620,620,0,2046,2843
621,621,0,2047,3509
622,622,0,2047,3954
623,623,0,2047,4095
624,624,0,2046,3959
625,625,0,2046,3519
626,626,0,2047,2856
627,627,0,2047,2071
628,628,0,2047,1281
629,629,0,2047,604
630,630,0,2046,143
631,631,0,2047,0
632,632,0,2046,99
633,633,0,2047,522
634,634,0,2046,1173
635,635,0,2047,1953
636,636,0,2047,2747
637,637,0,2046,3433
638,638,0,2047,3911
639,639,0,2047,4095
640,640,0,2046,3996
641,641,0,2046,3589
642,642,0,2047,2950
643,643,0,2047,2174
644,644,0,2046,1378
645,645,0,2046,682
646,646,0,2047,188
647,647,0,2046,0
648,648,0,2046,64
649,649,0,2047,453
650,650,0,2046,1080
651,651,0,2046,1849
652,652,0,2047,2648
653,653,0,2047,3355
654,654,0,2046,3865
655,655,0,2047,4095
656,656,0,2046,4028
657,657,0,2047,3656
658,658,0,2047,3043
659,659,0,2047,2279
660,660,0,2046,1479
661,661,0,2047,763
662,662,0,2046,237
663,663,0,2047,0
664,664,0,2047,35
665,665,0,2046,388
666,666,0,2046,989
667,667,0,2047,1746
668,668,0,2047,2547
669,669,0,2046,3273
670,670,0,2046,3813
671,671,0,2046,4087
672,672,0,2047,4055
673,673,0,2047,3720
674,674,0,2047,3132
675,675,0,2047,2381
676,676,0,2047,1579
677,677,0,2046,846
678,678,0,2046,290
679,679,0,2047,0
680,680,0,2046,11
681,681,0,2046,327
682,682,0,2046,900
683,683,0,2046,1643
684,684,0,2046,2445
685,685,0,2047,3187
686,686,0,2046,3756
687,687,0,2047,4069
688,688,0,2046,4076
689,689,0,2046,3779
690,690,0,2047,3220
691,691,0,2047,2485
692,692,0,2046,1682
693,693,0,2047,933
694,694,0,2047,350
695,695,0,2047,20
696,696,0,2047,0
697,697,0,2046,270
698,698,0,2046,815
699,699,0,2047,1541
700,700,0,2046,2343
701,701,0,2046,3099
702,702,0,2047,3696
703,703,0,2047,4045
704,704,0,2047,4093
705,705,0,2046,3833
706,706,0,2046,3303
707,707,0,2046,2585
708,708,0,2047,1785
709,709,0,2046,1023
710,710,0,2047,412
711,711,0,2046,46
712,712,0,2047,0
713,713,0,2047,217
714,714,0,2046,732
715,715,0,2046,1440
716,716,0,2047,2240
717,717,0,2046,3008
718,718,0,2046,3631
719,719,0,2046,4016
720,720,0,2046,4095
721,721,0,2046,3883
722,722,0,2046,3385
723,723,0,2047,2685
724,724,0,2047,1888
725,725,0,2046,1114
726,726,0,2046,479
727,727,0,2046,77
728,728,0,2046,0
729,729,0,2046,171
730,730,0,2046,652
731,731,0,2046,1342
732,732,0,2046,2135
733,733,0,2047,2914
734,734,0,2046,3563
735,735,0,2047,3983
736,736,0,2047,4095
737,737,0,2046,3928
738,738,0,2046,3462
739,739,0,2047,2783
740,740,0,2047,1993
741,741,0,2046,1210
742,742,0,2046,550
743,743,0,2046,113
744,744,0,2046,0
745,745,0,2047,128
746,746,0,2046,577
747,747,0,2047,1245
748,748,0,2047,2031
749,749,0,2046,2819
750,750,0,2047,3490
751,751,0,2047,3944
752,752,0,2046,4095
753,753,0,2047,3969
754,754,0,2046,3537
755,755,0,2046,2879
756,756,0,2047,2097
757,757,0,2047,1306
758,758,0,2047,625
759,759,0,2047,154
760,760,0,2046,0
761,761,0,2046,90
762,762,0,2046,505
763,763,0,2046,1149
764,764,0,2047,1927
765,765,0,2046,2721
766,766,0,2046,3414
767,767,0,2046,3900
768,768,0,2046,4095
769,769,0,2047,4005
770,770,0,2047,3607
771,771,0,2047,2974
772,772,0,2046,2201
773,773,0,2046,1405
774,774,0,2047,703
775,775,0,2046,200
776,776,0,2046,0
777,777,0,2046,56
778,778,0,2046,436
779,779,0,2046,1056
780,780,0,2046,1823
781,781,0,2047,2622
782,782,0,2047,3334
783,783,0,2046,3852
784,784,0,2047,4095
785,785,0,2047,4035
786,786,0,2046,3673
787,787,0,2047,3065
788,788,0,2046,2305
789,789,0,2047,1504
790,790,0,2046,783
791,791,0,2046,251
792,792,0,2046,0
793,793,0,2046,29
794,794,0,2046,373
795,795,0,2047,966
796,796,0,2047,1720
797,797,0,2046,2522
798,798,0,2047,3251
799,799,0,2046,3799
800,800,0,2046,4083
801,801,0,2046,4061
802,802,0,2047,3735
803,803,0,2046,3155
804,804,0,2046,2408
805,805,0,2046,1605
806,806,0,2047,868
807,807,0,2047,306
808,808,0,2046,3
809,809,0,2047,5
810,810,0,2047,312
811,811,0,2046,878
812,812,0,2046,1618
813,813,0,2047,2420
814,814,0,2047,3165
815,815,0,2046,3741
816,816,0,2047,4064
817,817,0,2047,4081
818,818,0,2046,3793
819,819,0,2047,3241
820,820,0,2046,2510
821,821,0,2046,1707
822,822,0,2046,956
823,823,0,2046,365
824,824,0,2046,26
825,825,0,2046,0
826,826,0,2047,257
827,827,0,2046,793
828,828,0,2047,1515
829,829,0,2047,2317
830,830,0,2047,3076
831,831,0,2047,3681
832,832,0,2046,4038
833,833,0,2046,4095
834,834,0,2046,3846
835,835,0,2047,3325
836,836,0,2047,2610
837,837,0,2047,1811
838,838,0,2047,1045
839,839,0,2046,429
840,840,0,2046,53
841,841,0,2047,0
842,842,0,2046,206
843,843,0,2046,711
844,844,0,2047,1416
845,845,0,2047,2214
846,846,0,2046,2984
847,847,0,2046,3614
848,848,0,2046,4009
849,849,0,2047,4095
850,850,0,2046,3894
851,851,0,2047,3404
852,852,0,2047,2710
853,853,0,2046,1915
854,854,0,2046,1138
855,855,0,2046,496
856,856,0,2047,86
857,857,0,2046,0
858,858,0,2047,160
859,859,0,2046,633
860,860,0,2047,1317
861,861,0,2046,2109
862,862,0,2046,2891
863,863,0,2046,3545
864,864,0,2047,3973
865,865,0,2047,4095
866,866,0,2046,3939
867,867,0,2047,3481
868,868,0,2046,2808
869,869,0,2046,2019
870,870,0,2046,1233
871,871,0,2046,568
872,872,0,2047,124
873,873,0,2047,0
874,874,0,2046,118
875,875,0,2047,558
876,876,0,2046,1220
877,877,0,2047,2005
878,878,0,2047,2795
879,879,0,2046,3471
880,880,0,2046,3933
881,881,0,2046,4095
882,882,0,2047,3978
883,883,0,2046,3555
884,884,0,2046,2904
885,885,0,2046,2124
886,886,0,2046,1330
887,887,0,2046,643
888,888,0,2046,166
889,889,0,2047,0
890,890,0,2047,81
891,891,0,2046,488
892,892,0,2046,1125
893,893,0,2047,1900
894,894,0,2046,2697
895,895,0,2047,3394
896,896,0,2047,3888
897,897,0,2047,4095
898,898,0,2046,4013
899,899,0,2046,3624
900,900,0,2046,2997
901,901,0,2047,2227
902,902,0,2046,1429
903,903,0,2046,723
904,904,0,2046,213
905,905,0,2047,0
906,906,0,2046,50
907,907,0,2046,420
908,908,0,2046,1034
909,909,0,2046,1797
910,910,0,2046,2597
911,911,0,2047,3313
912,912,0,2046,3839
913,913,0,2046,4095
914,914,0,2046,4042
915,915,0,2046,3690
916,916,0,2047,3088
917,917,0,2047,2331
918,918,0,2046,1530
919,919,0,2047,805
920,920,0,2046,265
921,921,0,2047,0
922,922,0,2047,22
923,923,0,2047,356
924,924,0,2047,943
925,925,0,2047,1694
926,926,0,2047,2496
927,927,0,2046,3230
928,928,0,2047,3785
929,929,0,2047,4078
930,930,0,2046,4066
931,931,0,2046,3750
932,932,0,2046,3177
933,933,0,2047,2434
934,934,0,2046,1631
935,935,0,2046,890
936,936,0,2047,320
937,937,0,2046,8
938,938,0,2047,1
939,939,0,2047,298
940,940,0,2046,856
941,941,0,2046,1592
942,942,0,2046,2394
943,943,0,2046,3143
944,944,0,2046,3726
945,945,0,2047,4057
946,946,0,2047,4086
947,947,0,2046,3806
948,948,0,2046,3263
949,949,0,2047,2536
950,950,0,2046,1734
951,951,0,2046,978
952,952,0,2047,381
953,953,0,2046,33
954,954,0,2046,0
955,955,0,2047,243
956,956,0,2046,772
957,957,0,2047,1490
958,958,0,2047,2291
959,959,0,2047,3053
960,960,0,2047,3664
961,961,0,2046,4031
962,962,0,2047,4095
963,963,0,2046,3859
964,964,0,2046,3345
965,965,0,2046,2636
966,966,0,2046,1837
967,967,0,2047,1068
968,968,0,2046,445
969,969,0,2046,61
970,970,0,2046,0
971,971,0,2047,194
972,972,0,2047,692
973,973,0,2046,1391
974,974,0,2047,2187
975,975,0,2046,2961
976,976,0,2046,3597
977,977,0,2047,4000
978,978,0,2047,4095
979,979,0,2047,3907
980,980,0,2046,3424
981,981,0,2047,2735
982,982,0,2046,1941
983,983,0,2047,1162
984,984,0,2046,515
985,985,0,2047,95
986,986,0,2046,0
987,987,0,2046,149
988,988,0,2046,613
989,989,0,2046,1293
990,990,0,2047,2082
991,991,0,2046,2866
992,992,0,2047,3528
993,993,0,2047,3963
994,994,0,2046,4095
995,995,0,2046,3950
996,996,0,2047,3500
997,997,0,2046,2833
998,998,0,2047,2045
999,999,0,2047,1257
1000,1000,0,2046,588
1001,1001,0,2046,133
1002,1002,0,2046,0
1003,1003,0,2046,107
1004,1004,0,2046,540
1005,1005,0,2046,1196
1006,1006,0,2046,1978
1007,1007,0,2046,2770
1008,1008,0,2046,3452
1009,1009,0,2046,3921
1010,1010,0,2046,4095
1011,1011,0,2046,3988
1012,1012,0,2046,3572
1013,1013,0,2047,2928
1014,1014,0,2046,2149
1015,1015,0,2047,1355
1016,1016,0,2046,662
1017,1017,0,2046,177
1018,1018,0,2046,0
1019,1019,0,2047,73
1020,1020,0,2046,469
1021,1021,0,2047,1102
1022,1022,0,2046,1875
1023,1023,0,2046,2672
1024,1024,0,2046,3374
1025,1025,0,2046,3876
1026,1026,0,2047,4095
1027,1027,0,2047,4021
1028,1028,0,2047,3641
1029,1029,0,2047,3020
