Sample in Buffer,Sample in Window,TRIGGER,adc1_data_a_d0[11:0],adc1_data_b_d0[11:0]
0,0,0,2047,3716
1,1,0,2047,3974
2,2,0,2047,4095
3,3,0,2046,4095
4,4,0,2046,3978
5,5,0,2046,3721
6,6,0,2046,3357
7,7,0,2046,2908
8,8,0,2046,2403
9,9,0,2047,1874
10,10,0,2046,1357
11,11,0,2047,882
12,12,0,2046,483
13,13,0,2047,183
14,14,0,2047,2
15,15,0,2046,0
16,16,0,2047,36
17,17,0,2046,248
18,18,0,2046,576
19,19,0,2046,996
20,20,0,2046,1485
21,21,0,2046,2008
22,22,0,2047,2535
23,23,0,2046,3028
24,24,0,2046,3459
25,25,0,2046,3797
26,26,0,2046,4024
27,27,0,2046,4095
28,28,0,2046,4088
29,29,0,2046,3920
30,30,0,2046,3632
31,31,0,2046,3241
32,32,0,2047,2775
33,33,0,2046,2261
34,34,0,2046,1732
35,35,0,2046,1222
36,36,0,2046,766
37,37,0,2047,391
38,38,0,2047,122
39,39,0,2046,0
40,40,0,2046,0
41,41,0,2046,81
42,42,0,2047,327
43,43,0,2047,682
44,44,0,2046,1124
45,45,0,2046,1625
46,46,0,2046,2152
47,47,0,2046,2673
48,48,0,2046,3152
49,49,0,2047,3561
50,50,0,2047,3871
51,51,0,2046,4063
52,52,0,2046,4095
53,53,0,2046,4054
54,54,0,2047,3852
55,55,0,2047,3536
56,56,0,2047,3121
57,57,0,2046,2639
58,58,0,2047,2116
59,59,0,2046,1590
60,60,0,2046,1092
61,61,0,2046,655
62,62,0,2046,307
63,63,0,2046,69
64,64,0,2046,0
65,65,0,2047,0
66,66,0,2046,136
67,67,0,2046,413
68,68,0,2046,794
69,69,0,2046,1255
70,70,0,2046,1768
71,71,0,2047,2297
72,72,0,2046,2809
73,73,0,2046,3272
74,74,0,2047,3655
75,75,0,2047,3936
76,76,0,2046,4093
77,77,0,2047,4095
78,78,0,2046,4012
79,79,0,2046,3777
80,80,0,2047,3431
81,81,0,2047,2996
82,82,0,2046,2499
83,83,0,2046,1972
84,84,0,2046,1450
85,85,0,2046,966
86,86,0,2046,550
87,87,0,2047,230
88,88,0,2047,26
89,89,0,2046,0
90,90,0,2047,10
91,91,0,2046,200
92,92,0,2046,508
93,93,0,2046,913
94,94,0,2046,1392
95,95,0,2047,1911
96,96,0,2046,2438
97,97,0,2046,2941
98,98,0,2047,3385
99,99,0,2046,3743
100,100,0,2046,3991
101,101,0,2046,4095
102,102,0,2047,4095
103,103,0,2047,3960
104,104,0,2046,3693
105,105,0,2046,3321
106,106,0,2046,2866
107,107,0,2047,2357
108,108,0,2047,1829
109,109,0,2046,1314
110,110,0,2047,844
111,111,0,2046,453
112,112,0,2046,162
113,113,0,2046,0
114,114,0,2046,0
115,115,0,2047,49
116,116,0,2046,273
117,117,0,2047,608
118,118,0,2046,1037
119,119,0,2046,1529
120,120,0,2046,2055
121,121,0,2046,2579
122,122,0,2047,3069
123,123,0,2046,3492
124,124,0,2047,3823
125,125,0,2046,4038
126,126,0,2047,4095
127,127,0,2046,4078
128,128,0,2046,3900
129,129,0,2046,3602
130,130,0,2046,3204
131,131,0,2046,2731
132,132,0,2046,2214
133,133,0,2046,1685
134,134,0,2046,1180
135,135,0,2046,729
136,136,0,2047,362
137,137,0,2046,104
138,138,0,2046,0
139,139,0,2046,0
140,140,0,2046,98
141,141,0,2046,354
142,142,0,2046,717
143,143,0,2046,1166
144,144,0,2047,1671
145,145,0,2046,2200
146,146,0,2046,2717
147,147,0,2046,3192
148,148,0,2046,3592
149,149,0,2046,3893
150,150,0,2046,4074
151,151,0,2047,4095
152,152,0,2046,4042
153,153,0,2046,3830
154,154,0,2046,3503
155,155,0,2047,3082
156,156,0,2047,2594
157,157,0,2047,2070
158,158,0,2046,1544
159,159,0,2046,1051
160,160,0,2046,620
161,161,0,2047,281
162,162,0,2046,54
163,163,0,2046,0
164,164,0,2046,0
165,165,0,2046,156
166,166,0,2047,442
167,167,0,2046,833
168,168,0,2047,1299
169,169,0,2047,1814
170,170,0,2046,2342
171,171,0,2046,2852
172,172,0,2047,3309
173,173,0,2046,3684
174,174,0,2047,3954
175,175,0,2046,4095
176,176,0,2046,4095
177,177,0,2046,3996
178,178,0,2046,3752
179,179,0,2047,3396
180,180,0,2047,2955
181,181,0,2047,2454
182,182,0,2046,1926
183,183,0,2046,1406
184,184,0,2046,927
185,185,0,2046,518
186,186,0,2046,207
187,187,0,2046,14
188,188,0,2046,0
189,189,0,2047,22
190,190,0,2047,223
191,191,0,2046,540
192,192,0,2047,953
193,193,0,2047,1436
194,194,0,2046,1958
195,195,0,2047,2484
196,196,0,2047,2983
197,197,0,2046,3421
198,198,0,2046,3769
199,199,0,2046,4007
200,200,0,2047,4095
201,201,0,2046,4095
202,202,0,2046,3941
203,203,0,2047,3665
204,204,0,2046,3284
205,205,0,2046,2823
206,206,0,2047,2311
207,207,0,2046,1783
208,208,0,2046,1270
209,209,0,2046,807
210,210,0,2046,423
211,211,0,2046,143
212,212,0,2047,0
213,213,0,2047,0
214,214,0,2046,65
215,215,0,2046,298
216,216,0,2046,643
217,217,0,2047,1079
218,218,0,2046,1575
219,219,0,2047,2102
220,220,0,2047,2625
221,221,0,2047,3109
222,222,0,2046,3525
223,223,0,2047,3846
224,224,0,2046,4051
225,225,0,2047,4095
226,226,0,2047,4067
227,227,0,2046,3878
228,228,0,2047,3571
229,229,0,2047,3165
230,230,0,2047,2687
231,231,0,2047,2167
232,232,0,2046,1641
233,233,0,2047,1137
234,234,0,2046,693
235,235,0,2046,335
236,236,0,2046,86
237,237,0,2046,0
238,238,0,2046,0
239,239,0,2046,116
240,240,0,2046,382
241,241,0,2047,754
242,242,0,2047,1208
243,243,0,2046,1717
244,244,0,2046,2245
245,245,0,2047,2761
246,246,0,2047,3231
247,247,0,2046,3623
248,248,0,2047,3914
249,249,0,2046,4084
250,250,0,2047,4095
251,251,0,2046,4028
252,252,0,2046,3805
253,253,0,2046,3470
254,254,0,2047,3041
255,255,0,2047,2549
256,256,0,2046,2024
257,257,0,2047,1499
258,258,0,2045,1009
259,259,0,2047,586
260,260,0,2046,256
261,261,0,2046,40
262,262,0,2046,0
263,263,0,2047,0
264,264,0,2046,176
265,265,0,2046,473
266,266,0,2046,871
267,267,0,2047,1343
268,268,0,2047,1860
269,269,0,2047,2388
270,270,0,2046,2895
271,271,0,2046,3346
272,272,0,2047,3713
273,273,0,2046,3972
274,274,0,2046,4095
275,275,0,2047,4095
276,276,0,2046,3980
277,277,0,2046,3724
278,278,0,2046,3360
279,279,0,2046,2912
280,280,0,2047,2408
281,281,0,2047,1879
282,282,0,2047,1361
283,283,0,2047,887
284,284,0,2047,487
285,285,0,2046,185
286,286,0,2047,4
287,287,0,2046,0
288,288,0,2046,34
289,289,0,2046,246
290,290,0,2046,572
291,291,0,2046,993
292,292,0,2046,1480
293,293,0,2047,2005
294,294,0,2046,2530
295,295,0,2047,3024
296,296,0,2047,3455
297,297,0,2046,3795
298,298,0,2046,4022
299,299,0,2047,4095
300,300,0,2046,4088
301,301,0,2047,3922
302,302,0,2047,3634
303,303,0,2046,3245
304,304,0,2046,2779
305,305,0,2046,2265
306,306,0,2046,1736
307,307,0,2047,1227
308,308,0,2047,769
309,309,0,2046,394
310,310,0,2047,123
311,311,0,2047,0
312,312,0,2046,0
313,313,0,2047,80
314,314,0,2046,324
315,315,0,2046,678
316,316,0,2046,1121
317,317,0,2046,1620
318,318,0,2046,2148
319,319,0,2047,2668
320,320,0,2046,3149
321,321,0,2046,3557
322,322,0,2047,3869
323,323,0,2047,4062
324,324,0,2046,4095
325,325,0,2047,4056
326,326,0,2046,3855
327,327,0,2047,3539
328,328,0,2046,3126
329,329,0,2046,2643
330,330,0,2046,2121
331,331,0,2047,1594
332,332,0,2047,1095
333,333,0,2046,658
334,334,0,2046,309
335,335,0,2047,70
336,336,0,2047,0
337,337,0,2046,0
338,338,0,2047,134
339,339,0,2047,411
340,340,0,2046,791
341,341,0,2046,1251
342,342,0,2046,1762
343,343,0,2047,2292
344,344,0,2047,2805
345,345,0,2046,3268
346,346,0,2046,3653
347,347,0,2046,3934
348,348,0,2047,4093
349,349,0,2046,4095
350,350,0,2046,4014
351,351,0,2046,3780
352,352,0,2047,3435
353,353,0,2046,3000
354,354,0,2047,2504
355,355,0,2046,1977
356,356,0,2047,1454
357,357,0,2046,970
358,358,0,2046,553
359,359,0,2046,232
360,360,0,2046,27
361,361,0,2047,0
362,362,0,2047,9
363,363,0,2046,198
364,364,0,2046,505
365,365,0,2047,909
366,366,0,2046,1387
367,367,0,2047,1906
368,368,0,2047,2434
369,369,0,2047,2937
370,370,0,2047,3382
371,371,0,2046,3740
372,372,0,2047,3989
373,373,0,2047,4095
374,374,0,2047,4095
375,375,0,2046,3962
376,376,0,2046,3696
377,377,0,2046,3325
378,378,0,2047,2869
379,379,0,2047,2362
380,380,0,2047,1834
381,381,0,2046,1318
382,382,0,2047,848
383,383,0,2047,456
384,384,0,2047,164
385,385,0,2047,0
386,386,0,2047,0
387,387,0,2047,48
388,388,0,2047,270
389,389,0,2047,606
390,390,0,2046,1033
391,391,0,2046,1526
392,392,0,2047,2050
393,393,0,2047,2575
394,394,0,2047,3064
395,395,0,2047,3488
396,396,0,2047,3820
397,397,0,2047,4036
398,398,0,2046,4095
399,399,0,2046,4079
400,400,0,2046,3901
401,401,0,2046,3605
402,402,0,2046,3208
403,403,0,2047,2736
404,404,0,2046,2218
405,405,0,2046,1691
406,406,0,2046,1185
407,407,0,2046,733
408,408,0,2046,366
409,409,0,2046,106
410,410,0,2047,0
411,411,0,2046,0
412,412,0,2046,96
413,413,0,2046,351
414,414,0,2046,714
415,415,0,2047,1162
416,416,0,2047,1666
417,417,0,2046,2195
418,418,0,2046,2713
419,419,0,2047,3188
420,420,0,2046,3589
421,421,0,2046,3890
422,422,0,2046,4073
423,423,0,2046,4095
424,424,0,2046,4044
425,425,0,2047,3833
426,426,0,2046,3506
427,427,0,2047,3086
428,428,0,2047,2599
429,429,0,2047,2075
430,430,0,2047,1549
431,431,0,2046,1054
432,432,0,2047,624
433,433,0,2046,283
434,434,0,2047,55
435,435,0,2047,0
436,436,0,2047,0
437,437,0,2047,153
438,438,0,2047,440
439,439,0,2047,828
440,440,0,2047,1295
441,441,0,2047,1809
442,442,0,2046,2338
443,443,0,2047,2847
444,444,0,2046,3306
445,445,0,2046,3682
446,446,0,2046,3952
447,447,0,2046,4095
448,448,0,2047,4095
449,449,0,2046,3998
450,450,0,2046,3754
451,451,0,2046,3400
452,452,0,2047,2959
453,453,0,2047,2458
454,454,0,2046,1931
455,455,0,2046,1410
456,456,0,2046,930
457,457,0,2046,521
458,458,0,2046,209
459,459,0,2046,15
460,460,0,2046,0
461,461,0,2046,21
462,462,0,2047,220
463,463,0,2046,536
464,464,0,2046,948
465,465,0,2047,1431
466,466,0,2047,1953
467,467,0,2046,2480
468,468,0,2047,2979
469,469,0,2047,3417
470,470,0,2046,3767
471,471,0,2047,4006
472,472,0,2046,4095
473,473,0,2047,4095
474,474,0,2047,3943
475,475,0,2046,3667
476,476,0,2047,3287
477,477,0,2047,2827
478,478,0,2047,2316
479,479,0,2047,1787
480,480,0,2046,1274
481,481,0,2047,811
482,482,0,2047,426
483,483,0,2047,145
484,484,0,2046,0
485,485,0,2046,0
486,486,0,2047,63
487,487,0,2047,295
488,488,0,2046,640
489,489,0,2046,1074
490,490,0,2046,1571
491,491,0,2047,2096
492,492,0,2046,2619
493,493,0,2047,3105
494,494,0,2046,3521
495,495,0,2046,3843
496,496,0,2046,4049
497,497,0,2046,4095
498,498,0,2047,4069
499,499,0,2047,3880
500,500,0,2046,3574
501,501,0,2047,3169
502,502,0,2047,2692
503,503,0,2047,2172
504,504,0,2046,1644
505,505,0,2046,1141
506,506,0,2046,697
507,507,0,2046,338
508,508,0,2047,88
509,509,0,2047,0
510,510,0,2046,0
511,511,0,2046,114
512,512,0,2047,379
513,513,0,2046,750
514,514,0,2046,1204
515,515,0,2047,1712
516,516,0,2047,2240
517,517,0,2046,2756
518,518,0,2046,3227
519,519,0,2047,3620
520,520,0,2047,3912
521,521,0,2047,4083
522,522,0,2046,4095
523,523,0,2047,4030
524,524,0,2047,3808
525,525,0,2047,3473
526,526,0,2047,3045
527,527,0,2047,2553
528,528,0,2046,2029
529,529,0,2047,1504
530,530,0,2047,1014
531,531,0,2047,590
532,532,0,2047,258
533,533,0,2046,41
534,534,0,2046,0
535,535,0,2046,0
536,536,0,2047,174
537,537,0,2047,470
538,538,0,2047,867
539,539,0,2047,1338
540,540,0,2047,1855
541,541,0,2046,2383
542,542,0,2047,2890
543,543,0,2046,3341
544,544,0,2046,3710
545,545,0,2046,3970
546,546,0,2046,4095
547,547,0,2046,4095
548,548,0,2047,3982
549,549,0,2046,3727
550,550,0,2046,3364
551,551,0,2046,2917
552,552,0,2047,2413
553,553,0,2046,1884
554,554,0,2046,1365
555,555,0,2046,891
556,556,0,2047,490
557,557,0,2046,188
558,558,0,2047,5
559,559,0,2047,0
560,560,0,2046,33
561,561,0,2046,243
562,562,0,2047,569
563,563,0,2047,988
564,564,0,2046,1475
565,565,0,2046,2000
566,566,0,2047,2525
567,567,0,2046,3020
568,568,0,2046,3452
569,569,0,2047,3793
570,570,0,2047,4020
571,571,0,2047,4095
572,572,0,2046,4089
573,573,0,2046,3924
574,574,0,2047,3638
575,575,0,2047,3250
576,576,0,2046,2785
577,577,0,2046,2269
578,578,0,2046,1741
579,579,0,2047,1231
580,580,0,2046,773
581,581,0,2046,397
582,582,0,2046,126
583,583,0,2047,0
584,584,0,2047,0
585,585,0,2047,78
586,586,0,2046,321
587,587,0,2047,675
588,588,0,2047,1116
589,589,0,2046,1616
590,590,0,2046,2143
591,591,0,2046,2664
592,592,0,2046,3144
593,593,0,2046,3554
594,594,0,2047,3867
595,595,0,2047,4061
596,596,0,2046,4095
597,597,0,2046,4057
598,598,0,2046,3857
599,599,0,2047,3542
600,600,0,2047,3129
601,601,0,2046,2648
602,602,0,2047,2126
603,603,0,2046,1600
604,604,0,2046,1100
605,605,0,2046,661
606,606,0,2047,311
607,607,0,2047,72
608,608,0,2047,0
609,609,0,2046,0
610,610,0,2047,133
611,611,0,2046,407
612,612,0,2046,786
613,613,0,2046,1247
614,614,0,2046,1758
615,615,0,2047,2288
616,616,0,2047,2800
617,617,0,2046,3264
618,618,0,2046,3650
619,619,0,2047,3932
620,620,0,2047,4092
621,621,0,2046,4095
622,622,0,2046,4015
623,623,0,2047,3782
624,624,0,2048,3439
625,625,0,2046,3004
626,626,0,2047,2508
627,627,0,2046,1982
628,628,0,2047,1460
629,629,0,2047,973
630,630,0,2045,557
631,631,0,2046,235
632,632,0,2046,29
633,633,0,2046,0
634,634,0,2046,8
635,635,0,2046,196
636,636,0,2046,501
637,637,0,2047,906
638,638,0,2046,1382
639,639,0,2046,1902
640,640,0,2046,2429
641,641,0,2047,2932
642,642,0,2046,3377
643,643,0,2046,3738
644,644,0,2046,3988
645,645,0,2046,4095
646,646,0,2046,4095
647,647,0,2046,3964
648,648,0,2046,3699
649,649,0,2046,3327
650,650,0,2046,2875
651,651,0,2046,2366
652,652,0,2047,1838
653,653,0,2046,1322
654,654,0,2046,852
655,655,0,2046,458
656,656,0,2047,166
657,657,0,2046,0
658,658,0,2046,0
659,659,0,2046,46
660,660,0,2047,268
661,661,0,2046,602
662,662,0,2047,1029
663,663,0,2046,1521
664,664,0,2047,2046
665,665,0,2047,2570
666,666,0,2047,3061
667,667,0,2047,3485
668,668,0,2047,3818
669,669,0,2047,4035
670,670,0,2046,4095
671,671,0,2046,4080
672,672,0,2046,3905
673,673,0,2047,3608
674,674,0,2047,3212
675,675,0,2047,2740
676,676,0,2047,2224
677,677,0,2046,1695
678,678,0,2047,1189
679,679,0,2047,737
680,680,0,2047,369
681,681,0,2047,107
682,682,0,2046,0
683,683,0,2047,0
684,684,0,2046,94
685,685,0,2047,348
686,686,0,2047,710
687,687,0,2046,1158
688,688,0,2047,1661
689,689,0,2047,2190
690,690,0,2046,2708
691,691,0,2047,3184
692,692,0,2047,3586
693,693,0,2047,3888
694,694,0,2046,4071
695,695,0,2046,4095
696,696,0,2047,4044
697,697,0,2047,3835
698,698,0,2046,3509
699,699,0,2046,3090
700,700,0,2047,2603
701,701,0,2047,2080
702,702,0,2047,1554
703,703,0,2047,1059
704,704,0,2046,627
705,705,0,2046,286
706,706,0,2046,57
707,707,0,2046,0
708,708,0,2047,0
709,709,0,2046,152
710,710,0,2047,436
711,711,0,2047,824
712,712,0,2046,1290
713,713,0,2046,1804
714,714,0,2046,2333
715,715,0,2046,2843
716,716,0,2046,3302
717,717,0,2046,3679
718,718,0,2046,3951
719,719,0,2046,4095
720,720,0,2046,4095
721,721,0,2047,4000
722,722,0,2046,3757
723,723,0,2047,3404
724,724,0,2046,2963
725,725,0,2047,2462
726,726,0,2047,1936
727,727,0,2046,1415
728,728,0,2046,934
729,729,0,2047,524
730,730,0,2047,212
731,731,0,2046,17
732,732,0,2047,0
733,733,0,2048,19
734,734,0,2046,218
735,735,0,2047,532
736,736,0,2047,944
737,737,0,2045,1427
738,738,0,2047,1947
739,739,0,2047,2475
740,740,0,2046,2975
741,741,0,2046,3413
742,742,0,2046,3764
743,743,0,2046,4004
744,744,0,2046,4095
745,745,0,2047,4095
746,746,0,2047,3945
747,747,0,2046,3671
748,748,0,2046,3291
749,749,0,2046,2832
750,750,0,2046,2321
751,751,0,2046,1792
752,752,0,2046,1279
753,753,0,2047,814
754,754,0,2047,428
755,755,0,2047,147
756,756,0,2046,0
757,757,0,2046,0
758,758,0,2046,61
759,759,0,2047,292
760,760,0,2046,636
761,761,0,2046,1070
762,762,0,2047,1566
763,763,0,2046,2092
764,764,0,2047,2615
765,765,0,2046,3101
766,766,0,2047,3518
767,767,0,2047,3841
768,768,0,2046,4048
769,769,0,2047,4095
770,770,0,2046,4070
771,771,0,2047,3882
772,772,0,2046,3577
773,773,0,2047,3174
774,774,0,2046,2696
775,775,0,2046,2177
776,776,0,2047,1649
777,777,0,2046,1146
778,778,0,2047,701
779,779,0,2047,341
780,780,0,2047,90
781,781,0,2046,0
782,782,0,2046,0
783,783,0,2046,112
784,784,0,2047,376
785,785,0,2047,746
786,786,0,2046,1200
787,787,0,2046,1707
788,788,0,2046,2236
789,789,0,2046,2752
790,790,0,2046,3222
791,791,0,2046,3616
792,792,0,2047,3910
793,793,0,2046,4082
794,794,0,2046,4095
795,795,0,2046,4031
796,796,0,2047,3811
797,797,0,2047,3476
798,798,0,2047,3050
799,799,0,2046,2558
800,800,0,2046,2034
801,801,0,2047,1509
802,802,0,2046,1019
803,803,0,2046,593
804,804,0,2046,261
805,805,0,2047,43
806,806,0,2047,0
807,807,0,2046,0
808,808,0,2046,172
809,809,0,2046,467
810,810,0,2047,863
811,811,0,2046,1333
812,812,0,2046,1850
813,813,0,2046,2379
814,814,0,2046,2886
815,815,0,2047,3338
816,816,0,2046,3707
817,817,0,2047,3969
818,818,0,2046,4095
819,819,0,2047,4095
820,820,0,2046,3984
821,821,0,2047,3729
822,822,0,2047,3368
823,823,0,2046,2921
824,824,0,2046,2417
825,825,0,2045,1889
826,826,0,2046,1370
827,827,0,2047,895
828,828,0,2047,493
829,829,0,2047,190
830,830,0,2046,5
831,831,0,2046,0
832,832,0,2046,32
833,833,0,2047,241
834,834,0,2047,565
835,835,0,2047,984
836,836,0,2046,1471
837,837,0,2047,1994
838,838,0,2046,2521
839,839,0,2047,3015
840,840,0,2046,3448
841,841,0,2047,3790
842,842,0,2047,4019
843,843,0,2047,4095
844,844,0,2047,4090
845,845,0,2046,3927
846,846,0,2046,3642
847,847,0,2047,3254
848,848,0,2046,2789
849,849,0,2046,2275
850,850,0,2047,1746
851,851,0,2046,1236
852,852,0,2047,777
853,853,0,2046,400
854,854,0,2047,127
855,855,0,2046,0
856,856,0,2046,0
857,857,0,2047,76
858,858,0,2046,318
859,859,0,2046,672
860,860,0,2047,1111
861,861,0,2046,1611
862,862,0,2046,2139
863,863,0,2046,2660
864,864,0,2046,3140
865,865,0,2046,3551
866,866,0,2047,3865
867,867,0,2046,4059
868,868,0,2047,4095
869,869,0,2046,4059
870,870,0,2046,3860
871,871,0,2046,3545
872,872,0,2046,3134
873,873,0,2046,2652
874,874,0,2047,2131
875,875,0,2046,1603
876,876,0,2046,1104
877,877,0,2046,666
878,878,0,2047,314
879,879,0,2047,74
880,880,0,2047,0
881,881,0,2047,0
882,882,0,2047,130
883,883,0,2047,405
884,884,0,2046,783
885,885,0,2046,1242
886,886,0,2047,1753
887,887,0,2047,2282
888,888,0,2046,2796
889,889,0,2047,3260
890,890,0,2046,3646
891,891,0,2047,3930
892,892,0,2046,4092
893,893,0,2047,4095
894,894,0,2046,4017
895,895,0,2047,3786
896,896,0,2046,3443
897,897,0,2047,3009
898,898,0,2047,2513
899,899,0,2046,1987
900,900,0,2046,1464
901,901,0,2046,978
902,902,0,2046,560
903,903,0,2046,237
904,904,0,2047,30
905,905,0,2046,0
906,906,0,2047,6
907,907,0,2046,193
908,908,0,2046,498
909,909,0,2047,901
910,910,0,2047,1378
911,911,0,2046,1897
912,912,0,2047,2424
913,913,0,2046,2928
914,914,0,2047,3374
915,915,0,2046,3735
916,916,0,2046,3986
917,917,0,2047,4095
918,918,0,2047,4095
919,919,0,2046,3966
920,920,0,2047,3702
921,921,0,2047,3332
922,922,0,2046,2878
923,923,0,2046,2371
924,924,0,2047,1843
925,925,0,2046,1326
926,926,0,2046,856
927,927,0,2047,462
928,928,0,2047,169
929,929,0,2046,0
930,930,0,2046,0
931,931,0,2047,45
932,932,0,2047,265
933,933,0,2047,599
934,934,0,2047,1025
935,935,0,2047,1516
936,936,0,2047,2041
937,937,0,2047,2566
938,938,0,2046,3057
939,939,0,2046,3482
940,940,0,2046,3815
941,941,0,2046,4034
942,942,0,2046,4095
943,943,0,2046,4081
944,944,0,2047,3906
945,945,0,2047,3612
946,946,0,2046,3216
947,947,0,2047,2745
948,948,0,2046,2228
949,949,0,2046,1700
950,950,0,2046,1193
951,951,0,2046,741
952,952,0,2046,371
953,953,0,2047,109
954,954,0,2046,0
955,955,0,2047,0
956,956,0,2046,92
957,957,0,2047,345
958,958,0,2046,708
959,959,0,2046,1153
960,960,0,2046,1657
961,961,0,2046,2185
962,962,0,2047,2704
963,963,0,2046,3179
964,964,0,2046,3582
965,965,0,2047,3886
966,966,0,2046,4071
967,967,0,2046,4095
968,968,0,2047,4046
969,969,0,2046,3837
970,970,0,2047,3513
971,971,0,2046,3094
972,972,0,2047,2607
973,973,0,2047,2084
974,974,0,2047,1558
975,975,0,2047,1063
976,976,0,2046,630
977,977,0,2046,289
978,978,0,2046,58
979,979,0,2047,0
980,980,0,2046,0
981,981,0,2046,149
982,982,0,2046,434
983,983,0,2047,821
984,984,0,2047,1286
985,985,0,2046,1799
986,986,0,2046,2329
987,987,0,2047,2839
988,988,0,2047,3298
989,989,0,2046,3676
990,990,0,2046,3949
991,991,0,2045,4095
992,992,0,2046,4095
993,993,0,2047,4001
994,994,0,2046,3760
995,995,0,2046,3408
996,996,0,2046,2967
997,997,0,2046,2467
998,998,0,2046,1940
999,999,0,2047,1420
1000,1000,0,2046,938
1001,1001,0,2046,528
1002,1002,0,2046,214
1003,1003,0,2047,18
1004,1004,0,2047,0
1005,1005,0,2046,18
1006,1006,0,2047,216
1007,1007,0,2046,530
1008,1008,0,2046,941
1009,1009,0,2046,1421
1010,1010,0,2046,1944
1011,1011,0,2046,2471
1012,1012,0,2046,2970
1013,1013,0,2047,3410
1014,1014,0,2047,3762
1015,1015,0,2046,4002
1016,1016,0,2046,4095
1017,1017,0,2047,4095
1018,1018,0,2047,3948
1019,1019,0,2046,3673
1020,1020,0,2047,3295
1021,1021,0,2047,2836
1022,1022,0,2046,2325
1023,1023,0,2047,1797
1024,1024,0,2046,1283
1025,1025,0,2046,819
1026,1026,0,2046,432
1027,1027,0,2046,148
1028,1028,0,2047,0
1029,1029,0,2046,0
1030,1030,0,2046,59
