Sample in Buffer,Sample in Window,TRIGGER,adc1_data_a_d0[11:0],adc1_data_b_d0[11:0]
0,0,0,2046,72
1,1,0,2046,0
2,2,0,2046,11
3,3,0,2046,230
4,4,0,2046,596
5,5,0,2047,1078
6,6,0,2047,1639
7,7,0,2047,2233
8,8,0,2046,2810
9,9,0,2046,3325
10,10,0,2046,3736
11,11,0,2046,4008
12,12,0,2047,4095
13,13,0,2047,4064
14,14,0,2046,3843
15,15,0,2047,3474
16,16,0,2047,2990
17,17,0,2046,2428
18,18,0,2047,1834
19,19,0,2047,1259
20,20,0,2047,743
21,21,0,2047,336
22,22,0,2047,66
23,23,0,2046,0
24,24,0,2047,15
25,25,0,2047,238
26,26,0,2047,609
27,27,0,2047,1095
28,28,0,2046,1657
29,29,0,2046,2251
30,30,0,2047,2828
31,31,0,2047,3340
32,32,0,2046,3747
33,33,0,2046,4014
34,34,0,2046,4095
35,35,0,2046,4059
36,36,0,2047,3833
37,37,0,2046,3460
38,38,0,2047,2972
39,39,0,2046,2409
40,40,0,2047,1816
41,41,0,2046,1240
42,42,0,2047,729
43,43,0,2047,326
44,44,0,2046,61
45,45,0,2047,0
46,46,0,2047,20
47,47,0,2046,249
48,48,0,2047,623
49,49,0,2047,1112
50,50,0,2047,1676
51,51,0,2047,2270
52,52,0,2048,2845
53,53,0,2046,3355
54,54,0,2046,3757
55,55,0,2046,4020
56,56,0,2047,4095
57,57,0,2047,4055
58,58,0,2046,3823
59,59,0,2047,3446
60,60,0,2047,2956
61,61,0,2047,2390
62,62,0,2047,1797
63,63,0,2046,1223
64,64,0,2047,715
65,65,0,2046,315
66,66,0,2047,54
67,67,0,2046,0
68,68,0,2047,25
69,69,0,2047,259
70,70,0,2047,637
71,71,0,2047,1130
72,72,0,2046,1695
73,73,0,2046,2289
74,74,0,2046,2863
75,75,0,2046,3369
76,76,0,2046,3768
77,77,0,2046,4026
78,78,0,2046,4095
79,79,0,2046,4049
80,80,0,2047,3813
81,81,0,2046,3432
82,82,0,2047,2938
83,83,0,2046,2372
84,84,0,2047,1778
85,85,0,2047,1206
86,86,0,2047,701
87,87,0,2047,304
88,88,0,2047,48
89,89,0,2046,0
90,90,0,2046,30
91,91,0,2046,269
92,92,0,2046,651
93,93,0,2047,1146
94,94,0,2046,1714
95,95,0,2047,2307
96,96,0,2047,2880
97,97,0,2046,3383
98,98,0,2046,3777
99,99,0,2047,4032
100,100,0,2046,4095
101,101,0,2046,4045
102,102,0,2046,3803
103,103,0,2046,3419
104,104,0,2046,2922
105,105,0,2046,2353
106,106,0,2046,1760
107,107,0,2047,1189
108,108,0,2047,686
109,109,0,2046,294
110,110,0,2047,42
111,111,0,2046,0
112,112,0,2046,35
113,113,0,2047,279
114,114,0,2046,665
115,115,0,2046,1163
116,116,0,2047,1732
117,117,0,2046,2327
118,118,0,2047,2897
119,119,0,2046,3398
120,120,0,2047,3789
121,121,0,2046,4037
122,122,0,2046,4095
123,123,0,2046,4039
124,124,0,2046,3792
125,125,0,2047,3404
126,126,0,2046,2905
127,127,0,2046,2335
128,128,0,2047,1741
129,129,0,2046,1171
130,130,0,2046,672
131,131,0,2047,284
132,132,0,2047,37
133,133,0,2046,0
134,134,0,2047,40
135,135,0,2046,289
136,136,0,2046,679
137,137,0,2046,1180
138,138,0,2047,1751
139,139,0,2047,2345
140,140,0,2047,2914
141,141,0,2046,3412
142,142,0,2046,3799
143,143,0,2047,4042
144,144,0,2046,4095
145,145,0,2046,4034
146,146,0,2047,3782
147,147,0,2046,3390
148,148,0,2047,2887
149,149,0,2046,2316
150,150,0,2047,1722
151,151,0,2047,1155
152,152,0,2046,658
153,153,0,2046,273
154,154,0,2047,32
155,155,0,2047,0
156,156,0,2046,46
157,157,0,2047,299
158,158,0,2046,694
159,159,0,2046,1198
160,160,0,2047,1769
161,161,0,2047,2363
162,162,0,2046,2931
163,163,0,2046,3426
164,164,0,2047,3809
165,165,0,2047,4048
166,166,0,2046,4095
167,167,0,2047,4028
168,168,0,2046,3772
169,169,0,2046,3376
170,170,0,2046,2870
171,171,0,2046,2298
172,172,0,2046,1703
173,173,0,2046,1137
174,174,0,2046,644
175,175,0,2046,264
176,176,0,2047,27
177,177,0,2046,0
178,178,0,2047,52
179,179,0,2046,310
180,180,0,2046,708
181,181,0,2047,1215
182,182,0,2046,1788
183,183,0,2047,2382
184,184,0,2046,2948
185,185,0,2047,3440
186,186,0,2047,3819
187,187,0,2046,4052
188,188,0,2047,4095
189,189,0,2046,4023
190,190,0,2046,3762
191,191,0,2047,3361
192,192,0,2046,2853
193,193,0,2046,2279
194,194,0,2047,1685
195,195,0,2047,1120
196,196,0,2046,630
197,197,0,2047,254
198,198,0,2046,23
199,199,0,2046,0
200,200,0,2046,57
201,201,0,2046,320
202,202,0,2046,722
203,203,0,2046,1232
204,204,0,2047,1807
205,205,0,2046,2400
206,206,0,2046,2965
207,207,0,2046,3453
208,208,0,2047,3828
209,209,0,2046,4057
210,210,0,2046,4095
211,211,0,2046,4017
212,212,0,2046,3751
213,213,0,2047,3346
214,214,0,2046,2836
215,215,0,2046,2260
216,216,0,2047,1667
217,217,0,2046,1104
218,218,0,2047,616
219,219,0,2046,244
220,220,0,2047,18
221,221,0,2047,0
222,222,0,2047,63
223,223,0,2046,331
224,224,0,2046,737
225,225,0,2047,1249
226,226,0,2046,1825
227,227,0,2046,2419
228,228,0,2047,2981
229,229,0,2047,3468
230,230,0,2047,3838
231,231,0,2047,4061
232,232,0,2046,4095
233,233,0,2047,4011
234,234,0,2047,3741
235,235,0,2046,3332
236,236,0,2046,2818
237,237,0,2046,2242
238,238,0,2047,1648
239,239,0,2046,1086
240,240,0,2046,602
241,241,0,2046,235
242,242,0,2047,14
243,243,0,2047,0
244,244,0,2046,69
245,245,0,2046,342
246,246,0,2046,752
247,247,0,2046,1267
248,248,0,2046,1844
249,249,0,2047,2438
250,250,0,2046,2999
251,251,0,2046,3481
252,252,0,2046,3847
253,253,0,2047,4066
254,254,0,2046,4095
255,255,0,2046,4005
256,256,0,2046,3729
257,257,0,2047,3317
258,258,0,2046,2801
259,259,0,2047,2222
260,260,0,2046,1630
261,261,0,2046,1070
262,262,0,2045,589
263,263,0,2046,225
264,264,0,2046,10
265,265,0,2046,0
266,266,0,2046,74
267,267,0,2046,352
268,268,0,2047,767
269,269,0,2046,1285
270,270,0,2046,1863
271,271,0,2046,2456
272,272,0,2046,3015
273,273,0,2046,3495
274,274,0,2047,3857
275,275,0,2046,4071
276,276,0,2046,4095
277,277,0,2047,3998
278,278,0,2047,3718
279,279,0,2046,3302
280,280,0,2047,2783
281,281,0,2047,2205
282,282,0,2046,1612
283,283,0,2046,1053
284,284,0,2046,575
285,285,0,2046,216
286,286,0,2047,5
287,287,0,2046,0
288,288,0,2047,81
289,289,0,2047,364
290,290,0,2046,782
291,291,0,2047,1302
292,292,0,2046,1882
293,293,0,2047,2474
294,294,0,2047,3032
295,295,0,2047,3508
296,296,0,2046,3866
297,297,0,2047,4074
298,298,0,2047,4095
299,299,0,2047,3992
300,300,0,2046,3707
301,301,0,2047,3287
302,302,0,2046,2766
303,303,0,2046,2186
304,304,0,2046,1593
305,305,0,2046,1037
306,306,0,2046,562
307,307,0,2046,207
308,308,0,2046,1
309,309,0,2046,0
310,310,0,2046,87
311,311,0,2046,375
312,312,0,2047,798
313,313,0,2047,1319
314,314,0,2047,1901
315,315,0,2046,2493
316,316,0,2046,3049
317,317,0,2046,3521
318,318,0,2046,3874
319,319,0,2046,4078
320,320,0,2046,4095
321,321,0,2046,3985
322,322,0,2046,3695
323,323,0,2047,3272
324,324,0,2046,2748
325,325,0,2046,2167
326,326,0,2046,1575
327,327,0,2046,1020
328,328,0,2046,548
329,329,0,2046,199
330,330,0,2047,0
331,331,0,2047,0
332,332,0,2046,95
333,333,0,2046,387
334,334,0,2046,812
335,335,0,2046,1337
336,336,0,2047,1920
337,337,0,2046,2512
338,338,0,2046,3066
339,339,0,2047,3534
340,340,0,2047,3884
341,341,0,2046,4082
342,342,0,2047,4095
343,343,0,2046,3978
344,344,0,2047,3685
345,345,0,2047,3256
346,346,0,2047,2731
347,347,0,2046,2147
348,348,0,2046,1556
349,349,0,2046,1004
350,350,0,2047,536
351,351,0,2046,189
352,352,0,2046,0
353,353,0,2047,0
354,354,0,2046,102
355,355,0,2046,398
356,356,0,2046,827
357,357,0,2046,1355
358,358,0,2047,1938
359,359,0,2046,2530
360,360,0,2046,3082
361,361,0,2046,3548
362,362,0,2046,3893
363,363,0,2046,4085
364,364,0,2047,4095
365,365,0,2046,3972
366,366,0,2046,3673
367,367,0,2046,3241
368,368,0,2046,2712
369,369,0,2046,2129
370,370,0,2047,1538
371,371,0,2046,987
372,372,0,2046,523
373,373,0,2046,181
374,374,0,2046,0
375,375,0,2047,0
376,376,0,2047,108
377,377,0,2046,410
378,378,0,2047,843
379,379,0,2046,1373
380,380,0,2046,1957
381,381,0,2047,2547
382,382,0,2046,3097
383,383,0,2046,3560
384,384,0,2046,3901
385,385,0,2046,4089
386,386,0,2047,4095
387,387,0,2047,3964
388,388,0,2046,3660
389,389,0,2047,3226
390,390,0,2047,2695
391,391,0,2047,2110
392,392,0,2046,1519
393,393,0,2046,971
394,394,0,2047,510
395,395,0,2047,173
396,396,0,2046,0
397,397,0,2047,0
398,398,0,2047,116
399,399,0,2047,422
400,400,0,2046,857
401,401,0,2047,1390
402,402,0,2046,1975
403,403,0,2046,2566
404,404,0,2046,3113
405,405,0,2047,3573
406,406,0,2047,3909
407,407,0,2047,4091
408,408,0,2046,4095
409,409,0,2046,3956
410,410,0,2046,3649
411,411,0,2046,3210
412,412,0,2046,2677
413,413,0,2046,2091
414,414,0,2046,1502
415,415,0,2046,955
416,416,0,2046,497
417,417,0,2046,164
418,418,0,2047,0
419,419,0,2046,0
420,420,0,2047,123
421,421,0,2046,433
422,422,0,2046,874
423,423,0,2046,1408
424,424,0,2047,1994
425,425,0,2046,2584
426,426,0,2046,3129
427,427,0,2046,3586
428,428,0,2046,3917
429,429,0,2046,4095
430,430,0,2047,4095
431,431,0,2046,3949
432,432,0,2046,3637
433,433,0,2047,3195
434,434,0,2047,2659
435,435,0,2046,2072
436,436,0,2046,1484
437,437,0,2047,939
438,438,0,2046,485
439,439,0,2046,156
440,440,0,2046,0
441,441,0,2047,0
442,442,0,2047,131
443,443,0,2047,446
444,444,0,2046,889
445,445,0,2047,1426
446,446,0,2046,2013
447,447,0,2046,2602
448,448,0,2046,3145
449,449,0,2046,3599
450,450,0,2047,3926
451,451,0,2047,4095
452,452,0,2046,4095
453,453,0,2046,3941
454,454,0,2046,3625
455,455,0,2047,3179
456,456,0,2046,2642
457,457,0,2046,2054
458,458,0,2046,1465
459,459,0,2046,923
460,460,0,2047,472
461,461,0,2046,148
462,462,0,2046,0
463,463,0,2047,0
464,464,0,2046,138
465,465,0,2046,457
466,466,0,2046,905
467,467,0,2047,1444
468,468,0,2046,2032
469,469,0,2047,2620
470,470,0,2046,3162
471,471,0,2046,3611
472,472,0,2047,3933
473,473,0,2047,4095
474,474,0,2046,4095
475,475,0,2047,3935
476,476,0,2047,3613
477,477,0,2047,3163
478,478,0,2047,2623
479,479,0,2046,2035
480,480,0,2047,1447
481,481,0,2047,908
482,482,0,2047,459
483,483,0,2046,140
484,484,0,2046,0
485,485,0,2047,0
486,486,0,2046,146
487,487,0,2046,470
488,488,0,2047,920
489,489,0,2046,1462
490,490,0,2047,2051
491,491,0,2046,2638
492,492,0,2046,3177
493,493,0,2047,3623
494,494,0,2046,3941
495,495,0,2046,4095
496,496,0,2046,4095
497,497,0,2046,3927
498,498,0,2047,3600
499,499,0,2047,3148
500,500,0,2046,2605
501,501,0,2046,2016
502,502,0,2046,1429
503,503,0,2046,892
504,504,0,2046,448
505,505,0,2047,132
506,506,0,2046,0
507,507,0,2046,0
508,508,0,2046,154
509,509,0,2046,482
510,510,0,2046,937
511,511,0,2046,1480
512,512,0,2046,2070
513,513,0,2046,2656
514,514,0,2047,3193
515,515,0,2047,3635
516,516,0,2047,3949
517,517,0,2047,4095
518,518,0,2047,4095
519,519,0,2046,3919
520,520,0,2046,3589
521,521,0,2046,3132
522,522,0,2046,2587
523,523,0,2046,1997
524,524,0,2047,1411
525,525,0,2046,876
526,526,0,2046,436
527,527,0,2047,124
528,528,0,2047,0
529,529,0,2047,0
530,530,0,2046,162
531,531,0,2046,496
532,532,0,2047,952
533,533,0,2045,1498
534,534,0,2046,2089
535,535,0,2045,2674
536,536,0,2047,3208
537,537,0,2046,3647
538,538,0,2046,3956
539,539,0,2046,4095
540,540,0,2047,4093
541,541,0,2046,3910
542,542,0,2046,3575
543,543,0,2047,3116
544,544,0,2046,2569
545,545,0,2047,1979
546,546,0,2046,1393
547,547,0,2046,860
548,548,0,2047,424
549,549,0,2046,117
550,550,0,2047,0
551,551,0,2046,0
552,552,0,2047,171
553,553,0,2046,508
554,554,0,2046,968
555,555,0,2046,1517
556,556,0,2046,2108
557,557,0,2046,2692
558,558,0,2047,3224
559,559,0,2047,3659
560,560,0,2047,3963
561,561,0,2046,4095
562,562,0,2046,4090
563,563,0,2046,3902
564,564,0,2046,3562
565,565,0,2047,3100
566,566,0,2046,2550
567,567,0,2046,1959
568,568,0,2046,1375
569,569,0,2046,844
570,570,0,2047,411
571,571,0,2047,110
572,572,0,2046,0
573,573,0,2046,0
574,574,0,2047,179
575,575,0,2046,521
576,576,0,2046,985
577,577,0,2047,1535
578,578,0,2046,2126
579,579,0,2046,2710
580,580,0,2046,3239
581,581,0,2047,3671
582,582,0,2047,3971
583,583,0,2046,4095
584,584,0,2047,4086
585,585,0,2047,3894
586,586,0,2047,3549
587,587,0,2046,3083
588,588,0,2046,2532
589,589,0,2047,1940
590,590,0,2046,1357
591,591,0,2046,829
592,592,0,2046,399
593,593,0,2047,103
594,594,0,2046,0
595,595,0,2046,0
596,596,0,2046,188
597,597,0,2046,533
598,598,0,2047,1002
599,599,0,2046,1553
600,600,0,2046,2145
601,601,0,2046,2727
602,602,0,2046,3255
603,603,0,2047,3683
604,604,0,2046,3978
605,605,0,2047,4095
606,606,0,2047,4083
607,607,0,2047,3884
608,608,0,2047,3537
609,609,0,2046,3067
610,610,0,2046,2514
611,611,0,2046,1922
612,612,0,2046,1340
613,613,0,2047,814
614,614,0,2046,388
615,615,0,2047,97
616,616,0,2047,0
617,617,0,2046,0
618,618,0,2046,197
619,619,0,2047,547
620,620,0,2046,1018
621,621,0,2047,1572
622,622,0,2047,2163
623,623,0,2047,2745
624,624,0,2047,3270
625,625,0,2046,3694
626,626,0,2046,3985
627,627,0,2046,4095
628,628,0,2047,4079
629,629,0,2046,3875
630,630,0,2046,3523
631,631,0,2046,3051
632,632,0,2046,2495
633,633,0,2046,1903
634,634,0,2046,1322
635,635,0,2046,798
636,636,0,2046,376
637,637,0,2047,89
638,638,0,2046,0
639,639,0,2046,0
640,640,0,2046,205
641,641,0,2047,560
642,642,0,2046,1034
643,643,0,2047,1590
644,644,0,2046,2182
645,645,0,2046,2763
646,646,0,2046,3285
647,647,0,2046,3706
648,648,0,2046,3990
649,649,0,2046,4095
650,650,0,2046,4074
651,651,0,2047,3866
652,652,0,2047,3510
653,653,0,2047,3034
654,654,0,2046,2478
655,655,0,2047,1884
656,656,0,2047,1304
657,657,0,2046,784
658,658,0,2047,365
659,659,0,2047,83
660,660,0,2047,0
661,661,0,2046,5
662,662,0,2046,215
663,663,0,2047,574
664,664,0,2046,1050
665,665,0,2046,1609
666,666,0,2047,2201
667,667,0,2047,2781
668,668,0,2047,3300
669,669,0,2046,3717
670,670,0,2046,3998
671,671,0,2047,4095
672,672,0,2046,4071
673,673,0,2047,3857
674,674,0,2046,3497
675,675,0,2046,3017
676,676,0,2047,2458
677,677,0,2046,1866
678,678,0,2047,1287
679,679,0,2046,769
680,680,0,2046,355
681,681,0,2046,76
682,682,0,2046,0
683,683,0,2046,8
684,684,0,2047,224
685,685,0,2046,586
686,686,0,2046,1068
687,687,0,2046,1627
688,688,0,2046,2220
689,689,0,2046,2799
690,690,0,2047,3315
691,691,0,2046,3728
692,692,0,2046,4004
693,693,0,2046,4095
694,694,0,2047,4067
695,695,0,2046,3848
696,696,0,2046,3483
697,697,0,2047,3000
698,698,0,2047,2440
699,699,0,2046,1847
700,700,0,2047,1270
701,701,0,2046,754
702,702,0,2046,343
703,703,0,2046,70
704,704,0,2046,0
705,705,0,2046,12
706,706,0,2046,233
707,707,0,2047,601
708,708,0,2047,1084
709,709,0,2047,1645
710,710,0,2047,2239
711,711,0,2047,2816
712,712,0,2047,3331
713,713,0,2046,3739
714,714,0,2046,4010
715,715,0,2047,4095
716,716,0,2046,4063
717,717,0,2047,3839
718,718,0,2047,3469
719,719,0,2046,2984
720,720,0,2046,2422
721,721,0,2046,1828
722,722,0,2046,1252
723,723,0,2046,740
724,724,0,2046,333
725,725,0,2047,64
726,726,0,2046,0
727,727,0,2047,17
728,728,0,2047,243
729,729,0,2046,614
730,730,0,2046,1101
731,731,0,2046,1664
732,732,0,2047,2258
733,733,0,2047,2834
734,734,0,2046,3345
735,735,0,2046,3750
736,736,0,2047,4016
737,737,0,2046,4095
738,738,0,2046,4057
739,739,0,2047,3829
740,740,0,2046,3456
741,741,0,2047,2967
742,742,0,2046,2403
743,743,0,2046,1810
744,744,0,2047,1235
745,745,0,2046,725
746,746,0,2046,322
747,747,0,2047,58
748,748,0,2047,0
749,749,0,2046,22
750,750,0,2047,252
751,751,0,2047,627
752,752,0,2047,1118
753,753,0,2047,1682
754,754,0,2046,2276
755,755,0,2047,2850
756,756,0,2046,3359
757,757,0,2047,3760
758,758,0,2047,4022
759,759,0,2047,4095
760,760,0,2046,4053
761,761,0,2047,3819
762,762,0,2046,3442
763,763,0,2046,2950
764,764,0,2046,2385
765,765,0,2047,1791
766,766,0,2046,1217
767,767,0,2046,710
768,768,0,2046,312
769,769,0,2047,52
770,770,0,2046,0
771,771,0,2047,27
772,772,0,2046,262
773,773,0,2046,642
774,774,0,2047,1134
775,775,0,2047,1701
776,776,0,2046,2295
777,777,0,2046,2868
778,778,0,2047,3374
779,779,0,2046,3772
780,780,0,2046,4028
781,781,0,2046,4095
782,782,0,2047,4048
783,783,0,2046,3809
784,784,0,2046,3428
785,785,0,2046,2933
786,786,0,2047,2366
787,787,0,2046,1772
788,788,0,2046,1200
789,789,0,2047,695
790,790,0,2046,301
791,791,0,2046,46
792,792,0,2047,0
793,793,0,2046,32
794,794,0,2047,272
795,795,0,2047,655
796,796,0,2047,1151
797,797,0,2047,1720
798,798,0,2046,2314
799,799,0,2046,2886
800,800,0,2047,3388
801,801,0,2046,3781
802,802,0,2046,4033
803,803,0,2046,4095
804,804,0,2047,4043
805,805,0,2047,3800
806,806,0,2046,3414
807,807,0,2047,2916
808,808,0,2046,2347
809,809,0,2046,1753
810,810,0,2046,1183
811,811,0,2046,682
812,812,0,2047,290
813,813,0,2046,41
814,814,0,2047,0
815,815,0,2046,37
816,816,0,2047,282
817,817,0,2047,669
818,818,0,2047,1168
819,819,0,2046,1738
820,820,0,2046,2333
821,821,0,2047,2902
822,822,0,2047,3402
823,823,0,2047,3792
824,824,0,2047,4039
825,825,0,2046,4095
826,826,0,2047,4037
827,827,0,2046,3790
828,828,0,2046,3399
829,829,0,2047,2899
830,830,0,2047,2329
831,831,0,2046,1735
832,832,0,2046,1166
833,833,0,2046,668
834,834,0,2047,281
835,835,0,2046,36
836,836,0,2047,0
837,837,0,2046,43
838,838,0,2046,292
839,839,0,2047,684
840,840,0,2046,1186
841,841,0,2047,1757
842,842,0,2046,2351
843,843,0,2046,2919
844,844,0,2047,3417
845,845,0,2046,3802
846,846,0,2046,4044
847,847,0,2046,4095
848,848,0,2046,4032
849,849,0,2046,3779
850,850,0,2046,3385
851,851,0,2046,2882
852,852,0,2046,2310
853,853,0,2046,1716
854,854,0,2046,1149
855,855,0,2047,653
856,856,0,2046,270
857,857,0,2046,31
858,858,0,2047,0
859,859,0,2046,48
860,860,0,2046,302
861,861,0,2046,698
862,862,0,2046,1203
863,863,0,2046,1776
864,864,0,2046,2369
865,865,0,2046,2936
866,866,0,2047,3430
867,867,0,2046,3812
868,868,0,2047,4049
869,869,0,2046,4095
870,870,0,2046,4026
871,871,0,2046,3769
872,872,0,2046,3370
873,873,0,2046,2864
874,874,0,2047,2292
875,875,0,2047,1698
876,876,0,2046,1131
877,877,0,2046,638
878,878,0,2046,260
879,879,0,2046,25
880,880,0,2046,0
881,881,0,2046,53
882,882,0,2046,313
883,883,0,2046,712
884,884,0,2047,1220
885,885,0,2047,1794
886,886,0,2046,2388
887,887,0,2046,2954
888,888,0,2046,3444
889,889,0,2046,3822
890,890,0,2047,4054
891,891,0,2046,4095
892,892,0,2046,4021
893,893,0,2046,3759
894,894,0,2046,3356
895,895,0,2046,2847
896,896,0,2046,2273
897,897,0,2047,1680
898,898,0,2046,1114
899,899,0,2047,625
900,900,0,2047,251
901,901,0,2047,21
902,902,0,2047,0
903,903,0,2047,58
904,904,0,2047,323
905,905,0,2046,727
906,906,0,2047,1237
907,907,0,2047,1813
908,908,0,2047,2406
909,909,0,2047,2970
910,910,0,2047,3459
911,911,0,2046,3831
912,912,0,2046,4058
913,913,0,2047,4095
914,914,0,2047,4015
915,915,0,2046,3747
916,916,0,2046,3342
917,917,0,2046,2830
918,918,0,2046,2254
919,919,0,2046,1661
920,920,0,2047,1098
921,921,0,2047,611
922,922,0,2047,241
923,923,0,2047,16
924,924,0,2046,0
925,925,0,2046,65
926,926,0,2047,334
927,927,0,2046,742
928,928,0,2046,1255
929,929,0,2046,1831
930,930,0,2046,2425
931,931,0,2046,2987
932,932,0,2046,3472
933,933,0,2047,3841
934,934,0,2046,4063
935,935,0,2046,4095
936,936,0,2047,4009
937,937,0,2047,3737
938,938,0,2046,3327
939,939,0,2047,2813
940,940,0,2046,2235
941,941,0,2046,1642
942,942,0,2046,1081
943,943,0,2046,597
944,944,0,2047,231
945,945,0,2047,12
946,946,0,2046,0
947,947,0,2047,71
948,948,0,2047,346
949,949,0,2047,757
950,950,0,2046,1272
951,951,0,2046,1850
952,952,0,2046,2444
953,953,0,2047,3004
954,954,0,2046,3485
955,955,0,2046,3850
956,956,0,2046,4067
957,957,0,2046,4095
958,958,0,2046,4002
959,959,0,2046,3726
960,960,0,2046,3312
961,961,0,2046,2795
962,962,0,2046,2217
963,963,0,2046,1624
964,964,0,2047,1064
965,965,0,2046,585
966,966,0,2046,222
967,967,0,2047,8
968,968,0,2046,0
969,969,0,2046,77
970,970,0,2046,356
971,971,0,2047,772
972,972,0,2046,1290
973,973,0,2046,1869
974,974,0,2046,2463
975,975,0,2046,3020
976,976,0,2046,3499
977,977,0,2046,3859
978,978,0,2047,4072
979,979,0,2047,4095
980,980,0,2046,3996
981,981,0,2046,3715
982,982,0,2046,3297
983,983,0,2046,2777
984,984,0,2046,2198
985,985,0,2047,1605
986,986,0,2046,1048
987,987,0,2046,570
988,988,0,2046,213
989,989,0,2046,4
990,990,0,2047,0
991,991,0,2047,84
992,992,0,2046,367
993,993,0,2046,786
994,994,0,2047,1307
995,995,0,2046,1887
996,996,0,2047,2481
997,997,0,2046,3037
998,998,0,2046,3513
999,999,0,2047,3868
1000,1000,0,2046,4076
1001,1001,0,2047,4095
1002,1002,0,2046,3989
1003,1003,0,2046,3703
1004,1004,0,2046,3282
1005,1005,0,2046,2761
1006,1006,0,2047,2180
1007,1007,0,2047,1587
1008,1008,0,2046,1031
1009,1009,0,2046,558
1010,1010,0,2046,204
1011,1011,0,2047,0
1012,1012,0,2047,0
1013,1013,0,2046,91
1014,1014,0,2046,379
1015,1015,0,2047,802
1016,1016,0,2046,1324
1017,1017,0,2046,1906
1018,1018,0,2047,2498
1019,1019,0,2046,3054
1020,1020,0,2046,3526
1021,1021,0,2046,3878
1022,1022,0,2047,4080
1023,1023,0,2047,4095
1024,1024,0,2046,3983
1025,1025,0,2046,3692
1026,1026,0,2047,3267
1027,1027,0,2046,2743
1028,1028,0,2047,2160
1029,1029,0,2046,1568
