Sample in Buffer,Sample in Window,TRIGGER,adc1_data_a_d0[11:0],adc1_data_b_d0[11:0]
0,0,0,2047,298
1,1,0,2047,14
2,2,0,2047,0
3,3,0,2046,184
4,4,0,2046,617
5,5,0,2046,1221
6,6,0,2046,1924
7,7,0,2045,2641
8,8,0,2046,3285
9,9,0,2046,3778
10,10,0,2047,4062
11,11,0,2047,4095
12,12,0,2047,3892
13,13,0,2046,3459
14,14,0,2046,2855
15,15,0,2046,2151
16,16,0,2046,1435
17,17,0,2046,791
18,18,0,2047,297
19,19,0,2046,14
20,20,0,2046,0
21,21,0,2046,184
22,22,0,2047,618
23,23,0,2046,1222
24,24,0,2047,1925
25,25,0,2046,2642
26,26,0,2047,3286
27,27,0,2046,3779
28,28,0,2046,4062
29,29,0,2046,4095
30,30,0,2046,3891
31,31,0,2046,3458
32,32,0,2046,2853
33,33,0,2046,2151
34,34,0,2046,1434
35,35,0,2046,791
36,36,0,2047,298
37,37,0,2047,14
38,38,0,2046,0
39,39,0,2047,185
40,40,0,2046,619
41,41,0,2047,1223
42,42,0,2047,1926
43,43,0,2046,2643
44,44,0,2046,3286
45,45,0,2046,3780
46,46,0,2048,4064
47,47,0,2046,4095
48,48,0,2047,3891
49,49,0,2047,3457
50,50,0,2047,2852
51,51,0,2046,2150
52,52,0,2046,1433
53,53,0,2046,790
54,54,0,2046,297
55,55,0,2047,14
56,56,0,2046,0
57,57,0,2046,185
58,58,0,2046,620
59,59,0,2047,1224
60,60,0,2047,1927
61,61,0,2047,2644
62,62,0,2046,3287
63,63,0,2046,3780
64,64,0,2047,4062
65,65,0,2046,4095
66,66,0,2047,3891
67,67,0,2046,3457
68,68,0,2046,2851
69,69,0,2047,2149
70,70,0,2046,1432
71,71,0,2046,789
72,72,0,2046,297
73,73,0,2046,14
74,74,0,2046,0
75,75,0,2046,186
76,76,0,2046,620
77,77,0,2046,1225
78,78,0,2047,1929
79,79,0,2046,2645
80,80,0,2047,3288
81,81,0,2046,3780
82,82,0,2046,4064
83,83,0,2046,4095
84,84,0,2047,3891
85,85,0,2046,3456
86,86,0,2047,2850
87,87,0,2046,2148
88,88,0,2047,1431
89,89,0,2046,789
90,90,0,2046,296
91,91,0,2046,14
92,92,0,2046,0
93,93,0,2046,186
94,94,0,2046,621
95,95,0,2046,1226
96,96,0,2047,1929
97,97,0,2046,2646
98,98,0,2046,3289
99,99,0,2047,3781
100,100,0,2047,4063
101,101,0,2046,4095
102,102,0,2046,3890
103,103,0,2046,3455
104,104,0,2046,2850
105,105,0,2046,2147
106,106,0,2047,1430
107,107,0,2046,787
108,108,0,2047,296
109,109,0,2046,13
110,110,0,2047,0
111,111,0,2047,187
112,112,0,2046,621
113,113,0,2046,1227
114,114,0,2047,1930
115,115,0,2046,2647
116,116,0,2047,3290
117,117,0,2046,3781
118,118,0,2047,4064
119,119,0,2046,4095
120,120,0,2047,3889
121,121,0,2047,3455
122,122,0,2047,2849
123,123,0,2046,2145
124,124,0,2046,1430
125,125,0,2047,787
126,126,0,2046,295
127,127,0,2046,13
128,128,0,2046,0
129,129,0,2047,187
130,130,0,2047,622
131,131,0,2046,1228
132,132,0,2046,1931
133,133,0,2047,2647
134,134,0,2046,3290
135,135,0,2046,3782
136,136,0,2046,4064
137,137,0,2046,4095
138,138,0,2046,3889
139,139,0,2046,3454
140,140,0,2046,2848
141,141,0,2047,2144
142,142,0,2047,1428
143,143,0,2047,786
144,144,0,2047,294
145,145,0,2047,13
146,146,0,2046,0
147,147,0,2047,187
148,148,0,2047,623
149,149,0,2047,1229
150,150,0,2046,1932
151,151,0,2046,2648
152,152,0,2047,3291
153,153,0,2047,3782
154,154,0,2046,4064
155,155,0,2046,4095
156,156,0,2047,3889
157,157,0,2047,3453
158,158,0,2047,2847
159,159,0,2046,2144
160,160,0,2047,1428
161,161,0,2047,785
162,162,0,2047,294
163,163,0,2046,12
164,164,0,2047,0
165,165,0,2046,188
166,166,0,2047,624
167,167,0,2046,1230
168,168,0,2047,1933
169,169,0,2046,2649
170,170,0,2046,3292
171,171,0,2046,3783
172,172,0,2047,4064
173,173,0,2047,4095
174,174,0,2046,3888
175,175,0,2047,3453
176,176,0,2047,2846
177,177,0,2047,2142
178,178,0,2046,1427
179,179,0,2046,785
180,180,0,2046,293
181,181,0,2047,12
182,182,0,2047,0
183,183,0,2047,189
184,184,0,2046,624
185,185,0,2046,1230
186,186,0,2047,1934
187,187,0,2046,2650
188,188,0,2047,3292
189,189,0,2047,3784
190,190,0,2047,4065
191,191,0,2046,4095
192,192,0,2046,3887
193,193,0,2045,3451
194,194,0,2046,2845
195,195,0,2046,2141
196,196,0,2046,1426
197,197,0,2047,783
198,198,0,2047,293
199,199,0,2047,13
200,200,0,2046,0
201,201,0,2047,189
202,202,0,2046,625
203,203,0,2047,1231
204,204,0,2046,1935
205,205,0,2046,2652
206,206,0,2047,3294
207,207,0,2046,3784
208,208,0,2047,4065
209,209,0,2047,4095
210,210,0,2046,3887
211,211,0,2046,3451
212,212,0,2047,2845
213,213,0,2046,2141
214,214,0,2046,1424
215,215,0,2046,783
216,216,0,2046,292
217,217,0,2047,12
218,218,0,2046,0
219,219,0,2046,189
220,220,0,2047,625
221,221,0,2046,1233
222,222,0,2046,1936
223,223,0,2046,2652
224,224,0,2046,3294
225,225,0,2046,3786
226,226,0,2047,4064
227,227,0,2046,4095
228,228,0,2047,3888
229,229,0,2046,3451
230,230,0,2046,2843
231,231,0,2046,2139
232,232,0,2047,1424
233,233,0,2047,782
234,234,0,2047,292
235,235,0,2046,11
236,236,0,2046,0
237,237,0,2047,189
238,238,0,2047,626
239,239,0,2046,1233
240,240,0,2046,1937
241,241,0,2046,2652
242,242,0,2046,3295
243,243,0,2046,3786
244,244,0,2046,4066
245,245,0,2046,4095
246,246,0,2046,3887
247,247,0,2046,3450
248,248,0,2046,2843
249,249,0,2046,2139
250,250,0,2046,1423
251,251,0,2046,782
252,252,0,2046,292
253,253,0,2046,11
254,254,0,2046,0
255,255,0,2047,190
256,256,0,2047,627
257,257,0,2047,1235
258,258,0,2046,1938
259,259,0,2046,2654
260,260,0,2046,3296
261,261,0,2047,3786
262,262,0,2047,4066
263,263,0,2046,4095
264,264,0,2047,3886
265,265,0,2046,3449
266,266,0,2046,2842
267,267,0,2046,2138
268,268,0,2046,1422
269,269,0,2046,781
270,270,0,2045,290
271,271,0,2046,11
272,272,0,2047,0
273,273,0,2046,190
274,274,0,2046,628
275,275,0,2047,1235
276,276,0,2047,1939
277,277,0,2045,2655
278,278,0,2046,3296
279,279,0,2046,3787
280,280,0,2047,4066
281,281,0,2047,4095
282,282,0,2046,3886
283,283,0,2047,3448
284,284,0,2046,2841
285,285,0,2047,2138
286,286,0,2046,1422
287,287,0,2047,780
288,288,0,2046,290
289,289,0,2047,11
290,290,0,2046,0
291,291,0,2046,191
292,292,0,2046,629
293,293,0,2047,1236
294,294,0,2047,1940
295,295,0,2046,2656
296,296,0,2047,3297
297,297,0,2046,3787
298,298,0,2046,4066
299,299,0,2046,4095
300,300,0,2047,3886
301,301,0,2047,3448
302,302,0,2046,2841
303,303,0,2047,2136
304,304,0,2046,1421
305,305,0,2047,780
306,306,0,2046,290
307,307,0,2046,11
308,308,0,2046,0
309,309,0,2047,192
310,310,0,2047,629
311,311,0,2046,1236
312,312,0,2047,1941
313,313,0,2046,2657
314,314,0,2046,3298
315,315,0,2046,3788
316,316,0,2047,4066
317,317,0,2047,4095
318,318,0,2046,3885
319,319,0,2046,3446
320,320,0,2047,2840
321,321,0,2046,2134
322,322,0,2047,1420
323,323,0,2046,779
324,324,0,2047,289
325,325,0,2046,11
326,326,0,2046,0
327,327,0,2046,192
328,328,0,2047,631
329,329,0,2046,1238
330,330,0,2046,1942
331,331,0,2047,2659
332,332,0,2046,3299
333,333,0,2046,3788
334,334,0,2046,4067
335,335,0,2046,4095
336,336,0,2046,3884
337,337,0,2046,3446
338,338,0,2047,2838
339,339,0,2047,2135
340,340,0,2046,1418
341,341,0,2046,777
342,342,0,2046,289
343,343,0,2046,10
344,344,0,2047,0
345,345,0,2047,192
346,346,0,2046,631
347,347,0,2046,1239
348,348,0,2047,1943
349,349,0,2047,2659
350,350,0,2046,3300
351,351,0,2046,3788
352,352,0,2047,4067
353,353,0,2046,4095
354,354,0,2047,3884
355,355,0,2047,3445
356,356,0,2046,2838
357,357,0,2047,2133
358,358,0,2047,1417
359,359,0,2047,777
360,360,0,2046,288
361,361,0,2046,11
362,362,0,2047,0
363,363,0,2046,193
364,364,0,2047,631
365,365,0,2046,1239
366,366,0,2047,1944
367,367,0,2047,2660
368,368,0,2046,3300
369,369,0,2047,3789
370,370,0,2046,4067
371,371,0,2046,4095
372,372,0,2046,3883
373,373,0,2046,3444
374,374,0,2047,2836
375,375,0,2046,2132
376,376,0,2047,1416
377,377,0,2046,776
378,378,0,2047,287
379,379,0,2046,10
380,380,0,2047,0
381,381,0,2046,193
382,382,0,2047,632
383,383,0,2047,1240
384,384,0,2047,1945
385,385,0,2047,2661
386,386,0,2047,3301
387,387,0,2046,3790
388,388,0,2047,4067
389,389,0,2047,4095
390,390,0,2047,3883
391,391,0,2047,3444
392,392,0,2046,2836
393,393,0,2047,2131
394,394,0,2046,1415
395,395,0,2047,775
396,396,0,2046,287
397,397,0,2046,10
398,398,0,2046,0
399,399,0,2047,194
400,400,0,2046,633
401,401,0,2046,1241
402,402,0,2047,1947
403,403,0,2046,2662
404,404,0,2046,3302
405,405,0,2047,3791
406,406,0,2047,4067
407,407,0,2046,4095
408,408,0,2046,3882
409,409,0,2046,3444
410,410,0,2046,2835
411,411,0,2046,2130
412,412,0,2047,1415
413,413,0,2046,774
414,414,0,2047,287
415,415,0,2046,10
416,416,0,2046,0
417,417,0,2047,194
418,418,0,2046,634
419,419,0,2047,1241
420,420,0,2047,1948
421,421,0,2047,2662
422,422,0,2046,3303
423,423,0,2047,3791
424,424,0,2046,4068
425,425,0,2046,4095
426,426,0,2046,3882
427,427,0,2046,3442
428,428,0,2046,2833
429,429,0,2046,2129
430,430,0,2046,1414
431,431,0,2047,774
432,432,0,2047,285
433,433,0,2047,9
434,434,0,2047,0
435,435,0,2047,195
436,436,0,2046,635
437,437,0,2045,1243
438,438,0,2045,1949
439,439,0,2046,2664
440,440,0,2047,3304
441,441,0,2046,3791
442,442,0,2047,4068
443,443,0,2047,4095
444,444,0,2046,3881
445,445,0,2046,3442
446,446,0,2047,2832
447,447,0,2046,2128
448,448,0,2046,1412
449,449,0,2047,773
450,450,0,2046,286
451,451,0,2046,9
452,452,0,2047,0
453,453,0,2046,195
454,454,0,2047,635
455,455,0,2046,1244
456,456,0,2046,1950
457,457,0,2046,2664
458,458,0,2046,3305
459,459,0,2047,3792
460,460,0,2046,4068
461,461,0,2046,4095
462,462,0,2046,3881
463,463,0,2046,3441
464,464,0,2047,2832
465,465,0,2047,2127
466,466,0,2046,1411
467,467,0,2046,772
468,468,0,2047,285
469,469,0,2046,9
470,470,0,2046,0
471,471,0,2047,196
472,472,0,2046,636
473,473,0,2046,1245
474,474,0,2047,1950
475,475,0,2046,2666
476,476,0,2046,3305
477,477,0,2047,3792
478,478,0,2046,4068
479,479,0,2046,4095
480,480,0,2046,3881
481,481,0,2046,3440
482,482,0,2047,2831
483,483,0,2047,2127
484,484,0,2046,1411
485,485,0,2046,771
486,486,0,2046,284
487,487,0,2046,9
488,488,0,2046,0
489,489,0,2046,196
490,490,0,2046,637
491,491,0,2046,1246
492,492,0,2046,1951
493,493,0,2046,2667
494,494,0,2046,3305
495,495,0,2046,3793
496,496,0,2047,4069
497,497,0,2046,4095
498,498,0,2047,3881
499,499,0,2046,3439
500,500,0,2047,2830
501,501,0,2046,2125
502,502,0,2047,1410
503,503,0,2046,771
504,504,0,2046,284
505,505,0,2046,9
506,506,0,2046,0
507,507,0,2046,196
508,508,0,2046,638
509,509,0,2046,1247
510,510,0,2047,1952
511,511,0,2046,2667
512,512,0,2047,3307
513,513,0,2047,3793
514,514,0,2047,4069
515,515,0,2046,4095
516,516,0,2046,3880
517,517,0,2046,3438
518,518,0,2046,2829
519,519,0,2046,2124
520,520,0,2046,1408
521,521,0,2046,770
522,522,0,2046,283
523,523,0,2047,8
524,524,0,2046,0
525,525,0,2047,197
526,526,0,2047,638
527,527,0,2046,1247
528,528,0,2047,1953
529,529,0,2047,2668
530,530,0,2046,3307
531,531,0,2047,3793
532,532,0,2046,4069
533,533,0,2046,4095
534,534,0,2046,3880
535,535,0,2046,3439
536,536,0,2046,2829
537,537,0,2046,2123
538,538,0,2046,1408
539,539,0,2046,768
540,540,0,2046,283
541,541,0,2046,8
542,542,0,2047,0
543,543,0,2047,197
544,544,0,2046,639
545,545,0,2046,1249
546,546,0,2047,1954
547,547,0,2046,2669
548,548,0,2046,3309
549,549,0,2046,3795
550,550,0,2047,4069
551,551,0,2046,4095
552,552,0,2046,3878
553,553,0,2046,3437
554,554,0,2047,2827
555,555,0,2046,2122
556,556,0,2047,1407
557,557,0,2047,769
558,558,0,2047,282
559,559,0,2047,8
560,560,0,2045,0
561,561,0,2046,198
562,562,0,2046,640
563,563,0,2047,1250
564,564,0,2047,1955
565,565,0,2046,2670
566,566,0,2046,3309
567,567,0,2046,3795
568,568,0,2047,4069
569,569,0,2046,4095
570,570,0,2047,3879
571,571,0,2046,3436
572,572,0,2046,2826
573,573,0,2046,2121
574,574,0,2047,1406
575,575,0,2046,767
576,576,0,2045,282
577,577,0,2046,8
578,578,0,2047,0
579,579,0,2047,198
580,580,0,2047,640
581,581,0,2046,1251
582,582,0,2047,1956
583,583,0,2047,2671
584,584,0,2046,3310
585,585,0,2046,3795
586,586,0,2046,4070
587,587,0,2047,4095
588,588,0,2047,3878
589,589,0,2047,3436
590,590,0,2047,2825
591,591,0,2047,2120
592,592,0,2047,1405
593,593,0,2046,766
594,594,0,2046,281
595,595,0,2046,7
596,596,0,2046,0
597,597,0,2046,199
598,598,0,2046,641
599,599,0,2046,1251
600,600,0,2046,1957
601,601,0,2046,2672
602,602,0,2046,3310
603,603,0,2046,3796
604,604,0,2046,4070
605,605,0,2046,4095
606,606,0,2046,3877
607,607,0,2046,3435
608,608,0,2046,2824
609,609,0,2046,2119
610,610,0,2046,1404
611,611,0,2046,766
612,612,0,2046,281
613,613,0,2047,7
614,614,0,2046,0
615,615,0,2047,200
616,616,0,2046,642
617,617,0,2046,1253
618,618,0,2046,1958
619,619,0,2047,2673
620,620,0,2047,3312
621,621,0,2046,3797
622,622,0,2046,4070
623,623,0,2047,4095
624,624,0,2046,3877
625,625,0,2047,3434
626,626,0,2046,2823
627,627,0,2046,2118
628,628,0,2047,1403
629,629,0,2046,765
630,630,0,2046,280
631,631,0,2046,7
632,632,0,2046,0
633,633,0,2046,200
634,634,0,2046,643
635,635,0,2047,1253
636,636,0,2047,1959
637,637,0,2046,2674
638,638,0,2047,3312
639,639,0,2047,3797
640,640,0,2046,4070
641,641,0,2046,4095
642,642,0,2046,3876
643,643,0,2046,3434
644,644,0,2046,2823
645,645,0,2046,2117
646,646,0,2047,1402
647,647,0,2046,764
648,648,0,2046,279
649,649,0,2046,7
650,650,0,2046,0
651,651,0,2046,200
652,652,0,2046,643
653,653,0,2047,1255
654,654,0,2047,1960
655,655,0,2046,2675
656,656,0,2046,3314
657,657,0,2046,3798
658,658,0,2047,4071
659,659,0,2046,4095
660,660,0,2047,3876
661,661,0,2046,3433
662,662,0,2046,2821
663,663,0,2047,2116
664,664,0,2046,1401
665,665,0,2046,764
666,666,0,2046,278
667,667,0,2047,6
668,668,0,2046,0
669,669,0,2047,202
670,670,0,2046,644
671,671,0,2047,1255
672,672,0,2046,1960
673,673,0,2047,2676
674,674,0,2046,3314
675,675,0,2047,3799
676,676,0,2047,4071
677,677,0,2046,4095
678,678,0,2047,3876
679,679,0,2046,3432
680,680,0,2047,2820
681,681,0,2046,2115
682,682,0,2046,1400
683,683,0,2047,762
684,684,0,2046,278
685,685,0,2046,6
686,686,0,2047,0
687,687,0,2046,201
688,688,0,2046,645
689,689,0,2046,1256
690,690,0,2046,1962
691,691,0,2046,2677
692,692,0,2046,3315
693,693,0,2046,3799
694,694,0,2047,4071
695,695,0,2046,4095
696,696,0,2046,3875
697,697,0,2046,3432
698,698,0,2046,2819
699,699,0,2047,2114
700,700,0,2045,1399
701,701,0,2046,762
702,702,0,2046,278
703,703,0,2046,6
704,704,0,2046,0
705,705,0,2046,202
706,706,0,2047,646
707,707,0,2047,1257
708,708,0,2046,1963
709,709,0,2046,2678
710,710,0,2046,3316
711,711,0,2046,3799
712,712,0,2047,4071
713,713,0,2047,4095
714,714,0,2046,3875
715,715,0,2046,3431
716,716,0,2046,2819
717,717,0,2047,2113
718,718,0,2046,1398
719,719,0,2046,761
720,720,0,2046,278
721,721,0,2047,6
722,722,0,2047,0
723,723,0,2046,203
724,724,0,2046,647
725,725,0,2047,1258
726,726,0,2047,1964
727,727,0,2046,2679
728,728,0,2047,3316
729,729,0,2046,3800
730,730,0,2046,4071
731,731,0,2047,4095
732,732,0,2046,3874
733,733,0,2046,3430
734,734,0,2047,2818
735,735,0,2046,2112
736,736,0,2046,1397
737,737,0,2047,761
738,738,0,2046,277
739,739,0,2046,6
740,740,0,2046,0
741,741,0,2046,203
742,742,0,2047,647
743,743,0,2046,1259
744,744,0,2046,1965
745,745,0,2046,2680
746,746,0,2046,3317
747,747,0,2046,3801
748,748,0,2046,4071
749,749,0,2047,4095
750,750,0,2046,3874
751,751,0,2046,3429
752,752,0,2046,2817
753,753,0,2046,2111
754,754,0,2046,1396
755,755,0,2046,760
756,756,0,2047,277
757,757,0,2047,6
758,758,0,2046,0
759,759,0,2046,204
760,760,0,2047,648
761,761,0,2047,1260
762,762,0,2046,1965
763,763,0,2046,2680
764,764,0,2047,3318
765,765,0,2047,3801
766,766,0,2046,4072
767,767,0,2046,4095
768,768,0,2046,3873
769,769,0,2047,3429
770,770,0,2047,2817
771,771,0,2046,2110
772,772,0,2046,1395
773,773,0,2046,759
774,774,0,2047,276
775,775,0,2047,5
776,776,0,2046,0
777,777,0,2046,204
778,778,0,2046,649
779,779,0,2047,1261
780,780,0,2046,1967
781,781,0,2047,2683
782,782,0,2046,3319
783,783,0,2046,3801
784,784,0,2047,4072
785,785,0,2046,4095
786,786,0,2046,3872
787,787,0,2046,3428
788,788,0,2046,2815
789,789,0,2046,2109
790,790,0,2046,1394
791,791,0,2046,758
792,792,0,2046,275
793,793,0,2046,5
794,794,0,2046,0
795,795,0,2046,204
796,796,0,2046,649
797,797,0,2046,1262
798,798,0,2046,1968
799,799,0,2046,2682
800,800,0,2046,3320
801,801,0,2047,3802
802,802,0,2046,4072
803,803,0,2047,4095
804,804,0,2046,3872
805,805,0,2046,3427
806,806,0,2047,2814
807,807,0,2046,2108
808,808,0,2046,1394
809,809,0,2046,757
810,810,0,2047,275
811,811,0,2046,5
812,812,0,2047,0
813,813,0,2046,205
814,814,0,2047,650
815,815,0,2047,1264
816,816,0,2046,1969
817,817,0,2046,2684
818,818,0,2046,3321
819,819,0,2047,3803
820,820,0,2046,4072
821,821,0,2046,4095
822,822,0,2046,3872
823,823,0,2046,3426
824,824,0,2046,2812
825,825,0,2046,2107
826,826,0,2046,1393
827,827,0,2047,756
828,828,0,2047,275
829,829,0,2046,5
830,830,0,2046,0
831,831,0,2046,205
832,832,0,2047,651
833,833,0,2047,1264
834,834,0,2046,1970
835,835,0,2047,2685
836,836,0,2047,3321
837,837,0,2046,3803
838,838,0,2047,4072
839,839,0,2046,4095
840,840,0,2047,3870
841,841,0,2047,3425
842,842,0,2047,2812
843,843,0,2046,2106
844,844,0,2047,1392
845,845,0,2047,755
846,846,0,2046,274
847,847,0,2046,4
848,848,0,2047,0
849,849,0,2046,206
850,850,0,2046,651
851,851,0,2048,1265
852,852,0,2047,1971
853,853,0,2046,2686
854,854,0,2046,3322
855,855,0,2046,3803
856,856,0,2047,4072
857,857,0,2046,4095
858,858,0,2046,3870
859,859,0,2047,3425
860,860,0,2046,2811
861,861,0,2047,2104
862,862,0,2046,1390
863,863,0,2047,754
864,864,0,2046,274
865,865,0,2047,4
866,866,0,2046,0
867,867,0,2047,206
868,868,0,2047,653
869,869,0,2047,1266
870,870,0,2046,1973
871,871,0,2046,2687
872,872,0,2046,3323
873,873,0,2046,3804
874,874,0,2047,4073
875,875,0,2047,4095
876,876,0,2046,3870
877,877,0,2046,3424
878,878,0,2046,2809
879,879,0,2047,2104
880,880,0,2047,1389
881,881,0,2047,754
882,882,0,2046,273
883,883,0,2047,4
884,884,0,2046,0
885,885,0,2047,206
886,886,0,2046,653
887,887,0,2046,1266
888,888,0,2047,1973
889,889,0,2047,2688
890,890,0,2047,3323
891,891,0,2046,3804
892,892,0,2047,4073
893,893,0,2047,4095
894,894,0,2047,3870
895,895,0,2046,3423
896,896,0,2046,2809
897,897,0,2047,2103
898,898,0,2047,1388
899,899,0,2046,753
900,900,0,2046,272
901,901,0,2046,4
902,902,0,2047,0
903,903,0,2046,207
904,904,0,2047,654
905,905,0,2046,1267
906,906,0,2046,1974
907,907,0,2047,2689
908,908,0,2046,3324
909,909,0,2047,3805
910,910,0,2046,4074
911,911,0,2046,4095
912,912,0,2046,3869
913,913,0,2046,3423
914,914,0,2047,2809
915,915,0,2047,2101
916,916,0,2046,1387
917,917,0,2046,752
918,918,0,2046,271
919,919,0,2047,3
920,920,0,2046,0
921,921,0,2046,207
922,922,0,2047,655
923,923,0,2047,1269
924,924,0,2046,1975
925,925,0,2047,2689
926,926,0,2047,3326
927,927,0,2047,3805
928,928,0,2046,4074
929,929,0,2047,4095
930,930,0,2047,3869
931,931,0,2047,3422
932,932,0,2046,2807
933,933,0,2047,2101
934,934,0,2046,1387
935,935,0,2046,751
936,936,0,2046,271
937,937,0,2046,3
938,938,0,2046,0
939,939,0,2047,208
940,940,0,2046,656
941,941,0,2046,1270
942,942,0,2046,1976
943,943,0,2046,2690
944,944,0,2046,3325
945,945,0,2047,3807
946,946,0,2046,4074
947,947,0,2046,4095
948,948,0,2046,3868
949,949,0,2047,3420
950,950,0,2047,2807
951,951,0,2046,2100
952,952,0,2046,1385
953,953,0,2046,751
954,954,0,2047,270
955,955,0,2046,4
956,956,0,2046,0
957,957,0,2046,208
958,958,0,2046,656
959,959,0,2046,1271
960,960,0,2046,1977
961,961,0,2047,2691
962,962,0,2046,3327
963,963,0,2046,3806
964,964,0,2047,4073
965,965,0,2047,4095
966,966,0,2047,3868
967,967,0,2046,3419
968,968,0,2046,2805
969,969,0,2047,2099
970,970,0,2046,1385
971,971,0,2046,750
972,972,0,2046,270
973,973,0,2046,3
974,974,0,2046,0
975,975,0,2046,209
976,976,0,2047,657
977,977,0,2047,1271
978,978,0,2046,1978
979,979,0,2047,2693
980,980,0,2046,3328
981,981,0,2046,3807
982,982,0,2047,4074
983,983,0,2046,4095
984,984,0,2046,3867
985,985,0,2046,3418
986,986,0,2046,2805
987,987,0,2046,2097
988,988,0,2047,1383
989,989,0,2046,749
990,990,0,2047,270
991,991,0,2046,3
992,992,0,2047,0
993,993,0,2047,210
994,994,0,2047,658
995,995,0,2047,1272
996,996,0,2047,1979
997,997,0,2046,2694
998,998,0,2046,3329
999,999,0,2047,3808
1000,1000,0,2047,4074
1001,1001,0,2047,4095
1002,1002,0,2047,3867
1003,1003,0,2046,3418
1004,1004,0,2046,2803
1005,1005,0,2047,2096
1006,1006,0,2046,1383
1007,1007,0,2046,748
1008,1008,0,2047,269
1009,1009,0,2046,2
1010,1010,0,2047,0
1011,1011,0,2047,210
1012,1012,0,2046,658
1013,1013,0,2047,1273
1014,1014,0,2046,1980
1015,1015,0,2045,2695
1016,1016,0,2047,3329
1017,1017,0,2046,3809
1018,1018,0,2046,4074
1019,1019,0,2047,4094
1020,1020,0,2046,3867
1021,1021,0,2046,3418
1022,1022,0,2046,2802
1023,1023,0,2046,2096
1024,1024,0,2046,1382
1025,1025,0,2046,747
1026,1026,0,2046,268
1027,1027,0,2046,3
1028,1028,0,2046,0
1029,1029,0,2046,211
1030,1030,0,2046,659
