Sample in Buffer,Sample in Window,TRIGGER,adc1_data_a_d0[11:0],adc1_data_b_d0[11:0]
0,0,0,2046,852
1,1,0,2046,1458
2,2,0,2047,2126
3,3,0,2047,2783
4,4,0,2047,3363
5,5,0,2046,3805
6,6,0,2047,4064
7,7,0,2047,4095
8,8,0,2046,3939
9,9,0,2046,3571
10,10,0,2046,3043
11,11,0,2046,2410
12,12,0,2046,1738
13,13,0,2047,1098
14,14,0,2046,555
15,15,0,2046,168
16,16,0,2047,0
17,17,0,2047,0
18,18,0,2046,233
19,19,0,2047,658
20,20,0,2046,1226
21,21,0,2046,1879
22,22,0,2047,2548
23,23,0,2047,3165
24,24,0,2047,3663
25,25,0,2047,3993
26,26,0,2047,4095
27,27,0,2046,4026
28,28,0,2047,3726
29,29,0,2046,3250
30,30,0,2046,2648
31,31,0,2046,1983
32,32,0,2046,1323
33,33,0,2046,738
34,34,0,2047,289
35,35,0,2046,21
36,36,0,2046,0
37,37,0,2046,124
38,38,0,2046,484
39,39,0,2046,1005
40,40,0,2047,1635
41,41,0,2046,2307
42,42,0,2046,2950
43,43,0,2046,3499
44,44,0,2046,3896
45,45,0,2046,4095
46,46,0,2047,4085
47,47,0,2046,3858
48,48,0,2047,3441
49,49,0,2046,2879
50,50,0,2046,2229
51,51,0,2046,1558
52,52,0,2046,939
53,53,0,2046,433
54,54,0,2047,96
55,55,0,2046,0
56,56,0,2046,41
57,57,0,2046,331
58,58,0,2046,799
59,59,0,2046,1397
60,60,0,2046,2062
61,61,0,2046,2723
62,62,0,2046,3314
63,63,0,2047,3771
64,64,0,2047,4048
65,65,0,2046,4095
66,66,0,2047,3964
67,67,0,2046,3613
68,68,0,2047,3098
69,69,0,2047,2473
70,70,0,2046,1801
71,71,0,2047,1155
72,72,0,2046,601
73,73,0,2047,196
74,74,0,2047,0
75,75,0,2046,0
76,76,0,2046,202
77,77,0,2047,611
78,78,0,2046,1168
79,79,0,2046,1816
80,80,0,2047,2486
81,81,0,2046,3111
82,82,0,2046,3622
83,83,0,2046,3970
84,84,0,2046,4095
85,85,0,2046,4044
86,86,0,2046,3763
87,87,0,2046,3302
88,88,0,2046,2710
89,89,0,2046,2047
90,90,0,2047,1383
91,91,0,2046,788
92,92,0,2046,324
93,93,0,2046,38
94,94,0,2046,0
95,95,0,2046,100
96,96,0,2046,442
97,97,0,2046,951
98,98,0,2047,1573
99,99,0,2047,2244
100,100,0,2047,2892
101,101,0,2046,3452
102,102,0,2046,3865
103,103,0,2047,4087
104,104,0,2047,4095
105,105,0,2047,3888
106,106,0,2046,3489
107,107,0,2046,2937
108,108,0,2046,2293
109,109,0,2046,1621
110,110,0,2046,993
111,111,0,2046,474
112,112,0,2046,119
113,113,0,2047,0
114,114,0,2046,24
115,115,0,2046,296
116,116,0,2046,748
117,117,0,2046,1336
118,118,0,2046,1997
119,119,0,2046,2663
120,120,0,2046,3263
121,121,0,2046,3735
122,122,0,2046,4030
123,123,0,2046,4095
124,124,0,2046,3988
125,125,0,2046,3655
126,126,0,2047,3153
127,127,0,2046,2535
128,128,0,2046,1865
129,129,0,2046,1213
130,130,0,2046,648
131,131,0,2047,228
132,132,0,2046,0
133,133,0,2046,0
134,134,0,2047,173
135,135,0,2046,566
136,136,0,2047,1111
137,137,0,2046,1752
138,138,0,2046,2424
139,139,0,2047,3055
140,140,0,2046,3581
141,141,0,2046,3946
142,142,0,2046,4095
143,143,0,2046,4060
144,144,0,2047,3798
145,145,0,2047,3352
146,146,0,2047,2769
147,147,0,2046,2111
148,148,0,2047,1444
149,149,0,2046,840
150,150,0,2047,361
151,151,0,2047,55
152,152,0,2046,0
153,153,0,2047,77
154,154,0,2046,402
155,155,0,2046,896
156,156,0,2047,1511
157,157,0,2046,2180
158,158,0,2046,2834
159,159,0,2046,3405
160,160,0,2046,3834
161,161,0,2047,4076
162,162,0,2046,4095
163,163,0,2046,3916
164,164,0,2047,3533
165,165,0,2046,2994
166,166,0,2046,2356
167,167,0,2047,1683
168,168,0,2046,1050
169,169,0,2046,517
170,170,0,2046,144
171,171,0,2047,0
172,172,0,2046,9
173,173,0,2046,261
174,174,0,2046,699
175,175,0,2046,1276
176,176,0,2046,1933
177,177,0,2046,2601
178,178,0,2046,3210
179,179,0,2046,3697
180,180,0,2046,4011
181,181,0,2047,4095
182,182,0,2046,4010
183,183,0,2046,3694
184,184,0,2046,3206
185,185,0,2046,2596
186,186,0,2047,1929
187,187,0,2045,1272
188,188,0,2046,696
189,189,0,2046,260
190,190,0,2047,8
191,191,0,2046,0
192,192,0,2047,147
193,193,0,2046,521
194,194,0,2046,1053
195,195,0,2046,1688
196,196,0,2046,2360
197,197,0,2046,2999
198,198,0,2046,3538
199,199,0,2046,3919
200,200,0,2047,4095
201,201,0,2046,4074
202,202,0,2047,3832
203,203,0,2046,3402
204,204,0,2046,2829
205,205,0,2046,2175
206,206,0,2046,1506
207,207,0,2046,893
208,208,0,2046,400
209,209,0,2047,76
210,210,0,2046,0
211,211,0,2046,58
212,212,0,2047,363
213,213,0,2046,844
214,214,0,2047,1449
215,215,0,2047,2116
216,216,0,2046,2774
217,217,0,2047,3356
218,218,0,2047,3801
219,219,0,2046,4062
220,220,0,2046,4095
221,221,0,2046,3944
222,222,0,2046,3577
223,223,0,2046,3051
224,224,0,2047,2419
225,225,0,2047,1747
226,226,0,2047,1106
227,227,0,2047,562
228,228,0,2046,172
229,229,0,2046,0
230,230,0,2047,0
231,231,0,2046,230
232,232,0,2047,651
233,233,0,2046,1217
234,234,0,2047,1870
235,235,0,2047,2539
236,236,0,2046,3157
237,237,0,2046,3657
238,238,0,2047,3990
239,239,0,2046,4095
240,240,0,2046,4029
241,241,0,2046,3732
242,242,0,2046,3259
243,243,0,2047,2658
244,244,0,2047,1993
245,245,0,2046,1332
246,246,0,2046,745
247,247,0,2046,294
248,248,0,2046,23
249,249,0,2047,0
250,250,0,2046,121
251,251,0,2047,478
252,252,0,2046,998
253,253,0,2046,1625
254,254,0,2047,2298
255,255,0,2046,2942
256,256,0,2047,3492
257,257,0,2047,3891
258,258,0,2047,4095
259,259,0,2046,4087
260,260,0,2046,3863
261,261,0,2046,3449
262,262,0,2046,2887
263,263,0,2046,2238
264,264,0,2047,1568
265,265,0,2046,946
266,266,0,2046,439
267,267,0,2047,99
268,268,0,2046,0
269,269,0,2047,39
270,270,0,2046,326
271,271,0,2047,793
272,272,0,2046,1388
273,273,0,2046,2052
274,274,0,2047,2714
275,275,0,2047,3306
276,276,0,2047,3765
277,277,0,2046,4046
278,278,0,2046,4095
279,279,0,2046,3968
280,280,0,2046,3619
281,281,0,2046,3106
282,282,0,2047,2482
283,283,0,2047,1810
284,284,0,2046,1164
285,285,0,2047,608
286,286,0,2046,201
287,287,0,2046,0
288,288,0,2046,0
289,289,0,2046,199
290,290,0,2046,605
291,291,0,2047,1159
292,292,0,2046,1807
293,293,0,2046,2477
294,294,0,2046,3103
295,295,0,2047,3617
296,296,0,2047,3967
297,297,0,2046,4095
298,298,0,2047,4046
299,299,0,2046,3768
300,300,0,2046,3309
301,301,0,2046,2718
302,302,0,2047,2057
303,303,0,2047,1392
304,304,0,2046,796
305,305,0,2047,329
306,306,0,2046,41
307,307,0,2046,0
308,308,0,2046,97
309,309,0,2047,436
310,310,0,2046,943
311,311,0,2047,1563
312,312,0,2046,2233
313,313,0,2047,2884
314,314,0,2047,3445
315,315,0,2047,3861
316,316,0,2046,4085
317,317,0,2047,4095
318,318,0,2046,3893
319,319,0,2046,3495
320,320,0,2047,2946
321,321,0,2046,2302
322,322,0,2046,1630
323,323,0,2046,1002
324,324,0,2046,481
325,325,0,2047,123
326,326,0,2046,0
327,327,0,2046,22
328,328,0,2047,290
329,329,0,2046,741
330,330,0,2047,1328
331,331,0,2046,1987
332,332,0,2046,2653
333,333,0,2046,3254
334,334,0,2046,3729
335,335,0,2046,4028
336,336,0,2046,4095
337,337,0,2047,3992
338,338,0,2046,3660
339,339,0,2047,3161
340,340,0,2046,2544
341,341,0,2047,1873
342,342,0,2046,1222
343,343,0,2046,654
344,344,0,2046,232
345,345,0,2046,0
346,346,0,2047,0
347,347,0,2046,170
348,348,0,2046,558
349,349,0,2047,1101
350,350,0,2046,1742
351,351,0,2046,2415
352,352,0,2047,3047
353,353,0,2046,3575
354,354,0,2046,3942
355,355,0,2047,4095
356,356,0,2046,4062
357,357,0,2046,3803
358,358,0,2046,3360
359,359,0,2046,2779
360,360,0,2047,2121
361,361,0,2047,1454
362,362,0,2047,848
363,363,0,2046,366
364,364,0,2046,59
365,365,0,2046,0
366,366,0,2047,75
367,367,0,2046,396
368,368,0,2047,889
369,369,0,2046,1501
370,370,0,2046,2170
371,371,0,2047,2825
372,372,0,2046,3398
373,373,0,2046,3829
374,374,0,2047,4074
375,375,0,2047,4095
376,376,0,2047,3921
377,377,0,2047,3540
378,378,0,2047,3003
379,379,0,2046,2365
380,380,0,2047,1693
381,381,0,2047,1057
382,382,0,2046,524
383,383,0,2047,149
384,384,0,2047,0
385,385,0,2046,7
386,386,0,2047,256
387,387,0,2047,692
388,388,0,2046,1268
389,389,0,2047,1924
390,390,0,2046,2592
391,391,0,2047,3203
392,392,0,2047,3691
393,393,0,2047,4008
394,394,0,2047,4095
395,395,0,2047,4012
396,396,0,2046,3700
397,397,0,2046,3214
398,398,0,2046,2606
399,399,0,2046,1938
400,400,0,2047,1281
401,401,0,2047,703
402,402,0,2046,265
403,403,0,2047,10
404,404,0,2046,0
405,405,0,2047,142
406,406,0,2047,515
407,407,0,2047,1044
408,408,0,2047,1680
409,409,0,2046,2352
410,410,0,2046,2991
411,411,0,2047,3531
412,412,0,2046,3915
413,413,0,2046,4095
414,414,0,2046,4076
415,415,0,2047,3836
416,416,0,2046,3408
417,417,0,2047,2838
418,418,0,2046,2185
419,419,0,2046,1515
420,420,0,2046,901
421,421,0,2046,405
422,422,0,2047,81
423,423,0,2046,0
424,424,0,2046,54
425,425,0,2047,358
426,426,0,2046,836
427,427,0,2046,1440
428,428,0,2046,2106
429,429,0,2047,2766
430,430,0,2046,3349
431,431,0,2047,3796
432,432,0,2047,4059
433,433,0,2046,4095
434,434,0,2046,3947
435,435,0,2047,3584
436,436,0,2047,3059
437,437,0,2047,2428
438,438,0,2046,1756
439,439,0,2047,1115
440,440,0,2047,568
441,441,0,2047,175
442,442,0,2047,0
443,443,0,2047,0
444,444,0,2047,224
445,445,0,2047,644
446,446,0,2046,1209
447,447,0,2047,1860
448,448,0,2047,2530
449,449,0,2046,3149
450,450,0,2047,3652
451,451,0,2046,3987
452,452,0,2047,4095
453,453,0,2046,4031
454,454,0,2046,3737
455,455,0,2046,3266
456,456,0,2046,2667
457,457,0,2047,2002
458,458,0,2046,1341
459,459,0,2046,753
460,460,0,2046,299
461,461,0,2046,26
462,462,0,2046,0
463,463,0,2046,118
464,464,0,2046,471
465,465,0,2046,989
466,466,0,2047,1617
467,467,0,2046,2288
468,468,0,2046,2933
469,469,0,2046,3485
470,470,0,2047,3888
471,471,0,2046,4095
472,472,0,2046,4088
473,473,0,2046,3868
474,474,0,2046,3456
475,475,0,2046,2896
476,476,0,2047,2248
477,477,0,2046,1578
478,478,0,2046,954
479,479,0,2046,446
480,480,0,2046,102
481,481,0,2047,0
482,482,0,2047,36
483,483,0,2047,320
484,484,0,2046,784
485,485,0,2046,1379
486,486,0,2047,2042
487,487,0,2046,2705
488,488,0,2046,3299
489,489,0,2047,3760
490,490,0,2046,4043
491,491,0,2046,4095
492,492,0,2047,3972
493,493,0,2047,3626
494,494,0,2047,3114
495,495,0,2046,2491
496,496,0,2046,1820
497,497,0,2046,1172
498,498,0,2047,615
499,499,0,2046,205
500,500,0,2046,0
501,501,0,2047,0
502,502,0,2047,194
503,503,0,2046,598
504,504,0,2047,1150
505,505,0,2046,1797
506,506,0,2047,2468
507,507,0,2047,3094
508,508,0,2046,3611
509,509,0,2047,3963
510,510,0,2046,4095
511,511,0,2046,4049
512,512,0,2047,3773
513,513,0,2046,3317
514,514,0,2047,2727
515,515,0,2047,2066
516,516,0,2046,1401
517,517,0,2046,804
518,518,0,2047,334
519,519,0,2047,43
520,520,0,2045,0
521,521,0,2046,93
522,522,0,2046,430
523,523,0,2046,935
524,524,0,2046,1554
525,525,0,2046,2225
526,526,0,2046,2876
527,527,0,2047,3439
528,528,0,2046,3856
529,529,0,2046,4084
530,530,0,2046,4095
531,531,0,2046,3898
532,532,0,2046,3502
533,533,0,2046,2955
534,534,0,2047,2311
535,535,0,2046,1640
536,536,0,2046,1010
537,537,0,2047,487
538,538,0,2046,127
539,539,0,2047,0
540,540,0,2046,20
541,541,0,2047,285
542,542,0,2046,734
543,543,0,2047,1319
544,544,0,2047,1978
545,545,0,2047,2645
546,546,0,2047,3248
547,547,0,2047,3724
548,548,0,2046,4024
549,549,0,2046,4095
550,550,0,2046,3995
551,551,0,2046,3667
552,552,0,2046,3168
553,553,0,2047,2553
554,554,0,2047,1884
555,555,0,2047,1230
556,556,0,2046,661
557,557,0,2046,237
558,558,0,2047,0
559,559,0,2047,0
560,560,0,2046,165
561,561,0,2047,551
562,562,0,2046,1094
563,563,0,2047,1733
564,564,0,2047,2405
565,565,0,2046,3039
566,566,0,2047,3569
567,567,0,2047,3939
568,568,0,2046,4095
569,569,0,2046,4064
570,570,0,2046,3808
571,571,0,2047,3367
572,572,0,2046,2787
573,573,0,2046,2130
574,574,0,2046,1463
575,575,0,2047,855
576,576,0,2046,372
577,577,0,2046,61
578,578,0,2047,0
579,579,0,2047,71
580,580,0,2046,390
581,581,0,2047,881
582,582,0,2047,1492
583,583,0,2047,2161
584,584,0,2047,2817
585,585,0,2046,3390
586,586,0,2046,3825
587,587,0,2047,4072
588,588,0,2046,4095
589,589,0,2047,3925
590,590,0,2046,3546
591,591,0,2046,3011
592,592,0,2046,2375
593,593,0,2046,1702
594,594,0,2046,1066
595,595,0,2046,530
596,596,0,2047,152
597,597,0,2046,0
598,598,0,2046,5
599,599,0,2046,252
600,600,0,2046,685
601,601,0,2047,1259
602,602,0,2046,1915
603,603,0,2047,2583
604,604,0,2047,3195
605,605,0,2046,3686
606,606,0,2046,4005
607,607,0,2046,4095
608,608,0,2047,4015
609,609,0,2047,3706
610,610,0,2047,3221
611,611,0,2046,2615
612,612,0,2046,1947
613,613,0,2046,1291
614,614,0,2046,710
615,615,0,2046,269
616,616,0,2047,13
617,617,0,2046,0
618,618,0,2047,138
619,619,0,2047,508
620,620,0,2046,1037
621,621,0,2047,1670
622,622,0,2047,2342
623,623,0,2046,2983
624,624,0,2046,3525
625,625,0,2046,3911
626,626,0,2046,4095
627,627,0,2046,4078
628,628,0,2046,3841
629,629,0,2047,3416
630,630,0,2046,2846
631,631,0,2047,2194
632,632,0,2047,1524
633,633,0,2046,908
634,634,0,2046,411
635,635,0,2047,83
636,636,0,2047,0
637,637,0,2046,52
638,638,0,2047,352
639,639,0,2047,829
640,640,0,2047,1431
641,641,0,2046,2097
642,642,0,2047,2757
643,643,0,2047,3343
644,644,0,2046,3790
645,645,0,2047,4057
646,646,0,2047,4095
647,647,0,2046,3951
648,648,0,2047,3590
649,649,0,2046,3067
650,650,0,2046,2438
651,651,0,2047,1766
652,652,0,2046,1123
653,653,0,2046,575
654,654,0,2046,179
655,655,0,2047,0
656,656,0,2047,0
657,657,0,2046,220
658,658,0,2046,638
659,659,0,2047,1201
660,660,0,2046,1851
661,661,0,2046,2521
662,662,0,2047,3141
663,663,0,2047,3646
664,664,0,2046,3984
665,665,0,2047,4095
666,666,0,2046,4034
667,667,0,2047,3743
668,668,0,2046,3274
669,669,0,2047,2676
670,670,0,2046,2011
671,671,0,2046,1349
672,672,0,2047,760
673,673,0,2046,304
674,674,0,2046,28
675,675,0,2047,0
676,676,0,2046,113
677,677,0,2046,465
678,678,0,2047,982
679,679,0,2047,1608
680,680,0,2047,2279
681,681,0,2046,2925
682,682,0,2046,3478
683,683,0,2046,3882
684,684,0,2046,4093
685,685,0,2046,4090
686,686,0,2046,3873
687,687,0,2045,3463
688,688,0,2047,2905
689,689,0,2046,2257
690,690,0,2046,1587
691,691,0,2047,963
692,692,0,2046,451
693,693,0,2047,106
694,694,0,2046,0
695,695,0,2046,34
696,696,0,2047,315
697,697,0,2047,777
698,698,0,2046,1370
699,699,0,2046,2033
700,700,0,2046,2696
701,701,0,2046,3291
702,702,0,2047,3755
703,703,0,2047,4041
704,704,0,2047,4095
705,705,0,2047,3975
706,706,0,2047,3632
707,707,0,2047,3122
708,708,0,2046,2499
709,709,0,2046,1829
710,710,0,2046,1180
711,711,0,2046,622
712,712,0,2046,210
713,713,0,2047,0
714,714,0,2047,0
715,715,0,2047,190
716,716,0,2046,590
717,717,0,2047,1142
718,718,0,2046,1788
719,719,0,2046,2459
720,720,0,2046,3087
721,721,0,2046,3605
722,722,0,2047,3960
723,723,0,2046,4095
724,724,0,2047,4052
725,725,0,2047,3779
726,726,0,2046,3325
727,727,0,2046,2737
728,728,0,2045,2075
729,729,0,2046,1410
730,730,0,2047,811
731,731,0,2046,340
732,732,0,2046,46
733,733,0,2047,0
734,734,0,2046,90
735,735,0,2046,424
736,736,0,2047,927
737,737,0,2046,1546
738,738,0,2046,2215
739,739,0,2046,2867
740,740,0,2046,3432
741,741,0,2046,3852
742,742,0,2046,4082
743,743,0,2046,4095
744,744,0,2047,3902
745,745,0,2046,3508
746,746,0,2047,2963
747,747,0,2047,2320
748,748,0,2046,1649
749,749,0,2047,1018
750,750,0,2047,493
751,751,0,2046,130
752,752,0,2046,0
753,753,0,2046,18
754,754,0,2047,280
755,755,0,2047,727
756,756,0,2047,1310
757,757,0,2046,1969
758,758,0,2047,2635
759,759,0,2047,3240
760,760,0,2046,3718
761,761,0,2047,4022
762,762,0,2046,4095
763,763,0,2046,3997
764,764,0,2046,3672
765,765,0,2046,3176
766,766,0,2046,2562
767,767,0,2046,1893
768,768,0,2047,1239
769,769,0,2047,669
770,770,0,2047,241
771,771,0,2046,1
772,772,0,2046,0
773,773,0,2047,162
774,774,0,2047,546
775,775,0,2046,1085
776,776,0,2046,1724
777,777,0,2047,2396
778,778,0,2046,3030
779,779,0,2046,3562
780,780,0,2046,3934
781,781,0,2047,4095
782,782,0,2047,4066
783,783,0,2046,3813
784,784,0,2047,3374
785,785,0,2047,2796
786,786,0,2046,2139
787,787,0,2046,1471
788,788,0,2046,864
789,789,0,2046,378
790,790,0,2046,65
791,791,0,2046,0
792,792,0,2046,69
793,793,0,2046,385
794,794,0,2046,874
795,795,0,2046,1483
796,796,0,2047,2151
797,797,0,2046,2808
798,798,0,2046,3384
799,799,0,2046,3819
800,800,0,2047,4069
801,801,0,2047,4095
802,802,0,2046,3929
803,803,0,2046,3553
804,804,0,2046,3019
805,805,0,2046,2383
806,806,0,2047,1712
807,807,0,2047,1074
808,808,0,2046,536
809,809,0,2046,156
810,810,0,2047,0
811,811,0,2046,3
812,812,0,2047,246
813,813,0,2047,677
814,814,0,2047,1250
815,815,0,2046,1906
816,816,0,2046,2574
817,817,0,2047,3187
818,818,0,2046,3680
819,819,0,2046,4002
820,820,0,2047,4095
821,821,0,2046,4018
822,822,0,2046,3711
823,823,0,2046,3229
824,824,0,2046,2623
825,825,0,2046,1957
826,826,0,2047,1299
827,827,0,2047,718
828,828,0,2047,274
829,829,0,2047,15
830,830,0,2047,0
831,831,0,2046,135
832,832,0,2046,502
833,833,0,2047,1028
834,834,0,2046,1661
835,835,0,2046,2333
836,836,0,2046,2974
837,837,0,2047,3518
838,838,0,2046,3908
839,839,0,2046,4095
840,840,0,2047,4080
841,841,0,2046,3846
842,842,0,2046,3422
843,843,0,2047,2855
844,844,0,2046,2203
845,845,0,2047,1533
846,846,0,2046,917
847,847,0,2046,417
848,848,0,2046,86
849,849,0,2046,0
850,850,0,2046,49
851,851,0,2047,347
852,852,0,2046,821
853,853,0,2047,1422
854,854,0,2046,2088
855,855,0,2047,2747
856,856,0,2046,3335
857,857,0,2047,3785
858,858,0,2046,4055
859,859,0,2046,4095
860,860,0,2047,3955
861,861,0,2047,3596
862,862,0,2046,3075
863,863,0,2046,2446
864,864,0,2046,1775
865,865,0,2046,1131
866,866,0,2046,582
867,867,0,2046,184
868,868,0,2046,0
869,869,0,2046,0
870,870,0,2047,214
871,871,0,2046,630
872,872,0,2046,1191
873,873,0,2046,1842
874,874,0,2046,2512
875,875,0,2047,3133
876,876,0,2046,3640
877,877,0,2046,3979
878,878,0,2046,4095
879,879,0,2046,4037
880,880,0,2046,3749
881,881,0,2047,3281
882,882,0,2047,2685
883,883,0,2046,2021
884,884,0,2046,1358
885,885,0,2046,767
886,886,0,2046,309
887,887,0,2046,31
888,888,0,2046,0
889,889,0,2046,109
890,890,0,2046,459
891,891,0,2046,974
892,892,0,2047,1599
893,893,0,2046,2270
894,894,0,2047,2917
895,895,0,2046,3472
896,896,0,2046,3879
897,897,0,2047,4092
898,898,0,2046,4091
899,899,0,2047,3877
900,900,0,2046,3470
901,901,0,2047,2913
902,902,0,2046,2265
903,903,0,2046,1596
904,904,0,2046,971
905,905,0,2047,457
906,906,0,2047,109
907,907,0,2046,0
908,908,0,2046,31
909,909,0,2046,310
910,910,0,2047,770
911,911,0,2046,1361
912,912,0,2046,2024
913,913,0,2046,2687
914,914,0,2046,3283
915,915,0,2047,3750
916,916,0,2046,4038
917,917,0,2046,4095
918,918,0,2046,3979
919,919,0,2046,3638
920,920,0,2047,3130
921,921,0,2047,2509
922,922,0,2046,1839
923,923,0,2045,1189
924,924,0,2047,628
925,925,0,2046,215
926,926,0,2047,0
927,927,0,2046,0
928,928,0,2046,186
929,929,0,2046,584
930,930,0,2047,1134
931,931,0,2047,1779
932,932,0,2046,2450
933,933,0,2046,3079
934,934,0,2046,3598
935,935,0,2046,3956
936,936,0,2047,4095
937,937,0,2046,4053
938,938,0,2046,3784
939,939,0,2047,3332
940,940,0,2046,2745
941,941,0,2046,2085
942,942,0,2046,1419
943,943,0,2046,818
944,944,0,2047,345
945,945,0,2047,48
946,946,0,2046,0
947,947,0,2047,86
948,948,0,2046,418
949,949,0,2047,919
950,950,0,2046,1536
951,951,0,2047,2206
952,952,0,2046,2858
953,953,0,2046,3425
954,954,0,2046,3847
955,955,0,2046,4081
956,956,0,2046,4095
957,957,0,2047,3906
958,958,0,2046,3515
959,959,0,2046,2971
960,960,0,2046,2329
961,961,0,2046,1658
962,962,0,2047,1026
963,963,0,2046,500
964,964,0,2047,134
965,965,0,2046,0
966,966,0,2047,16
967,967,0,2046,275
968,968,0,2047,720
969,969,0,2046,1301
970,970,0,2046,1960
971,971,0,2046,2627
972,972,0,2046,3232
973,973,0,2046,3713
974,974,0,2047,4019
975,975,0,2046,4095
976,976,0,2046,4001
977,977,0,2046,3678
978,978,0,2046,3184
979,979,0,2046,2571
980,980,0,2047,1902
981,981,0,2047,1247
982,982,0,2046,676
983,983,0,2046,246
984,984,0,2046,3
985,985,0,2046,0
986,986,0,2046,157
987,987,0,2047,539
988,988,0,2046,1077
989,989,0,2047,1714
990,990,0,2047,2387
991,991,0,2046,3022
992,992,0,2047,3555
993,993,0,2047,3931
994,994,0,2047,4095
995,995,0,2046,4070
996,996,0,2046,3818
997,997,0,2046,3382
998,998,0,2046,2805
999,999,0,2046,2148
1000,1000,0,2046,1480
1001,1001,0,2047,871
1002,1002,0,2046,384
1003,1003,0,2046,68
1004,1004,0,2047,0
1005,1005,0,2046,66
1006,1006,0,2046,379
1007,1007,0,2046,866
1008,1008,0,2046,1474
1009,1009,0,2046,2142
1010,1010,0,2046,2799
1011,1011,0,2046,3377
1012,1012,0,2047,3814
1013,1013,0,2046,4067
1014,1014,0,2046,4095
1015,1015,0,2047,3933
1016,1016,0,2046,3560
1017,1017,0,2046,3027
1018,1018,0,2046,2393
1019,1019,0,2047,1721
1020,1020,0,2046,1082
1021,1021,0,2046,544
1022,1022,0,2046,160
1023,1023,0,2046,0
1024,1024,0,2047,1
1025,1025,0,2047,242
1026,1026,0,2046,671
1027,1027,0,2046,1242
1028,1028,0,2046,1896
1029,1029,0,2046,2565
