Sample in Buffer,Sample in Window,TRIGGER,adc1_data_a_d0[11:0],adc1_data_b_d0[11:0]
0,0,0,2047,4076
1,1,0,2046,3791
2,2,0,2046,2916
3,3,0,2046,1744
4,4,0,2047,673
5,5,0,2046,61
6,6,0,2046,115
7,7,0,2046,817
8,8,0,2046,1930
9,9,0,2046,3080
10,10,0,2047,3879
11,11,0,2046,4057
12,12,0,2046,3556
13,13,0,2046,2544
14,14,0,2046,1362
15,15,0,2046,406
16,16,0,2046,1
17,17,0,2047,281
18,18,0,2047,1155
19,19,0,2046,2325
20,20,0,2046,3398
21,21,0,2047,4014
22,22,0,2047,3964
23,23,0,2047,3264
24,24,0,2047,2153
25,25,0,2046,1002
26,26,0,2046,200
27,27,0,2046,19
28,28,0,2046,516
29,29,0,2046,1526
30,30,0,2046,2710
31,31,0,2046,3666
32,32,0,2046,4075
33,33,0,2046,3798
34,34,0,2046,2926
35,35,0,2046,1757
36,36,0,2046,683
37,37,0,2047,64
38,38,0,2047,110
39,39,0,2047,807
40,40,0,2047,1917
41,41,0,2047,3070
42,42,0,2046,3873
43,43,0,2046,4060
44,44,0,2047,3564
45,45,0,2046,2556
46,46,0,2047,1373
47,47,0,2047,414
48,48,0,2046,2
49,49,0,2046,276
50,50,0,2047,1144
51,51,0,2047,2313
52,52,0,2046,3389
53,53,0,2046,4011
54,54,0,2047,3968
55,55,0,2046,3274
56,56,0,2046,2165
57,57,0,2047,1012
58,58,0,2046,206
59,59,0,2047,17
60,60,0,2047,507
61,61,0,2047,1514
62,62,0,2046,2698
63,63,0,2046,3660
64,64,0,2046,4074
65,65,0,2046,3804
66,66,0,2046,2938
67,67,0,2046,1771
68,68,0,2046,693
69,69,0,2046,67
70,70,0,2047,107
71,71,0,2047,797
72,72,0,2047,1904
73,73,0,2046,3058
74,74,0,2046,3868
75,75,0,2046,4061
76,76,0,2047,3573
77,77,0,2047,2567
78,78,0,2046,1385
79,79,0,2046,422
80,80,0,2046,3
81,81,0,2047,270
82,82,0,2047,1133
83,83,0,2046,2301
84,84,0,2046,3380
85,85,0,2047,4008
86,86,0,2047,3972
87,87,0,2046,3284
88,88,0,2047,2177
89,89,0,2047,1024
90,90,0,2046,212
91,91,0,2047,15
92,92,0,2046,500
93,93,0,2047,1503
94,94,0,2046,2686
95,95,0,2046,3651
96,96,0,2046,4073
97,97,0,2046,3809
98,98,0,2047,2950
99,99,0,2046,1782
100,100,0,2046,701
101,101,0,2047,71
102,102,0,2047,102
103,103,0,2046,787
104,104,0,2046,1893
105,105,0,2046,3047
106,106,0,2047,3862
107,107,0,2046,4063
108,108,0,2047,3581
109,109,0,2046,2580
110,110,0,2047,1397
111,111,0,2046,429
112,112,0,2047,4
113,113,0,2046,264
114,114,0,2047,1121
115,115,0,2047,2288
116,116,0,2046,3371
117,117,0,2046,4005
118,118,0,2046,3977
119,119,0,2046,3295
120,120,0,2046,2190
121,121,0,2046,1036
122,122,0,2046,218
123,123,0,2046,13
124,124,0,2046,491
125,125,0,2046,1490
126,126,0,2046,2674
127,127,0,2047,3643
128,128,0,2047,4073
129,129,0,2047,3816
130,130,0,2047,2960
131,131,0,2046,1795
132,132,0,2047,711
133,133,0,2046,75
134,134,0,2046,99
135,135,0,2046,777
136,136,0,2046,1880
137,137,0,2047,3036
138,138,0,2047,3857
139,139,0,2047,4064
140,140,0,2046,3589
141,141,0,2046,2593
142,142,0,2046,1408
143,143,0,2047,437
144,144,0,2046,4
145,145,0,2046,257
146,146,0,2046,1110
147,147,0,2046,2276
148,148,0,2047,3361
149,149,0,2046,4001
150,150,0,2047,3981
151,151,0,2046,3304
152,152,0,2046,2203
153,153,0,2046,1045
154,154,0,2047,223
155,155,0,2047,12
156,156,0,2046,484
157,157,0,2047,1478
158,158,0,2047,2662
159,159,0,2047,3636
160,160,0,2046,4071
161,161,0,2046,3822
162,162,0,2046,2972
163,163,0,2046,1807
164,164,0,2046,720
165,165,0,2047,78
166,166,0,2046,95
167,167,0,2046,767
168,168,0,2046,1867
169,169,0,2047,3026
170,170,0,2046,3852
171,171,0,2046,4066
172,172,0,2046,3597
173,173,0,2047,2604
174,174,0,2047,1420
175,175,0,2047,445
176,176,0,2047,5
177,177,0,2047,251
178,178,0,2047,1099
179,179,0,2047,2263
180,180,0,2047,3351
181,181,0,2046,3997
182,182,0,2046,3984
183,183,0,2046,3314
184,184,0,2046,2215
185,185,0,2047,1057
186,186,0,2046,229
187,187,0,2046,10
188,188,0,2046,476
189,189,0,2047,1466
190,190,0,2046,2650
191,191,0,2046,3628
192,192,0,2046,4071
193,193,0,2047,3828
194,194,0,2046,2982
195,195,0,2046,1820
196,196,0,2046,729
197,197,0,2047,80
198,198,0,2046,91
199,199,0,2047,757
200,200,0,2046,1855
201,201,0,2047,3014
202,202,0,2046,3846
203,203,0,2046,4067
204,204,0,2046,3605
205,205,0,2046,2615
206,206,0,2046,1431
207,207,0,2047,453
208,208,0,2046,6
209,209,0,2047,246
210,210,0,2046,1088
211,211,0,2047,2251
212,212,0,2047,3342
213,213,0,2046,3995
214,214,0,2046,3988
215,215,0,2046,3323
216,216,0,2047,2227
217,217,0,2046,1068
218,218,0,2046,234
219,219,0,2046,9
220,220,0,2046,468
221,221,0,2047,1454
222,222,0,2047,2638
223,223,0,2046,3620
224,224,0,2046,4069
225,225,0,2046,3833
226,226,0,2046,2993
227,227,0,2046,1832
228,228,0,2046,740
229,229,0,2046,84
230,230,0,2047,87
231,231,0,2047,747
232,232,0,2046,1842
233,233,0,2047,3004
234,234,0,2047,3840
235,235,0,2046,4068
236,236,0,2047,3613
237,237,0,2046,2628
238,238,0,2046,1444
239,239,0,2046,461
240,240,0,2047,8
241,241,0,2047,240
242,242,0,2047,1077
243,243,0,2047,2238
244,244,0,2047,3333
245,245,0,2046,3990
246,246,0,2047,3991
247,247,0,2046,3333
248,248,0,2046,2239
249,249,0,2047,1078
250,250,0,2046,240
251,251,0,2046,8
252,252,0,2046,459
253,253,0,2047,1443
254,254,0,2047,2626
255,255,0,2047,3612
256,256,0,2046,4069
257,257,0,2046,3840
258,258,0,2046,3005
259,259,0,2047,1844
260,260,0,2047,749
261,261,0,2046,88
262,262,0,2047,84
263,263,0,2046,738
264,264,0,2047,1830
265,265,0,2047,2993
266,266,0,2046,3834
267,267,0,2046,4069
268,268,0,2046,3621
269,269,0,2047,2639
270,270,0,2046,1456
271,271,0,2047,469
272,272,0,2046,10
273,273,0,2046,234
274,274,0,2047,1065
275,275,0,2047,2226
276,276,0,2046,3323
277,277,0,2046,3986
278,278,0,2046,3994
279,279,0,2046,3343
280,280,0,2046,2253
281,281,0,2047,1089
282,282,0,2047,246
283,283,0,2046,6
284,284,0,2046,451
285,285,0,2046,1430
286,286,0,2047,2614
287,287,0,2046,3604
288,288,0,2047,4067
289,289,0,2047,3846
290,290,0,2047,3016
291,291,0,2046,1857
292,292,0,2046,759
293,293,0,2047,92
294,294,0,2046,80
295,295,0,2046,728
296,296,0,2046,1817
297,297,0,2047,2981
298,298,0,2047,3828
299,299,0,2047,4071
300,300,0,2046,3628
301,301,0,2046,2652
302,302,0,2047,1468
303,303,0,2046,476
304,304,0,2046,11
305,305,0,2046,227
306,306,0,2046,1054
307,307,0,2046,2213
308,308,0,2047,3313
309,309,0,2046,3983
310,310,0,2046,3998
311,311,0,2047,3353
312,312,0,2047,2264
313,313,0,2046,1101
314,314,0,2046,252
315,315,0,2047,5
316,316,0,2047,443
317,317,0,2047,1419
318,318,0,2046,2602
319,319,0,2046,3597
320,320,0,2046,4065
321,321,0,2047,3852
322,322,0,2046,3026
323,323,0,2046,1869
324,324,0,2046,769
325,325,0,2047,96
326,326,0,2047,77
327,327,0,2047,719
328,328,0,2046,1805
329,329,0,2047,2970
330,330,0,2047,3822
331,331,0,2047,4072
332,332,0,2046,3637
333,333,0,2046,2664
334,334,0,2046,1480
335,335,0,2046,484
336,336,0,2046,11
337,337,0,2046,222
338,338,0,2047,1044
339,339,0,2046,2201
340,340,0,2046,3303
341,341,0,2047,3979
342,342,0,2046,4001
343,343,0,2046,3362
344,344,0,2046,2277
345,345,0,2046,1112
346,346,0,2046,259
347,347,0,2047,5
348,348,0,2046,436
349,349,0,2046,1407
350,350,0,2047,2591
351,351,0,2046,3589
352,352,0,2046,4064
353,353,0,2047,3858
354,354,0,2047,3037
355,355,0,2047,1881
356,356,0,2046,778
357,357,0,2046,99
358,358,0,2046,73
359,359,0,2046,709
360,360,0,2046,1793
361,361,0,2046,2959
362,362,0,2046,3816
363,363,0,2046,4074
364,364,0,2046,3645
365,365,0,2046,2675
366,366,0,2046,1491
367,367,0,2047,493
368,368,0,2047,13
369,369,0,2046,216
370,370,0,2046,1033
371,371,0,2046,2188
372,372,0,2047,3293
373,373,0,2047,3975
374,374,0,2046,4005
375,375,0,2046,3372
376,376,0,2046,2289
377,377,0,2046,1123
378,378,0,2046,264
379,379,0,2047,4
380,380,0,2047,428
381,381,0,2046,1395
382,382,0,2046,2578
383,383,0,2046,3580
384,384,0,2046,4062
385,385,0,2046,3864
386,386,0,2047,3048
387,387,0,2047,1893
388,388,0,2046,789
389,389,0,2047,103
390,390,0,2046,70
391,391,0,2046,700
392,392,0,2047,1781
393,393,0,2046,2948
394,394,0,2046,3810
395,395,0,2046,4074
396,396,0,2046,3652
397,397,0,2047,2687
398,398,0,2047,1504
399,399,0,2046,501
400,400,0,2047,15
401,401,0,2046,211
402,402,0,2047,1022
403,403,0,2046,2176
404,404,0,2047,3283
405,405,0,2047,3971
406,406,0,2046,4008
407,407,0,2047,3380
408,408,0,2047,2301
409,409,0,2046,1134
410,410,0,2047,271
411,411,0,2046,3
412,412,0,2047,420
413,413,0,2047,1383
414,414,0,2047,2566
415,415,0,2047,3572
416,416,0,2047,4061
417,417,0,2046,3869
418,418,0,2046,3059
419,419,0,2046,1906
420,420,0,2046,798
421,421,0,2046,107
422,422,0,2046,67
423,423,0,2047,690
424,424,0,2046,1768
425,425,0,2046,2937
426,426,0,2047,3802
427,427,0,2046,4075
428,428,0,2046,3660
429,429,0,2047,2699
430,430,0,2046,1516
431,431,0,2046,509
432,432,0,2046,16
433,433,0,2047,205
434,434,0,2047,1011
435,435,0,2047,2163
436,436,0,2047,3273
437,437,0,2047,3967
438,438,0,2047,4012
439,439,0,2047,3390
440,440,0,2046,2315
441,441,0,2046,1146
442,442,0,2047,278
443,443,0,2047,1
444,444,0,2046,412
445,445,0,2047,1371
446,446,0,2046,2555
447,447,0,2047,3564
448,448,0,2046,4060
449,449,0,2047,3874
450,450,0,2047,3069
451,451,0,2047,1919
452,452,0,2047,808
453,453,0,2047,111
454,454,0,2046,63
455,455,0,2046,681
456,456,0,2046,1756
457,457,0,2046,2926
458,458,0,2046,3797
459,459,0,2047,4076
460,460,0,2046,3668
461,461,0,2046,2710
462,462,0,2047,1528
463,463,0,2046,517
464,464,0,2047,18
465,465,0,2047,200
466,466,0,2046,1001
467,467,0,2046,2151
468,468,0,2047,3264
469,469,0,2046,3964
470,470,0,2046,4014
471,471,0,2047,3400
472,472,0,2047,2327
473,473,0,2046,1156
474,474,0,2046,283
475,475,0,2047,0
476,476,0,2046,405
477,477,0,2046,1359
478,478,0,2046,2542
479,479,0,2046,3555
480,480,0,2046,4058
481,481,0,2046,3880
482,482,0,2046,3081
483,483,0,2046,1932
484,484,0,2047,818
485,485,0,2046,116
486,486,0,2047,60
487,487,0,2047,672
488,488,0,2046,1743
489,489,0,2047,2914
490,490,0,2047,3791
491,491,0,2046,4076
492,492,0,2047,3674
493,493,0,2046,2723
494,494,0,2046,1540
495,495,0,2047,526
496,496,0,2047,20
497,497,0,2047,194
498,498,0,2047,990
499,499,0,2046,2139
500,500,0,2046,3254
501,501,0,2047,3959
502,502,0,2046,4017
503,503,0,2047,3409
504,504,0,2046,2339
505,505,0,2046,1168
506,506,0,2047,290
507,507,0,2047,0
508,508,0,2046,397
509,509,0,2047,1347
510,510,0,2047,2531
511,511,0,2046,3548
512,512,0,2047,4056
513,513,0,2047,3885
514,514,0,2046,3091
515,515,0,2046,1944
516,516,0,2047,829
517,517,0,2046,120
518,518,0,2046,57
519,519,0,2047,662
520,520,0,2047,1730
521,521,0,2046,2903
522,522,0,2047,3784
523,523,0,2046,4077
524,524,0,2047,3682
525,525,0,2047,2734
526,526,0,2046,1553
527,527,0,2047,534
528,528,0,2046,22
529,529,0,2045,189
530,530,0,2046,979
531,531,0,2046,2127
532,532,0,2047,3243
533,533,0,2047,3955
534,534,0,2046,4020
535,535,0,2046,3418
536,536,0,2046,2351
537,537,0,2046,1179
538,538,0,2046,296
539,539,0,2046,0
540,540,0,2046,390
541,541,0,2047,1336
542,542,0,2046,2519
543,543,0,2047,3538
544,544,0,2046,4054
545,545,0,2047,3890
546,546,0,2047,3102
547,547,0,2046,1956
548,548,0,2046,838
549,549,0,2046,124
550,550,0,2046,54
551,551,0,2046,653
552,552,0,2046,1719
553,553,0,2046,2892
554,554,0,2046,3778
555,555,0,2046,4077
556,556,0,2046,3690
557,557,0,2046,2746
558,558,0,2047,1564
559,559,0,2046,542
560,560,0,2046,23
561,561,0,2046,183
562,562,0,2047,969
563,563,0,2047,2114
564,564,0,2046,3234
565,565,0,2046,3951
566,566,0,2046,4023
567,567,0,2046,3428
568,568,0,2046,2363
569,569,0,2046,1190
570,570,0,2046,303
571,571,0,2046,0
572,572,0,2047,383
573,573,0,2046,1325
574,574,0,2047,2506
575,575,0,2047,3530
576,576,0,2047,4052
577,577,0,2047,3895
578,578,0,2046,3113
579,579,0,2046,1968
580,580,0,2047,848
581,581,0,2046,129
582,582,0,2047,52
583,583,0,2047,645
584,584,0,2046,1707
585,585,0,2047,2881
586,586,0,2046,3771
587,587,0,2046,4078
588,588,0,2047,3696
589,589,0,2046,2757
590,590,0,2046,1576
591,591,0,2047,551
592,592,0,2047,26
593,593,0,2046,179
594,594,0,2046,958
595,595,0,2046,2101
596,596,0,2047,3223
597,597,0,2047,3946
598,598,0,2046,4026
599,599,0,2046,3436
600,600,0,2046,2376
601,601,0,2047,1202
602,602,0,2047,310
603,603,0,2047,0
604,604,0,2047,376
605,605,0,2046,1313
606,606,0,2046,2494
607,607,0,2047,3523
608,608,0,2046,4050
609,609,0,2047,3900
610,610,0,2046,3123
611,611,0,2046,1982
612,612,0,2046,859
613,613,0,2047,133
614,614,0,2046,50
615,615,0,2046,635
616,616,0,2046,1694
617,617,0,2047,2870
618,618,0,2047,3764
619,619,0,2046,4078
620,620,0,2047,3704
621,621,0,2046,2769
622,622,0,2047,1589
623,623,0,2046,560
624,624,0,2047,27
625,625,0,2046,174
626,626,0,2046,948
627,627,0,2046,2089
628,628,0,2046,3213
629,629,0,2047,3942
630,630,0,2046,4029
631,631,0,2046,3446
632,632,0,2047,2389
633,633,0,2046,1213
634,634,0,2046,316
635,635,0,2047,0
636,636,0,2046,368
637,637,0,2047,1301
638,638,0,2047,2482
639,639,0,2047,3514
640,640,0,2047,4048
641,641,0,2048,3906
642,642,0,2047,3133
643,643,0,2047,1993
644,644,0,2046,868
645,645,0,2047,137
646,646,0,2046,47
647,647,0,2046,626
648,648,0,2047,1683
649,649,0,2046,2858
650,650,0,2047,3758
651,651,0,2046,4078
652,652,0,2047,3711
653,653,0,2047,2781
654,654,0,2046,1601
655,655,0,2047,567
656,656,0,2046,30
657,657,0,2047,168
658,658,0,2046,937
659,659,0,2047,2077
660,660,0,2047,3203
661,661,0,2046,3937
662,662,0,2047,4031
663,663,0,2046,3454
664,664,0,2046,2400
665,665,0,2046,1224
666,666,0,2047,323
667,667,0,2047,0
668,668,0,2046,362
669,669,0,2046,1290
670,670,0,2046,2470
671,671,0,2046,3505
672,672,0,2047,4045
673,673,0,2047,3910
674,674,0,2047,3144
675,675,0,2046,2006
676,676,0,2046,879
677,677,0,2047,142
678,678,0,2046,44
679,679,0,2046,617
680,680,0,2047,1669
681,681,0,2047,2847
682,682,0,2046,3751
683,683,0,2047,4079
684,684,0,2046,3719
685,685,0,2047,2792
686,686,0,2047,1613
687,687,0,2046,576
688,688,0,2047,32
689,689,0,2046,164
690,690,0,2047,927
691,691,0,2046,2064
692,692,0,2046,3193
693,693,0,2047,3933
694,694,0,2046,4033
695,695,0,2047,3462
696,696,0,2046,2412
697,697,0,2046,1235
698,698,0,2047,329
699,699,0,2046,0
700,700,0,2046,355
701,701,0,2046,1279
702,702,0,2046,2458
703,703,0,2046,3497
704,704,0,2046,4044
705,705,0,2047,3915
706,706,0,2046,3154
707,707,0,2047,2018
708,708,0,2046,889
709,709,0,2047,146
710,710,0,2046,41
711,711,0,2046,608
712,712,0,2047,1659
713,713,0,2046,2835
714,714,0,2046,3744
715,715,0,2047,4079
716,716,0,2046,3725
717,717,0,2047,2804
718,718,0,2046,1625
719,719,0,2046,585
720,720,0,2046,35
721,721,0,2047,159
722,722,0,2046,916
723,723,0,2047,2052
724,724,0,2047,3183
725,725,0,2046,3928
726,726,0,2047,4036
727,727,0,2046,3472
728,728,0,2047,2424
729,729,0,2046,1246
730,730,0,2046,336
731,731,0,2047,0
732,732,0,2046,347
733,733,0,2046,1267
734,734,0,2047,2446
735,735,0,2046,3488
736,736,0,2047,4041
737,737,0,2046,3920
738,738,0,2047,3164
739,739,0,2047,2031
740,740,0,2047,898
741,741,0,2046,151
742,742,0,2046,39
743,743,0,2047,599
744,744,0,2046,1646
745,745,0,2046,2824
746,746,0,2046,3737
747,747,0,2047,4079
748,748,0,2046,3732
749,749,0,2046,2815
750,750,0,2046,1636
751,751,0,2047,593
752,752,0,2047,37
753,753,0,2046,154
754,754,0,2046,907
755,755,0,2046,2040
756,756,0,2046,3173
757,757,0,2047,3923
758,758,0,2046,4039
759,759,0,2047,3480
760,760,0,2047,2436
761,761,0,2047,1258
762,762,0,2046,343
763,763,0,2047,0
764,764,0,2046,341
765,765,0,2047,1255
766,766,0,2046,2434
767,767,0,2046,3478
768,768,0,2047,4039
769,769,0,2046,3925
770,770,0,2046,3174
771,771,0,2046,2043
772,772,0,2046,910
773,773,0,2047,155
774,774,0,2047,36
775,775,0,2046,591
776,776,0,2047,1633
777,777,0,2047,2812
778,778,0,2047,3730
779,779,0,2047,4078
780,780,0,2046,3739
781,781,0,2046,2826
782,782,0,2047,1649
783,783,0,2047,602
784,784,0,2047,39
785,785,0,2046,149
786,786,0,2047,896
787,787,0,2046,2028
788,788,0,2047,3162
789,789,0,2046,3919
790,790,0,2046,4041
791,791,0,2046,3490
792,792,0,2046,2449
793,793,0,2046,1270
794,794,0,2046,350
795,795,0,2047,0
796,796,0,2046,335
797,797,0,2046,1243
798,798,0,2046,2422
799,799,0,2047,3470
800,800,0,2046,4036
801,801,0,2046,3930
802,802,0,2046,3185
803,803,0,2046,2055
804,804,0,2046,919
805,805,0,2046,161
806,806,0,2047,34
807,807,0,2046,582
808,808,0,2046,1621
809,809,0,2047,2801
810,810,0,2047,3723
811,811,0,2046,4079
812,812,0,2047,3746
813,813,0,2046,2838
814,814,0,2046,1661
815,815,0,2046,611
816,816,0,2047,42
817,817,0,2046,144
818,818,0,2046,886
819,819,0,2046,2015
820,820,0,2046,3152
821,821,0,2046,3913
822,822,0,2046,4043
823,823,0,2046,3498
824,824,0,2046,2461
825,825,0,2047,1281
826,826,0,2047,356
827,827,0,2047,0
828,828,0,2046,327
829,829,0,2046,1232
830,830,0,2047,2409
831,831,0,2047,3461
832,832,0,2046,4033
833,833,0,2046,3934
834,834,0,2046,3196
835,835,0,2046,2067
836,836,0,2046,931
837,837,0,2047,166
838,838,0,2047,32
839,839,0,2046,573
840,840,0,2047,1609
841,841,0,2046,2789
842,842,0,2046,3716
843,843,0,2046,4078
844,844,0,2046,3753
845,845,0,2047,2849
846,846,0,2046,1674
847,847,0,2047,620
848,848,0,2047,44
849,849,0,2047,141
850,850,0,2046,875
851,851,0,2046,2003
852,852,0,2046,3142
853,853,0,2046,3909
854,854,0,2046,4045
855,855,0,2046,3507
856,856,0,2046,2473
857,857,0,2046,1293
858,858,0,2046,364
859,859,0,2046,0
860,860,0,2046,320
861,861,0,2047,1220
862,862,0,2047,2397
863,863,0,2047,3452
864,864,0,2047,4031
865,865,0,2047,3938
866,866,0,2047,3205
867,867,0,2047,2080
868,868,0,2047,940
869,869,0,2046,171
870,870,0,2046,30
871,871,0,2046,564
872,872,0,2046,1597
873,873,0,2047,2778
874,874,0,2046,3710
875,875,0,2046,4078
876,876,0,2047,3759
877,877,0,2046,2860
878,878,0,2046,1685
879,879,0,2047,629
880,880,0,2047,47
881,881,0,2046,136
882,882,0,2047,866
883,883,0,2047,1990
884,884,0,2046,3131
885,885,0,2047,3903
886,886,0,2047,4048
887,887,0,2047,3514
888,888,0,2047,2484
889,889,0,2046,1305
890,890,0,2047,371
891,891,0,2047,0
892,892,0,2047,314
893,893,0,2047,1210
894,894,0,2046,2385
895,895,0,2046,3443
896,896,0,2046,4028
897,897,0,2046,3943
898,898,0,2046,3215
899,899,0,2046,2092
900,900,0,2047,951
901,901,0,2046,176
902,902,0,2046,28
903,903,0,2046,557
904,904,0,2047,1585
905,905,0,2047,2766
906,906,0,2046,3702
907,907,0,2047,4078
908,908,0,2046,3766
909,909,0,2047,2872
910,910,0,2046,1698
911,911,0,2046,638
912,912,0,2046,50
913,913,0,2047,131
914,914,0,2046,855
915,915,0,2047,1978
916,916,0,2047,3121
917,917,0,2046,3900
918,918,0,2046,4050
919,919,0,2046,3524
920,920,0,2047,2497
921,921,0,2046,1316
922,922,0,2047,377
923,923,0,2046,0
924,924,0,2046,307
925,925,0,2046,1199
926,926,0,2046,2373
927,927,0,2047,3434
928,928,0,2046,4026
929,929,0,2046,3947
930,930,0,2046,3225
931,931,0,2046,2105
932,932,0,2046,961
933,933,0,2046,180
934,934,0,2047,25
935,935,0,2046,549
936,936,0,2046,1573
937,937,0,2046,2754
938,938,0,2047,3695
939,939,0,2046,4077
940,940,0,2047,3772
941,941,0,2046,2883
942,942,0,2046,1710
943,943,0,2046,647
944,944,0,2046,52
945,945,0,2047,127
946,946,0,2047,845
947,947,0,2046,1965
948,948,0,2046,3110
949,949,0,2047,3893
950,950,0,2047,4052
951,951,0,2046,3532
952,952,0,2047,2510
953,953,0,2047,1327
954,954,0,2046,385
955,955,0,2047,0
956,956,0,2046,300
957,957,0,2047,1187
958,958,0,2046,2360
959,959,0,2046,3425
960,960,0,2046,4023
961,961,0,2046,3952
962,962,0,2046,3236
963,963,0,2046,2117
964,964,0,2046,971
965,965,0,2046,185
966,966,0,2046,23
967,967,0,2046,540
968,968,0,2047,1560
969,969,0,2047,2743
970,970,0,2047,3688
971,971,0,2046,4077
972,972,0,2046,3779
973,973,0,2046,2895
974,974,0,2046,1721
975,975,0,2047,656
976,976,0,2046,56
977,977,0,2047,122
978,978,0,2046,835
979,979,0,2046,1952
980,980,0,2046,3100
981,981,0,2047,3888
982,982,0,2046,4054
983,983,0,2047,3540
984,984,0,2046,2521
985,985,0,2046,1339
986,986,0,2047,393
987,987,0,2046,0
988,988,0,2046,294
989,989,0,2047,1175
990,990,0,2046,2348
991,991,0,2047,3416
992,992,0,2047,4020
993,993,0,2046,3957
994,994,0,2047,3246
995,995,0,2046,2130
996,996,0,2046,982
997,997,0,2047,191
998,998,0,2046,21
999,999,0,2046,531
1000,1000,0,2046,1549
1001,1001,0,2046,2731
1002,1002,0,2047,3681
1003,1003,0,2046,4076
1004,1004,0,2047,3785
1005,1005,0,2046,2906
1006,1006,0,2046,1735
1007,1007,0,2047,665
1008,1008,0,2047,59
1009,1009,0,2047,118
1010,1010,0,2046,826
1011,1011,0,2047,1940
1012,1012,0,2047,3089
1013,1013,0,2046,3883
1014,1014,0,2046,4056
1015,1015,0,2046,3549
1016,1016,0,2046,2533
1017,1017,0,2046,1351
1018,1018,0,2046,399
1019,1019,0,2046,1
1020,1020,0,2047,288
1021,1021,0,2046,1165
1022,1022,0,2046,2336
1023,1023,0,2046,3407
1024,1024,0,2047,4017
1025,1025,0,2047,3960
1026,1026,0,2046,3255
